# Hz S RI R 50
! CMT, CMT808U, 21440046, 21.4.3/4
! Date: 4/9/2026 1:49:10 AM
! Data: Format (Calibration Info)
! Freq	S11:Re/Im(F2)	S41:Re/Im(F2)	S14:Re/Im(F2)	S44:Re/Im(F2)
1.70000000000E+09	-1.17220462747E-01	9.73789363053E-02	-6.68852018211E-02	2.22234490370E-02	-6.68705729067E-02	2.13472826626E-02	-6.22947797893E-02	1.29149018914E-01
1.70050000000E+09	-1.14498516785E-01	9.71719953222E-02	-6.63757130808E-02	2.36144274595E-02	-6.63710157635E-02	2.27185571688E-02	-5.93355228265E-02	1.33066027684E-01
1.70100000000E+09	-1.11800888788E-01	9.68366654891E-02	-6.58727165539E-02	2.49713631662E-02	-6.58811663069E-02	2.41035440138E-02	-5.63346951195E-02	1.36889395856E-01
1.70150000000E+09	-1.09088522549E-01	9.63728696400E-02	-6.53121507341E-02	2.63552422268E-02	-6.53514421807E-02	2.54734636690E-02	-5.31195526700E-02	1.40620614088E-01
1.70200000000E+09	-1.06444583850E-01	9.57653188077E-02	-6.47299918926E-02	2.77036693165E-02	-6.47802021408E-02	2.68408397675E-02	-4.98454013716E-02	1.44264507729E-01
1.70250000000E+09	-1.03847661045E-01	9.50188241232E-02	-6.41504027693E-02	2.90376882374E-02	-6.42132400854E-02	2.81652621854E-02	-4.64137883672E-02	1.47806318970E-01
1.70300000000E+09	-1.01303454153E-01	9.41466433297E-02	-6.34997112040E-02	3.03655364535E-02	-6.36274719914E-02	2.95104689496E-02	-4.28901108230E-02	1.51256877111E-01
1.70350000000E+09	-9.88210699846E-02	9.31051404822E-02	-6.28637978649E-02	3.16845392878E-02	-6.29681336566E-02	3.08075969036E-02	-3.92673703462E-02	1.54570505684E-01
1.70400000000E+09	-9.64102733249E-02	9.20001227537E-02	-6.21759929791E-02	3.29926047465E-02	-6.23167459923E-02	3.21334558952E-02	-3.55307815750E-02	1.57776429626E-01
1.70450000000E+09	-9.40688198723E-02	9.07320106981E-02	-6.14789476558E-02	3.43022438570E-02	-6.16144472914E-02	3.34052624591E-02	-3.17128613752E-02	1.60841509768E-01
1.70500000000E+09	-9.18106778176E-02	8.93634266951E-02	-6.07187735392E-02	3.55551441539E-02	-6.08993902851E-02	3.46960859057E-02	-2.77597194496E-02	1.63810790347E-01
1.70550000000E+09	-8.96104742302E-02	8.78762570477E-02	-5.99703087778E-02	3.68095293614E-02	-6.01468628295E-02	3.59748999322E-02	-2.37476310367E-02	1.66662624036E-01
1.70600000000E+09	-8.75324478629E-02	8.63207432427E-02	-5.91740385569E-02	3.80724626914E-02	-5.93833603358E-02	3.72085991625E-02	-1.96327800699E-02	1.69385980538E-01
1.70650000000E+09	-8.55058286091E-02	8.46004903360E-02	-5.83817288368E-02	3.93215593533E-02	-5.85929760906E-02	3.84509705013E-02	-1.54387512623E-02	1.71949965661E-01
1.70700000000E+09	-8.35811450726E-02	8.28485508189E-02	-5.75289695278E-02	4.05280811526E-02	-5.77714564431E-02	3.96866344465E-02	-1.11496718764E-02	1.74439419454E-01
1.70750000000E+09	-8.17522524956E-02	8.09955300294E-02	-5.66823782553E-02	4.17251819718E-02	-5.69382922659E-02	4.08702863546E-02	-6.78592545936E-03	1.76762437903E-01
1.70800000000E+09	-8.00004914528E-02	7.90543215219E-02	-5.57837125793E-02	4.29174962592E-02	-5.60716747112E-02	4.20513420121E-02	-2.34067462501E-03	1.78950589157E-01
1.70850000000E+09	-7.84156988817E-02	7.70498620740E-02	-5.48754542839E-02	4.40811165785E-02	-5.51321390558E-02	4.32412400657E-02	2.20257960272E-03	1.80997671227E-01
1.70900000000E+09	-7.68991385433E-02	7.49689157338E-02	-5.39397315825E-02	4.52319603847E-02	-5.42583093992E-02	4.43883388885E-02	6.75284844543E-03	1.82914436257E-01
1.70950000000E+09	-7.54648375159E-02	7.28428666967E-02	-5.29589685464E-02	4.63353265312E-02	-5.33227627823E-02	4.55266150576E-02	1.13645197515E-02	1.84692373677E-01
1.71000000000E+09	-7.41803997166E-02	7.06184700551E-02	-5.19938353436E-02	4.74526275140E-02	-5.23334039240E-02	4.66422001170E-02	1.60386580145E-02	1.86319435727E-01
1.71050000000E+09	-7.29655303303E-02	6.83726252513E-02	-5.09851910141E-02	4.85493653459E-02	-5.13516146353E-02	4.77390768919E-02	2.07885346857E-02	1.87823263049E-01
1.71100000000E+09	-7.18752502863E-02	6.60550516210E-02	-4.99581278253E-02	4.96263934258E-02	-5.03275108819E-02	4.88017568502E-02	2.55570308850E-02	1.89094659531E-01
1.71150000000E+09	-7.08962386726E-02	6.37107933021E-02	-4.89021400493E-02	5.06618578515E-02	-4.92939595745E-02	4.98544400240E-02	3.03916190480E-02	1.90302067086E-01
1.71200000000E+09	-7.00308461477E-02	6.13380125323E-02	-4.78415726778E-02	5.16887533639E-02	-4.82565747212E-02	5.09072972453E-02	3.52674034847E-02	1.91339501125E-01
1.71250000000E+09	-6.92875334959E-02	5.89723908584E-02	-4.67134960514E-02	5.26970784832E-02	-4.71583493424E-02	5.19071479033E-02	4.01461103025E-02	1.92277447987E-01
1.71300000000E+09	-6.85917186964E-02	5.65063203195E-02	-4.56059993699E-02	5.36646822439E-02	-4.60618715953E-02	5.29146701429E-02	4.50233495787E-02	1.93000476819E-01
1.71350000000E+09	-6.81084275249E-02	5.40760372715E-02	-4.44697700578E-02	5.46306521086E-02	-4.49509170485E-02	5.38792175201E-02	5.00247378946E-02	1.93610870205E-01
1.71400000000E+09	-6.76312770270E-02	5.15759457677E-02	-4.33048941322E-02	5.55708279202E-02	-4.38179165454E-02	5.48169069060E-02	5.49652743322E-02	1.94078635640E-01
1.71450000000E+09	-6.73196586852E-02	4.90927977164E-02	-4.21393453438E-02	5.64895465950E-02	-4.26252625384E-02	5.57245519972E-02	5.99506017435E-02	1.94281395178E-01
1.71500000000E+09	-6.71121705634E-02	4.66029870309E-02	-4.09473367203E-02	5.73740419334E-02	-4.14420309784E-02	5.66442683325E-02	6.49767011119E-02	1.94454496399E-01
1.71550000000E+09	-6.70391858909E-02	4.41282856307E-02	-3.97292210680E-02	5.82249641983E-02	-4.02891948257E-02	5.75110289726E-02	6.99249026784E-02	1.94451406134E-01
1.71600000000E+09	-6.70242499045E-02	4.16378000591E-02	-3.84827186927E-02	5.90562833895E-02	-3.90344547525E-02	5.83664760811E-02	7.49788694036E-02	1.94266417814E-01
1.71650000000E+09	-6.71117179811E-02	3.91460115772E-02	-3.72363318083E-02	5.98967998013E-02	-3.77880884726E-02	5.91947994583E-02	7.99261424658E-02	1.93905515393E-01
1.71700000000E+09	-6.73209189019E-02	3.66993123335E-02	-3.59490115322E-02	6.06641389479E-02	-3.65434238167E-02	6.00083303294E-02	8.49199357963E-02	1.93445226257E-01
1.71750000000E+09	-6.76129119156E-02	3.42221831161E-02	-3.46758756962E-02	6.14569022109E-02	-3.52907678397E-02	6.07594680382E-02	8.99258522348E-02	1.92801497983E-01
1.71800000000E+09	-6.80345417052E-02	3.17862845263E-02	-3.33537201669E-02	6.21565062090E-02	-3.39612692419E-02	6.15144005866E-02	9.48381047259E-02	1.92042595982E-01
1.71850000000E+09	-6.85198451953E-02	2.93563049631E-02	-3.20429665766E-02	6.28703078964E-02	-3.26678798102E-02	6.22394794386E-02	9.97532262607E-02	1.91072950033E-01
1.71900000000E+09	-6.91257632157E-02	2.69659385713E-02	-3.06872958106E-02	6.35601181783E-02	-3.13258709941E-02	6.29311122118E-02	1.04673053795E-01	1.90020587744E-01
1.71950000000E+09	-6.98206976433E-02	2.45822531117E-02	-2.93487118043E-02	6.42157472428E-02	-2.99933037052E-02	6.35828496443E-02	1.09519497007E-01	1.88754771838E-01
1.72000000000E+09	-7.05863987328E-02	2.22510920351E-02	-2.79921424581E-02	6.48427059237E-02	-2.86459886867E-02	6.42366207199E-02	1.14344668719E-01	1.87402230324E-01
1.72050000000E+09	-7.15012867310E-02	1.99097026631E-02	-2.65785080032E-02	6.54352641582E-02	-2.72530697070E-02	6.48373343909E-02	1.19129523792E-01	1.85862239859E-01
1.72100000000E+09	-7.24179941464E-02	1.76152421360E-02	-2.51931346811E-02	6.60015083458E-02	-2.58789243339E-02	6.54348074691E-02	1.23887971504E-01	1.84173745051E-01
1.72150000000E+09	-7.34901963651E-02	1.53700987313E-02	-2.37771611106E-02	6.65526902937E-02	-2.44938439788E-02	6.59911444298E-02	1.28598657728E-01	1.82359472058E-01
1.72200000000E+09	-7.46429058157E-02	1.31645154788E-02	-2.23581074826E-02	6.70474808164E-02	-2.30738298084E-02	6.64865019439E-02	1.33231370157E-01	1.80376965160E-01
1.72250000000E+09	-7.58474468867E-02	1.10020859757E-02	-2.09183145538E-02	6.75176246223E-02	-2.16548815800E-02	6.69995702485E-02	1.37865202757E-01	1.78281117023E-01
1.72300000000E+09	-7.71780512951E-02	8.86420569854E-03	-1.94540390083E-02	6.79848292999E-02	-2.02097135546E-02	6.74585880377E-02	1.42363690904E-01	1.76034644081E-01
1.72350000000E+09	-7.85701440031E-02	6.75750846959E-03	-1.80309902569E-02	6.83639257427E-02	-1.87754400755E-02	6.78896409891E-02	1.46790678778E-01	1.73614076236E-01
1.72400000000E+09	-8.00543601720E-02	4.74358224791E-03	-1.65425786636E-02	6.87950537831E-02	-1.73115731840E-02	6.83046606239E-02	1.51182066538E-01	1.71074470781E-01
1.72450000000E+09	-8.16022880513E-02	2.73752306400E-03	-1.50569292581E-02	6.91287230405E-02	-1.58581764148E-02	6.86504304805E-02	1.55488437381E-01	1.68471331929E-01
1.72500000000E+09	-8.32464249836E-02	8.38890604139E-04	-1.35941698092E-02	6.94701410662E-02	-1.43611829035E-02	6.89947391598E-02	1.59717656188E-01	1.65635352959E-01
1.72550000000E+09	-8.49329923375E-02	-1.05378732889E-03	-1.21028455592E-02	6.97354017067E-02	-1.28910989419E-02	6.93263502513E-02	1.63855632689E-01	1.62704298823E-01
1.72600000000E+09	-8.67148080902E-02	-2.87698201979E-03	-1.05733415575E-02	6.99944653263E-02	-1.13851758198E-02	6.95740020976E-02	1.67939902851E-01	1.59663143436E-01
1.72650000000E+09	-8.85783149487E-02	-4.63971418810E-03	-9.06150590311E-03	7.02123306821E-02	-9.90437366704E-03	6.98298339124E-02	1.71884791849E-01	1.56475762056E-01
1.72700000000E+09	-9.05003054934E-02	-6.35669722808E-03	-7.56853986658E-03	7.04110380882E-02	-8.37475876428E-03	7.00454109875E-02	1.75785269134E-01	1.53194555841E-01
1.72750000000E+09	-9.24955567152E-02	-7.98743098049E-03	-6.04613230619E-03	7.05713320596E-02	-6.84763715449E-03	7.02164713981E-02	1.79549732238E-01	1.49810840152E-01
1.72800000000E+09	-9.45781604123E-02	-9.56783325794E-03	-4.50143131842E-03	7.06907164380E-02	-5.34498436277E-03	7.03358486545E-02	1.83189638765E-01	1.46217766844E-01
1.72850000000E+09	-9.67054239441E-02	-1.10732695803E-02	-2.95860684665E-03	7.07891771018E-02	-3.81379907747E-03	7.04722939851E-02	1.86803503295E-01	1.42605819132E-01
1.72900000000E+09	-9.89475173836E-02	-1.24970281815E-02	-1.44920951772E-03	7.08433824868E-02	-2.30032007493E-03	7.05385347634E-02	1.90247328871E-01	1.38801149893E-01
1.72950000000E+09	-1.01205815125E-01	-1.38397489837E-02	7.68736679085E-05	7.08530832494E-02	-7.89670228844E-04	7.05791550861E-02	1.93570493049E-01	1.34947349579E-01
1.73000000000E+09	-1.03550394650E-01	-1.51502710934E-02	1.63137282795E-03	7.08369143769E-02	7.58484281583E-04	7.05703111090E-02	1.96815503834E-01	1.30982867567E-01
1.73050000000E+09	-1.05940669661E-01	-1.63529535760E-02	3.16473901403E-03	7.08143118186E-02	2.28232297918E-03	7.05293593028E-02	1.99922968259E-01	1.26900637900E-01
1.73100000000E+09	-1.08362028293E-01	-1.74548854489E-02	4.69248297438E-03	7.07186655670E-02	3.81753649517E-03	7.04840547601E-02	2.02918548234E-01	1.22708000335E-01
1.73150000000E+09	-1.10898127792E-01	-1.84924100569E-02	6.23410775480E-03	7.06162787982E-02	5.35694141431E-03	7.03956818235E-02	2.05748369485E-01	1.18478196416E-01
1.73200000000E+09	-1.13453281782E-01	-1.94484984985E-02	7.76818790948E-03	7.04483647267E-02	6.89353273805E-03	7.02487882961E-02	2.08477913060E-01	1.14124076398E-01
1.73250000000E+09	-1.16080602414E-01	-2.03145611546E-02	9.28419768958E-03	7.02658073852E-02	8.42273651734E-03	7.00822760344E-02	2.11130078863E-01	1.09655639598E-01
1.73300000000E+09	-1.18749691427E-01	-2.10725501110E-02	1.08090172171E-02	7.00278285487E-02	9.92392545492E-03	6.98930845811E-02	2.13592670605E-01	1.05146806732E-01
1.73350000000E+09	-1.21463544143E-01	-2.17580770076E-02	1.23379157343E-02	6.97706789826E-02	1.14513659170E-02	6.96484936474E-02	2.15931814109E-01	1.00514364754E-01
1.73400000000E+09	-1.24204366175E-01	-2.23077463811E-02	1.38639248651E-02	6.94623050411E-02	1.29688111809E-02	6.93656859761E-02	2.18097211547E-01	9.58306791879E-02
1.73450000000E+09	-1.27020394274E-01	-2.28054050692E-02	1.53619826261E-02	6.91633995311E-02	1.44579466584E-02	6.90570100826E-02	2.20118975986E-01	9.10604881609E-02
1.73500000000E+09	-1.29870713971E-01	-2.32020971281E-02	1.68614769185E-02	6.87975345270E-02	1.59751883395E-02	6.87136797895E-02	2.22047361306E-01	8.62081510273E-02
1.73550000000E+09	-1.32723008541E-01	-2.34507862878E-02	1.83655698885E-02	6.83980638630E-02	1.74337612921E-02	6.83368792951E-02	2.23809909182E-01	8.13624748256E-02
1.73600000000E+09	-1.35627558083E-01	-2.36142331550E-02	1.98329135442E-02	6.79712050141E-02	1.89200820520E-02	6.79286084108E-02	2.25428782716E-01	7.64459987499E-02
1.73650000000E+09	-1.38516602400E-01	-2.36836462716E-02	2.12960756914E-02	6.74883994748E-02	2.04045756095E-02	6.74865117165E-02	2.26888133559E-01	7.14390352642E-02
1.73700000000E+09	-1.41468951955E-01	-2.36195490124E-02	2.27540722427E-02	6.69965589737E-02	2.18530835013E-02	6.69945390111E-02	2.28204036057E-01	6.63632221524E-02
1.73750000000E+09	-1.44430426577E-01	-2.34261057995E-02	2.42157750747E-02	6.64685634417E-02	2.33057194820E-02	6.64951424594E-02	2.29333405153E-01	6.12955924203E-02
1.73800000000E+09	-1.47436321446E-01	-2.31597104316E-02	2.56335040139E-02	6.59265264802E-02	2.47203629458E-02	6.59566981267E-02	2.30336849936E-01	5.61536307171E-02
1.73850000000E+09	-1.50404889727E-01	-2.27698015391E-02	2.70366960909E-02	6.53228491558E-02	2.61477921515E-02	6.53752602579E-02	2.31175449229E-01	5.09843377452E-02
1.73900000000E+09	-1.53423653522E-01	-2.22585717940E-02	2.84595117881E-02	6.47002635546E-02	2.75614638853E-02	6.47602259995E-02	2.31870073554E-01	4.57775205635E-02
1.73950000000E+09	-1.56407138685E-01	-2.16267486844E-02	2.98213323712E-02	6.40641008552E-02	2.89460701894E-02	6.41294432696E-02	2.32378793678E-01	4.05738548174E-02
1.74000000000E+09	-1.59408900853E-01	-2.08617702913E-02	3.12258455501E-02	6.33432160576E-02	3.03240523300E-02	6.34745038642E-02	2.32735184355E-01	3.53212502517E-02
1.74050000000E+09	-1.62408819835E-01	-2.00008980273E-02	3.25621339768E-02	6.26373225113E-02	3.16650073605E-02	6.27552591092E-02	2.32918691148E-01	3.00902373605E-02
1.74100000000E+09	-1.65390075475E-01	-1.90135645374E-02	3.39296800315E-02	6.18950485206E-02	3.30236280739E-02	6.20369183431E-02	2.32991356696E-01	2.47653686126E-02
1.74150000000E+09	-1.68324049703E-01	-1.79195284697E-02	3.52289636454E-02	6.11136829658E-02	3.43311557824E-02	6.12730994178E-02	2.32830397584E-01	1.95198490263E-02
1.74200000000E+09	-1.71296922231E-01	-1.66869572837E-02	3.65357325957E-02	6.03014956062E-02	3.56393411824E-02	6.04896349600E-02	2.32546399304E-01	1.41907105334E-02
1.74250000000E+09	-1.74207685024E-01	-1.52839701131E-02	3.78079352691E-02	5.94783853818E-02	3.69186204863E-02	5.96902502807E-02	2.32077204679E-01	8.94282979137E-03
1.74300000000E+09	-1.77087828919E-01	-1.38037970354E-02	3.90720890003E-02	5.86201772844E-02	3.81783630421E-02	5.88365339067E-02	2.31477915435E-01	3.66380750646E-03
1.74350000000E+09	-1.79943510491E-01	-1.22110720169E-02	4.03146445886E-02	5.77185293371E-02	3.94182525045E-02	5.79844572007E-02	2.30673508199E-01	-1.63476311098E-03
1.74400000000E+09	-1.82738941726E-01	-1.04673981708E-02	4.15300553083E-02	5.68227209959E-02	4.06633516873E-02	5.70805019544E-02	2.29723288805E-01	-6.83384332872E-03
1.74450000000E+09	-1.85501099357E-01	-8.60400355997E-03	4.27087403307E-02	5.58588583047E-02	4.18325848932E-02	5.61264969066E-02	2.28615756764E-01	-1.20473915968E-02
1.74500000000E+09	-1.88200431955E-01	-6.60179888953E-03	4.38900641725E-02	5.49118165818E-02	4.30293090231E-02	5.51995821737E-02	2.27340353012E-01	-1.72311026015E-02
1.74550000000E+09	-1.90829705500E-01	-4.50287505073E-03	4.50414985468E-02	5.39259243646E-02	4.41710459685E-02	5.42087883353E-02	2.25890116894E-01	-2.23744091614E-02
1.74600000000E+09	-1.93394777845E-01	-2.23900542251E-03	4.61683804016E-02	5.29021348205E-02	4.52853839380E-02	5.32054285502E-02	2.24273446547E-01	-2.75148380145E-02
1.74650000000E+09	-1.95854901116E-01	8.41227125510E-05	4.72540633153E-02	5.18612885477E-02	4.63957705812E-02	5.22181139576E-02	2.22515600298E-01	-3.25838661978E-02
1.74700000000E+09	-1.98285341271E-01	2.55979302726E-03	4.83125729534E-02	5.08248068047E-02	4.74834012023E-02	5.11602435398E-02	2.20562416662E-01	-3.76337477056E-02
1.74750000000E+09	-2.00628455819E-01	5.14797153619E-03	4.93568531943E-02	4.97252514054E-02	4.85335464033E-02	5.01220212101E-02	2.18505804081E-01	-4.25881092734E-02
1.74800000000E+09	-2.02871541922E-01	7.84427979826E-03	5.03968917321E-02	4.86258914605E-02	4.95602307837E-02	4.90152981496E-02	2.16267550495E-01	-4.75188011282E-02
1.74850000000E+09	-2.05057038667E-01	1.06550803486E-02	5.14122071947E-02	4.75036339583E-02	5.05861137086E-02	4.79162986002E-02	2.13844088563E-01	-5.23360803443E-02
1.74900000000E+09	-2.07054080141E-01	1.35412268212E-02	5.23601971800E-02	4.63651642570E-02	5.15526928169E-02	4.67963019842E-02	2.11321865282E-01	-5.71103908784E-02
1.74950000000E+09	-2.09004826721E-01	1.65773249053E-02	5.33296323008E-02	4.52072521394E-02	5.25100677434E-02	4.56544896639E-02	2.08615536750E-01	-6.18628931976E-02
1.75000000000E+09	-2.10826111233E-01	1.96715679456E-02	5.42335482079E-02	4.40344742923E-02	5.34570706876E-02	4.45052310546E-02	2.05709529372E-01	-6.64092463590E-02
1.75050000000E+09	-2.12480627605E-01	2.28892470451E-02	5.51212003099E-02	4.28130759193E-02	5.43491321578E-02	4.33217416507E-02	2.02719888944E-01	-7.10321443554E-02
1.75100000000E+09	-2.14058968680E-01	2.61835129331E-02	5.59671931182E-02	4.16168321994E-02	5.52093747839E-02	4.21257414166E-02	1.99562428678E-01	-7.54357540662E-02
1.75150000000E+09	-2.15481337665E-01	2.96188003482E-02	5.67999099287E-02	4.03796443225E-02	5.60433528315E-02	4.09305672010E-02	1.96241747822E-01	-7.98104626804E-02
1.75200000000E+09	-2.16767941710E-01	3.30759745339E-02	5.76076528061E-02	3.91458702190E-02	5.68642796938E-02	3.96788194239E-02	1.92798743145E-01	-8.40517122963E-02
1.75250000000E+09	-2.17882071911E-01	3.65963760089E-02	5.83899107814E-02	3.78882781745E-02	5.76370077444E-02	3.84517013667E-02	1.89201444749E-01	-8.81870226585E-02
1.75300000000E+09	-2.18866523518E-01	4.01976341883E-02	5.91471283127E-02	3.66216192146E-02	5.84025082290E-02	3.72004633160E-02	1.85526095766E-01	-9.22178709993E-02
1.75350000000E+09	-2.19682392197E-01	4.38982886958E-02	5.98785597307E-02	3.53340068198E-02	5.91242100265E-02	3.58949929438E-02	1.81643430202E-01	-9.61541604036E-02
1.75400000000E+09	-2.20366717253E-01	4.75638295657E-02	6.05665947615E-02	3.40339092940E-02	5.98376412789E-02	3.46548129114E-02	1.77677425122E-01	-1.00017014742E-01
1.75450000000E+09	-2.20869519639E-01	5.13013719679E-02	6.12147715013E-02	3.27159522750E-02	6.05260234084E-02	3.33543958869E-02	1.73571454584E-01	-1.03705855667E-01
1.75500000000E+09	-2.21107076486E-01	5.51075065856E-02	6.18357837639E-02	3.14008447057E-02	6.11688625993E-02	3.20707197378E-02	1.69344630432E-01	-1.07292008696E-01
1.75550000000E+09	-2.21284745790E-01	5.89258364915E-02	6.24646190624E-02	3.00712304439E-02	6.17802973246E-02	3.07381476985E-02	1.64974725817E-01	-1.10718083065E-01
1.75600000000E+09	-2.21262325669E-01	6.27483072198E-02	6.30361616427E-02	2.87620913232E-02	6.23753639409E-02	2.94296455777E-02	1.60475819632E-01	-1.14071367130E-01
1.75650000000E+09	-2.20998529664E-01	6.65835967277E-02	6.35785185495E-02	2.73845829870E-02	6.29508640006E-02	2.80769443255E-02	1.55919290618E-01	-1.17198943197E-01
1.75700000000E+09	-2.20664376209E-01	7.04011165631E-02	6.41271605537E-02	2.60482144182E-02	6.34871383122E-02	2.67351011027E-02	1.51271557689E-01	-1.20238408042E-01
1.75750000000E+09	-2.20104320022E-01	7.41815486218E-02	6.45957138165E-02	2.46848986518E-02	6.39916005414E-02	2.53861821160E-02	1.46468868547E-01	-1.23115273054E-01
1.75800000000E+09	-2.19334918693E-01	7.79578959544E-02	6.50817684024E-02	2.33133295561E-02	6.44601173458E-02	2.40359093380E-02	1.41586592554E-01	-1.25879913149E-01
1.75850000000E+09	-2.18414720980E-01	8.16768415123E-02	6.54797025113E-02	2.19342441052E-02	6.49214957692E-02	2.26630679960E-02	1.36652301419E-01	-1.28476201341E-01
1.75900000000E+09	-2.17275148378E-01	8.53944839465E-02	6.59050724389E-02	2.05376392488E-02	6.53351936625E-02	2.12906772144E-02	1.31582547986E-01	-1.30902658397E-01
