# Hz S RI R 50
! CMT, CMT808U, 21440046, 21.4.3/4
! Date: 4/9/2026 1:48:18 AM
! Data: Format (Calibration Info)
! Freq	S11:Re/Im(F2)	S41:Re/Im(F2)	S14:Re/Im(F2)	S44:Re/Im(F2)
1.70000000000E+09	-1.17853963450E-01	9.73152327339E-02	-6.83834360123E-02	2.29027222727E-02	-6.83667296710E-02	2.20150167011E-02	-3.78465160809E-02	1.61521764689E-01
1.70050000000E+09	-1.15105168588E-01	9.71431811206E-02	-6.78695128271E-02	2.43469970742E-02	-6.78740450924E-02	2.34479574212E-02	-3.43136871774E-02	1.65043463946E-01
1.70100000000E+09	-1.12412968402E-01	9.68765480689E-02	-6.73364602071E-02	2.57752704688E-02	-6.73594283882E-02	2.48872588816E-02	-3.06487504431E-02	1.68421824893E-01
1.70150000000E+09	-1.09686190629E-01	9.64100746238E-02	-6.67642916802E-02	2.71950221437E-02	-6.67817218555E-02	2.62938517818E-02	-2.69043511377E-02	1.71760311752E-01
1.70200000000E+09	-1.07026354350E-01	9.58428433400E-02	-6.61409067007E-02	2.85999496394E-02	-6.62305911217E-02	2.77077011418E-02	-2.30265295396E-02	1.74954766602E-01
1.70250000000E+09	-1.04440467414E-01	9.51162408054E-02	-6.55482608776E-02	2.99925754513E-02	-6.56066629945E-02	2.90943875883E-02	-1.90099589908E-02	1.78013850436E-01
1.70300000000E+09	-1.01865123976E-01	9.42617497782E-02	-6.48592216055E-02	3.13826460585E-02	-6.49623821668E-02	3.04894355799E-02	-1.49272610637E-02	1.80972670464E-01
1.70350000000E+09	-9.93927480984E-02	9.32704998911E-02	-6.41879665526E-02	3.27511242684E-02	-6.43002965731E-02	3.18367715689E-02	-1.07631357031E-02	1.83835105722E-01
1.70400000000E+09	-9.69547982246E-02	9.21696340931E-02	-6.34423803257E-02	3.40740409832E-02	-6.36033678096E-02	3.31928227734E-02	-6.50857926661E-03	1.86513676275E-01
1.70450000000E+09	-9.45939735797E-02	9.09564887958E-02	-6.26999371118E-02	3.54258688163E-02	-6.28813746416E-02	3.45349848500E-02	-2.14926284414E-03	1.89047519483E-01
1.70500000000E+09	-9.23326552791E-02	8.95749011004E-02	-6.19261036950E-02	3.67155329552E-02	-6.21123466651E-02	3.58403631922E-02	2.24714699339E-03	1.91435893632E-01
1.70550000000E+09	-9.01061472615E-02	8.81138114193E-02	-6.11311688515E-02	3.80224369200E-02	-6.13362114517E-02	3.71703473963E-02	6.74138904058E-03	1.93744054087E-01
1.70600000000E+09	-8.80146400595E-02	8.65898540303E-02	-6.02973385889E-02	3.93197374430E-02	-6.05258076281E-02	3.84420661976E-02	1.12829671642E-02	1.95856299134E-01
1.70650000000E+09	-8.59576527650E-02	8.48889820078E-02	-5.94388329835E-02	4.05889521710E-02	-5.96897215847E-02	3.97182481991E-02	1.59046984145E-02	1.97869293532E-01
1.70700000000E+09	-8.40472632838E-02	8.31562742231E-02	-5.85642580293E-02	4.18477908881E-02	-5.87963347191E-02	4.09586174489E-02	2.06341635256E-02	1.99738006529E-01
1.70750000000E+09	-8.21767475777E-02	8.13212478581E-02	-5.76523280198E-02	4.30501250557E-02	-5.79338446201E-02	4.22103165042E-02	2.54064045255E-02	2.01447599636E-01
1.70800000000E+09	-8.04207192559E-02	7.94130095086E-02	-5.67178229815E-02	4.42478150979E-02	-5.70077594041E-02	4.34127783898E-02	3.01999749270E-02	2.03010044607E-01
1.70850000000E+09	-7.87899898832E-02	7.73865754499E-02	-5.57378026241E-02	4.54715935252E-02	-5.60544216328E-02	4.46228487933E-02	3.50756022391E-02	2.04402565693E-01
1.70900000000E+09	-7.72682256246E-02	7.53540336762E-02	-5.47662121328E-02	4.66272265576E-02	-5.50827796735E-02	4.57701024149E-02	3.99639602519E-02	2.05656612659E-01
1.70950000000E+09	-7.58067353245E-02	7.32139968763E-02	-5.37614765279E-02	4.77770477624E-02	-5.41001303306E-02	4.69201981914E-02	4.48860006684E-02	2.06822741246E-01
1.71000000000E+09	-7.45179837498E-02	7.10188061652E-02	-5.27433298662E-02	4.88850023234E-02	-5.30898355788E-02	4.80738260827E-02	4.98386403929E-02	2.07787817351E-01
1.71050000000E+09	-7.32657185161E-02	6.87720641796E-02	-5.16495676872E-02	5.00070889163E-02	-5.20449309543E-02	4.91934695131E-02	5.48542113341E-02	2.08589406231E-01
1.71100000000E+09	-7.21731982987E-02	6.64572727119E-02	-5.05843679697E-02	5.10731055641E-02	-5.09844541002E-02	5.02571971840E-02	5.98242601428E-02	2.09219481463E-01
1.71150000000E+09	-7.11604673002E-02	6.41338722344E-02	-4.94648873509E-02	5.21346834726E-02	-4.98751386610E-02	5.13116187012E-02	6.48940630198E-02	2.09748418756E-01
1.71200000000E+09	-7.02814524084E-02	6.17721098683E-02	-4.83402737313E-02	5.31692154207E-02	-4.87770484139E-02	5.23612095692E-02	7.00132485996E-02	2.10070950120E-01
1.71250000000E+09	-6.95128877166E-02	5.93885604284E-02	-4.72065756083E-02	5.41900526470E-02	-4.76488238137E-02	5.33826708319E-02	7.50256945421E-02	2.10284564112E-01
1.71300000000E+09	-6.88307368028E-02	5.69615155586E-02	-4.60515244966E-02	5.51532187760E-02	-4.64992130907E-02	5.43973573451E-02	8.01176291468E-02	2.10342471899E-01
1.71350000000E+09	-6.82864502424E-02	5.45077443247E-02	-4.48605056237E-02	5.61150424598E-02	-4.53291247803E-02	5.53580567144E-02	8.51767354808E-02	2.10221025960E-01
1.71400000000E+09	-6.78218475397E-02	5.20265723891E-02	-4.36297824084E-02	5.70319790681E-02	-4.41462112804E-02	5.62854818955E-02	9.02913569050E-02	2.09964336398E-01
1.71450000000E+09	-6.74628977576E-02	4.95478325440E-02	-4.24043477242E-02	5.79525943298E-02	-4.29138530111E-02	5.71973988949E-02	9.53238181730E-02	2.09515962883E-01
1.71500000000E+09	-6.72414247846E-02	4.70986228759E-02	-4.11456325553E-02	5.88171920813E-02	-4.17041717831E-02	5.81004480153E-02	1.00409855849E-01	2.08971531016E-01
1.71550000000E+09	-6.71474151148E-02	4.46046055323E-02	-3.99011381584E-02	5.96870422220E-02	-4.04484182840E-02	5.89658815069E-02	1.05430796126E-01	2.08201059120E-01
1.71600000000E+09	-6.70891644668E-02	4.20986513857E-02	-3.86319419195E-02	6.05345925929E-02	-3.91743816469E-02	5.98194682222E-02	1.10437565659E-01	2.07337250405E-01
1.71650000000E+09	-6.71762513117E-02	3.96079374094E-02	-3.73277125436E-02	6.13106872134E-02	-3.79022777947E-02	6.06009327610E-02	1.15412573093E-01	2.06282238669E-01
1.71700000000E+09	-6.73658603945E-02	3.71634617312E-02	-3.60256348188E-02	6.20820803672E-02	-3.66088308242E-02	6.14155299797E-02	1.20386180300E-01	2.05113085111E-01
1.71750000000E+09	-6.76307247455E-02	3.46829009264E-02	-3.46890823184E-02	6.28355446534E-02	-3.52869907103E-02	6.21631840932E-02	1.25349919262E-01	2.03758321012E-01
1.71800000000E+09	-6.80499556155E-02	3.22658406451E-02	-3.33478461910E-02	6.35524566710E-02	-3.39584191600E-02	6.29033558318E-02	1.30188356669E-01	2.02297934910E-01
1.71850000000E+09	-6.85198187707E-02	2.98054292223E-02	-3.19767262086E-02	6.42300860691E-02	-3.26213021344E-02	6.35957306969E-02	1.35026591989E-01	2.00599956154E-01
1.71900000000E+09	-6.90932218001E-02	2.74237155444E-02	-3.06105576739E-02	6.48994821698E-02	-3.12536681318E-02	6.42761080446E-02	1.39819888536E-01	1.98842582282E-01
1.71950000000E+09	-6.97726813475E-02	2.50289569859E-02	-2.91952735183E-02	6.55146454496E-02	-2.98753128997E-02	6.49114211730E-02	1.44554545828E-01	1.96884692217E-01
1.72000000000E+09	-7.05271348932E-02	2.26705831103E-02	-2.78203916290E-02	6.61296825175E-02	-2.85043436814E-02	6.55401987945E-02	1.49202084495E-01	1.94883207740E-01
1.72050000000E+09	-7.14025759735E-02	2.03702651384E-02	-2.63930512264E-02	6.67303853695E-02	-2.70877433665E-02	6.61394988155E-02	1.53797803113E-01	1.92634528958E-01
1.72100000000E+09	-7.23511566450E-02	1.80605314958E-02	-2.49696475925E-02	6.72499251678E-02	-2.56776455488E-02	6.66772243247E-02	1.58332583818E-01	1.90290336944E-01
1.72150000000E+09	-7.33797278078E-02	1.57992251998E-02	-2.35181415116E-02	6.77814379428E-02	-2.42517752933E-02	6.72026873874E-02	1.62811529330E-01	1.87764789115E-01
1.72200000000E+09	-7.44940815625E-02	1.36141984132E-02	-2.20802691129E-02	6.82624658403E-02	-2.28147992393E-02	6.77054849393E-02	1.67217106125E-01	1.85112537832E-01
1.72250000000E+09	-7.57082296065E-02	1.14339748962E-02	-2.06231326746E-02	6.87244545229E-02	-2.13621995367E-02	6.81748722027E-02	1.71566060306E-01	1.82389691988E-01
1.72300000000E+09	-7.70252646652E-02	9.26704427671E-03	-1.91445891698E-02	6.91223694123E-02	-1.99037807356E-02	6.85871581516E-02	1.75752998630E-01	1.79532446310E-01
1.72350000000E+09	-7.84006817784E-02	7.16967460401E-03	-1.76861981002E-02	6.95236669170E-02	-1.84534749695E-02	6.90014912060E-02	1.79909161004E-01	1.76446580856E-01
1.72400000000E+09	-7.98568990777E-02	5.12511022248E-03	-1.61911444923E-02	6.98692225894E-02	-1.69480151927E-02	6.94039300054E-02	1.83947358329E-01	1.73291719688E-01
1.72450000000E+09	-8.13876412273E-02	3.13714608621E-03	-1.46982393861E-02	7.02085600455E-02	-1.54935214114E-02	6.97340375345E-02	1.87923018055E-01	1.70110239144E-01
1.72500000000E+09	-8.29845068673E-02	1.20408135313E-03	-1.31877347839E-02	7.04974830289E-02	-1.39877611534E-02	7.00450352009E-02	1.91750653318E-01	1.66683252832E-01
1.72550000000E+09	-8.46863767764E-02	-6.87835460366E-04	-1.16912801872E-02	7.07659929141E-02	-1.24942378115E-02	7.03540996241E-02	1.95543417527E-01	1.63162202574E-01
1.72600000000E+09	-8.64674934471E-02	-2.52098082746E-03	-1.01792217743E-02	7.09747682303E-02	-1.09838470798E-02	7.05643154857E-02	1.99186448175E-01	1.59522085597E-01
1.72650000000E+09	-8.83224167800E-02	-4.28231994076E-03	-8.65084712882E-03	7.11958144503E-02	-9.46196508495E-03	7.07922368670E-02	2.02740129330E-01	1.55807057012E-01
1.72700000000E+09	-9.02353884377E-02	-6.01732461947E-03	-7.11506954730E-03	7.13817702212E-02	-7.94841472460E-03	7.09920547848E-02	2.06155780993E-01	1.51974510934E-01
1.72750000000E+09	-9.21811689717E-02	-7.65634984110E-03	-5.58175424738E-03	7.14872091541E-02	-6.43182675645E-03	7.11427671751E-02	2.09470524288E-01	1.48050466094E-01
1.72800000000E+09	-9.42868583803E-02	-9.24030424622E-03	-4.05147788568E-03	7.16023270954E-02	-4.90817382285E-03	7.12460611807E-02	2.12647946258E-01	1.43964835379E-01
1.72850000000E+09	-9.64016584830E-02	-1.07451949969E-02	-2.50660958068E-03	7.16630571773E-02	-3.37366012235E-03	7.13383099343E-02	2.15778752307E-01	1.39829420787E-01
1.72900000000E+09	-9.85975000870E-02	-1.21965947339E-02	-9.80436680771E-04	7.17073589604E-02	-1.82151575976E-03	7.14171064676E-02	2.18714777149E-01	1.35585107668E-01
1.72950000000E+09	-1.00877721253E-01	-1.35489849582E-02	5.34765911038E-04	7.16997086418E-02	-2.95099921320E-04	7.14054757208E-02	2.21517044071E-01	1.31252881302E-01
1.73000000000E+09	-1.03196954742E-01	-1.48646923886E-02	2.09718591554E-03	7.16852866695E-02	1.22860530873E-03	7.14106656749E-02	2.24221776888E-01	1.26864173263E-01
1.73050000000E+09	-1.05612085111E-01	-1.60837678043E-02	3.64374923629E-03	7.16250159666E-02	2.75290540841E-03	7.13569808690E-02	2.26760000345E-01	1.22356801256E-01
1.73100000000E+09	-1.08017994936E-01	-1.72194962339E-02	5.16725418488E-03	7.15133961922E-02	4.28967527170E-03	7.12963737221E-02	2.29197575940E-01	1.17767418054E-01
1.73150000000E+09	-1.10549964006E-01	-1.82659404277E-02	6.70727155742E-03	7.13706401045E-02	5.81845533213E-03	7.11811268234E-02	2.31478475567E-01	1.13155336902E-01
1.73200000000E+09	-1.13080142397E-01	-1.92251365016E-02	8.22734235758E-03	7.12055904258E-02	7.35753836848E-03	7.10082113373E-02	2.33596247400E-01	1.08396754272E-01
1.73250000000E+09	-1.15722800547E-01	-2.01011252699E-02	9.77313246554E-03	7.10238300678E-02	8.88454867754E-03	7.08420755632E-02	2.35669563031E-01	1.03627372830E-01
1.73300000000E+09	-1.18341972922E-01	-2.08926503364E-02	1.13113112124E-02	7.07720480530E-02	1.04050378682E-02	7.06169291845E-02	2.37493110332E-01	9.87788785014E-02
1.73350000000E+09	-1.21055434283E-01	-2.15636034313E-02	1.28197623653E-02	7.05116843717E-02	1.19255654843E-02	7.03780835414E-02	2.39228288284E-01	9.38551210472E-02
1.73400000000E+09	-1.23816221691E-01	-2.21488677129E-02	1.43305215487E-02	7.01911698781E-02	1.34181744734E-02	7.01119329601E-02	2.40745873815E-01	8.89196706025E-02
1.73450000000E+09	-1.26607704036E-01	-2.26632563287E-02	1.58359538646E-02	6.98730303934E-02	1.49245232705E-02	6.97705454318E-02	2.42159689869E-01	8.38869013852E-02
1.73500000000E+09	-1.29437996516E-01	-2.30619725191E-02	1.73213375872E-02	6.94994580934E-02	1.64432111706E-02	6.94039281366E-02	2.43445092690E-01	7.87748768454E-02
1.73550000000E+09	-1.32277832107E-01	-2.33181851129E-02	1.88299794882E-02	6.90936172993E-02	1.79174037102E-02	6.90328738913E-02	2.44557468203E-01	7.36865954680E-02
1.73600000000E+09	-1.35178684798E-01	-2.35024267025E-02	2.02967140145E-02	6.86482387306E-02	1.93904783489E-02	6.86032147132E-02	2.45523506056E-01	6.85320304362E-02
1.73650000000E+09	-1.38099634788E-01	-2.35882814374E-02	2.17555499513E-02	6.81852074252E-02	2.08672148225E-02	6.81539911822E-02	2.46321296637E-01	6.33552330043E-02
1.73700000000E+09	-1.41026035171E-01	-2.35330716163E-02	2.32258524433E-02	6.76896367198E-02	2.23126698814E-02	6.76666739812E-02	2.46934086632E-01	5.81766479183E-02
1.73750000000E+09	-1.44003497309E-01	-2.33681367032E-02	2.46730746602E-02	6.71303621534E-02	2.37808982013E-02	6.71642048795E-02	2.47430275357E-01	5.29361664200E-02
1.73800000000E+09	-1.46977373277E-01	-2.31050102230E-02	2.61003385602E-02	6.65958111796E-02	2.51967345748E-02	6.66163490053E-02	2.47704043913E-01	4.77257225659E-02
1.73850000000E+09	-1.49962132532E-01	-2.27658541715E-02	2.75312917788E-02	6.59929124461E-02	2.66319324324E-02	6.60322249087E-02	2.47928538775E-01	4.24389805252E-02
1.73900000000E+09	-1.52952711646E-01	-2.22482631300E-02	2.89538953222E-02	6.53528266891E-02	2.80301039302E-02	6.54362980847E-02	2.47920883524E-01	3.71492205231E-02
1.73950000000E+09	-1.55953333390E-01	-2.16413745679E-02	3.03126634052E-02	6.47028799793E-02	2.94239072679E-02	6.47820062988E-02	2.47731025264E-01	3.18927173452E-02
1.74000000000E+09	-1.58947444017E-01	-2.09073827976E-02	3.17064269580E-02	6.39903987947E-02	3.07905936496E-02	6.41208819591E-02	2.47384527939E-01	2.66299283681E-02
1.74050000000E+09	-1.61919240491E-01	-2.00304934670E-02	3.30595063526E-02	6.32856387549E-02	3.21394371698E-02	6.34038636499E-02	2.46874054791E-01	2.13692874650E-02
1.74100000000E+09	-1.64938996602E-01	-1.90682743740E-02	3.44144943264E-02	6.25323552292E-02	3.35066607193E-02	6.26756350531E-02	2.46248982332E-01	1.60957240279E-02
1.74150000000E+09	-1.67860421351E-01	-1.79816029796E-02	3.57179789432E-02	6.17456276445E-02	3.48243666630E-02	6.19320081138E-02	2.45455370666E-01	1.09030422565E-02
1.74200000000E+09	-1.70823116044E-01	-1.67699649588E-02	3.70077839670E-02	6.09446429515E-02	3.61153828821E-02	6.11292929034E-02	2.44462822649E-01	5.66432252269E-03
1.74250000000E+09	-1.73711628553E-01	-1.54134969782E-02	3.83037491274E-02	6.00865318986E-02	3.74215468527E-02	6.03263282005E-02	2.43314782567E-01	4.60296883273E-04
1.74300000000E+09	-1.76619419879E-01	-1.39355066370E-02	3.95803706660E-02	5.92459522947E-02	3.86825823339E-02	5.94648950410E-02	2.42052747452E-01	-4.70599416377E-03
1.74350000000E+09	-1.79423581265E-01	-1.23606793698E-02	4.08213888999E-02	5.83599694632E-02	3.99243738783E-02	5.85994958186E-02	2.40599419053E-01	-9.83898585299E-03
1.74400000000E+09	-1.82237824969E-01	-1.06602548834E-02	4.20249645238E-02	5.74266911516E-02	4.11571280167E-02	5.77101034496E-02	2.38932663994E-01	-1.49153909257E-02
1.74450000000E+09	-1.85035770052E-01	-8.77558645964E-03	4.32359038104E-02	5.65065694199E-02	4.23650574621E-02	5.67692860319E-02	2.37168338038E-01	-1.99407330557E-02
1.74500000000E+09	-1.87728887502E-01	-6.83864826185E-03	4.44148453189E-02	5.55592846195E-02	4.35399824005E-02	5.58352970135E-02	2.35250907583E-01	-2.49467619750E-02
1.74550000000E+09	-1.90334859634E-01	-4.74730006363E-03	4.55634801089E-02	5.45627751827E-02	4.46864707398E-02	5.48664607107E-02	2.33127605775E-01	-2.98556158200E-02
1.74600000000E+09	-1.92935001147E-01	-2.51586953100E-03	4.67107794282E-02	5.35087000123E-02	4.58156135299E-02	5.38561536843E-02	2.30915753774E-01	-3.47666110071E-02
1.74650000000E+09	-1.95417106719E-01	-1.87923488945E-04	4.78195997760E-02	5.24937167052E-02	4.69391546062E-02	5.28552464200E-02	2.28485147684E-01	-3.95717469703E-02
1.74700000000E+09	-1.97838933272E-01	2.22996342851E-03	4.89047865689E-02	5.14208547878E-02	4.80341599059E-02	5.18057582917E-02	2.25926541775E-01	-4.42969502154E-02
1.74750000000E+09	-2.00204814418E-01	4.77045397961E-03	4.99468499172E-02	5.03481625704E-02	4.91072381677E-02	5.07452741839E-02	2.23242338355E-01	-4.89902268039E-02
1.74800000000E+09	-2.02431757154E-01	7.46137798617E-03	5.09758540008E-02	4.92411327599E-02	5.01423629253E-02	4.96435957427E-02	2.20365475642E-01	-5.35783878414E-02
1.74850000000E+09	-2.04648196489E-01	1.02222801652E-02	5.19869552765E-02	4.81351488067E-02	5.11437338573E-02	4.85490134078E-02	2.17359206615E-01	-5.80742369250E-02
1.74900000000E+09	-2.06671827718E-01	1.31139185717E-02	5.29636596262E-02	4.69837917438E-02	5.21546361082E-02	4.74317188913E-02	2.14205701270E-01	-6.24711338199E-02
1.74950000000E+09	-2.08617334267E-01	1.61025497452E-02	5.39268489305E-02	4.58349766531E-02	5.31210033392E-02	4.62698618224E-02	2.10947773597E-01	-6.68255686083E-02
1.75000000000E+09	-2.10449475582E-01	1.91931741608E-02	5.48441596484E-02	4.46576414380E-02	5.40557151351E-02	4.51134476003E-02	2.07479030847E-01	-7.10179258561E-02
1.75050000000E+09	-2.12132830296E-01	2.24122104079E-02	5.57735352500E-02	4.34424448682E-02	5.49401151450E-02	4.39520071454E-02	2.03940606359E-01	-7.51753468130E-02
1.75100000000E+09	-2.13767538080E-01	2.56475467071E-02	5.66338040813E-02	4.22451968829E-02	5.58459771735E-02	4.27481699473E-02	2.00258083716E-01	-7.91934979394E-02
1.75150000000E+09	-2.15197123002E-01	2.90293629406E-02	5.74649978604E-02	4.10070201934E-02	5.66986730193E-02	4.15447163249E-02	1.96444246572E-01	-8.30864969483E-02
1.75200000000E+09	-2.16479279217E-01	3.24939480256E-02	5.82849332219E-02	3.97594421926E-02	5.75483172851E-02	4.02888240357E-02	1.92455491442E-01	-8.68506115967E-02
1.75250000000E+09	-2.17648845152E-01	3.60025361373E-02	5.90836444569E-02	3.85025796402E-02	5.83339699395E-02	3.90616795585E-02	1.88377274231E-01	-9.05203206894E-02
1.75300000000E+09	-2.18644024573E-01	3.96063576782E-02	5.98667396279E-02	3.72209632423E-02	5.91091355745E-02	3.78194105226E-02	1.84196708667E-01	-9.40415574184E-02
1.75350000000E+09	-2.19521555965E-01	4.32537953923E-02	6.05943300010E-02	3.59435576665E-02	5.98503793310E-02	3.65452963400E-02	1.79870552770E-01	-9.74774103975E-02
1.75400000000E+09	-2.20207791798E-01	4.69327346047E-02	6.13114455019E-02	3.46380821837E-02	6.05717160178E-02	3.52513116012E-02	1.75456761095E-01	-1.00772611019E-01
1.75450000000E+09	-2.20723386691E-01	5.06689127604E-02	6.19880118725E-02	3.33265666190E-02	6.12797258183E-02	3.39497324536E-02	1.70918432701E-01	-1.03925059264E-01
1.75500000000E+09	-2.21046985539E-01	5.44299820438E-02	6.26216791119E-02	3.19923813295E-02	6.19439956839E-02	3.26443382142E-02	1.66297632236E-01	-1.06958154542E-01
1.75550000000E+09	-2.21239568622E-01	5.82688632393E-02	6.32561060829E-02	3.06777248364E-02	6.25740773528E-02	3.13258529823E-02	1.61506796793E-01	-1.09800226518E-01
1.75600000000E+09	-2.21269065437E-01	6.20617153606E-02	6.38462509846E-02	2.93146823239E-02	6.31600383029E-02	2.99950371144E-02	1.56666086357E-01	-1.12541979901E-01
1.75650000000E+09	-2.21026408414E-01	6.58887046143E-02	6.44291219097E-02	2.79670075264E-02	6.37626774113E-02	2.86653996339E-02	1.51737075895E-01	-1.15089651899E-01
1.75700000000E+09	-2.20704539579E-01	6.96783910912E-02	6.49464977779E-02	2.66064626834E-02	6.43235746003E-02	2.73008310321E-02	1.46752661037E-01	-1.17496309044E-01
1.75750000000E+09	-2.20214337212E-01	7.34748189447E-02	6.54579917780E-02	2.52468570013E-02	6.48546280351E-02	2.59626956074E-02	1.41621333304E-01	-1.19771415723E-01
1.75800000000E+09	-2.19471642178E-01	7.72560104627E-02	6.59449012664E-02	2.38539739474E-02	6.53254443340E-02	2.45943728252E-02	1.36458491569E-01	-1.21884908947E-01
1.75850000000E+09	-2.18603597988E-01	8.09771020069E-02	6.64087879609E-02	2.24698519424E-02	6.57989189272E-02	2.32147066701E-02	1.31235883311E-01	-1.23832939187E-01
1.75900000000E+09	-2.17504785836E-01	8.46710361943E-02	6.68332115298E-02	2.10599045703E-02	6.62502996304E-02	2.18352583224E-02	1.25922315061E-01	-1.25598908487E-01
