# Hz S RI R 50
! CMT, CMT808U, 21440046, 21.4.3/4
! Date: 4/9/2026 1:51:31 AM
! Data: Format (Calibration Info)
! Freq	S11:Re/Im(F2)	S41:Re/Im(F2)	S14:Re/Im(F2)	S44:Re/Im(F2)
1.70000000000E+09	-1.18959480038E-01	9.70733615687E-02	-6.96880584025E-02	2.20674901304E-02	-6.96863763740E-02	2.11634720552E-02	-7.85872676407E-02	1.54559165404E-01
1.70050000000E+09	-1.16215350865E-01	9.69588796442E-02	-6.92152160251E-02	2.35329645884E-02	-6.92162026553E-02	2.26381772075E-02	-7.53370959576E-02	1.58841620085E-01
1.70100000000E+09	-1.13504648787E-01	9.67093294998E-02	-6.87378324055E-02	2.50055964144E-02	-6.87555906795E-02	2.41074184068E-02	-7.19760453968E-02	1.62997211263E-01
1.70150000000E+09	-1.10785446485E-01	9.63078687872E-02	-6.81972450436E-02	2.64789263792E-02	-6.82267635661E-02	2.55692345614E-02	-6.85048531046E-02	1.67050221226E-01
1.70200000000E+09	-1.08126679531E-01	9.57988266762E-02	-6.76254147878E-02	2.79349704076E-02	-6.76827296664E-02	2.70113103799E-02	-6.49037594271E-02	1.71015939835E-01
1.70250000000E+09	-1.05525604992E-01	9.51357553759E-02	-6.70293800056E-02	2.93872116763E-02	-6.70928237429E-02	2.84606693248E-02	-6.10827315468E-02	1.74840300694E-01
1.70300000000E+09	-1.02988934476E-01	9.43055205006E-02	-6.63979688031E-02	3.08197135304E-02	-6.64809227651E-02	2.98963091218E-02	-5.72308789825E-02	1.78602792958E-01
1.70350000000E+09	-1.00460382814E-01	9.33761555610E-02	-6.57369779948E-02	3.22325813582E-02	-6.58540903118E-02	3.13238235601E-02	-5.32541147524E-02	1.82224988042E-01
1.70400000000E+09	-9.80187748030E-02	9.22852957111E-02	-6.50411820006E-02	3.36488846352E-02	-6.51870901679E-02	3.27186567668E-02	-4.91534066165E-02	1.85698862349E-01
1.70450000000E+09	-9.56527015456E-02	9.11409310432E-02	-6.43453210197E-02	3.50246605316E-02	-6.44896205076E-02	3.41133163887E-02	-4.49638659795E-02	1.89054495485E-01
1.70500000000E+09	-9.33582695977E-02	8.98029032826E-02	-6.35523998264E-02	3.64040048049E-02	-6.37473078977E-02	3.55028733968E-02	-4.06358708374E-02	1.92248067666E-01
1.70550000000E+09	-9.11293373273E-02	8.84038765003E-02	-6.27893794208E-02	3.77652944536E-02	-6.29899638256E-02	3.68778966869E-02	-3.62802743257E-02	1.95355044282E-01
1.70600000000E+09	-8.90019567348E-02	8.68884259042E-02	-6.19642902007E-02	3.91331793089E-02	-6.21915063554E-02	3.82156463091E-02	-3.17771043563E-02	1.98347806157E-01
1.70650000000E+09	-8.69254556792E-02	8.52650829291E-02	-6.11366191542E-02	4.04396206446E-02	-6.13524488163E-02	3.95467585657E-02	-2.72368061639E-02	2.01121651295E-01
1.70700000000E+09	-8.49793075769E-02	8.35664023511E-02	-6.02620490481E-02	4.17455732364E-02	-6.05109601797E-02	4.08592291271E-02	-2.25423960446E-02	2.03830888520E-01
1.70750000000E+09	-8.30948100583E-02	8.17553401589E-02	-5.93409580862E-02	4.30392915774E-02	-5.96097509204E-02	4.21652645353E-02	-1.77794546771E-02	2.06375238909E-01
1.70800000000E+09	-8.13355187953E-02	7.98754659268E-02	-5.84257276135E-02	4.43281103308E-02	-5.86995862910E-02	4.34346283938E-02	-1.30000042852E-02	2.08783281266E-01
1.70850000000E+09	-7.96573078074E-02	7.78856963724E-02	-5.74437585013E-02	4.55835439850E-02	-5.77557087302E-02	4.46934785681E-02	-8.07888569877E-03	2.11018670898E-01
1.70900000000E+09	-7.81195132900E-02	7.58811902113E-02	-5.64508193194E-02	4.68040494614E-02	-5.67827392563E-02	4.59184827305E-02	-3.11834714505E-03	2.13129498585E-01
1.70950000000E+09	-7.66312578089E-02	7.37827677983E-02	-5.54369781767E-02	4.80261639879E-02	-5.57848508750E-02	4.71386032294E-02	1.91136640532E-03	2.15052983334E-01
1.71000000000E+09	-7.52866971734E-02	7.16125888671E-02	-5.43809556639E-02	4.92024217632E-02	-5.47652248102E-02	4.83365945496E-02	6.95814187973E-03	2.16898960118E-01
1.71050000000E+09	-7.40482694036E-02	6.94181287471E-02	-5.32998280286E-02	5.03885788279E-02	-5.36856918520E-02	4.95289850290E-02	1.21246325486E-02	2.18531035302E-01
1.71100000000E+09	-7.29003400762E-02	6.71281264317E-02	-5.21946700408E-02	5.15043165226E-02	-5.26292097931E-02	5.06745641681E-02	1.72756775124E-02	2.20000378018E-01
1.71150000000E+09	-7.18647796849E-02	6.48413251820E-02	-5.10783677889E-02	5.26463159828E-02	-5.15031017048E-02	5.17793137556E-02	2.24682412197E-02	2.21313242742E-01
1.71200000000E+09	-7.09607047642E-02	6.24933494705E-02	-4.99300222632E-02	5.37353697447E-02	-5.03792875732E-02	5.28869225140E-02	2.77500265633E-02	2.22475535072E-01
1.71250000000E+09	-7.01546808037E-02	6.01327608720E-02	-4.87649906452E-02	5.48106588881E-02	-4.92328138486E-02	5.39797225577E-02	3.30414252327E-02	2.23527045430E-01
1.71300000000E+09	-6.94367921193E-02	5.77456191633E-02	-4.75653400654E-02	5.58564897036E-02	-4.80422590940E-02	5.50134104638E-02	3.83530147748E-02	2.24394625380E-01
1.71350000000E+09	-6.88624640577E-02	5.53143202154E-02	-4.63467666057E-02	5.68546265205E-02	-4.68356392595E-02	5.60614996416E-02	4.37086372384E-02	2.25049602985E-01
1.71400000000E+09	-6.83564173890E-02	5.28602961616E-02	-4.50643703642E-02	5.78269514276E-02	-4.56114303900E-02	5.70730154537E-02	4.91148970495E-02	2.25642614889E-01
1.71450000000E+09	-6.79707816107E-02	5.03983031984E-02	-4.38512251118E-02	5.87968787936E-02	-4.43524131651E-02	5.80211355804E-02	5.44559837043E-02	2.25985445688E-01
1.71500000000E+09	-6.77109764951E-02	4.79138899167E-02	-4.25355737372E-02	5.97242899218E-02	-4.30922995080E-02	5.89872320255E-02	5.99126678571E-02	2.26230616621E-01
1.71550000000E+09	-6.75745088939E-02	4.54848463955E-02	-4.12406943248E-02	6.06187379845E-02	-4.18044265618E-02	5.98804645681E-02	6.52586256584E-02	2.26276732259E-01
1.71600000000E+09	-6.74727104500E-02	4.30030918421E-02	-3.98948007371E-02	6.15089214560E-02	-4.04961752682E-02	6.07753267118E-02	7.06519495128E-02	2.26175464893E-01
1.71650000000E+09	-6.75182994546E-02	4.05130019234E-02	-3.85271962482E-02	6.23585616005E-02	-3.91397705939E-02	6.16031028773E-02	7.60462510805E-02	2.25883937598E-01
1.71700000000E+09	-6.76661639834E-02	3.80877367230E-02	-3.71882615836E-02	6.31339615787E-02	-3.77942660322E-02	6.24274068763E-02	8.14379315933E-02	2.25465489601E-01
1.71750000000E+09	-6.79030577794E-02	3.56144695806E-02	-3.57909748606E-02	6.39320871469E-02	-3.64355536689E-02	6.32406046284E-02	8.68280481281E-02	2.24867231459E-01
1.71800000000E+09	-6.82554158053E-02	3.31768721693E-02	-3.44014383423E-02	6.46780390276E-02	-3.50215380931E-02	6.39953710120E-02	9.22080464900E-02	2.24112288363E-01
1.71850000000E+09	-6.86903734984E-02	3.07696636901E-02	-3.29762205992E-02	6.53848757324E-02	-3.36484627934E-02	6.47160080595E-02	9.75059417689E-02	2.23184184784E-01
1.71900000000E+09	-6.92150613987E-02	2.83604892304E-02	-3.15403244942E-02	6.60764036096E-02	-3.21914246772E-02	6.54415664459E-02	1.02811770890E-01	2.22110264210E-01
1.71950000000E+09	-6.98602715234E-02	2.59817278708E-02	-3.01065416994E-02	6.67356285077E-02	-3.07785964835E-02	6.60945507487E-02	1.08056016104E-01	2.20876932345E-01
1.72000000000E+09	-7.05886133391E-02	2.36451997628E-02	-2.86306767099E-02	6.73440032311E-02	-2.93359616858E-02	6.67267863567E-02	1.13290027941E-01	2.19547154535E-01
1.72050000000E+09	-7.13860037449E-02	2.13142277191E-02	-2.71809270209E-02	6.79285272760E-02	-2.78586782994E-02	6.73294370676E-02	1.18491502695E-01	2.17993834786E-01
1.72100000000E+09	-7.22935455876E-02	1.90068264222E-02	-2.56532973204E-02	6.84987212227E-02	-2.63848318741E-02	6.79099424430E-02	1.23627219249E-01	2.16286475768E-01
1.72150000000E+09	-7.32878030553E-02	1.67622790419E-02	-2.41604006927E-02	6.90099874591E-02	-2.48974467690E-02	6.84258897535E-02	1.28730088036E-01	2.14406132276E-01
1.72200000000E+09	-7.43707937195E-02	1.45392959147E-02	-2.26615713574E-02	6.94947446529E-02	-2.34261510053E-02	6.89230458439E-02	1.33741117571E-01	2.12402543610E-01
1.72250000000E+09	-7.55367921468E-02	1.23640162129E-02	-2.11375583375E-02	6.99320385984E-02	-2.19092144359E-02	6.93992933220E-02	1.38743431082E-01	2.10262040373E-01
1.72300000000E+09	-7.68114177116E-02	1.02105352676E-02	-1.96293016946E-02	7.03595674969E-02	-2.04182487753E-02	6.98382443180E-02	1.43652433416E-01	2.08023356074E-01
1.72350000000E+09	-7.81543401228E-02	8.08997612152E-03	-1.80798741733E-02	7.07499595854E-02	-1.88678763441E-02	7.02616710976E-02	1.48472952101E-01	2.05514906139E-01
1.72400000000E+09	-7.95515857891E-02	6.05653831332E-03	-1.65354093622E-02	7.10863913203E-02	-1.73371770177E-02	7.05883988952E-02	1.53232775751E-01	2.02934680899E-01
1.72450000000E+09	-8.10261366963E-02	4.01736708781E-03	-1.50188376099E-02	7.13843452216E-02	-1.58076836273E-02	7.09289655136E-02	1.57949509377E-01	2.00243044363E-01
1.72500000000E+09	-8.26030927370E-02	2.06495322217E-03	-1.34487944244E-02	7.17026661974E-02	-1.42732141718E-02	7.12288499774E-02	1.62542489959E-01	1.97380843458E-01
1.72550000000E+09	-8.42568818922E-02	1.60353853951E-04	-1.19006982320E-02	7.19151178232E-02	-1.27265676169E-02	7.14953860004E-02	1.67036899104E-01	1.94333620415E-01
1.72600000000E+09	-8.60088487145E-02	-1.68772151488E-03	-1.03154883298E-02	7.21194093113E-02	-1.11674403529E-02	7.17260531097E-02	1.71503058501E-01	1.91185484765E-01
1.72650000000E+09	-8.77936206999E-02	-3.50063270063E-03	-8.75958735098E-03	7.23162918691E-02	-9.59301536103E-03	7.19015491255E-02	1.75853018604E-01	1.87944961345E-01
1.72700000000E+09	-8.96788471111E-02	-5.22236130895E-03	-7.19586817173E-03	7.24427390834E-02	-8.04450693556E-03	7.20719734400E-02	1.80079497235E-01	1.84549334867E-01
1.72750000000E+09	-9.16118486607E-02	-6.89014262698E-03	-5.60162694671E-03	7.25547806125E-02	-6.49486611610E-03	7.21861704716E-02	1.84196870418E-01	1.81017983836E-01
1.72800000000E+09	-9.36652862787E-02	-8.51987209854E-03	-4.06725841999E-03	7.26292967870E-02	-4.94116523269E-03	7.22593069985E-02	1.88269553300E-01	1.77346936682E-01
1.72850000000E+09	-9.57436539833E-02	-1.00688463476E-02	-2.50084031520E-03	7.26454081272E-02	-3.33691627702E-03	7.23321397581E-02	1.92233001560E-01	1.73542899560E-01
1.72900000000E+09	-9.79254231269E-02	-1.15533458369E-02	-9.29069570927E-04	7.26461244810E-02	-1.79354667922E-03	7.23585317723E-02	1.95979545337E-01	1.69693113057E-01
1.72950000000E+09	-1.00168538174E-01	-1.29264407506E-02	6.58038594076E-04	7.26005160981E-02	-2.41778667299E-04	7.23375447532E-02	1.99686414040E-01	1.65696784686E-01
1.73000000000E+09	-1.02462221635E-01	-1.42656756054E-02	2.22349559081E-03	7.25467733513E-02	1.32413165186E-03	7.22733268096E-02	2.03276021679E-01	1.61589534183E-01
1.73050000000E+09	-1.04834095231E-01	-1.54974993014E-02	3.76514144379E-03	7.24370933529E-02	2.86804454086E-03	7.21842558049E-02	2.06713633885E-01	1.57356021482E-01
1.73100000000E+09	-1.07212715297E-01	-1.67021488320E-02	5.32055368598E-03	7.23090228071E-02	4.41226610815E-03	7.20769252688E-02	2.10062176894E-01	1.53036818995E-01
1.73150000000E+09	-1.09700931511E-01	-1.77719593074E-02	6.88006398058E-03	7.21156204225E-02	5.95842409305E-03	7.19214919887E-02	2.13251057774E-01	1.48609144870E-01
1.73200000000E+09	-1.12211942900E-01	-1.87785437527E-02	8.41979875812E-03	7.19231284010E-02	7.50865508936E-03	7.17180176515E-02	2.16293486699E-01	1.44060698625E-01
1.73250000000E+09	-1.14825469218E-01	-1.96904202792E-02	9.96306414641E-03	7.16849900917E-02	9.03947588514E-03	7.14893150784E-02	2.19266345188E-01	1.39457079549E-01
1.73300000000E+09	-1.17437824743E-01	-2.05247128869E-02	1.14685733551E-02	7.14111702163E-02	1.05793774826E-02	7.12731311156E-02	2.22057672066E-01	1.34750588396E-01
1.73350000000E+09	-1.20139420747E-01	-2.12514797645E-02	1.30022693903E-02	7.10800147621E-02	1.20749039176E-02	7.09712524521E-02	2.24741046456E-01	1.29943506626E-01
1.73400000000E+09	-1.22860550916E-01	-2.18748380484E-02	1.45244151634E-02	7.07399945370E-02	1.35977975227E-02	7.06398211538E-02	2.27206876327E-01	1.25071812787E-01
1.73450000000E+09	-1.25659072202E-01	-2.24327168245E-02	1.60160301431E-02	7.03737021764E-02	1.51102294441E-02	7.02925803351E-02	2.29577732535E-01	1.20081461600E-01
1.73500000000E+09	-1.28467146023E-01	-2.28786951855E-02	1.75043867259E-02	6.99820203197E-02	1.65731987871E-02	6.98983167610E-02	2.31792731676E-01	1.15069628903E-01
1.73550000000E+09	-1.31296182532E-01	-2.31776111546E-02	1.89927444297E-02	6.95285785052E-02	1.80650106208E-02	6.94542209368E-02	2.33885090445E-01	1.09984367416E-01
1.73600000000E+09	-1.34205465772E-01	-2.33972614200E-02	2.04745939436E-02	6.90701340923E-02	1.95384668039E-02	6.90264520532E-02	2.35790517764E-01	1.04830160284E-01
1.73650000000E+09	-1.37092955739E-01	-2.35439758696E-02	2.19131443251E-02	6.85785048401E-02	2.09917006754E-02	6.85364341225E-02	2.37563680930E-01	9.95996297899E-02
1.73700000000E+09	-1.40015066670E-01	-2.35601846880E-02	2.33329375343E-02	6.80229498893E-02	2.24534790673E-02	6.80143849386E-02	2.39129915187E-01	9.43111848269E-02
1.73750000000E+09	-1.42973075081E-01	-2.34376044395E-02	2.48077021753E-02	6.74618790541E-02	2.38568882521E-02	6.75037785281E-02	2.40565057546E-01	8.90093367168E-02
1.73800000000E+09	-1.45988572875E-01	-2.32155568799E-02	2.62012415848E-02	6.68886607683E-02	2.52722800576E-02	6.69165016316E-02	2.41794362934E-01	8.36335845531E-02
1.73850000000E+09	-1.48965365692E-01	-2.29148213543E-02	2.76041746983E-02	6.62587327199E-02	2.66547435429E-02	6.63021231596E-02	2.42978091133E-01	7.82453120657E-02
1.73900000000E+09	-1.51963391296E-01	-2.24584404390E-02	2.89777653722E-02	6.56134730574E-02	2.80671988830E-02	6.56705301692E-02	2.43944631473E-01	7.27677771576E-02
1.73950000000E+09	-1.54969173919E-01	-2.19084318886E-02	3.03567459238E-02	6.49288079925E-02	2.94147816740E-02	6.50287556711E-02	2.44690134876E-01	6.73238581836E-02
1.74000000000E+09	-1.57975718557E-01	-2.11746246301E-02	3.16946342644E-02	6.42153877100E-02	3.07664244295E-02	6.43283042289E-02	2.45351691428E-01	6.17843988562E-02
1.74050000000E+09	-1.60974109929E-01	-2.03951667678E-02	3.30319790870E-02	6.34926149307E-02	3.20989207580E-02	6.36130081084E-02	2.45773109072E-01	5.62891009784E-02
1.74100000000E+09	-1.63966675500E-01	-1.94763183177E-02	3.43486623433E-02	6.27130733624E-02	3.34094819935E-02	6.28735490498E-02	2.46081269449E-01	5.07153366289E-02
1.74150000000E+09	-1.66917434504E-01	-1.84466463962E-02	3.56125844292E-02	6.19213309647E-02	3.46983498342E-02	6.21013887374E-02	2.46198557502E-01	4.51779794021E-02
1.74200000000E+09	-1.69902559960E-01	-1.72851058201E-02	3.68959130856E-02	6.11075515264E-02	3.59897492427E-02	6.13028204797E-02	2.46146893835E-01	3.96023540468E-02
1.74250000000E+09	-1.72818171987E-01	-1.59615956278E-02	3.81348193236E-02	6.02601447681E-02	3.72355372916E-02	6.04665934455E-02	2.45911796487E-01	3.40347074982E-02
1.74300000000E+09	-1.75743716301E-01	-1.45368606537E-02	3.93670056020E-02	5.94160828800E-02	3.84717731163E-02	5.96247516611E-02	2.45533997191E-01	2.84744971756E-02
1.74350000000E+09	-1.78612075166E-01	-1.29927676221E-02	4.05959396952E-02	5.85096887181E-02	3.96820027746E-02	5.87745687482E-02	2.44978891029E-01	2.28995187300E-02
1.74400000000E+09	-1.81434865482E-01	-1.13047548292E-02	4.17711547892E-02	5.75995362951E-02	4.08815253307E-02	5.78784311332E-02	2.44203563439E-01	1.73730873806E-02
1.74450000000E+09	-1.84210039113E-01	-9.49800907414E-03	4.29305310049E-02	5.66587824091E-02	4.20550690542E-02	5.69392829967E-02	2.43290691596E-01	1.18557695111E-02
1.74500000000E+09	-1.86968987729E-01	-7.57564482608E-03	4.40898377235E-02	5.57185743798E-02	4.32270685918E-02	5.60126904853E-02	2.42221088580E-01	6.36870412594E-03
1.74550000000E+09	-1.89616049739E-01	-5.54048402066E-03	4.52111934085E-02	5.47255508803E-02	4.43173673740E-02	5.50545143170E-02	2.40981901992E-01	9.11645837630E-04
1.74600000000E+09	-1.92281155077E-01	-3.35370656068E-03	4.63031091527E-02	5.37238873939E-02	4.54207037981E-02	5.40742489320E-02	2.39565429968E-01	-4.53041243371E-03
1.74650000000E+09	-1.94737098592E-01	-1.09330321519E-03	4.73465352222E-02	5.26968442528E-02	4.64948931120E-02	5.30327219944E-02	2.37943695595E-01	-9.95141842420E-03
1.74700000000E+09	-1.97259400927E-01	1.31382924111E-03	4.84172491566E-02	5.16638125424E-02	4.75460806279E-02	5.20184659456E-02	2.36228627023E-01	-1.52710919086E-02
1.74750000000E+09	-1.99646004530E-01	3.87046884258E-03	4.94474886532E-02	5.06001235121E-02	4.85968600660E-02	5.10058735653E-02	2.34273144330E-01	-2.05532097867E-02
1.74800000000E+09	-2.01938057323E-01	6.50285066669E-03	5.04331424916E-02	4.95244252363E-02	4.95925718671E-02	4.99307528648E-02	2.32196209133E-01	-2.58218493259E-02
1.74850000000E+09	-2.04168269105E-01	9.23406532770E-03	5.14135579117E-02	4.84608695369E-02	5.05808077421E-02	4.88466735683E-02	2.29922612291E-01	-3.10042960406E-02
1.74900000000E+09	-2.06227947460E-01	1.21012291707E-02	5.23579647016E-02	4.73409288046E-02	5.15472457605E-02	4.77644095666E-02	2.27542693736E-01	-3.60968225003E-02
1.74950000000E+09	-2.08249717453E-01	1.50643605259E-02	5.33063024928E-02	4.61628287398E-02	5.24682221781E-02	4.66397812287E-02	2.24942618546E-01	-4.11534887215E-02
1.75000000000E+09	-2.10144210380E-01	1.81201822419E-02	5.42085820844E-02	4.50497264065E-02	5.33875947841E-02	4.55025576048E-02	2.22178876097E-01	-4.61022420608E-02
1.75050000000E+09	-2.11872309610E-01	2.13010230672E-02	5.50813622334E-02	4.38705856845E-02	5.42614074429E-02	4.43900402411E-02	2.19291833074E-01	-5.10283562024E-02
1.75100000000E+09	-2.13516037541E-01	2.45476068723E-02	5.59146337455E-02	4.27333055339E-02	5.51237145262E-02	4.32400447706E-02	2.16247099558E-01	-5.58239676121E-02
1.75150000000E+09	-2.15037273952E-01	2.79414358410E-02	5.67641767657E-02	4.15329086131E-02	5.59799213431E-02	4.20572525847E-02	2.13055157574E-01	-6.04951547328E-02
1.75200000000E+09	-2.16358131701E-01	3.13823332777E-02	5.75296876919E-02	4.03417411263E-02	5.67821160863E-02	4.08610442308E-02	2.09690570450E-01	-6.51178936760E-02
1.75250000000E+09	-2.17570136898E-01	3.48769066127E-02	5.83175875329E-02	3.91056873234E-02	5.75390414769E-02	3.96886707755E-02	2.06167770185E-01	-6.96122414199E-02
1.75300000000E+09	-2.18659777733E-01	3.85105648879E-02	5.90857613142E-02	3.79022156652E-02	5.83239979194E-02	3.84830873117E-02	2.02557837833E-01	-7.40315744235E-02
1.75350000000E+09	-2.19542075018E-01	4.21286269040E-02	5.97893580138E-02	3.66793244575E-02	5.90578397571E-02	3.72659021683E-02	1.98730459425E-01	-7.82832646239E-02
1.75400000000E+09	-2.20302308591E-01	4.58013554400E-02	6.05187771851E-02	3.54203320599E-02	5.97671419612E-02	3.60325755753E-02	1.94800910265E-01	-8.25014368056E-02
1.75450000000E+09	-2.20877749401E-01	4.95482833250E-02	6.11562345548E-02	3.41832745147E-02	6.04371512140E-02	3.48059971914E-02	1.90756127354E-01	-8.65331112132E-02
1.75500000000E+09	-2.21245329945E-01	5.33390194376E-02	6.18242774942E-02	3.29101067182E-02	6.11128254949E-02	3.35396847674E-02	1.86573143983E-01	-9.05065025024E-02
1.75550000000E+09	-2.21501767776E-01	5.71750365329E-02	6.24657611553E-02	3.16353685447E-02	6.17378121661E-02	3.22991923394E-02	1.82240143079E-01	-9.42433135958E-02
1.75600000000E+09	-2.21561525259E-01	6.09630199779E-02	6.30541081878E-02	3.03226631036E-02	6.23556705045E-02	3.10263677023E-02	1.77754294481E-01	-9.79648843062E-02
1.75650000000E+09	-2.21429951472E-01	6.48026850041E-02	6.36332659271E-02	2.90638186930E-02	6.29454396098E-02	2.97504191092E-02	1.73211371678E-01	-1.01478522493E-01
1.75700000000E+09	-2.21154149029E-01	6.86080837726E-02	6.41710397384E-02	2.77761439321E-02	6.35190916836E-02	2.84646820072E-02	1.68560296524E-01	-1.04854341410E-01
1.75750000000E+09	-2.20685362651E-01	7.24393738438E-02	6.47143559569E-02	2.64604855215E-02	6.40636794588E-02	2.71791678613E-02	1.63736986851E-01	-1.08098929987E-01
1.75800000000E+09	-2.20000956196E-01	7.62606241959E-02	6.52401635505E-02	2.51292101343E-02	6.45901852728E-02	2.58782847772E-02	1.58866412492E-01	-1.11201509337E-01
1.75850000000E+09	-2.19181444602E-01	7.99854228714E-02	6.57005792451E-02	2.38185759921E-02	6.51126249987E-02	2.45794603110E-02	1.53888729701E-01	-1.14126619375E-01
1.75900000000E+09	-2.18156862884E-01	8.37590319234E-02	6.61728521994E-02	2.25031688018E-02	6.55611394909E-02	2.32762998574E-02	1.48752979842E-01	-1.16918240846E-01
