# Hz S RI R 50
! CMT, CMT808U, 21440046, 21.4.3/4
! Date: 4/9/2026 1:50:52 AM
! Data: Format (Calibration Info)
! Freq	S11:Re/Im(F2)	S41:Re/Im(F2)	S14:Re/Im(F2)	S44:Re/Im(F2)
1.70000000000E+09	-1.18292182592E-01	9.66382108858E-02	-7.03750735797E-02	2.18141962702E-02	-7.03437451710E-02	2.09054738440E-02	-5.24116587793E-02	1.34367233303E-01
1.70050000000E+09	-1.15548392089E-01	9.65088930858E-02	-6.99025532135E-02	2.33218794907E-02	-6.98886752975E-02	2.23911567907E-02	-4.95164179705E-02	1.38330501860E-01
1.70100000000E+09	-1.12903596900E-01	9.62291844589E-02	-6.94032102335E-02	2.48275835904E-02	-6.94291891296E-02	2.38938072852E-02	-4.64695179670E-02	1.42115354683E-01
1.70150000000E+09	-1.10201762429E-01	9.58080539034E-02	-6.88721074325E-02	2.63117304973E-02	-6.88927808582E-02	2.53874584360E-02	-4.32995775190E-02	1.45841911194E-01
1.70200000000E+09	-1.07572205185E-01	9.52549950870E-02	-6.83168640712E-02	2.77985320602E-02	-6.83915509197E-02	2.68582618071E-02	-4.00207336190E-02	1.49512338245E-01
1.70250000000E+09	-1.04989538370E-01	9.45488275203E-02	-6.77378945353E-02	2.92780374400E-02	-6.77979823814E-02	2.83303616788E-02	-3.65622574781E-02	1.53029683974E-01
1.70300000000E+09	-1.02475489965E-01	9.37326695799E-02	-6.71150446603E-02	3.07380565406E-02	-6.72176623429E-02	2.98044103345E-02	-3.30823546457E-02	1.56471605421E-01
1.70350000000E+09	-1.00008085915E-01	9.27925193244E-02	-6.64281356737E-02	3.21784326666E-02	-6.65662657081E-02	3.12374464443E-02	-2.94248367301E-02	1.59837141830E-01
1.70400000000E+09	-9.75786371169E-02	9.16979298320E-02	-6.57497798706E-02	3.36179082512E-02	-6.58925333211E-02	3.26596493305E-02	-2.57113494788E-02	1.63018702459E-01
1.70450000000E+09	-9.52465714775E-02	9.04907166087E-02	-6.50079133408E-02	3.50271505876E-02	-6.51739608268E-02	3.40950642460E-02	-2.18692437426E-02	1.66137133608E-01
1.70500000000E+09	-9.29995115213E-02	8.91727132637E-02	-6.42793807041E-02	3.64133316489E-02	-6.44262693801E-02	3.55131965459E-02	-1.79011885256E-02	1.69057354514E-01
1.70550000000E+09	-9.08123902834E-02	8.77587675189E-02	-6.34635818523E-02	3.78132069689E-02	-6.36672671853E-02	3.68984486930E-02	-1.38978795102E-02	1.71966869122E-01
1.70600000000E+09	-8.87081631412E-02	8.62292369466E-02	-6.26743054333E-02	3.91655620856E-02	-6.28609219515E-02	3.82764209660E-02	-9.76378077141E-03	1.74711281802E-01
1.70650000000E+09	-8.66805506054E-02	8.45902570843E-02	-6.18171277291E-02	4.05286589139E-02	-6.20443955157E-02	3.96261950119E-02	-5.58453840411E-03	1.77323338969E-01
1.70700000000E+09	-8.47535492365E-02	8.28861987318E-02	-6.09433717249E-02	4.18639142962E-02	-6.11781661610E-02	4.09668474074E-02	-1.28354283879E-03	1.79827246383E-01
1.70750000000E+09	-8.29066216890E-02	8.10633684277E-02	-6.00188804429E-02	4.31684124575E-02	-6.02745408864E-02	4.22829812205E-02	3.12028105072E-03	1.82172810454E-01
1.70800000000E+09	-8.11636734635E-02	7.91708090291E-02	-5.90572152891E-02	4.44770862152E-02	-5.93458774217E-02	4.35969209148E-02	7.56170313846E-03	1.84410577068E-01
1.70850000000E+09	-7.95413413696E-02	7.72026899299E-02	-5.80867505149E-02	4.57481428842E-02	-5.83943185228E-02	4.48854871119E-02	1.20749824199E-02	1.86444020505E-01
1.70900000000E+09	-7.80140173259E-02	7.51870635458E-02	-5.70866219119E-02	4.70032135838E-02	-5.74035143172E-02	4.61349800736E-02	1.66799699340E-02	1.88433651999E-01
1.70950000000E+09	-7.65807014847E-02	7.30973170624E-02	-5.60374287246E-02	4.82471342949E-02	-5.63820614114E-02	4.73804378094E-02	2.13067598757E-02	1.90224775640E-01
1.71000000000E+09	-7.52262652576E-02	7.09457401821E-02	-5.49785125229E-02	4.94508694352E-02	-5.53628423254E-02	4.86134776063E-02	2.60275598798E-02	1.91928045542E-01
1.71050000000E+09	-7.40633962431E-02	6.87437929709E-02	-5.39039809147E-02	5.06529403927E-02	-5.42961695495E-02	4.97758826807E-02	3.07981517886E-02	1.93415772649E-01
1.71100000000E+09	-7.29274880744E-02	6.64596596119E-02	-5.27750709818E-02	5.17975736987E-02	-5.31602713991E-02	5.09318550117E-02	3.55970013740E-02	1.94742440085E-01
1.71150000000E+09	-7.19218860670E-02	6.41722838745E-02	-5.16314502634E-02	5.29390210544E-02	-5.20454311105E-02	5.20656697183E-02	4.04446969887E-02	1.95980249038E-01
1.71200000000E+09	-7.10421610343E-02	6.18424784952E-02	-5.04561815969E-02	5.40434679982E-02	-5.08887539218E-02	5.31967197299E-02	4.53956387500E-02	1.97086229037E-01
1.71250000000E+09	-7.02395607019E-02	5.94952485007E-02	-4.92577137432E-02	5.51425582332E-02	-4.97366651306E-02	5.42970312755E-02	5.03085783000E-02	1.98057543645E-01
1.71300000000E+09	-6.95597702207E-02	5.70952288431E-02	-4.80481922308E-02	5.61930580064E-02	-4.85165734291E-02	5.53508923634E-02	5.52465754564E-02	1.98806333753E-01
1.71350000000E+09	-6.90267068825E-02	5.46920042341E-02	-4.67968573164E-02	5.72059952023E-02	-4.73068061112E-02	5.63838271432E-02	6.02510056052E-02	1.99450688290E-01
1.71400000000E+09	-6.85311021741E-02	5.22381096369E-02	-4.55311282853E-02	5.81851535390E-02	-4.60531247968E-02	5.74194213254E-02	6.52602876277E-02	1.99951209592E-01
1.71450000000E+09	-6.81802119249E-02	4.97925662208E-02	-4.42321630817E-02	5.91666744423E-02	-4.47743744453E-02	5.83996261039E-02	7.02999824467E-02	2.00264045421E-01
1.71500000000E+09	-6.79249239560E-02	4.73502274327E-02	-4.29425105177E-02	6.01055198924E-02	-4.34774016359E-02	5.93386109546E-02	7.53754899091E-02	2.00470207605E-01
1.71550000000E+09	-6.78267102005E-02	4.49001384949E-02	-4.15912696610E-02	6.10235280224E-02	-4.21732090499E-02	6.02508233128E-02	8.03985533171E-02	2.00446398939E-01
1.71600000000E+09	-6.77497456325E-02	4.24394571851E-02	-4.02344265890E-02	6.18814054064E-02	-4.08254404358E-02	6.11396901420E-02	8.54671178770E-02	2.00317126481E-01
1.71650000000E+09	-6.78182601276E-02	3.99935118199E-02	-3.88712847152E-02	6.27466242416E-02	-3.94585706602E-02	6.19934572020E-02	9.05070432597E-02	2.00003225419E-01
1.71700000000E+09	-6.79906198978E-02	3.75525957970E-02	-3.74840685135E-02	6.35495048768E-02	-3.81048690228E-02	6.28240913552E-02	9.55592146053E-02	1.99592635653E-01
1.71750000000E+09	-6.82529881178E-02	3.51058397715E-02	-3.60843943223E-02	6.43413282899E-02	-3.67085511552E-02	6.36302318462E-02	1.00667583265E-01	1.98992369622E-01
1.71800000000E+09	-6.86124996269E-02	3.27023968111E-02	-3.46557316743E-02	6.50623752825E-02	-3.53131606537E-02	6.43777291487E-02	1.05670615570E-01	1.98240583262E-01
1.71850000000E+09	-6.90526964162E-02	3.02895130024E-02	-3.32033462526E-02	6.57711299206E-02	-3.38587702505E-02	6.50998434662E-02	1.10701252541E-01	1.97268244170E-01
1.71900000000E+09	-6.96172404124E-02	2.79253156835E-02	-3.17569949522E-02	6.64702627873E-02	-3.24296025130E-02	6.58157976678E-02	1.15658995049E-01	1.96263380833E-01
1.71950000000E+09	-7.02513052098E-02	2.55409499539E-02	-3.03018330617E-02	6.71065606212E-02	-3.09726412288E-02	6.64662844899E-02	1.20612968524E-01	1.95035591072E-01
1.72000000000E+09	-7.10035897376E-02	2.31949301450E-02	-2.88063423020E-02	6.77228722586E-02	-2.95017320790E-02	6.71136015490E-02	1.25528319608E-01	1.93758252966E-01
1.72050000000E+09	-7.18111285588E-02	2.09105724790E-02	-2.73040581945E-02	6.82976983028E-02	-2.80233915289E-02	6.76773585480E-02	1.30393287124E-01	1.92207125277E-01
1.72100000000E+09	-7.27553296534E-02	1.86243112649E-02	-2.58022584753E-02	6.88584966394E-02	-2.65303132910E-02	6.82515046210E-02	1.35255527348E-01	1.90542713161E-01
1.72150000000E+09	-7.37620155173E-02	1.64013750691E-02	-2.42683575769E-02	6.93598964214E-02	-2.50314881924E-02	6.87620929780E-02	1.40052602993E-01	1.88695944287E-01
1.72200000000E+09	-7.48226389778E-02	1.41917149646E-02	-2.27528017028E-02	6.98194581792E-02	-2.34984446637E-02	6.92761745111E-02	1.44782257745E-01	1.86718860858E-01
1.72250000000E+09	-7.60167191232E-02	1.20434501749E-02	-2.12062634455E-02	7.02704598934E-02	-2.19932825460E-02	6.97195965664E-02	1.49492371012E-01	1.84641294206E-01
1.72300000000E+09	-7.72869201827E-02	9.89122302749E-03	-1.96782809892E-02	7.06730608765E-02	-2.04464757433E-02	7.01491587154E-02	1.54117764833E-01	1.82463410644E-01
1.72350000000E+09	-7.86314451986E-02	7.81093272701E-03	-1.81200904577E-02	7.10316602412E-02	-1.89137705943E-02	7.05135890857E-02	1.58633332768E-01	1.80019693906E-01
1.72400000000E+09	-8.00610147927E-02	5.78964570052E-03	-1.65646583285E-02	7.13748767094E-02	-1.73618207576E-02	7.08599012150E-02	1.63162447887E-01	1.77475861606E-01
1.72450000000E+09	-8.15665564741E-02	3.76399426545E-03	-1.50066171824E-02	7.16571344267E-02	-1.58038127690E-02	7.11971832477E-02	1.67584922954E-01	1.74863212752E-01
1.72500000000E+09	-8.31411426513E-02	1.84762069044E-03	-1.34323751251E-02	7.19316566457E-02	-1.42433361170E-02	7.14569132660E-02	1.71885750132E-01	1.72037790885E-01
1.72550000000E+09	-8.47915398248E-02	-2.79465435746E-05	-1.18461967224E-02	7.21536512921E-02	-1.26890148729E-02	7.16997240154E-02	1.76199938783E-01	1.69103048982E-01
1.72600000000E+09	-8.65373430739E-02	-1.88023542761E-03	-1.02668460872E-02	7.23355443499E-02	-1.11317346265E-02	7.19106081356E-02	1.80310699731E-01	1.66011880056E-01
1.72650000000E+09	-8.83603986336E-02	-3.64001226208E-03	-8.71117313786E-03	7.24971163628E-02	-9.56047204168E-03	7.21028908183E-02	1.84462971131E-01	1.62845492882E-01
1.72700000000E+09	-9.02269537787E-02	-5.36509807887E-03	-7.11887168222E-03	7.25876311420E-02	-7.99208049554E-03	7.22350603692E-02	1.88440971615E-01	1.59518574484E-01
1.72750000000E+09	-9.21509271409E-02	-7.04345890753E-03	-5.55753934721E-03	7.26904166749E-02	-6.40830372805E-03	7.23450303424E-02	1.92304614259E-01	1.56095968981E-01
1.72800000000E+09	-9.42123884288E-02	-8.62179257741E-03	-3.97526652447E-03	7.27365905173E-02	-4.83862301674E-03	7.24026519350E-02	1.96084179423E-01	1.52488161495E-01
1.72850000000E+09	-9.63208810856E-02	-1.01577405528E-02	-2.42405982841E-03	7.27472035083E-02	-3.25947609941E-03	7.24282738389E-02	1.99811196369E-01	1.48794090537E-01
1.72900000000E+09	-9.84875192077E-02	-1.15965528122E-02	-8.26230812696E-04	7.27216827302E-02	-1.70132394226E-03	7.24112393248E-02	2.03374027116E-01	1.44995683662E-01
1.72950000000E+09	-1.00730353847E-01	-1.29596706226E-02	7.46944236222E-04	7.26686583637E-02	-1.59741353767E-04	7.23796777005E-02	2.06815190121E-01	1.41098112389E-01
1.73000000000E+09	-1.03001574019E-01	-1.42923998891E-02	2.29355882693E-03	7.25559761037E-02	1.40387351005E-03	7.22953184987E-02	2.10175908096E-01	1.37077910397E-01
1.73050000000E+09	-1.05356748642E-01	-1.55275681056E-02	3.84903731562E-03	7.24378621817E-02	2.95263658736E-03	7.21869048586E-02	2.13399488663E-01	1.32956590868E-01
1.73100000000E+09	-1.07776425274E-01	-1.66713948216E-02	5.39585129925E-03	7.22729814053E-02	4.51126578548E-03	7.20500751534E-02	2.16546208026E-01	1.28713977171E-01
1.73150000000E+09	-1.10263657685E-01	-1.77429618025E-02	6.96920964662E-03	7.20937110222E-02	6.04984652593E-03	7.18837595619E-02	2.19484439125E-01	1.24461503233E-01
1.73200000000E+09	-1.12796664369E-01	-1.87193388361E-02	8.50274393426E-03	7.18508780731E-02	7.58143808903E-03	7.16552840042E-02	2.22316463933E-01	1.19981935818E-01
1.73250000000E+09	-1.15382456567E-01	-1.96163820129E-02	1.00349114363E-02	7.15829812819E-02	9.10578618665E-03	7.14111530381E-02	2.25072521306E-01	1.15460582876E-01
1.73300000000E+09	-1.18008412638E-01	-2.04263022281E-02	1.15499209668E-02	7.12860236487E-02	1.06378167909E-02	7.11217933295E-02	2.27631497145E-01	1.10872009129E-01
1.73350000000E+09	-1.20697037803E-01	-2.11404883336E-02	1.30593074840E-02	7.09358708326E-02	1.21471073864E-02	7.08134158736E-02	2.30091414547E-01	1.06160681516E-01
1.73400000000E+09	-1.23406869967E-01	-2.17325419211E-02	1.45547013938E-02	7.05612568994E-02	1.36258914701E-02	7.04770370244E-02	2.32355762394E-01	1.01446150783E-01
1.73450000000E+09	-1.26212682195E-01	-2.22634543331E-02	1.60319779965E-02	7.01788873909E-02	1.51191485052E-02	7.00914610983E-02	2.34527953571E-01	9.65871155339E-02
1.73500000000E+09	-1.29023671695E-01	-2.26796139457E-02	1.75226652962E-02	6.97475156953E-02	1.65878802096E-02	6.96914592327E-02	2.36551182171E-01	9.16441801478E-02
1.73550000000E+09	-1.31855885275E-01	-2.30135723711E-02	1.89711628874E-02	6.92789131492E-02	1.80527193136E-02	6.92518148794E-02	2.38412271025E-01	8.66932033682E-02
1.73600000000E+09	-1.34734603788E-01	-2.31979537891E-02	2.04288068954E-02	6.88041993854E-02	1.95202561842E-02	6.87787706994E-02	2.40131359198E-01	8.16480020610E-02
1.73650000000E+09	-1.37627039317E-01	-2.33072565011E-02	2.18819264590E-02	6.82758119728E-02	2.09512194525E-02	6.82390225379E-02	2.41712207074E-01	7.65500255288E-02
1.73700000000E+09	-1.40562193540E-01	-2.32912293109E-02	2.32970318241E-02	6.77185045712E-02	2.23741910527E-02	6.77171610756E-02	2.43118165375E-01	7.14047053586E-02
1.73750000000E+09	-1.43535046484E-01	-2.31485940840E-02	2.47074495174E-02	6.71387122561E-02	2.37699177922E-02	6.71615122615E-02	2.44378493508E-01	6.61935491575E-02
1.73800000000E+09	-1.46493150055E-01	-2.29223700806E-02	2.60709091217E-02	6.65468721227E-02	2.51532884027E-02	6.65733504874E-02	2.45444516215E-01	6.09749466408E-02
1.73850000000E+09	-1.49464020160E-01	-2.25615550043E-02	2.74566003359E-02	6.59032654565E-02	2.65329909118E-02	6.59694238441E-02	2.46423389547E-01	5.56947407633E-02
1.73900000000E+09	-1.52451085118E-01	-2.20969807340E-02	2.87951054039E-02	6.52239200576E-02	2.79005896185E-02	6.53279535546E-02	2.47204241055E-01	5.03470457294E-02
1.73950000000E+09	-1.55445601230E-01	-2.15285879439E-02	3.01535385543E-02	6.45372684946E-02	2.92166641891E-02	6.46365457919E-02	2.47811322205E-01	4.50338656197E-02
1.74000000000E+09	-1.58435335994E-01	-2.07932239072E-02	3.14487874961E-02	6.38239584437E-02	3.05443360342E-02	6.39261127018E-02	2.48229089744E-01	3.96223228085E-02
1.74050000000E+09	-1.61443002575E-01	-1.99862826044E-02	3.27587672790E-02	6.30788227154E-02	3.18550752756E-02	6.32029293749E-02	2.48506957286E-01	3.42458673613E-02
1.74100000000E+09	-1.64428144817E-01	-1.90093632871E-02	3.40410238828E-02	6.23177844302E-02	3.31231499501E-02	6.24518005852E-02	2.48619319790E-01	2.88246853864E-02
1.74150000000E+09	-1.67367933879E-01	-1.80122354083E-02	3.53052955482E-02	6.15133856911E-02	3.43910841294E-02	6.17062433286E-02	2.48587624076E-01	2.34238153403E-02
1.74200000000E+09	-1.70352127355E-01	-1.68034487015E-02	3.65428260327E-02	6.06813909269E-02	3.56347170052E-02	6.08828303689E-02	2.48383515273E-01	1.79370668741E-02
1.74250000000E+09	-1.73258351238E-01	-1.54547330399E-02	3.77551488076E-02	5.98541763009E-02	3.68320202393E-02	6.00457364139E-02	2.47956744317E-01	1.25746507183E-02
1.74300000000E+09	-1.76149451647E-01	-1.40086116545E-02	3.89485274696E-02	5.89647390137E-02	3.80660609357E-02	5.91848070576E-02	2.47417487924E-01	7.13044431962E-03
1.74350000000E+09	-1.78996136345E-01	-1.24504008241E-02	4.01138108907E-02	5.80604762129E-02	3.92329701369E-02	5.83184508256E-02	2.46721533742E-01	1.70339769885E-03
1.74400000000E+09	-1.81809035472E-01	-1.07567452636E-02	4.12711352349E-02	5.71703981943E-02	4.03815679783E-02	5.74335661308E-02	2.45789918184E-01	-3.68646598837E-03
1.74450000000E+09	-1.84595891506E-01	-8.91848866890E-03	4.24131034859E-02	5.62377698009E-02	4.15079101241E-02	5.65015342805E-02	2.44725230852E-01	-9.04945370349E-03
1.74500000000E+09	-1.87297476978E-01	-6.97438156681E-03	4.35304646225E-02	5.52789344095E-02	4.26442952593E-02	5.55669352190E-02	2.43528205375E-01	-1.44168374713E-02
1.74550000000E+09	-1.89952611467E-01	-4.92191452150E-03	4.45835965088E-02	5.43209062729E-02	4.37073037092E-02	5.46218223777E-02	2.42100796201E-01	-1.97257238735E-02
1.74600000000E+09	-1.92517334859E-01	-2.72595598545E-03	4.56671475420E-02	5.33425545683E-02	4.47886635388E-02	5.36587841563E-02	2.40586806884E-01	-2.50157331195E-02
1.74650000000E+09	-1.95024565510E-01	-4.19152951570E-04	4.66925067793E-02	5.22950347499E-02	4.58301401159E-02	5.26552602758E-02	2.38840952502E-01	-3.02752484068E-02
1.74700000000E+09	-1.97469121448E-01	1.99933706026E-03	4.77003189252E-02	5.12863760914E-02	4.68541945552E-02	5.16251529345E-02	2.36943099955E-01	-3.54687576891E-02
1.74750000000E+09	-1.99857173394E-01	4.56986867828E-03	4.86936651834E-02	5.02516072142E-02	4.78461124120E-02	5.06288788541E-02	2.34899383320E-01	-4.06295936495E-02
1.74800000000E+09	-2.02118560722E-01	7.21729577464E-03	4.96430688116E-02	4.91854249087E-02	4.88412619591E-02	4.95882013650E-02	2.32649378826E-01	-4.57102074613E-02
1.74850000000E+09	-2.04317016245E-01	9.97660125489E-03	5.06114178083E-02	4.81246690569E-02	4.97644074551E-02	4.85231967341E-02	2.30271797191E-01	-5.07378147823E-02
1.74900000000E+09	-2.06350253504E-01	1.28046178302E-02	5.14905292823E-02	4.70176192160E-02	5.06919335265E-02	4.74490619801E-02	2.27770845936E-01	-5.56652231536E-02
1.74950000000E+09	-2.08364987863E-01	1.58321906692E-02	5.24039257006E-02	4.59216523744E-02	5.16006759236E-02	4.63854090654E-02	2.25072971219E-01	-6.05941869597E-02
1.75000000000E+09	-2.10210962411E-01	1.88985973895E-02	5.32747362278E-02	4.47788066001E-02	5.24836708399E-02	4.52762656373E-02	2.22165521019E-01	-6.53607934845E-02
1.75050000000E+09	-2.11889727430E-01	2.20805672717E-02	5.41105338095E-02	4.36604546815E-02	5.33359862965E-02	4.41415942272E-02	2.19169702062E-01	-7.01542746232E-02
1.75100000000E+09	-2.13530455660E-01	2.53669179844E-02	5.49254926199E-02	4.25346591826E-02	5.41527583027E-02	4.30446931381E-02	2.16018138012E-01	-7.47666199045E-02
1.75150000000E+09	-2.14998267061E-01	2.87760799170E-02	5.57552369120E-02	4.13674820534E-02	5.49568604417E-02	4.18941926053E-02	2.12682316997E-01	-7.93172855667E-02
1.75200000000E+09	-2.16292856787E-01	3.21748766650E-02	5.65090941536E-02	4.02208055204E-02	5.57412029113E-02	4.07408095226E-02	2.09220946429E-01	-8.37820723982E-02
1.75250000000E+09	-2.17459499390E-01	3.57152900708E-02	5.72661080714E-02	3.90551149299E-02	5.65021213876E-02	3.95942076766E-02	2.05601423790E-01	-8.80675177617E-02
1.75300000000E+09	-2.18491122293E-01	3.92995911858E-02	5.79878445347E-02	3.78512741094E-02	5.72466578774E-02	3.84164762454E-02	2.01866822022E-01	-9.23393549521E-02
1.75350000000E+09	-2.19336965999E-01	4.29544584461E-02	5.86759531402E-02	3.66697603305E-02	5.79373283735E-02	3.72587063948E-02	1.97991877025E-01	-9.64712086997E-02
1.75400000000E+09	-2.20056505229E-01	4.66120875580E-02	5.93562358331E-02	3.54310474603E-02	5.86208374316E-02	3.60570329196E-02	1.93937667756E-01	-1.00506843198E-01
1.75450000000E+09	-2.20581243361E-01	5.03806013868E-02	6.00093809801E-02	3.42676799008E-02	5.92890359807E-02	3.48485838094E-02	1.89810931123E-01	-1.04387855123E-01
1.75500000000E+09	-2.20917312848E-01	5.41472359301E-02	6.06418589698E-02	3.30261313375E-02	5.99423940222E-02	3.36729261213E-02	1.85546505921E-01	-1.08197664672E-01
1.75550000000E+09	-2.21082895970E-01	5.79455722062E-02	6.12582533178E-02	3.18013788478E-02	6.05817802253E-02	3.24530530340E-02	1.81067235877E-01	-1.11823137441E-01
1.75600000000E+09	-2.21121297792E-01	6.17733071975E-02	6.18510588517E-02	3.05616647049E-02	6.11790168974E-02	3.12233621452E-02	1.76548077453E-01	-1.15342249708E-01
1.75650000000E+09	-2.20930956960E-01	6.55859529486E-02	6.24206745335E-02	2.93234289578E-02	6.17459625178E-02	2.99991228845E-02	1.71902620439E-01	-1.18679927095E-01
1.75700000000E+09	-2.20607402989E-01	6.93885296087E-02	6.29747460900E-02	2.80971934906E-02	6.23073890605E-02	2.87526094113E-02	1.67154766197E-01	-1.21932195581E-01
1.75750000000E+09	-2.20084371117E-01	7.31893422042E-02	6.34782678040E-02	2.68178122121E-02	6.28393293911E-02	2.75176450394E-02	1.62267166882E-01	-1.25018606040E-01
1.75800000000E+09	-2.19390314974E-01	7.69729587489E-02	6.40142285128E-02	2.55579104547E-02	6.33724983497E-02	2.62511794031E-02	1.57314113264E-01	-1.28002378288E-01
1.75850000000E+09	-2.18498497098E-01	8.06814384834E-02	6.44967762833E-02	2.42814776483E-02	6.38661782814E-02	2.50151306636E-02	1.52293407396E-01	-1.30735401294E-01
1.75900000000E+09	-2.17415147925E-01	8.43772823483E-02	6.49330691480E-02	2.30093378428E-02	6.43391494691E-02	2.37520714111E-02	1.47093443710E-01	-1.33338119206E-01
