# Hz S RI R 50
! CMT, CMT808U, 21440046, 21.4.3/4
! Date: 4/9/2026 1:43:20 AM
! Data: Format (Calibration Info)
! Freq	S11:Re/Im(F2)	S41:Re/Im(F2)	S14:Re/Im(F2)	S44:Re/Im(F2)
1.70000000000E+09	-1.18848385262E-01	9.69387008599E-02	-6.93444719952E-02	2.76807472904E-02	-6.94045499538E-02	2.67662633187E-02	-4.67000875769E-02	1.56364611281E-01
1.70050000000E+09	-1.16099332744E-01	9.68282780653E-02	-6.87435322124E-02	2.91560344896E-02	-6.88269289763E-02	2.82300771238E-02	-4.32382585789E-02	1.60617005332E-01
1.70100000000E+09	-1.13404902476E-01	9.65890099263E-02	-6.81519037768E-02	3.05656291599E-02	-6.82304483114E-02	2.96867498049E-02	-3.97068430432E-02	1.64691408937E-01
1.70150000000E+09	-1.10708280415E-01	9.61935276246E-02	-6.74970901890E-02	3.20426054373E-02	-6.75897822728E-02	3.11307081979E-02	-3.59812995943E-02	1.68675318379E-01
1.70200000000E+09	-1.08036650360E-01	9.56778418452E-02	-6.67897038473E-02	3.34489083063E-02	-6.69008052953E-02	3.25377907467E-02	-3.21801649048E-02	1.72562021939E-01
1.70250000000E+09	-1.05447239369E-01	9.49976525096E-02	-6.60850067589E-02	3.48555516396E-02	-6.62078450053E-02	3.39395353865E-02	-2.82291156462E-02	1.76353813782E-01
1.70300000000E+09	-1.02884682034E-01	9.41980456698E-02	-6.53267442833E-02	3.62560974291E-02	-6.54752556045E-02	3.53434801517E-02	-2.41663433267E-02	1.80001233021E-01
1.70350000000E+09	-1.00394039338E-01	9.32494708240E-02	-6.45455778022E-02	3.76209812709E-02	-6.47302516198E-02	3.67298506420E-02	-2.00067993342E-02	1.83540404102E-01
1.70400000000E+09	-9.79606589314E-02	9.21993954154E-02	-6.37684363820E-02	3.90080946380E-02	-6.39285227967E-02	3.81139471944E-02	-1.57035263141E-02	1.86897077760E-01
1.70450000000E+09	-9.55876948248E-02	9.10237458724E-02	-6.29154923210E-02	4.03401383939E-02	-6.31163339108E-02	3.94348674707E-02	-1.13612314610E-02	1.90157625316E-01
1.70500000000E+09	-9.33089889237E-02	8.97042551303E-02	-6.20496896091E-02	4.16774988909E-02	-6.22734492319E-02	4.08012802629E-02	-6.80621420865E-03	1.93234688806E-01
1.70550000000E+09	-9.10628785407E-02	8.82983202045E-02	-6.11298077832E-02	4.29707908717E-02	-6.13997059330E-02	4.21226173322E-02	-2.27174209253E-03	1.96227181405E-01
1.70600000000E+09	-8.89550667699E-02	8.67988566729E-02	-6.02240234842E-02	4.42843006938E-02	-6.05012892302E-02	4.34141445496E-02	2.38763722175E-03	1.99082411831E-01
1.70650000000E+09	-8.69140463401E-02	8.51750126417E-02	-5.92657838066E-02	4.55652730437E-02	-5.95480097214E-02	4.47010029824E-02	7.12567978525E-03	2.01770449427E-01
1.70700000000E+09	-8.49393828139E-02	8.34700609043E-02	-5.82871906762E-02	4.68348228900E-02	-5.85947690406E-02	4.59666590920E-02	1.19855887321E-02	2.04308548407E-01
1.70750000000E+09	-8.30805230229E-02	8.16604998934E-02	-5.72795454014E-02	4.80488259103E-02	-5.76133565457E-02	4.72063661173E-02	1.69607948622E-02	2.06754231094E-01
1.70800000000E+09	-8.13072643392E-02	7.98152583997E-02	-5.62302882403E-02	4.92826620720E-02	-5.65697200091E-02	4.84293950988E-02	2.19109799229E-02	2.09014551713E-01
1.70850000000E+09	-7.96536925365E-02	7.78331040121E-02	-5.51921578273E-02	5.04724490181E-02	-5.55377166167E-02	4.96472627583E-02	2.70066447224E-02	2.11067582377E-01
1.70900000000E+09	-7.80716291786E-02	7.58159373700E-02	-5.40835715237E-02	5.16461114522E-02	-5.44463081117E-02	5.08046016182E-02	3.21267435386E-02	2.13012537638E-01
1.70950000000E+09	-7.66198665780E-02	7.37260696233E-02	-5.29604469423E-02	5.27849427028E-02	-5.33563462348E-02	5.19577038811E-02	3.73138001197E-02	2.14811427294E-01
1.71000000000E+09	-7.52747710563E-02	7.15819470738E-02	-5.18424952801E-02	5.39245993873E-02	-5.22528202581E-02	5.30934118214E-02	4.25142689660E-02	2.16481386517E-01
1.71050000000E+09	-7.40415455514E-02	6.93516518746E-02	-5.06429854295E-02	5.50491515920E-02	-5.10700940266E-02	5.41879059557E-02	4.77963360065E-02	2.17955338235E-01
1.71100000000E+09	-7.28970695320E-02	6.70639873942E-02	-4.94774841895E-02	5.60915922278E-02	-4.99159068235E-02	5.52782700353E-02	5.31415344523E-02	2.19233592468E-01
1.71150000000E+09	-7.18560208333E-02	6.47906078647E-02	-4.82440190847E-02	5.71439068688E-02	-4.87043765993E-02	5.63300257846E-02	5.85226007847E-02	2.20381059521E-01
1.71200000000E+09	-7.09250028796E-02	6.24538580582E-02	-4.70013028206E-02	5.81844487356E-02	-4.74794662362E-02	5.73808493721E-02	6.39124536940E-02	2.21356943207E-01
1.71250000000E+09	-7.01407103286E-02	6.00927208866E-02	-4.57448506866E-02	5.91740046924E-02	-4.62455707066E-02	5.83915099497E-02	6.93549937053E-02	2.22246520736E-01
1.71300000000E+09	-6.94149689075E-02	5.76885918279E-02	-4.44456673752E-02	6.01429474861E-02	-4.49681872416E-02	5.93599370231E-02	7.47840249461E-02	2.22883842401E-01
1.71350000000E+09	-6.88532785407E-02	5.52761798134E-02	-4.31471673070E-02	6.10540626900E-02	-4.36887470451E-02	6.03131406966E-02	8.02596615377E-02	2.23396109784E-01
1.71400000000E+09	-6.83351325329E-02	5.28201614005E-02	-4.18195819978E-02	6.19823013707E-02	-4.23719163087E-02	6.12351781525E-02	8.57650368426E-02	2.23763045752E-01
1.71450000000E+09	-6.79840877174E-02	5.03670606659E-02	-4.04839803737E-02	6.28658658302E-02	-4.10164509524E-02	6.21291813259E-02	9.12749133017E-02	2.23913268607E-01
1.71500000000E+09	-6.76862826113E-02	4.79050683575E-02	-3.90929975061E-02	6.37057976152E-02	-3.96614629796E-02	6.30073354163E-02	9.68090088545E-02	2.23932115303E-01
1.71550000000E+09	-6.75488728537E-02	4.54546404741E-02	-3.76952645196E-02	6.45214206465E-02	-3.83216005554E-02	6.38262702747E-02	1.02259706949E-01	2.23764468176E-01
1.71600000000E+09	-6.74793574984E-02	4.29852156730E-02	-3.62974063909E-02	6.53046498702E-02	-3.69172983458E-02	6.46310253899E-02	1.07764668165E-01	2.23441568522E-01
1.71650000000E+09	-6.75228836201E-02	4.04933102129E-02	-3.48727578676E-02	6.60731309356E-02	-3.55037348889E-02	6.53787965116E-02	1.13253621473E-01	2.22970856286E-01
1.71700000000E+09	-6.76734765647E-02	3.80876262419E-02	-3.34572674346E-02	6.67925715395E-02	-3.40921559857E-02	6.61459218661E-02	1.18732674470E-01	2.22314974719E-01
1.71750000000E+09	-6.78999547038E-02	3.56161986789E-02	-3.19969997279E-02	6.74726097755E-02	-3.26495263887E-02	6.68321554451E-02	1.24198536182E-01	2.21433038838E-01
1.71800000000E+09	-6.82855044819E-02	3.31983780796E-02	-3.04967979732E-02	6.81323610104E-02	-3.12118535626E-02	6.74954664531E-02	1.29614554791E-01	2.20538848554E-01
1.71850000000E+09	-6.86825620486E-02	3.07597261071E-02	-2.90421315017E-02	6.87522484905E-02	-2.97225856292E-02	6.81476588535E-02	1.34979513842E-01	2.19312070400E-01
1.71900000000E+09	-6.92402245965E-02	2.83996998474E-02	-2.75621477746E-02	6.93546429552E-02	-2.82575312747E-02	6.87542120060E-02	1.40372624043E-01	2.18061509522E-01
1.71950000000E+09	-6.98592509366E-02	2.60076694474E-02	-2.60341703401E-02	6.99019795994E-02	-2.67505569078E-02	6.93207111747E-02	1.45634724266E-01	2.16612750061E-01
1.72000000000E+09	-7.05896424697E-02	2.36647902349E-02	-2.45186273393E-02	7.04400535508E-02	-2.52534214991E-02	6.98781897300E-02	1.50959765188E-01	2.15052064864E-01
1.72050000000E+09	-7.14134298905E-02	2.13449944743E-02	-2.29764909192E-02	7.09258084888E-02	-2.37298600242E-02	7.03732071198E-02	1.56158734411E-01	2.13257685920E-01
1.72100000000E+09	-7.23049937084E-02	1.90361565652E-02	-2.14388943042E-02	7.13937376760E-02	-2.22012748351E-02	7.08427924134E-02	1.61312195839E-01	2.11322185312E-01
1.72150000000E+09	-7.33088837133E-02	1.67943220299E-02	-1.99285523169E-02	7.18101954807E-02	-2.06760713574E-02	7.12803326136E-02	1.66433814735E-01	2.09220183918E-01
1.72200000000E+09	-7.43698100905E-02	1.45857153504E-02	-1.83456155519E-02	7.21863725552E-02	-1.91105016516E-02	7.16978637787E-02	1.71486904986E-01	2.06940458419E-01
1.72250000000E+09	-7.55446876011E-02	1.24290937285E-02	-1.67735266296E-02	7.25546646503E-02	-1.75590597714E-02	7.20744379765E-02	1.76510500208E-01	2.04620380717E-01
1.72300000000E+09	-7.68151145224E-02	1.02752509333E-02	-1.52044806449E-02	7.28936028017E-02	-1.59886349006E-02	7.24063812730E-02	1.81416844038E-01	2.02070494067E-01
1.72350000000E+09	-7.81599318529E-02	8.17548038274E-03	-1.36376147483E-02	7.31469012768E-02	-1.44208569392E-02	7.26967841508E-02	1.86232658376E-01	1.99374604063E-01
1.72400000000E+09	-7.95695334939E-02	6.12895509777E-03	-1.20556282954E-02	7.34219320962E-02	-1.28736605759E-02	7.29623728783E-02	1.90995546584E-01	1.96587694624E-01
1.72450000000E+09	-8.10742612604E-02	4.10263595195E-03	-1.04623932325E-02	7.36237036638E-02	-1.12849032210E-02	7.31946683483E-02	1.95656615970E-01	1.93670929367E-01
1.72500000000E+09	-8.26112672326E-02	2.16534920668E-03	-8.87916984474E-03	7.38037021214E-02	-9.70379355872E-03	7.34004590706E-02	2.00221619902E-01	1.90553700147E-01
1.72550000000E+09	-8.42743241956E-02	2.62060813139E-04	-7.28113958208E-03	7.39372106304E-02	-8.12109849796E-03	7.35593913099E-02	2.04722286858E-01	1.87315965697E-01
1.72600000000E+09	-8.60107012439E-02	-1.58740558863E-03	-5.67201010909E-03	7.40416506195E-02	-6.53931639197E-03	7.36905887592E-02	2.09130213719E-01	1.83899789339E-01
1.72650000000E+09	-8.78107437988E-02	-3.37585463986E-03	-4.10298840103E-03	7.41140720275E-02	-4.93798600726E-03	7.37879702726E-02	2.13425834305E-01	1.80442645632E-01
1.72700000000E+09	-8.96723740319E-02	-5.09491116500E-03	-2.49017910233E-03	7.41589154318E-02	-3.36033329869E-03	7.38406676419E-02	2.17601732712E-01	1.76832273017E-01
1.72750000000E+09	-9.16313679458E-02	-6.78009942285E-03	-9.07215306395E-04	7.41721556145E-02	-1.74911739102E-03	7.38688087117E-02	2.21684339069E-01	1.73088015362E-01
1.72800000000E+09	-9.36476620943E-02	-8.39384924128E-03	6.88330192164E-04	7.41310847840E-02	-1.90554037937E-04	7.38331831027E-02	2.25665472503E-01	1.69206093249E-01
1.72850000000E+09	-9.57519596526E-02	-9.91320813839E-03	2.28995076157E-03	7.40662271235E-02	1.40667308600E-03	7.37897429372E-02	2.29526564626E-01	1.65218987961E-01
1.72900000000E+09	-9.79017081530E-02	-1.13810207006E-02	3.87086490493E-03	7.39508517845E-02	2.97828727350E-03	7.37135922523E-02	2.33272669601E-01	1.61105426465E-01
1.72950000000E+09	-1.00150266011E-01	-1.27584154403E-02	5.46462648782E-03	7.38168830079E-02	4.54833854062E-03	7.35977706617E-02	2.36884249273E-01	1.56950011917E-01
1.73000000000E+09	-1.02413788802E-01	-1.41097985015E-02	7.03096569462E-03	7.36367463845E-02	6.15169232188E-03	7.34396840943E-02	2.40383185168E-01	1.52614488832E-01
1.73050000000E+09	-1.04782956728E-01	-1.53368869160E-02	8.61322616466E-03	7.34208829428E-02	7.72178126685E-03	7.32464947976E-02	2.43726204598E-01	1.48181280314E-01
1.73100000000E+09	-1.07163391657E-01	-1.65530020087E-02	1.01629788713E-02	7.31972669015E-02	9.26935745305E-03	7.30162596574E-02	2.46962223428E-01	1.43677101976E-01
1.73150000000E+09	-1.09663305416E-01	-1.76073812562E-02	1.17444956544E-02	7.29433129943E-02	1.08375556222E-02	7.27733645605E-02	2.50062600767E-01	1.39063967612E-01
1.73200000000E+09	-1.12162505024E-01	-1.86086688146E-02	1.32808167242E-02	7.26107903852E-02	1.23756887006E-02	7.24684330022E-02	2.52983688602E-01	1.34338937306E-01
1.73250000000E+09	-1.14763010111E-01	-1.95322047368E-02	1.48176586035E-02	7.22860742105E-02	1.39033858796E-02	7.21628910299E-02	2.55872199600E-01	1.29564542411E-01
1.73300000000E+09	-1.17391005002E-01	-2.03600620937E-02	1.63620332290E-02	7.18995093418E-02	1.54398215376E-02	7.17986999902E-02	2.58539796254E-01	1.24680857030E-01
1.73350000000E+09	-1.20072970913E-01	-2.10530588581E-02	1.78761700301E-02	7.14696754891E-02	1.69685788189E-02	7.13923135422E-02	2.61038208265E-01	1.19662541925E-01
1.73400000000E+09	-1.22784789774E-01	-2.17029851977E-02	1.93920759508E-02	7.10234303248E-02	1.84800627985E-02	7.09787658451E-02	2.63456661182E-01	1.14684947807E-01
1.73450000000E+09	-1.25585904400E-01	-2.22449434034E-02	2.08743138158E-02	7.05350578985E-02	1.99574074240E-02	7.05285491083E-02	2.65680826232E-01	1.09587814105E-01
1.73500000000E+09	-1.28371096331E-01	-2.26817575496E-02	2.23838506065E-02	7.00390633949E-02	2.14638159140E-02	7.00312901575E-02	2.67751810858E-01	1.04352324471E-01
1.73550000000E+09	-1.31230384344E-01	-2.30220953669E-02	2.38371053550E-02	6.95176929119E-02	2.29343520620E-02	6.95252232495E-02	2.69700057685E-01	9.91045987566E-02
1.73600000000E+09	-1.34093935300E-01	-2.32362807938E-02	2.53034297848E-02	6.89418294141E-02	2.44005642221E-02	6.89653518458E-02	2.71462028308E-01	9.38125786790E-02
1.73650000000E+09	-1.37014542877E-01	-2.33691427628E-02	2.67528174966E-02	6.83409306359E-02	2.58392492126E-02	6.83858833661E-02	2.73128335328E-01	8.84632341827E-02
1.73700000000E+09	-1.39932794637E-01	-2.33842370711E-02	2.81998412119E-02	6.77105347359E-02	2.72768700573E-02	6.77646873973E-02	2.74530403316E-01	8.30221728672E-02
1.73750000000E+09	-1.42873496487E-01	-2.32588597052E-02	2.95878696121E-02	6.70545030379E-02	2.86953424707E-02	6.71104029352E-02	2.75830739656E-01	7.76066905295E-02
1.73800000000E+09	-1.45850777291E-01	-2.30727580223E-02	3.09814168196E-02	6.63465478966E-02	3.00866643766E-02	6.64396092418E-02	2.76951547746E-01	7.21026792483E-02
1.73850000000E+09	-1.48847206514E-01	-2.27243804763E-02	3.23594425718E-02	6.56535836396E-02	3.14683821550E-02	6.57398474991E-02	2.77962076644E-01	6.66089036575E-02
1.73900000000E+09	-1.51827003115E-01	-2.22822503332E-02	3.37243760688E-02	6.48735906120E-02	3.28295787259E-02	6.50119952518E-02	2.78798307724E-01	6.10024198389E-02
1.73950000000E+09	-1.54815007328E-01	-2.17146144097E-02	3.50863567631E-02	6.41097671179E-02	3.41636356019E-02	6.42735963198E-02	2.79407618247E-01	5.54568620008E-02
1.74000000000E+09	-1.57821503958E-01	-2.10194544892E-02	3.63969920958E-02	6.32963679576E-02	3.54908963256E-02	6.34555337644E-02	2.79893540448E-01	4.98055500947E-02
1.74050000000E+09	-1.60825026761E-01	-2.02274368915E-02	3.76802908608E-02	6.24745274011E-02	3.67934211977E-02	6.26483785265E-02	2.80120325332E-01	4.41988564752E-02
1.74100000000E+09	-1.63841277518E-01	-1.93242985239E-02	3.89986025210E-02	6.16128627308E-02	3.80887147142E-02	6.18004305166E-02	2.80318707990E-01	3.85300220790E-02
1.74150000000E+09	-1.66761965138E-01	-1.83077501435E-02	4.02264995240E-02	6.07277068445E-02	3.93653320591E-02	6.09439856745E-02	2.80280391502E-01	3.29364120856E-02
1.74200000000E+09	-1.69765734691E-01	-1.71135973170E-02	4.14860914141E-02	5.98174224273E-02	4.05797269888E-02	6.00395514728E-02	2.80048208759E-01	2.72252010726E-02
1.74250000000E+09	-1.72694088502E-01	-1.57962205164E-02	4.26979658862E-02	5.88821258568E-02	4.18295900991E-02	5.91258464555E-02	2.79656498209E-01	2.16053002244E-02
1.74300000000E+09	-1.75575756003E-01	-1.43788674290E-02	4.39052433334E-02	5.79194820950E-02	4.30339973238E-02	5.81861285757E-02	2.79157641885E-01	1.59585904007E-02
1.74350000000E+09	-1.78431856157E-01	-1.28348046079E-02	4.50826990475E-02	5.69205920805E-02	4.41973878515E-02	5.72276500476E-02	2.78423070073E-01	1.03090806915E-02
1.74400000000E+09	-1.81293369155E-01	-1.11799818836E-02	4.62214597321E-02	5.58974031618E-02	4.53360900232E-02	5.62404909685E-02	2.77515574420E-01	4.73726820953E-03
1.74450000000E+09	-1.84080758886E-01	-9.37774471081E-03	4.73253645727E-02	5.49207357796E-02	4.64746800214E-02	5.52184763430E-02	2.76456684139E-01	-8.36475284750E-04
1.74500000000E+09	-1.86811745306E-01	-7.43449030018E-03	4.84412975227E-02	5.38406353455E-02	4.75751481944E-02	5.41776497442E-02	2.75202111945E-01	-6.39038285154E-03
1.74550000000E+09	-1.89477157890E-01	-5.43758957734E-03	4.94950424150E-02	5.27635486120E-02	4.86561729475E-02	5.31565236413E-02	2.73821442949E-01	-1.19253940274E-02
1.74600000000E+09	-1.92081956242E-01	-3.21844596871E-03	5.05574831837E-02	5.16649512762E-02	4.97284541150E-02	5.20654740966E-02	2.72271540972E-01	-1.74005605956E-02
1.74650000000E+09	-1.94619032022E-01	-9.57354762977E-04	5.15665647391E-02	5.05839722307E-02	5.07374622380E-02	5.09756858975E-02	2.70504759996E-01	-2.28802403657E-02
1.74700000000E+09	-1.97092677365E-01	1.44310787907E-03	5.25678356802E-02	4.94369418834E-02	5.17431780855E-02	4.98719166253E-02	2.68598451313E-01	-2.82392009013E-02
1.74750000000E+09	-1.99491130797E-01	3.99217786789E-03	5.35452120281E-02	4.83133479368E-02	5.27323663729E-02	4.87361260945E-02	2.66526492612E-01	-3.35842001147E-02
1.74800000000E+09	-2.01779471401E-01	6.64376891783E-03	5.44850431662E-02	4.71446266630E-02	5.36756603170E-02	4.75948109587E-02	2.64259269205E-01	-3.88571988335E-02
1.74850000000E+09	-2.04013100902E-01	9.37100799311E-03	5.54060000863E-02	4.59638557461E-02	5.46134740090E-02	4.64346732222E-02	2.61871780683E-01	-4.40897456050E-02
1.74900000000E+09	-2.06091461590E-01	1.22199028707E-02	5.63088548361E-02	4.47792922157E-02	5.55103737959E-02	4.52446942161E-02	2.59303118891E-01	-4.92420246829E-02
1.74950000000E+09	-2.08107572768E-01	1.52125318032E-02	5.71630438513E-02	4.35572215536E-02	5.63940414466E-02	4.40721445921E-02	2.56607734410E-01	-5.42979492253E-02
1.75000000000E+09	-2.09968706228E-01	1.82529806813E-02	5.80011153762E-02	4.23606108786E-02	5.72159999715E-02	4.28408393409E-02	2.53672667491E-01	-5.92542346635E-02
1.75050000000E+09	-2.11680937778E-01	2.14308353150E-02	5.87984867718E-02	4.10994790710E-02	5.80222663921E-02	4.16396869318E-02	2.50631645175E-01	-6.41808224273E-02
1.75100000000E+09	-2.13348227234E-01	2.47086536738E-02	5.95913287502E-02	3.98553441335E-02	5.88428741632E-02	4.03877087405E-02	2.47437540860E-01	-6.90451043077E-02
1.75150000000E+09	-2.14866441604E-01	2.80903816752E-02	6.03510854065E-02	3.85944676244E-02	5.96040546688E-02	3.91462099765E-02	2.44099124003E-01	-7.37606239910E-02
1.75200000000E+09	-2.16177852659E-01	3.15213170785E-02	6.10669271386E-02	3.73168006803E-02	6.03359383642E-02	3.78913195613E-02	2.40566014158E-01	-7.83790668847E-02
1.75250000000E+09	-2.17392890752E-01	3.50144561041E-02	6.17802927585E-02	3.60418116895E-02	6.10395862037E-02	3.66302138312E-02	2.36962563558E-01	-8.28513874144E-02
1.75300000000E+09	-2.18466121731E-01	3.86161893946E-02	6.24536211138E-02	3.47463739370E-02	6.17319332096E-02	3.53582158199E-02	2.33173471933E-01	-8.72853567593E-02
1.75350000000E+09	-2.19323356232E-01	4.22662962014E-02	6.31056972783E-02	3.34439020181E-02	6.23929277851E-02	3.40852449416E-02	2.29239010804E-01	-9.15659188018E-02
1.75400000000E+09	-2.20073990798E-01	4.59154947304E-02	6.37183655218E-02	3.21462363940E-02	6.30111684909E-02	3.27816474066E-02	2.25142039410E-01	-9.57538378814E-02
1.75450000000E+09	-2.20677340842E-01	4.96744006078E-02	6.43224609287E-02	3.08390089661E-02	6.36349763473E-02	3.14874969669E-02	2.20967578898E-01	-9.98038646473E-02
1.75500000000E+09	-2.21048537142E-01	5.34627801041E-02	6.48972183818E-02	2.94975197314E-02	6.42215229891E-02	3.01807141710E-02	2.16651207927E-01	-1.03760342100E-01
1.75550000000E+09	-2.21290815024E-01	5.72729499974E-02	6.54183320463E-02	2.81709607620E-02	6.47892950762E-02	2.88523603879E-02	2.12145920305E-01	-1.07547590125E-01
1.75600000000E+09	-2.21311318447E-01	6.10588480015E-02	6.59445567525E-02	2.68245008259E-02	6.53073309544E-02	2.75383425033E-02	2.07534120579E-01	-1.11234492247E-01
1.75650000000E+09	-2.21193188379E-01	6.49053879108E-02	6.64417662397E-02	2.55047803784E-02	6.58176726665E-02	2.62168651327E-02	2.02829934901E-01	-1.14740758279E-01
1.75700000000E+09	-2.20891825338E-01	6.87074655963E-02	6.69153408978E-02	2.41392468512E-02	6.63008416119E-02	2.48785335739E-02	1.98013193626E-01	-1.18121741487E-01
1.75750000000E+09	-2.20441321421E-01	7.25064564249E-02	6.73548520750E-02	2.27847319980E-02	6.67569792170E-02	2.35096186460E-02	1.93081438842E-01	-1.21372857382E-01
1.75800000000E+09	-2.19776518266E-01	7.63216335081E-02	6.77628043694E-02	2.14280894381E-02	6.72076811945E-02	2.21882259859E-02	1.88073592845E-01	-1.24421020788E-01
1.75850000000E+09	-2.18914772985E-01	8.00466817076E-02	6.81746792259E-02	2.00587016048E-02	6.76117749305E-02	2.08422458780E-02	1.82949385014E-01	-1.27340535885E-01
1.75900000000E+09	-2.17913729952E-01	8.38022795116E-02	6.85452083763E-02	1.87069559481E-02	6.79816036598E-02	1.94922236509E-02	1.77670160267E-01	-1.30115288014E-01
