# Hz S RI R 50
! CMT, CMT808U, 21440046, 21.4.3/4
! Date: 4/9/2026 1:52:30 AM
! Data: Format (Calibration Info)
! Freq	S11:Re/Im(F2)	S41:Re/Im(F2)	S14:Re/Im(F2)	S44:Re/Im(F2)
1.70000000000E+09	-1.19189641156E-01	9.72600874745E-02	-6.58949257206E-02	2.54612033633E-02	-6.59359169602E-02	2.45643016057E-02	-8.78623369475E-02	1.63630200781E-01
1.70050000000E+09	-1.16434852783E-01	9.71482118016E-02	-6.53823842674E-02	2.68612711378E-02	-6.54125479558E-02	2.59563781259E-02	-8.43307819613E-02	1.67895999388E-01
1.70100000000E+09	-1.13713534287E-01	9.69180712657E-02	-6.48015654696E-02	2.82613261691E-02	-6.48686140620E-02	2.73470601485E-02	-8.07224472617E-02	1.72048335586E-01
1.70150000000E+09	-1.10969009686E-01	9.65359548137E-02	-6.41944489430E-02	2.96143983981E-02	-6.42872948854E-02	2.87207515639E-02	-7.69791043801E-02	1.76133710401E-01
1.70200000000E+09	-1.08302561836E-01	9.60349587450E-02	-6.35665146635E-02	3.09882488719E-02	-6.36728987306E-02	3.00882071043E-02	-7.30806505232E-02	1.80068177089E-01
1.70250000000E+09	-1.05692178068E-01	9.53635096611E-02	-6.29236657069E-02	3.23428119314E-02	-6.30507673263E-02	3.14763848552E-02	-6.90565747870E-02	1.83919034300E-01
1.70300000000E+09	-1.03108294710E-01	9.45608564385E-02	-6.22395526952E-02	3.37039431108E-02	-6.23887829144E-02	3.27892290760E-02	-6.49089251937E-02	1.87602021175E-01
1.70350000000E+09	-1.00626242799E-01	9.36090849409E-02	-6.15374790531E-02	3.50167179659E-02	-6.17001827343E-02	3.41249722537E-02	-6.07094548929E-02	1.91178023264E-01
1.70400000000E+09	-9.81386986897E-02	9.25742006076E-02	-6.07736468998E-02	3.63457590392E-02	-6.09525347735E-02	3.54617668481E-02	-5.63492258610E-02	1.94569902217E-01
1.70450000000E+09	-9.57530924736E-02	9.13848339742E-02	-6.00203758230E-02	3.76381077939E-02	-6.01787081398E-02	3.67698923457E-02	-5.19129329984E-02	1.97856453528E-01
1.70500000000E+09	-9.34533368847E-02	9.00765984427E-02	-5.91867769405E-02	3.89117769558E-02	-5.94175396659E-02	3.80512700476E-02	-4.73889736600E-02	2.00990040612E-01
1.70550000000E+09	-9.12338822961E-02	8.86687820777E-02	-5.83761703467E-02	4.01982734556E-02	-5.86098094324E-02	3.93269324783E-02	-4.27743723844E-02	2.04041233074E-01
1.70600000000E+09	-8.90520684729E-02	8.71538276881E-02	-5.75086019437E-02	4.14368007781E-02	-5.77708610738E-02	4.05744453718E-02	-3.80540213224E-02	2.06893036506E-01
1.70650000000E+09	-8.69975888870E-02	8.55418035394E-02	-5.66289623160E-02	4.26963489777E-02	-5.69019444858E-02	4.18308459353E-02	-3.32302497998E-02	2.09582843453E-01
1.70700000000E+09	-8.50491626659E-02	8.38331476269E-02	-5.57166032140E-02	4.39152926684E-02	-5.59805648821E-02	4.30293350263E-02	-2.83184360188E-02	2.12199275897E-01
1.70750000000E+09	-8.31355690151E-02	8.20295497681E-02	-5.47536026067E-02	4.50967922698E-02	-5.50607319530E-02	4.42383744422E-02	-2.33574341374E-02	2.14618214710E-01
1.70800000000E+09	-8.13682286909E-02	8.01376271193E-02	-5.37712883702E-02	4.62887151261E-02	-5.41265812995E-02	4.54276417666E-02	-1.82991668508E-02	2.16908730528E-01
1.70850000000E+09	-7.96934693549E-02	7.81678041833E-02	-5.27691968830E-02	4.74576243376E-02	-5.31506881342E-02	4.66131736315E-02	-1.32133679669E-02	2.19023758034E-01
1.70900000000E+09	-7.81398429494E-02	7.61628900810E-02	-5.17637609092E-02	4.85692774497E-02	-5.21193204996E-02	4.77556897484E-02	-8.02119552633E-03	2.20962160220E-01
1.70950000000E+09	-7.66110771598E-02	7.40682967054E-02	-5.07158973975E-02	4.97090905484E-02	-5.10982755200E-02	4.88583654619E-02	-2.83786616238E-03	2.22784426015E-01
1.71000000000E+09	-7.52812351980E-02	7.18918839508E-02	-4.96376363227E-02	5.07676001855E-02	-5.00240544603E-02	4.99777841092E-02	2.43910060684E-03	2.24433918539E-01
1.71050000000E+09	-7.39944117819E-02	6.96784277555E-02	-4.85328037546E-02	5.18730061630E-02	-4.89569549987E-02	5.10483126246E-02	7.77865981539E-03	2.25889475514E-01
1.71100000000E+09	-7.28388449515E-02	6.73891122820E-02	-4.74051520515E-02	5.28922688867E-02	-4.78386039172E-02	5.21042211199E-02	1.31516532906E-02	2.27190441187E-01
1.71150000000E+09	-7.18075480226E-02	6.50892768955E-02	-4.62374886421E-02	5.39139189793E-02	-4.67192298381E-02	5.31330216751E-02	1.85503586960E-02	2.28348010692E-01
1.71200000000E+09	-7.08817492719E-02	6.27414143595E-02	-4.50733702444E-02	5.49311074218E-02	-4.55626863820E-02	5.41334560595E-02	2.40044250638E-02	2.29303664900E-01
1.71250000000E+09	-7.00650885227E-02	6.03825517833E-02	-4.38823892215E-02	5.58979416869E-02	-4.43863644487E-02	5.51371436022E-02	2.94573713184E-02	2.30164112242E-01
1.71300000000E+09	-6.93409964531E-02	5.79688228527E-02	-4.26583823185E-02	5.68366575525E-02	-4.32152246442E-02	5.60829477627E-02	3.48992057407E-02	2.30841393817E-01
1.71350000000E+09	-6.87427343324E-02	5.55491148272E-02	-4.14266701483E-02	5.77336164423E-02	-4.19597917386E-02	5.70170558717E-02	4.04310202892E-02	2.31328839744E-01
1.71400000000E+09	-6.82306622722E-02	5.30783061693E-02	-4.01655417323E-02	5.86395129761E-02	-4.07321687954E-02	5.79132304259E-02	4.59186662768E-02	2.31636435688E-01
1.71450000000E+09	-6.78511632952E-02	5.06233993232E-02	-3.88921273715E-02	5.94978221988E-02	-3.94561227317E-02	5.87814501304E-02	5.14497166782E-02	2.31792404582E-01
1.71500000000E+09	-6.75638435840E-02	4.81547623921E-02	-3.75694594649E-02	6.03550903150E-02	-3.81580864917E-02	5.96265116341E-02	5.69951306525E-02	2.31788902821E-01
1.71550000000E+09	-6.74002837208E-02	4.56790122155E-02	-3.62843952726E-02	6.11373487942E-02	-3.68553136009E-02	6.04240379882E-02	6.24777458231E-02	2.31590228973E-01
1.71600000000E+09	-6.73149161580E-02	4.31936995478E-02	-3.49416958021E-02	6.19202987807E-02	-3.55144721338E-02	6.12423077192E-02	6.80238150837E-02	2.31269360976E-01
1.71650000000E+09	-6.73497833169E-02	4.07120288168E-02	-3.35752212805E-02	6.26588517129E-02	-3.42148377540E-02	6.19879106366E-02	7.34899625071E-02	2.30741560092E-01
1.71700000000E+09	-6.75165045651E-02	3.82592391915E-02	-3.22067592146E-02	6.33557789897E-02	-3.28393051137E-02	6.27198018121E-02	7.89745571625E-02	2.30046322486E-01
1.71750000000E+09	-6.77498482226E-02	3.57951227134E-02	-3.08126331800E-02	6.40552315964E-02	-3.14648469990E-02	6.34128479940E-02	8.44807752307E-02	2.29240201049E-01
1.71800000000E+09	-6.80679401206E-02	3.33483625529E-02	-2.94105310203E-02	6.46874808454E-02	-3.00716861010E-02	6.40855734745E-02	8.98934239025E-02	2.28240490573E-01
1.71850000000E+09	-6.85039992379E-02	3.09030443114E-02	-2.79953245783E-02	6.53000912637E-02	-2.86683392070E-02	6.46945228699E-02	9.52721917705E-02	2.27011312340E-01
1.71900000000E+09	-6.90267841415E-02	2.85415535383E-02	-2.65594165163E-02	6.59046083029E-02	-2.72530403104E-02	6.53214011876E-02	1.00614837270E-01	2.25692728062E-01
1.71950000000E+09	-6.96645773076E-02	2.61336632734E-02	-2.51294291958E-02	6.64699569601E-02	-2.58324500982E-02	6.58875065250E-02	1.05945400085E-01	2.24202403692E-01
1.72000000000E+09	-7.03681176463E-02	2.37583222710E-02	-2.36720093571E-02	6.69700919636E-02	-2.43779883830E-02	6.64180561431E-02	1.11187758598E-01	2.22598489670E-01
1.72050000000E+09	-7.11841692531E-02	2.14114803525E-02	-2.21984383442E-02	6.74736680473E-02	-2.29321215531E-02	6.69158081543E-02	1.16411255445E-01	2.20734257653E-01
1.72100000000E+09	-7.20932072696E-02	1.91153674494E-02	-2.07198918743E-02	6.79086464870E-02	-2.14707011587E-02	6.73701789364E-02	1.21580958824E-01	2.18757180904E-01
1.72150000000E+09	-7.30721097207E-02	1.68603205363E-02	-1.92428953599E-02	6.83469826033E-02	-1.99806196586E-02	6.78147707896E-02	1.26716895727E-01	2.16614277304E-01
1.72200000000E+09	-7.41374798238E-02	1.46429578025E-02	-1.77375792251E-02	6.87492063224E-02	-1.84980410677E-02	6.82258047022E-02	1.31717249193E-01	2.14332052082E-01
1.72250000000E+09	-7.53150893685E-02	1.24451190428E-02	-1.62388072103E-02	6.90952891923E-02	-1.70037117196E-02	6.86008808240E-02	1.36708407046E-01	2.11902009783E-01
1.72300000000E+09	-7.65778180196E-02	1.02943639159E-02	-1.47356199258E-02	6.94121473440E-02	-1.55124666762E-02	6.89303223989E-02	1.41546792872E-01	2.09358363403E-01
1.72350000000E+09	-7.79001454688E-02	8.16147955907E-03	-1.31980673877E-02	6.96863898715E-02	-1.40039571474E-02	6.92319969414E-02	1.46359691864E-01	2.06578813746E-01
1.72400000000E+09	-7.93169024889E-02	6.10544683931E-03	-1.16765701767E-02	6.99413847726E-02	-1.24967662812E-02	6.95078566038E-02	1.51078377093E-01	2.03733174588E-01
1.72450000000E+09	-8.08033114766E-02	4.06287950301E-03	-1.01508517588E-02	7.01502898286E-02	-1.09894034131E-02	6.97531373020E-02	1.55725937598E-01	2.00733027743E-01
1.72500000000E+09	-8.23893256540E-02	2.13184847396E-03	-8.60808762615E-03	7.03314084821E-02	-9.44860840426E-03	6.99536961790E-02	1.60246534627E-01	1.97553014230E-01
1.72550000000E+09	-8.40371888385E-02	1.81369145707E-04	-7.09584409171E-03	7.04842511978E-02	-7.91747499979E-03	7.01129684029E-02	1.64702726421E-01	1.94265874998E-01
1.72600000000E+09	-8.57685910394E-02	-1.67354925580E-03	-5.55350381306E-03	7.06077029164E-02	-6.39654892150E-03	7.02325068495E-02	1.69052393144E-01	1.90806375664E-01
1.72650000000E+09	-8.75745161101E-02	-3.48314389365E-03	-4.01239368311E-03	7.06906755581E-02	-4.86690518827E-03	7.03634036566E-02	1.73329211835E-01	1.87256787155E-01
1.72700000000E+09	-8.94611636186E-02	-5.23767644529E-03	-2.49159191049E-03	7.07216034797E-02	-3.32451322010E-03	7.03842510507E-02	1.77432419307E-01	1.83573947476E-01
1.72750000000E+09	-9.13981745399E-02	-6.91912963229E-03	-9.39037873254E-04	7.07402217128E-02	-1.80498787369E-03	7.04493906572E-02	1.81431740874E-01	1.79815843106E-01
1.72800000000E+09	-9.34301126048E-02	-8.55409291984E-03	5.88267426369E-04	7.07089805358E-02	-2.67484559462E-04	7.04369137057E-02	1.85325993428E-01	1.75846749027E-01
1.72850000000E+09	-9.55118450451E-02	-1.01156212661E-02	2.12716213967E-03	7.06482725966E-02	1.27282538546E-03	7.04015655412E-02	1.89166362889E-01	1.71774851572E-01
1.72900000000E+09	-9.77159895298E-02	-1.15880584768E-02	3.66734930982E-03	7.05745011655E-02	2.78602373383E-03	7.03363314907E-02	1.92793986317E-01	1.67621699354E-01
1.72950000000E+09	-9.99188926462E-02	-1.29819730017E-02	5.17956601341E-03	7.04397138153E-02	4.29639102404E-03	7.02198262931E-02	1.96308080376E-01	1.63378334569E-01
1.73000000000E+09	-1.02227535838E-01	-1.43371298669E-02	6.71817252474E-03	7.02773510300E-02	5.82466314623E-03	7.00753643655E-02	1.99708204667E-01	1.58995938955E-01
1.73050000000E+09	-1.04586532859E-01	-1.55869993431E-02	8.22451893237E-03	7.00599444831E-02	7.33067390536E-03	6.98858125470E-02	2.02991068704E-01	1.54483269488E-01
1.73100000000E+09	-1.06998570139E-01	-1.67837451623E-02	9.75582010900E-03	6.98569783868E-02	8.85527102769E-03	6.96804704869E-02	2.06120125779E-01	1.49860654353E-01
1.73150000000E+09	-1.09511026516E-01	-1.78752526823E-02	1.12590649105E-02	6.96133997655E-02	1.03400265282E-02	6.94329466600E-02	2.09064005550E-01	1.45194077740E-01
1.73200000000E+09	-1.12007653093E-01	-1.88947694748E-02	1.27518650280E-02	6.92727412997E-02	1.18502284537E-02	6.91429211845E-02	2.11893599158E-01	1.40399877200E-01
1.73250000000E+09	-1.14623590555E-01	-1.97938776450E-02	1.42356894264E-02	6.89607037101E-02	1.33327953035E-02	6.88742948227E-02	2.14652987679E-01	1.35584986101E-01
1.73300000000E+09	-1.17261614035E-01	-2.06679527004E-02	1.57067996839E-02	6.85976442595E-02	1.48231311165E-02	6.85041017540E-02	2.17190981458E-01	1.30609748550E-01
1.73350000000E+09	-1.19936476193E-01	-2.14009261361E-02	1.71846173408E-02	6.82066259053E-02	1.62852268733E-02	6.81584243389E-02	2.19586326879E-01	1.25587674035E-01
1.73400000000E+09	-1.22676119972E-01	-2.20162810456E-02	1.86504355661E-02	6.77726309415E-02	1.77399826328E-02	6.77282510101E-02	2.21777061153E-01	1.20491279356E-01
1.73450000000E+09	-1.25454883353E-01	-2.25850290566E-02	2.00842505476E-02	6.73136354569E-02	1.91866793144E-02	6.72853090514E-02	2.23862045010E-01	1.15310819800E-01
1.73500000000E+09	-1.28292521711E-01	-2.30558255588E-02	2.15024058060E-02	6.68103520159E-02	2.06331079257E-02	6.67982072050E-02	2.25834515783E-01	1.10034200180E-01
1.73550000000E+09	-1.31133007432E-01	-2.33542527783E-02	2.29500247837E-02	6.63191455160E-02	2.20439068593E-02	6.63247079748E-02	2.27590703727E-01	1.04760657171E-01
1.73600000000E+09	-1.34054251771E-01	-2.36208400120E-02	2.43588981904E-02	6.57622687718E-02	2.34642665271E-02	6.57664055053E-02	2.29210370375E-01	9.93969516463E-02
1.73650000000E+09	-1.36943478875E-01	-2.37250484732E-02	2.57588467126E-02	6.51795667298E-02	2.48494053695E-02	6.52119062670E-02	2.30624185958E-01	9.39651406298E-02
1.73700000000E+09	-1.39885101395E-01	-2.37637618847E-02	2.71365008467E-02	6.45551724381E-02	2.61925301519E-02	6.46320270342E-02	2.31891311626E-01	8.85143612974E-02
1.73750000000E+09	-1.42833262296E-01	-2.36481530914E-02	2.84799768685E-02	6.39060475598E-02	2.76041242815E-02	6.39906535500E-02	2.32984205826E-01	8.30168943489E-02
1.73800000000E+09	-1.45835718000E-01	-2.34496978955E-02	2.98575882970E-02	6.32671133106E-02	2.89251103311E-02	6.33512379998E-02	2.33893142517E-01	7.75208315939E-02
1.73850000000E+09	-1.48842071909E-01	-2.31541344529E-02	3.11721717863E-02	6.25514109264E-02	3.02691493183E-02	6.26705363289E-02	2.34701971185E-01	7.19583059174E-02
1.73900000000E+09	-1.51845670715E-01	-2.26850439997E-02	3.24768151326E-02	6.18356205328E-02	3.15719676293E-02	6.19613312187E-02	2.35313622476E-01	6.63451772106E-02
1.73950000000E+09	-1.54841332185E-01	-2.21142391704E-02	3.37639472480E-02	6.10735843459E-02	3.28801490767E-02	6.12187731906E-02	2.35710799157E-01	6.07478059477E-02
1.74000000000E+09	-1.57870287352E-01	-2.14370279646E-02	3.50372556847E-02	6.02880312249E-02	3.41547566750E-02	6.04478176595E-02	2.35924635193E-01	5.51127945720E-02
1.74050000000E+09	-1.60886591780E-01	-2.06288603433E-02	3.63153764962E-02	5.94826521367E-02	3.54076434094E-02	5.96819276821E-02	2.35982339205E-01	4.95045477597E-02
1.74100000000E+09	-1.63912413790E-01	-1.97330440852E-02	3.75364805286E-02	5.86350509886E-02	3.66628243062E-02	5.88538565040E-02	2.35898296862E-01	4.38434087191E-02
1.74150000000E+09	-1.66854322419E-01	-1.87181282721E-02	3.87543495029E-02	5.77954336320E-02	3.78657184661E-02	5.80095084566E-02	2.35582622439E-01	3.82214529623E-02
1.74200000000E+09	-1.69876858008E-01	-1.75404170098E-02	3.99295161762E-02	5.69144407794E-02	3.90761262164E-02	5.71553748560E-02	2.35134914967E-01	3.25407486954E-02
1.74250000000E+09	-1.72781269515E-01	-1.62117355614E-02	4.11132825568E-02	5.60218827194E-02	4.02454156785E-02	5.62496492554E-02	2.34475030757E-01	2.69504125193E-02
1.74300000000E+09	-1.75734630647E-01	-1.48136844028E-02	4.22707312909E-02	5.50601403148E-02	4.13933977864E-02	5.53523155387E-02	2.33699211004E-01	2.13257148243E-02
1.74350000000E+09	-1.78602056295E-01	-1.32684895780E-02	4.33961795957E-02	5.41092920320E-02	4.25309225193E-02	5.44043663373E-02	2.32703979284E-01	1.57363436090E-02
1.74400000000E+09	-1.81439084934E-01	-1.16111282101E-02	4.44939654085E-02	5.31062178247E-02	4.36227461534E-02	5.34672413434E-02	2.31497806484E-01	1.01731630234E-02
1.74450000000E+09	-1.84236700603E-01	-9.78477887994E-03	4.55572755335E-02	5.21374769282E-02	4.47212540050E-02	5.24563959182E-02	2.30151859527E-01	4.64977769671E-03
1.74500000000E+09	-1.86988955090E-01	-7.87495872806E-03	4.66332157866E-02	5.11197967332E-02	4.57911122528E-02	5.14509469340E-02	2.28634819937E-01	-8.17079782961E-04
1.74550000000E+09	-1.89685430791E-01	-5.81118965724E-03	4.76572157779E-02	5.00834141250E-02	4.68164825951E-02	5.04495112114E-02	2.26944199581E-01	-6.25096757025E-03
1.74600000000E+09	-1.92289981890E-01	-3.64137805908E-03	4.86586614859E-02	4.90280487700E-02	4.78244001042E-02	4.93955655163E-02	2.25078762763E-01	-1.16293978265E-02
1.74650000000E+09	-1.94855001176E-01	-1.35117751658E-03	4.96433085996E-02	4.79396506644E-02	4.88188573401E-02	4.83307120727E-02	2.23031403715E-01	-1.70340068563E-02
1.74700000000E+09	-1.97325680049E-01	1.02716027668E-03	5.05649552442E-02	4.68472752231E-02	4.97614978565E-02	4.72672867525E-02	2.20820701254E-01	-2.22741950166E-02
1.74750000000E+09	-1.99751279624E-01	3.54666020574E-03	5.15320706585E-02	4.57551619218E-02	5.07292277182E-02	4.61741478381E-02	2.18405410521E-01	-2.75299794896E-02
1.74800000000E+09	-2.02058210572E-01	6.22016639193E-03	5.24454729655E-02	4.45926782832E-02	5.16265727783E-02	4.50504787450E-02	2.15855789772E-01	-3.26845001441E-02
1.74850000000E+09	-2.04300737980E-01	8.96994873563E-03	5.32974746582E-02	4.34703063487E-02	5.25165473395E-02	4.39300645296E-02	2.13164082713E-01	-3.77144382874E-02
1.74900000000E+09	-2.06393474036E-01	1.18164948550E-02	5.41435894670E-02	4.22949861857E-02	5.33810996480E-02	4.27988466597E-02	2.10290610457E-01	-4.27091167193E-02
1.74950000000E+09	-2.08397700260E-01	1.47934395575E-02	5.50019494671E-02	4.11151767885E-02	5.42051335782E-02	4.16306480728E-02	2.07260438201E-01	-4.76064261477E-02
1.75000000000E+09	-2.10323958643E-01	1.78695429627E-02	5.58042339593E-02	3.99448106988E-02	5.50246222065E-02	4.04464393791E-02	2.04034693289E-01	-5.23835355970E-02
1.75050000000E+09	-2.12040309545E-01	2.10449610426E-02	5.65620719953E-02	3.87422561190E-02	5.58030432273E-02	3.92640644984E-02	2.00682499496E-01	-5.71468250901E-02
1.75100000000E+09	-2.13743596819E-01	2.43111430233E-02	5.72873636428E-02	3.75145340366E-02	5.65697422514E-02	3.80694304173E-02	1.97178941082E-01	-6.17489965928E-02
1.75150000000E+09	-2.15276495172E-01	2.77149524875E-02	5.80135885675E-02	3.62941339978E-02	5.72921437382E-02	3.68715375468E-02	1.93525382337E-01	-6.62288634531E-02
1.75200000000E+09	-2.16619928495E-01	3.11244715347E-02	5.87095570970E-02	3.50646223334E-02	5.79853290253E-02	3.56493695191E-02	1.89680174313E-01	-7.06053211387E-02
1.75250000000E+09	-2.17824506924E-01	3.46467583006E-02	5.93832069015E-02	3.38198709878E-02	5.86594557622E-02	3.44290900958E-02	1.85756118533E-01	-7.48660182653E-02
1.75300000000E+09	-2.18935367546E-01	3.82643162631E-02	6.00355369469E-02	3.25734521418E-02	5.93297763248E-02	3.31945337003E-02	1.81690014961E-01	-7.90098875720E-02
1.75350000000E+09	-2.19815824208E-01	4.19209592485E-02	6.06389749164E-02	3.13068456537E-02	5.99638399036E-02	3.19311720147E-02	1.77406066713E-01	-8.30195301994E-02
1.75400000000E+09	-2.20583747713E-01	4.55861633824E-02	6.12311943426E-02	3.00329876070E-02	6.05511635030E-02	3.06721173288E-02	1.73083659855E-01	-8.69306548933E-02
1.75450000000E+09	-2.21198877008E-01	4.93822141459E-02	6.17973504119E-02	2.87611616162E-02	6.11309522909E-02	2.94212380087E-02	1.68574081550E-01	-9.06884422339E-02
1.75500000000E+09	-2.21593858856E-01	5.31431930203E-02	6.23156551714E-02	2.74720446386E-02	6.16794787645E-02	2.81417640148E-02	1.63968470737E-01	-9.43170428887E-02
1.75550000000E+09	-2.21829397164E-01	5.69838883877E-02	6.28347423356E-02	2.61810210287E-02	6.21947703339E-02	2.68686420854E-02	1.59167505062E-01	-9.77281853202E-02
1.75600000000E+09	-2.21927859312E-01	6.08026486883E-02	6.33135912926E-02	2.48705924907E-02	6.27144335620E-02	2.55768501710E-02	1.54328633011E-01	-1.01084301610E-01
1.75650000000E+09	-2.21796950132E-01	6.46788415980E-02	6.38091652120E-02	2.35571479811E-02	6.31518641179E-02	2.42849057823E-02	1.49368703977E-01	-1.04218646811E-01
1.75700000000E+09	-2.21533470806E-01	6.85018075059E-02	6.42318864547E-02	2.22545431551E-02	6.36280061259E-02	2.29894518927E-02	1.44295592046E-01	-1.07192363642E-01
1.75750000000E+09	-2.21069339464E-01	7.23393391596E-02	6.46364197683E-02	2.09249849280E-02	6.40681031311E-02	2.16773464550E-02	1.39119216073E-01	-1.10076584386E-01
1.75800000000E+09	-2.20423491245E-01	7.61811935598E-02	6.50263443670E-02	1.96209099403E-02	6.44642941151E-02	2.03738689142E-02	1.33836912708E-01	-1.12776748076E-01
1.75850000000E+09	-2.19583426164E-01	7.99333831680E-02	6.54111496262E-02	1.82720935094E-02	6.48599503575E-02	1.90657407392E-02	1.28515241563E-01	-1.15270431341E-01
1.75900000000E+09	-2.18594317875E-01	8.36942054302E-02	6.57337450612E-02	1.69577900704E-02	6.51946176205E-02	1.77350018987E-02	1.23009017934E-01	-1.17603810572E-01
