# Hz S RI R 50
! CMT, CMT808U, 21440046, 21.4.3/4
! Date: 4/9/2026 1:45:59 AM
! Data: Format (Calibration Info)
! Freq	S11:Re/Im(F2)	S41:Re/Im(F2)	S14:Re/Im(F2)	S44:Re/Im(F2)
1.70000000000E+09	-1.16760931083E-01	9.71732960419E-02	-7.03897494358E-02	2.22902001213E-02	-7.03789759774E-02	2.13690665636E-02	-6.66708671663E-02	1.60743326276E-01
1.70050000000E+09	-1.14035924230E-01	9.69645352176E-02	-6.99326675324E-02	2.37884886318E-02	-6.99181417532E-02	2.28702451387E-02	-6.34408963670E-02	1.64705610838E-01
1.70100000000E+09	-1.11344967320E-01	9.66397054020E-02	-6.94149470773E-02	2.53011735477E-02	-6.94385265017E-02	2.43732687356E-02	-6.00948978149E-02	1.68647782028E-01
1.70150000000E+09	-1.08659967553E-01	9.61085217197E-02	-6.88784772530E-02	2.67728900887E-02	-6.89051834330E-02	2.58631324478E-02	-5.66369047034E-02	1.72435308543E-01
1.70200000000E+09	-1.06040056165E-01	9.55075084816E-02	-6.82830308044E-02	2.82676457756E-02	-6.83533680080E-02	2.73587954041E-02	-5.30285354189E-02	1.76154440731E-01
1.70250000000E+09	-1.03466408696E-01	9.47315784077E-02	-6.76951771265E-02	2.97426201356E-02	-6.77623940584E-02	2.88345092383E-02	-4.93548328351E-02	1.79752958487E-01
1.70300000000E+09	-1.00961409305E-01	9.38411841584E-02	-6.70441502935E-02	3.12158363180E-02	-6.71342484055E-02	3.02737686533E-02	-4.55315574680E-02	1.83201240903E-01
1.70350000000E+09	-9.85149574867E-02	9.27939051726E-02	-6.63714515263E-02	3.26467464104E-02	-6.65019189993E-02	3.17375899398E-02	-4.15774796759E-02	1.86586895808E-01
1.70400000000E+09	-9.61081019727E-02	9.16434559141E-02	-6.56784980600E-02	3.40942846120E-02	-6.58022835402E-02	3.31709294911E-02	-3.75950311180E-02	1.89810502341E-01
1.70450000000E+09	-9.37817818283E-02	9.04056567020E-02	-6.49288827978E-02	3.55113424071E-02	-6.50920426951E-02	3.46107119990E-02	-3.34496040828E-02	1.92928404185E-01
1.70500000000E+09	-9.15686802643E-02	8.90136901780E-02	-6.41411807235E-02	3.69039806972E-02	-6.43240250601E-02	3.59952223656E-02	-2.92518114153E-02	1.95864276184E-01
1.70550000000E+09	-8.93723405701E-02	8.75140965286E-02	-6.33427119568E-02	3.82957920177E-02	-6.35337046660E-02	3.74019737468E-02	-2.49670660706E-02	1.98774323114E-01
1.70600000000E+09	-8.73172786362E-02	8.59353346254E-02	-6.25023201141E-02	3.96598242578E-02	-6.27206492434E-02	3.87680828990E-02	-2.05533384306E-02	2.01488859852E-01
1.70650000000E+09	-8.53088249998E-02	8.42531663267E-02	-6.16401928520E-02	4.10249284278E-02	-6.18722304265E-02	4.01162015311E-02	-1.60637308325E-02	2.04050872846E-01
1.70700000000E+09	-8.34309729989E-02	8.24806660056E-02	-6.07429052613E-02	4.23649655034E-02	-6.09965686041E-02	4.14683512177E-02	-1.15246588841E-02	2.06532154711E-01
1.70750000000E+09	-8.16041642206E-02	8.06439143239E-02	-5.98108961493E-02	4.36765395742E-02	-6.00788614872E-02	4.27947918749E-02	-6.84663491854E-03	2.08850660402E-01
1.70800000000E+09	-7.99156824211E-02	7.87038233863E-02	-5.88438417273E-02	4.49545672223E-02	-5.91325125698E-02	4.40709609781E-02	-2.19778102719E-03	2.11000206538E-01
1.70850000000E+09	-7.83000685979E-02	7.66764389031E-02	-5.78388493272E-02	4.62358075083E-02	-5.81557899179E-02	4.53657503360E-02	2.60072194914E-03	2.13017116082E-01
1.70900000000E+09	-7.68159164449E-02	7.46137730796E-02	-5.68272093693E-02	4.74774689795E-02	-5.71727702492E-02	4.66209455805E-02	7.42355360392E-03	2.14908492506E-01
1.70950000000E+09	-7.54062950577E-02	7.24670802612E-02	-5.58035300310E-02	4.86948749732E-02	-5.61387237068E-02	4.78483551571E-02	1.22869544005E-02	2.16672304540E-01
1.71000000000E+09	-7.41385057765E-02	7.02514944332E-02	-5.46890781386E-02	4.99254150307E-02	-5.50781046636E-02	4.90467535531E-02	1.72298412509E-02	2.18264442205E-01
1.71050000000E+09	-7.29763228199E-02	6.80399190967E-02	-5.35989065088E-02	5.10822732239E-02	-5.39731517844E-02	5.02541702715E-02	2.22372080485E-02	2.19684709114E-01
1.71100000000E+09	-7.18726831802E-02	6.57088100465E-02	-5.24849935357E-02	5.22176427460E-02	-5.28766553251E-02	5.14110784447E-02	2.72390307140E-02	2.20950826842E-01
1.71150000000E+09	-7.09221389963E-02	6.33915227341E-02	-5.13131882512E-02	5.33593711848E-02	-5.17394658138E-02	5.25281168773E-02	3.23292152252E-02	2.22101379369E-01
1.71200000000E+09	-7.00785904753E-02	6.10314538753E-02	-5.01479070703E-02	5.44479628275E-02	-5.05814094685E-02	5.36592053573E-02	3.74409542786E-02	2.23073672387E-01
1.71250000000E+09	-6.93536503422E-02	5.86297262766E-02	-4.89238272693E-02	5.55259887544E-02	-4.93922988085E-02	5.47253040000E-02	4.25300834644E-02	2.23925483625E-01
1.71300000000E+09	-6.87185908652E-02	5.62242434103E-02	-4.76905190394E-02	5.65766724856E-02	-4.81589204915E-02	5.57832875159E-02	4.76641052087E-02	2.24563694483E-01
1.71350000000E+09	-6.82025939841E-02	5.37783436206E-02	-4.64451014950E-02	5.75932503077E-02	-4.69408366785E-02	5.68075269821E-02	5.28436415936E-02	2.25090447934E-01
1.71400000000E+09	-6.77587164947E-02	5.12955453714E-02	-4.51680278790E-02	5.85648127212E-02	-4.56944595021E-02	5.78026378969E-02	5.80428043621E-02	2.25462668282E-01
1.71450000000E+09	-6.74579183465E-02	4.88653040821E-02	-4.38574858380E-02	5.95208045671E-02	-4.44010119035E-02	5.87693226193E-02	6.32109297887E-02	2.25625269055E-01
1.71500000000E+09	-6.72494625769E-02	4.63925236893E-02	-4.25577236481E-02	6.04427012841E-02	-4.30781126196E-02	5.97144821756E-02	6.84569851050E-02	2.25702417941E-01
1.71550000000E+09	-6.71862837222E-02	4.39295439675E-02	-4.12247515736E-02	6.13679953273E-02	-4.17998955046E-02	6.06029410183E-02	7.36458942508E-02	2.25591415299E-01
1.71600000000E+09	-6.71865550160E-02	4.14456176138E-02	-3.98729165727E-02	6.22321920910E-02	-4.04519502602E-02	6.14899249333E-02	7.88394377912E-02	2.25310736389E-01
1.71650000000E+09	-6.72921794725E-02	3.89548628656E-02	-3.84855243740E-02	6.30505637824E-02	-3.90700818781E-02	6.23389821553E-02	8.40188104890E-02	2.24852247279E-01
1.71700000000E+09	-6.74823505040E-02	3.65268816028E-02	-3.70884053859E-02	6.38541199623E-02	-3.77073088725E-02	6.31483715796E-02	8.91909819383E-02	2.24304267636E-01
1.71750000000E+09	-6.78331183281E-02	3.40585525848E-02	-3.56941313104E-02	6.46417633633E-02	-3.63221344527E-02	6.39377166826E-02	9.43564072749E-02	2.23545844527E-01
1.71800000000E+09	-6.82193713055E-02	3.16475605010E-02	-3.42473346678E-02	6.53662136235E-02	-3.48864986501E-02	6.46857276858E-02	9.94557956859E-02	2.22682426569E-01
1.71850000000E+09	-6.87027824632E-02	2.92141947036E-02	-3.28164163087E-02	6.60705549142E-02	-3.34591790175E-02	6.53907686060E-02	1.04569121888E-01	2.21573356741E-01
1.71900000000E+09	-6.93025799805E-02	2.68604310184E-02	-3.13430004955E-02	6.67340929105E-02	-3.20372421098E-02	6.60865116494E-02	1.09654416292E-01	2.20396324788E-01
1.71950000000E+09	-7.00253616073E-02	2.44864224000E-02	-2.98859679580E-02	6.73633566190E-02	-3.05557800584E-02	6.67439805177E-02	1.14664049726E-01	2.19041780247E-01
1.72000000000E+09	-7.07788224489E-02	2.21541722001E-02	-2.84164946374E-02	6.79864195649E-02	-2.90923575635E-02	6.73690930957E-02	1.19639624033E-01	2.17565391895E-01
1.72050000000E+09	-7.16458622509E-02	1.98332791809E-02	-2.69151389840E-02	6.85361366170E-02	-2.76235653380E-02	6.79467563070E-02	1.24608425820E-01	2.15912396040E-01
1.72100000000E+09	-7.26231268935E-02	1.75852826851E-02	-2.53959808549E-02	6.90990346400E-02	-2.61383016903E-02	6.85110674976E-02	1.29505276599E-01	2.14117786941E-01
1.72150000000E+09	-7.36811833533E-02	1.53254815464E-02	-2.38798753199E-02	6.95955553954E-02	-2.46200219618E-02	6.90304861419E-02	1.34370351615E-01	2.12152647039E-01
1.72200000000E+09	-7.48045593782E-02	1.31490671212E-02	-2.23629665709E-02	7.00396328977E-02	-2.30978477048E-02	6.95165107978E-02	1.39113397302E-01	2.10050535585E-01
1.72250000000E+09	-7.60374699437E-02	1.09846293038E-02	-2.08191547140E-02	7.05231785456E-02	-2.15882783790E-02	6.99660984906E-02	1.43852660575E-01	2.07820434363E-01
1.72300000000E+09	-7.73677614982E-02	8.89091554347E-03	-1.92993814222E-02	7.08706516332E-02	-2.00729328621E-02	7.03528034298E-02	1.48483114836E-01	2.05466495645E-01
1.72350000000E+09	-7.87471201591E-02	6.78232713643E-03	-1.77305463369E-02	7.12527053470E-02	-1.85204690136E-02	7.07460018609E-02	1.53063645301E-01	2.02908899305E-01
1.72400000000E+09	-8.02068500581E-02	4.76721051798E-03	-1.61724999328E-02	7.15725165542E-02	-1.69770669350E-02	7.10977364242E-02	1.57548562012E-01	2.00284374942E-01
1.72450000000E+09	-8.17514081429E-02	2.77273681687E-03	-1.46399165650E-02	7.18670137677E-02	-1.54327664221E-02	7.14122215736E-02	1.61976366453E-01	1.97513540764E-01
1.72500000000E+09	-8.33540320018E-02	8.73613724259E-04	-1.30679046232E-02	7.21308471657E-02	-1.38620963651E-02	7.16699517482E-02	1.66302217689E-01	1.94548121450E-01
1.72550000000E+09	-8.50586396613E-02	-1.00442718703E-03	-1.15140642253E-02	7.23456262664E-02	-1.23057381144E-02	7.19262996259E-02	1.70561455415E-01	1.91502879882E-01
1.72600000000E+09	-8.68509676272E-02	-2.83300590429E-03	-9.93508578666E-03	7.25238026552E-02	-1.07579320645E-02	7.21416587460E-02	1.74711752198E-01	1.88307170778E-01
1.72650000000E+09	-8.87144768307E-02	-4.57182824307E-03	-8.37469062181E-03	7.27085574149E-02	-9.18290557274E-03	7.23279710366E-02	1.78784517553E-01	1.84987951214E-01
1.72700000000E+09	-9.06260923169E-02	-6.25627468556E-03	-6.79017109751E-03	7.28301945508E-02	-7.62412533739E-03	7.24481846542E-02	1.82723643363E-01	1.81536017276E-01
1.72750000000E+09	-9.26093501354E-02	-7.90828579972E-03	-5.23291351975E-03	7.28982248578E-02	-6.06944537291E-03	7.25463339237E-02	1.86568263773E-01	1.78042786054E-01
1.72800000000E+09	-9.46857519729E-02	-9.48932274791E-03	-3.64812195095E-03	7.29577240891E-02	-4.51261376991E-03	7.26222363350E-02	1.90307938257E-01	1.74348823476E-01
1.72850000000E+09	-9.68224248734E-02	-1.09768987862E-02	-2.08617366408E-03	7.29807284649E-02	-2.93547720422E-03	7.26600451982E-02	1.93967000909E-01	1.70545773776E-01
1.72900000000E+09	-9.90186809296E-02	-1.24039349318E-02	-5.28606642742E-04	7.29648007519E-02	-1.36523658497E-03	7.26651015487E-02	1.97488446882E-01	1.66675541669E-01
1.72950000000E+09	-1.01288704793E-01	-1.37551630694E-02	1.06191712707E-03	7.29111488294E-02	1.81529773915E-04	7.26295207903E-02	2.00871875901E-01	1.62679715801E-01
1.73000000000E+09	-1.03627091883E-01	-1.50192437785E-02	2.62356544411E-03	7.28145051346E-02	1.74960947386E-03	7.25468080203E-02	2.04142597691E-01	1.58607375727E-01
1.73050000000E+09	-1.06020138675E-01	-1.62382416184E-02	4.19481325265E-03	7.26934897234E-02	3.31158040650E-03	7.24596509719E-02	2.07306519445E-01	1.54377910278E-01
1.73100000000E+09	-1.08430433991E-01	-1.73765707952E-02	5.74151809440E-03	7.25334343796E-02	4.85133968426E-03	7.23011954623E-02	2.10349720928E-01	1.50067472115E-01
1.73150000000E+09	-1.10958621118E-01	-1.84128543894E-02	7.27182579835E-03	7.23610760151E-02	6.38619891488E-03	7.21480487106E-02	2.13198819192E-01	1.45691387246E-01
1.73200000000E+09	-1.13502144718E-01	-1.93500720316E-02	8.82094038495E-03	7.21433841587E-02	7.93939721731E-03	7.19483583153E-02	2.15997205662E-01	1.41223824328E-01
1.73250000000E+09	-1.16123727033E-01	-2.01991249851E-02	1.03641687699E-02	7.18887263424E-02	9.46735040010E-03	7.17136183353E-02	2.18648138977E-01	1.36664402244E-01
1.73300000000E+09	-1.18782007754E-01	-2.09944587301E-02	1.18893220914E-02	7.16041486195E-02	1.10089346800E-02	7.14428091191E-02	2.21124984941E-01	1.32032277850E-01
1.73350000000E+09	-1.21505223934E-01	-2.16488035374E-02	1.33899685525E-02	7.12776113198E-02	1.25118738185E-02	7.11406996808E-02	2.23482237698E-01	1.27277159468E-01
1.73400000000E+09	-1.24228978096E-01	-2.22164077367E-02	1.49065007870E-02	7.09354048988E-02	1.40002763419E-02	7.08130814490E-02	2.25631204379E-01	1.22504838679E-01
1.73450000000E+09	-1.27037767780E-01	-2.26939938369E-02	1.64044871631E-02	7.05495531983E-02	1.55069292612E-02	7.04515910898E-02	2.27710104659E-01	1.17658740130E-01
1.73500000000E+09	-1.29864561521E-01	-2.31150459483E-02	1.79018644773E-02	7.01074661472E-02	1.69927700697E-02	7.00402342392E-02	2.29622576753E-01	1.12681402149E-01
1.73550000000E+09	-1.32737146135E-01	-2.33598402405E-02	1.93882551086E-02	6.96662599930E-02	1.84629028803E-02	6.96272579457E-02	2.31381239823E-01	1.07729118404E-01
1.73600000000E+09	-1.35627483604E-01	-2.35157512508E-02	2.08407054745E-02	6.91909416057E-02	1.99429376260E-02	6.91700378382E-02	2.33003182680E-01	1.02662226691E-01
1.73650000000E+09	-1.38547304165E-01	-2.35863460434E-02	2.22884236708E-02	6.86836556043E-02	2.13866938277E-02	6.86625805679E-02	2.34441657346E-01	9.75626115242E-02
1.73700000000E+09	-1.41490991328E-01	-2.35449076427E-02	2.37385545312E-02	6.81631891683E-02	2.28331129088E-02	6.81434867290E-02	2.35742874745E-01	9.24370163291E-02
1.73750000000E+09	-1.44453971709E-01	-2.33521097256E-02	2.51670771377E-02	6.75574048469E-02	2.42495012042E-02	6.75784125037E-02	2.36892639799E-01	8.72530312713E-02
1.73800000000E+09	-1.47446775392E-01	-2.31018129392E-02	2.65696231757E-02	6.69650506523E-02	2.56416860332E-02	6.70040495747E-02	2.37813962803E-01	8.20511245867E-02
1.73850000000E+09	-1.50412756947E-01	-2.27167627186E-02	2.79672732800E-02	6.63506779976E-02	2.70418846094E-02	6.63932008667E-02	2.38664617045E-01	7.68211459030E-02
1.73900000000E+09	-1.53422695955E-01	-2.21983865172E-02	2.93085391949E-02	6.57032564880E-02	2.84318525075E-02	6.57655152555E-02	2.39377795159E-01	7.15073945926E-02
1.73950000000E+09	-1.56427874392E-01	-2.15609019249E-02	3.06991069084E-02	6.49947441519E-02	2.97796508974E-02	6.50955864692E-02	2.39808792434E-01	6.62215272709E-02
1.74000000000E+09	-1.59424970196E-01	-2.08018620963E-02	3.20360839468E-02	6.42846226507E-02	3.11271824992E-02	6.43923106391E-02	2.40142297316E-01	6.08735436530E-02
1.74050000000E+09	-1.62429091967E-01	-1.99406796721E-02	3.33659564584E-02	6.35553771941E-02	3.24458363078E-02	6.36654343650E-02	2.40299338548E-01	5.55982627063E-02
1.74100000000E+09	-1.65418457871E-01	-1.89527116834E-02	3.46701008088E-02	6.27744391349E-02	3.37585903668E-02	6.29250944580E-02	2.40310228594E-01	5.02080847418E-02
1.74150000000E+09	-1.68345573833E-01	-1.78661444359E-02	3.59435623155E-02	6.19891416012E-02	3.50619355997E-02	6.21737417578E-02	2.40149850113E-01	4.49067959620E-02
1.74200000000E+09	-1.71324108686E-01	-1.66050656680E-02	3.72296920527E-02	6.11850171756E-02	3.63219952957E-02	6.13565242224E-02	2.39794604796E-01	3.95445400537E-02
1.74250000000E+09	-1.74220094251E-01	-1.52325799102E-02	3.84649703219E-02	6.03221146151E-02	3.76005828232E-02	6.05079377527E-02	2.39300695015E-01	3.42264791587E-02
1.74300000000E+09	-1.77113882881E-01	-1.37463728592E-02	3.96922057364E-02	5.94435136220E-02	3.87955666876E-02	5.96692449740E-02	2.38628736589E-01	2.88915395940E-02
1.74350000000E+09	-1.79959375366E-01	-1.21369572341E-02	4.09041990122E-02	5.85688757860E-02	4.00221346154E-02	5.87958868776E-02	2.37839353644E-01	2.35905674221E-02
1.74400000000E+09	-1.82772726010E-01	-1.03861071434E-02	4.20865357041E-02	5.76386195976E-02	4.12059335124E-02	5.79084587549E-02	2.36758331236E-01	1.83272413104E-02
1.74450000000E+09	-1.85566031427E-01	-8.50166993448E-03	4.32689081011E-02	5.67335132622E-02	4.23745981712E-02	5.69961662917E-02	2.35626107650E-01	1.30923837934E-02
1.74500000000E+09	-1.88259593949E-01	-6.51675564955E-03	4.44046926841E-02	5.57416262735E-02	4.35249966875E-02	5.60335592079E-02	2.34306304311E-01	7.86394882259E-03
1.74550000000E+09	-1.90867460740E-01	-4.41772270154E-03	4.55160117614E-02	5.47802650438E-02	4.46607020620E-02	5.50726566849E-02	2.32798010306E-01	2.67683624836E-03
1.74600000000E+09	-1.93472442187E-01	-2.15986886595E-03	4.66163098657E-02	5.37491265596E-02	4.57530142862E-02	5.40881244284E-02	2.31165782072E-01	-2.44389185244E-03
1.74650000000E+09	-1.95924047370E-01	2.02065537919E-04	4.76652146535E-02	5.27271034393E-02	4.68183240720E-02	5.30941848518E-02	2.29325017789E-01	-7.54255570866E-03
1.74700000000E+09	-1.98355221326E-01	2.66346333292E-03	4.87141415131E-02	5.17093787618E-02	4.78739115423E-02	5.20643795294E-02	2.27328216463E-01	-1.26067775834E-02
1.74750000000E+09	-2.00742417816E-01	5.22739865276E-03	4.97342613459E-02	5.06592334609E-02	4.89103947880E-02	5.10203365560E-02	2.25168191936E-01	-1.75766830446E-02
1.74800000000E+09	-2.02964492633E-01	7.95702119110E-03	5.07315024141E-02	4.95641326846E-02	4.99303303435E-02	4.99660953742E-02	2.22884338174E-01	-2.25197027667E-02
1.74850000000E+09	-2.05141520670E-01	1.07744522988E-02	5.17324500489E-02	4.84531699048E-02	5.08908829980E-02	4.88633606521E-02	2.20422988717E-01	-2.73193316790E-02
1.74900000000E+09	-2.07166317003E-01	1.36841691894E-02	5.26711839468E-02	4.73622494061E-02	5.18719146230E-02	4.77754495083E-02	2.17841212449E-01	-3.20821206284E-02
1.74950000000E+09	-2.09116954662E-01	1.67193720487E-02	5.35993886499E-02	4.62121695337E-02	5.27921770076E-02	4.66789487958E-02	2.15089054881E-01	-3.68087180448E-02
1.75000000000E+09	-2.10938863607E-01	1.98355988725E-02	5.45043649348E-02	4.50814644986E-02	5.37003787481E-02	4.55176159906E-02	2.12091939751E-01	-4.13508693890E-02
1.75050000000E+09	-2.12570199146E-01	2.30655479650E-02	5.53754889711E-02	4.38974132988E-02	5.45932639792E-02	4.43859998048E-02	2.09081161149E-01	-4.59107538188E-02
1.75100000000E+09	-2.14168524396E-01	2.63699802804E-02	5.62226323515E-02	4.27439443934E-02	5.54434631690E-02	4.32400639943E-02	2.05838670044E-01	-5.03499605487E-02
1.75150000000E+09	-2.15601940527E-01	2.98323785596E-02	5.70704638993E-02	4.15597477123E-02	5.62898397830E-02	4.20671392580E-02	2.02467891513E-01	-5.46326907955E-02
1.75200000000E+09	-2.16820710762E-01	3.32928453701E-02	5.78262806448E-02	4.03486646921E-02	5.70786366299E-02	4.08778939075E-02	1.98964442440E-01	-5.88788509026E-02
1.75250000000E+09	-2.17964241596E-01	3.68436160628E-02	5.86300296399E-02	3.91396317627E-02	5.78722025842E-02	3.97099631582E-02	1.95329439880E-01	-6.29548465738E-02
1.75300000000E+09	-2.18934612763E-01	4.04769417689E-02	5.93900448467E-02	3.79212553432E-02	5.86277962141E-02	3.84896623546E-02	1.91586526526E-01	-6.69604312221E-02
1.75350000000E+09	-2.19742262709E-01	4.41424586084E-02	6.01109191370E-02	3.66841416832E-02	5.93517945521E-02	3.72668512552E-02	1.87645346235E-01	-7.08474849357E-02
1.75400000000E+09	-2.20382394101E-01	4.78691512823E-02	6.08055756072E-02	3.54036473724E-02	6.00747483609E-02	3.60610051634E-02	1.83624069496E-01	-7.46141617573E-02
1.75450000000E+09	-2.20897890600E-01	5.16221450624E-02	6.14857376393E-02	3.41928210410E-02	6.07713909687E-02	3.48165931352E-02	1.79448182156E-01	-7.82496816839E-02
1.75500000000E+09	-2.21156719058E-01	5.54199697206E-02	6.21413688237E-02	3.29142001350E-02	6.14423294527E-02	3.35503712213E-02	1.75199761094E-01	-8.17825843982E-02
1.75550000000E+09	-2.21272123338E-01	5.92361084062E-02	6.27740766397E-02	3.16563503533E-02	6.20898668159E-02	3.22899391919E-02	1.70771849909E-01	-8.51459401201E-02
1.75600000000E+09	-2.21261324638E-01	6.31017233054E-02	6.33855091722E-02	3.03566955560E-02	6.27062627959E-02	3.10115647098E-02	1.66240020422E-01	-8.84083765443E-02
1.75650000000E+09	-2.20986465811E-01	6.68986943021E-02	6.39571404207E-02	2.90601438504E-02	6.32991410503E-02	2.97518594529E-02	1.61638812549E-01	-9.14509299961E-02
1.75700000000E+09	-2.20606522062E-01	7.07305468772E-02	6.45188423456E-02	2.77781117070E-02	6.38710548588E-02	2.84605743561E-02	1.56930264722E-01	-9.44244795953E-02
1.75750000000E+09	-2.20016747553E-01	7.45548382474E-02	6.50472243827E-02	2.64541924033E-02	6.44159966099E-02	2.71541896358E-02	1.52089307136E-01	-9.72185874138E-02
1.75800000000E+09	-2.19242783105E-01	7.83239385233E-02	6.55639720547E-02	2.51459921814E-02	6.49410717257E-02	2.58628436032E-02	1.47199728728E-01	-9.98819652039E-02
1.75850000000E+09	-2.18271728292E-01	8.20798636440E-02	6.60462870555E-02	2.38134040282E-02	6.54396322165E-02	2.45552156810E-02	1.42221188726E-01	-1.02347683060E-01
1.75900000000E+09	-2.17139578611E-01	8.57528945181E-02	6.65080340252E-02	2.24826307724E-02	6.59121385195E-02	2.32380733019E-02	1.37095798727E-01	-1.04707849965E-01
