# Hz S RI R 50
! CMT, CMT808U, 21440046, 21.4.3/4
! Date: 4/9/2026 1:40:16 AM
! Data: Format (Calibration Info)
! Freq	S11:Re/Im(F2)	S41:Re/Im(F2)	S14:Re/Im(F2)	S44:Re/Im(F2)
1.70000000000E+09	-1.16910963041E-01	9.65851724785E-02	-7.41098580523E-02	2.38264030091E-02	-7.40851191877E-02	2.29100376655E-02	-1.62602537039E-02	1.43156548060E-01
1.70050000000E+09	-1.14221727552E-01	9.63841200056E-02	-7.35693368952E-02	2.53812480894E-02	-7.35732688628E-02	2.44618657471E-02	-1.30192088954E-02	1.46652431526E-01
1.70100000000E+09	-1.11557368890E-01	9.60447688366E-02	-7.30160243946E-02	2.69354640225E-02	-7.30357012231E-02	2.60194849368E-02	-9.70714521672E-03	1.50008125740E-01
1.70150000000E+09	-1.08904315278E-01	9.55804474483E-02	-7.24368370266E-02	2.85039340091E-02	-7.24527331271E-02	2.75801117743E-02	-6.24818245325E-03	1.53290090899E-01
1.70200000000E+09	-1.06302899557E-01	9.49965735275E-02	-7.17895791449E-02	3.00424992205E-02	-7.18461161222E-02	2.91254415237E-02	-2.69733975220E-03	1.56505899654E-01
1.70250000000E+09	-1.03738931280E-01	9.42362695968E-02	-7.11354477395E-02	3.15811527374E-02	-7.12173224872E-02	3.06416839759E-02	9.87809491569E-04	1.59571389394E-01
1.70300000000E+09	-1.01233923921E-01	9.33466982826E-02	-7.04050643324E-02	3.30917408114E-02	-7.05371766078E-02	3.21542196883E-02	4.76841194868E-03	1.62574872689E-01
1.70350000000E+09	-9.87904864891E-02	9.23495738722E-02	-6.97086568318E-02	3.45922848313E-02	-6.98237845453E-02	3.36541343742E-02	8.63307574164E-03	1.65423467246E-01
1.70400000000E+09	-9.64167552024E-02	9.12451982825E-02	-6.89318682737E-02	3.60727075804E-02	-6.91058464296E-02	3.51246248690E-02	1.25665826542E-02	1.68148464144E-01
1.70450000000E+09	-9.40874379809E-02	8.99916004822E-02	-6.81418430221E-02	3.75189192718E-02	-6.82910904517E-02	3.66176404955E-02	1.66307002681E-02	1.70759884878E-01
1.70500000000E+09	-9.18774476613E-02	8.86346973247E-02	-6.73202361827E-02	3.89867458858E-02	-6.75018614939E-02	3.80609706128E-02	2.07529894421E-02	1.73216471205E-01
1.70550000000E+09	-8.97058939438E-02	8.71721509548E-02	-6.64658559577E-02	4.04455320395E-02	-6.66633545218E-02	3.95122825376E-02	2.49041698385E-02	1.75606397666E-01
1.70600000000E+09	-8.76484297203E-02	8.56051949562E-02	-6.55758204791E-02	4.18493788494E-02	-6.57854591089E-02	4.09239400535E-02	2.92074140594E-02	1.77827175367E-01
1.70650000000E+09	-8.56778700048E-02	8.39466799820E-02	-6.46483110916E-02	4.32256657231E-02	-6.48868755609E-02	4.23135531435E-02	3.35448159547E-02	1.79932681423E-01
1.70700000000E+09	-8.37685520248E-02	8.22088028000E-02	-6.37081822643E-02	4.46134117896E-02	-6.39658005630E-02	4.37074109066E-02	3.79841561978E-02	1.81952076624E-01
1.70750000000E+09	-8.19767624136E-02	8.03613095691E-02	-6.27075349529E-02	4.59617101053E-02	-6.29739986236E-02	4.50788770712E-02	4.24998778161E-02	1.83790718236E-01
1.70800000000E+09	-8.02611329099E-02	7.84508354715E-02	-6.17005887306E-02	4.72800500666E-02	-6.19743277919E-02	4.64038200289E-02	4.70184391488E-02	1.85499762724E-01
1.70850000000E+09	-7.86944167599E-02	7.64545125060E-02	-6.06511347470E-02	4.85907195784E-02	-6.09888616906E-02	4.77141593644E-02	5.16055814949E-02	1.87076514417E-01
1.70900000000E+09	-7.71882956405E-02	7.44160882135E-02	-5.95769381175E-02	4.98826270641E-02	-5.99143406516E-02	4.90038417054E-02	5.62931706486E-02	1.88469353415E-01
1.70950000000E+09	-7.57860860872E-02	7.22860517977E-02	-5.84808652420E-02	5.11462824331E-02	-5.88178283674E-02	5.02552544572E-02	6.09589299757E-02	1.89786700482E-01
1.71000000000E+09	-7.45524520520E-02	7.01027239560E-02	-5.73331440056E-02	5.23776801223E-02	-5.77100302323E-02	5.15396883925E-02	6.56912240388E-02	1.90924051588E-01
1.71050000000E+09	-7.33539490962E-02	6.78910980285E-02	-5.61824285090E-02	5.35900439768E-02	-5.65713532883E-02	5.27486496684E-02	7.04966499545E-02	1.91933633486E-01
1.71100000000E+09	-7.22910001725E-02	6.55956678203E-02	-5.49968774905E-02	5.47971686698E-02	-5.54120819606E-02	5.39293475485E-02	7.52760734717E-02	1.92770848293E-01
1.71150000000E+09	-7.13490728851E-02	6.32991289596E-02	-5.37983530551E-02	5.59223923513E-02	-5.42223618300E-02	5.50896944205E-02	8.01206397956E-02	1.93481623173E-01
1.71200000000E+09	-7.04958192798E-02	6.09429164184E-02	-5.25684256099E-02	5.70763002443E-02	-5.30124137686E-02	5.62315319958E-02	8.50237473825E-02	1.94020419488E-01
1.71250000000E+09	-6.97413251087E-02	5.85919410916E-02	-5.13037348289E-02	5.81636504993E-02	-5.17791914909E-02	5.73687006218E-02	8.98874893920E-02	1.94470854854E-01
1.71300000000E+09	-6.91147496833E-02	5.61904675652E-02	-5.00371435763E-02	5.92561264469E-02	-5.05188410582E-02	5.84286980976E-02	9.47424166551E-02	1.94762138664E-01
1.71350000000E+09	-6.86250734569E-02	5.37761165327E-02	-4.87154699078E-02	6.02853632757E-02	-4.92025813317E-02	5.94708829876E-02	9.96951538092E-02	1.94873833704E-01
1.71400000000E+09	-6.81657002698E-02	5.13237394090E-02	-4.73947846992E-02	6.13066803678E-02	-4.79148729165E-02	6.05142419909E-02	1.04595730059E-01	1.94884129075E-01
1.71450000000E+09	-6.78742561464E-02	4.88779830676E-02	-4.60475290091E-02	6.23042974116E-02	-4.65773971934E-02	6.15135884742E-02	1.09512475254E-01	1.94679236465E-01
1.71500000000E+09	-6.76673040356E-02	4.64537632951E-02	-4.46792288036E-02	6.32659750122E-02	-4.52250777863E-02	6.25074833814E-02	1.14451811083E-01	1.94365650468E-01
1.71550000000E+09	-6.75751198863E-02	4.39995866798E-02	-4.32681920051E-02	6.41876335088E-02	-4.38518675836E-02	6.34367264952E-02	1.19384740343E-01	1.93876250399E-01
1.71600000000E+09	-6.75655170430E-02	4.15488220860E-02	-4.18554574438E-02	6.50767764244E-02	-4.24407065321E-02	6.43316706692E-02	1.24285083029E-01	1.93254696683E-01
1.71650000000E+09	-6.76933548816E-02	3.90922247881E-02	-4.04198387430E-02	6.59152987732E-02	-4.10430065170E-02	6.52128901986E-02	1.29149201197E-01	1.92482068075E-01
1.71700000000E+09	-6.78986222506E-02	3.66684788949E-02	-3.89726728892E-02	6.67621468874E-02	-3.95776167830E-02	6.60488075121E-02	1.34005273136E-01	1.91579463468E-01
1.71750000000E+09	-6.81944155905E-02	3.42323376576E-02	-3.75071043392E-02	6.75462767042E-02	-3.81519679461E-02	6.68496187952E-02	1.38857306036E-01	1.90498091127E-01
1.71800000000E+09	-6.86074002190E-02	3.18368075429E-02	-3.60434807019E-02	6.82996603202E-02	-3.66764595926E-02	6.76053309403E-02	1.43646642837E-01	1.89323393858E-01
1.71850000000E+09	-6.90794993967E-02	2.94323967134E-02	-3.45389496207E-02	6.90298873145E-02	-3.52057496238E-02	6.83841652442E-02	1.48404063398E-01	1.87914720161E-01
1.71900000000E+09	-6.96687903219E-02	2.71017031500E-02	-3.30064619329E-02	6.97183273581E-02	-3.37036254247E-02	6.90753277115E-02	1.53158762568E-01	1.86443645904E-01
1.71950000000E+09	-7.03691539326E-02	2.47478907199E-02	-3.15132273861E-02	7.03674503295E-02	-3.21677000626E-02	6.97356831582E-02	1.57848890208E-01	1.84789982645E-01
1.72000000000E+09	-7.11293476822E-02	2.24234616454E-02	-2.99696024158E-02	7.10084923057E-02	-3.06659378090E-02	7.03859528771E-02	1.62480913043E-01	1.83081353761E-01
1.72050000000E+09	-7.20036716546E-02	2.01308788985E-02	-2.84083034947E-02	7.15899270923E-02	-2.91149011159E-02	7.09916495051E-02	1.67069405013E-01	1.81119352262E-01
1.72100000000E+09	-7.29405793548E-02	1.78769061981E-02	-2.68592831668E-02	7.21481726246E-02	-2.75859919293E-02	7.15548898859E-02	1.71623911933E-01	1.79079438132E-01
1.72150000000E+09	-7.39938234686E-02	1.56658267389E-02	-2.52947868790E-02	7.26780890452E-02	-2.60137202973E-02	7.20815857611E-02	1.76074170201E-01	1.76840467306E-01
1.72200000000E+09	-7.51069681163E-02	1.35005069888E-02	-2.36720155210E-02	7.31320383596E-02	-2.44458664264E-02	7.26066172347E-02	1.80501046049E-01	1.74507822522E-01
1.72250000000E+09	-7.63159031879E-02	1.13608143351E-02	-2.21030596291E-02	7.35814206850E-02	-2.28819126999E-02	7.30490540776E-02	1.84891551535E-01	1.72070923111E-01
1.72300000000E+09	-7.76392512770E-02	9.24797705730E-03	-2.04921726206E-02	7.40062866251E-02	-2.12917588101E-02	7.34774192063E-02	1.89152579517E-01	1.69513823093E-01
1.72350000000E+09	-7.90054261535E-02	7.17685595745E-03	-1.89082360398E-02	7.43803778480E-02	-1.96932226296E-02	7.38652523706E-02	1.93348022240E-01	1.66697886134E-01
1.72400000000E+09	-8.04523930928E-02	5.18462183129E-03	-1.72852011619E-02	7.47239724892E-02	-1.80881629716E-02	7.42378538893E-02	1.97488463428E-01	1.63878126561E-01
1.72450000000E+09	-8.19908912303E-02	3.23297616565E-03	-1.56685850961E-02	7.50089967712E-02	-1.65104245790E-02	7.45406084025E-02	2.01519058779E-01	1.60936753602E-01
1.72500000000E+09	-8.35886721856E-02	1.32332048792E-03	-1.40480285652E-02	7.52931169167E-02	-1.48658412174E-02	7.48227859212E-02	2.05474656299E-01	1.57831308399E-01
1.72550000000E+09	-8.52679589770E-02	-5.50659491989E-04	-1.24360709080E-02	7.55159285284E-02	-1.32784992716E-02	7.50870555044E-02	2.09309860057E-01	1.54566438491E-01
1.72600000000E+09	-8.70493205807E-02	-2.34768498254E-03	-1.08335403247E-02	7.57074103598E-02	-1.16457976854E-02	7.52813351113E-02	2.13075650864E-01	1.51219769468E-01
1.72650000000E+09	-8.88817131324E-02	-4.08275456967E-03	-9.17674826199E-03	7.58740936634E-02	-1.00298373151E-02	7.54901192676E-02	2.16755412875E-01	1.47814194847E-01
1.72700000000E+09	-9.07637716426E-02	-5.78983247478E-03	-7.55835281409E-03	7.60014861911E-02	-8.40860568493E-03	7.56145732014E-02	2.20379276660E-01	1.44210157577E-01
1.72750000000E+09	-9.27399853730E-02	-7.38745541699E-03	-5.94850434648E-03	7.60923572079E-02	-6.79775791869E-03	7.57209129749E-02	2.23790124614E-01	1.40565099913E-01
1.72800000000E+09	-9.48011359776E-02	-8.94981907082E-03	-4.28690688202E-03	7.61515799364E-02	-5.16109552296E-03	7.57843912195E-02	2.27141744514E-01	1.36801096781E-01
1.72850000000E+09	-9.69092781549E-02	-1.04195475177E-02	-2.66769472441E-03	7.61691620533E-02	-3.55750745551E-03	7.58520326670E-02	2.30409581438E-01	1.32923404332E-01
1.72900000000E+09	-9.91089809988E-02	-1.18595314805E-02	-1.05832826252E-03	7.61458574657E-02	-1.91912717295E-03	7.58513620482E-02	2.33526859539E-01	1.28944022649E-01
1.72950000000E+09	-1.01353164133E-01	-1.31785597133E-02	5.70573124489E-04	7.60900171087E-02	-3.20258895473E-04	7.57941732549E-02	2.36542659370E-01	1.24844007932E-01
1.73000000000E+09	-1.03648269825E-01	-1.44592340698E-02	2.20011863820E-03	7.59895353814E-02	1.28750524690E-03	7.57376508327E-02	2.39440864520E-01	1.20671505116E-01
1.73050000000E+09	-1.06005399905E-01	-1.56342722492E-02	3.81803500283E-03	7.58774611029E-02	2.90130612427E-03	7.56389722403E-02	2.42208698166E-01	1.16419671766E-01
1.73100000000E+09	-1.08427435402E-01	-1.67865482857E-02	5.41464904216E-03	7.57214858440E-02	4.51207779637E-03	7.54832529219E-02	2.44852708589E-01	1.12073660360E-01
1.73150000000E+09	-1.10933602904E-01	-1.78021469042E-02	6.99737718621E-03	7.55289066905E-02	6.10823645344E-03	7.53112475805E-02	2.47343045348E-01	1.07686027093E-01
1.73200000000E+09	-1.13438951241E-01	-1.87669741360E-02	8.57752757193E-03	7.53038000443E-02	7.68713149146E-03	7.50898798980E-02	2.49739274974E-01	1.03161249200E-01
1.73250000000E+09	-1.16052518142E-01	-1.96077605483E-02	1.01616729922E-02	7.50659305657E-02	9.28731708840E-03	7.48789833112E-02	2.51983255814E-01	9.85913486706E-02
1.73300000000E+09	-1.18669298204E-01	-2.03652906345E-02	1.17600713441E-02	7.47350511981E-02	1.08701208553E-02	7.46008399618E-02	2.54127876957E-01	9.39627005428E-02
1.73350000000E+09	-1.21361541084E-01	-2.10532078311E-02	1.33405521510E-02	7.44327228457E-02	1.24455648055E-02	7.42761028503E-02	2.56119958187E-01	8.92425312674E-02
1.73400000000E+09	-1.24093577750E-01	-2.16067402739E-02	1.48964843844E-02	7.40440472798E-02	1.39742757784E-02	7.39222716047E-02	2.57937402274E-01	8.44564134800E-02
1.73450000000E+09	-1.26881250781E-01	-2.20993786265E-02	1.64316485632E-02	7.36681668692E-02	1.55266471320E-02	7.35542982222E-02	2.59612230565E-01	7.96432514773E-02
1.73500000000E+09	-1.29705966379E-01	-2.24890678612E-02	1.79771995577E-02	7.32122743678E-02	1.70618302064E-02	7.31447417806E-02	2.61185095792E-01	7.46877486201E-02
1.73550000000E+09	-1.32511024155E-01	-2.27376165581E-02	1.95014578065E-02	7.27611049386E-02	1.85807247737E-02	7.27068293025E-02	2.62564891506E-01	6.97798827499E-02
1.73600000000E+09	-1.35377354261E-01	-2.28984501386E-02	2.09940351165E-02	7.22663542178E-02	2.00849700086E-02	7.22308391028E-02	2.63872282636E-01	6.47808648589E-02
1.73650000000E+09	-1.38276742972E-01	-2.29747914004E-02	2.25103997121E-02	7.17407067157E-02	2.16021808274E-02	7.17179719913E-02	2.64964477545E-01	5.97693523080E-02
1.73700000000E+09	-1.41192121942E-01	-2.29252161512E-02	2.39889121654E-02	7.11955846907E-02	2.30652447311E-02	7.11856965244E-02	2.65915864580E-01	5.46789704480E-02
1.73750000000E+09	-1.44133312009E-01	-2.27237614601E-02	2.54526280788E-02	7.06153740967E-02	2.45362951014E-02	7.06376054034E-02	2.66725103274E-01	4.95831839446E-02
1.73800000000E+09	-1.47059391032E-01	-2.24686668651E-02	2.69032685210E-02	6.99938268555E-02	2.59475346693E-02	7.00451194965E-02	2.67316909116E-01	4.44795558194E-02
1.73850000000E+09	-1.50033108397E-01	-2.21332808021E-02	2.83479983585E-02	6.93545149494E-02	2.74088336400E-02	6.93804897995E-02	2.67876897212E-01	3.93163296701E-02
1.73900000000E+09	-1.53010009628E-01	-2.16077655016E-02	2.97408401314E-02	6.86963685760E-02	2.88288058158E-02	6.87594735003E-02	2.68250563112E-01	3.41591388378E-02
1.73950000000E+09	-1.56001699009E-01	-2.09938621831E-02	3.11750478650E-02	6.79747262881E-02	3.02449313189E-02	6.80621168293E-02	2.68396305061E-01	2.89691604772E-02
1.74000000000E+09	-1.58974908475E-01	-2.02526240478E-02	3.25397694847E-02	6.72720250797E-02	3.16150061424E-02	6.73587040736E-02	2.68417815268E-01	2.37607714819E-02
1.74050000000E+09	-1.61941899105E-01	-1.93670019120E-02	3.39076637763E-02	6.65100041888E-02	3.29812874946E-02	6.66336099576E-02	2.68304373512E-01	1.85730017542E-02
1.74100000000E+09	-1.64913037882E-01	-1.84171402046E-02	3.52642721784E-02	6.57351264857E-02	3.43335818452E-02	6.58544987344E-02	2.68020763386E-01	1.33352668530E-02
1.74150000000E+09	-1.67825968326E-01	-1.73472878613E-02	3.65609377042E-02	6.49074218636E-02	3.56788128340E-02	6.50787400821E-02	2.67567740935E-01	8.17188713264E-03
1.74200000000E+09	-1.70796646403E-01	-1.61081910315E-02	3.78751069939E-02	6.40883078746E-02	3.69715509383E-02	6.42955054758E-02	2.67007687559E-01	2.96585652723E-03
1.74250000000E+09	-1.73668351111E-01	-1.47416923854E-02	3.91611922193E-02	6.32371775849E-02	3.82708992701E-02	6.34364709041E-02	2.66216547735E-01	-2.20775381016E-03
1.74300000000E+09	-1.76542649854E-01	-1.32592147334E-02	4.04218100400E-02	6.23308202343E-02	3.95184213638E-02	6.25597903953E-02	2.65295734486E-01	-7.37012406952E-03
1.74350000000E+09	-1.79370192761E-01	-1.16579581529E-02	4.16738969921E-02	6.14430874567E-02	4.07777198992E-02	6.16797713641E-02	2.64224558305E-01	-1.24910665715E-02
1.74400000000E+09	-1.82153319367E-01	-9.95694908608E-03	4.28925527902E-02	6.04937501086E-02	4.19758791379E-02	6.07768826018E-02	2.62961579544E-01	-1.76400037018E-02
1.74450000000E+09	-1.84909794805E-01	-8.10607295399E-03	4.40879169381E-02	5.95863786384E-02	4.32148909221E-02	5.98276167384E-02	2.61579112824E-01	-2.26545165531E-02
1.74500000000E+09	-1.87566321188E-01	-6.13257615689E-03	4.52707608834E-02	5.86025438263E-02	4.43980787197E-02	5.88722035417E-02	2.60016345938E-01	-2.77228078280E-02
1.74550000000E+09	-1.90192648129E-01	-4.01198779816E-03	4.64236701609E-02	5.76010180703E-02	4.55497890246E-02	5.79021451999E-02	2.58344931350E-01	-3.27269316360E-02
1.74600000000E+09	-1.92745864807E-01	-1.79964402655E-03	4.75585124894E-02	5.65972060224E-02	4.66733777350E-02	5.68903981311E-02	2.56486478386E-01	-3.76809309295E-02
1.74650000000E+09	-1.95189257036E-01	5.35310141066E-04	4.86653634110E-02	5.55350104127E-02	4.77850270513E-02	5.58786824941E-02	2.54463143958E-01	-4.25866250987E-02
1.74700000000E+09	-1.97620235018E-01	2.94825288218E-03	4.97284416632E-02	5.44770669316E-02	4.89024825844E-02	5.48288456246E-02	2.52290734377E-01	-4.74436109841E-02
1.74750000000E+09	-1.99948627284E-01	5.51252294097E-03	5.08048902973E-02	5.34229100057E-02	4.99406900790E-02	5.38013311737E-02	2.49978473977E-01	-5.22146668005E-02
1.74800000000E+09	-2.02185131647E-01	8.20383837226E-03	5.18298142297E-02	5.23240543396E-02	5.09940908958E-02	5.27074407899E-02	2.47495890758E-01	-5.69270140170E-02
1.74850000000E+09	-2.04376164042E-01	1.09894960671E-02	5.28483034188E-02	5.12407817239E-02	5.20091486531E-02	5.16227975620E-02	2.44886704208E-01	-6.15816151854E-02
1.74900000000E+09	-2.06361931258E-01	1.38618121932E-02	5.38325105130E-02	5.00793387098E-02	5.30162282127E-02	5.05150084394E-02	2.42143959364E-01	-6.61141098573E-02
1.74950000000E+09	-2.08259468368E-01	1.68713510402E-02	5.47955102580E-02	4.89806447705E-02	5.39736387876E-02	4.94114175996E-02	2.39220587046E-01	-7.06454313907E-02
1.75000000000E+09	-2.10114409193E-01	1.99781600196E-02	5.57560219756E-02	4.78185834838E-02	5.49227344376E-02	4.82668999267E-02	2.36136031860E-01	-7.49789468254E-02
1.75050000000E+09	-2.11730839125E-01	2.31686588869E-02	5.66528324859E-02	4.66252015750E-02	5.58511204452E-02	4.70976251239E-02	2.32995043956E-01	-7.93865078737E-02
1.75100000000E+09	-2.13322699353E-01	2.64492402993E-02	5.75579010593E-02	4.54632475982E-02	5.67507973593E-02	4.59434099376E-02	2.29629426483E-01	-8.36009201647E-02
1.75150000000E+09	-2.14760687779E-01	2.98528569001E-02	5.84149411901E-02	4.42588245521E-02	5.76440851233E-02	4.47752585380E-02	2.26185407558E-01	-8.77192891245E-02
1.75200000000E+09	-2.15979814468E-01	3.32994366748E-02	5.92482574905E-02	4.30429110111E-02	5.84876488036E-02	4.36028840885E-02	2.22558528718E-01	-9.17492633153E-02
1.75250000000E+09	-2.17108627128E-01	3.68124189126E-02	6.00667722388E-02	4.18480755255E-02	5.92986891114E-02	4.23739863296E-02	2.18895516297E-01	-9.56179900120E-02
1.75300000000E+09	-2.18110622621E-01	4.04226411146E-02	6.08749344829E-02	4.06022441021E-02	6.01102022410E-02	4.11376349969E-02	2.15025989967E-01	-9.94190328303E-02
1.75350000000E+09	-2.18884053670E-01	4.40630546942E-02	6.16425641750E-02	3.93417070054E-02	6.08946389824E-02	3.99385021758E-02	2.11020269658E-01	-1.03107634910E-01
1.75400000000E+09	-2.19557931847E-01	4.77263015220E-02	6.24084390805E-02	3.80918041371E-02	6.16415768540E-02	3.86906067594E-02	2.06966941690E-01	-1.06706429129E-01
1.75450000000E+09	-2.20029138659E-01	5.14823623207E-02	6.31028844627E-02	3.68159846689E-02	6.23719861738E-02	3.74636843642E-02	2.02750365037E-01	-1.10111299818E-01
1.75500000000E+09	-2.20322755400E-01	5.52127200919E-02	6.38225906219E-02	3.55634539430E-02	6.30792613169E-02	3.61874472668E-02	1.98450551148E-01	-1.13471652536E-01
1.75550000000E+09	-2.20446484697E-01	5.90215761860E-02	6.45048826094E-02	3.42657815022E-02	6.37820817715E-02	3.48974087044E-02	1.93936094071E-01	-1.16655009460E-01
1.75600000000E+09	-2.20402032212E-01	6.27940944676E-02	6.51508707705E-02	3.29445359027E-02	6.44567460477E-02	3.36213600622E-02	1.89401929496E-01	-1.19718736281E-01
1.75650000000E+09	-2.20186405637E-01	6.66133442681E-02	6.57874939591E-02	3.16621152803E-02	6.51048308491E-02	3.23275516677E-02	1.84773849747E-01	-1.22625995686E-01
1.75700000000E+09	-2.19777287192E-01	7.03886422793E-02	6.63850791943E-02	3.03342833903E-02	6.57040742075E-02	3.10170552179E-02	1.80054676598E-01	-1.25406357030E-01
1.75750000000E+09	-2.19224621263E-01	7.41516086559E-02	6.69819095617E-02	2.90109324407E-02	6.63289580716E-02	2.96929488624E-02	1.75195161312E-01	-1.28026571520E-01
1.75800000000E+09	-2.18445832710E-01	7.78979609364E-02	6.75332836375E-02	2.76741600673E-02	6.69192514569E-02	2.83854250646E-02	1.70298913528E-01	-1.30523126113E-01
1.75850000000E+09	-2.17510990595E-01	8.15945913993E-02	6.80752255056E-02	2.63372863645E-02	6.74766768993E-02	2.70446214207E-02	1.65340859127E-01	-1.32837109070E-01
1.75900000000E+09	-2.16428118460E-01	8.52632607766E-02	6.86056185101E-02	2.49707796547E-02	6.79770078337E-02	2.57061235897E-02	1.60209747622E-01	-1.35004665465E-01
