# Hz S RI R 50
! CMT, CMT808U, 21440046, 21.4.3/4
! Date: 4/9/2026 1:53:13 AM
! Data: Format (Calibration Info)
! Freq	S11:Re/Im(F2)	S41:Re/Im(F2)	S14:Re/Im(F2)	S44:Re/Im(F2)
1.70000000000E+09	-1.18206040629E-01	9.69751412480E-02	-6.61787190976E-02	2.43344483590E-02	-6.61947983423E-02	2.34486752482E-02	-8.88098729041E-02	1.19332123947E-01
1.70050000000E+09	-1.15474790219E-01	9.68414532124E-02	-6.56806071507E-02	2.57515105913E-02	-6.57220829836E-02	2.48653692466E-02	-8.62071160007E-02	1.23809690270E-01
1.70100000000E+09	-1.12816336371E-01	9.65617021155E-02	-6.51705390591E-02	2.71253880315E-02	-6.52043291269E-02	2.62471964986E-02	-8.35100188585E-02	1.28189388193E-01
1.70150000000E+09	-1.10091033630E-01	9.61331268913E-02	-6.45863995479E-02	2.85412824926E-02	-6.46583797463E-02	2.76435945470E-02	-8.05969962158E-02	1.32443329410E-01
1.70200000000E+09	-1.07481909030E-01	9.55640654531E-02	-6.39596198545E-02	2.99193023227E-02	-6.40812975612E-02	2.90127985960E-02	-7.76044829941E-02	1.36666830747E-01
1.70250000000E+09	-1.04886249246E-01	9.48897435087E-02	-6.33760471934E-02	3.12785808800E-02	-6.34736133376E-02	3.03741949788E-02	-7.44313896103E-02	1.40783197481E-01
1.70300000000E+09	-1.02344623548E-01	9.40130436129E-02	-6.27061446081E-02	3.26452231739E-02	-6.28317649840E-02	3.17416391453E-02	-7.11195670469E-02	1.44811436170E-01
1.70350000000E+09	-9.98816575552E-02	9.30525131539E-02	-6.20164920412E-02	3.39707287161E-02	-6.21792431759E-02	3.30895108038E-02	-6.77464373575E-02	1.48724124911E-01
1.70400000000E+09	-9.74626819264E-02	9.19584564763E-02	-6.13056135822E-02	3.53075190205E-02	-6.14685560526E-02	3.44271853559E-02	-6.41906294185E-02	1.52522442785E-01
1.70450000000E+09	-9.51093599436E-02	9.07655984413E-02	-6.05528689466E-02	3.66269826207E-02	-6.07517022631E-02	3.57379653799E-02	-6.05493660481E-02	1.56216935191E-01
1.70500000000E+09	-9.28339618062E-02	8.94307704657E-02	-5.97720694706E-02	3.79372646173E-02	-5.99965115778E-02	3.70640580270E-02	-5.67721538558E-02	1.59794992269E-01
1.70550000000E+09	-9.06429156931E-02	8.79889587667E-02	-5.89849590681E-02	3.92092226605E-02	-5.92054138231E-02	3.83396039840E-02	-5.29033492144E-02	1.63255336131E-01
1.70600000000E+09	-8.85332923644E-02	8.64790098877E-02	-5.81410977424E-02	4.04864703305E-02	-5.83888781961E-02	3.96152835693E-02	-4.89375873096E-02	1.66598392758E-01
1.70650000000E+09	-8.65038663772E-02	8.48105859195E-02	-5.72904094989E-02	4.17155190823E-02	-5.75548933051E-02	4.08706937746E-02	-4.48302312480E-02	1.69815534154E-01
1.70700000000E+09	-8.45677629207E-02	8.31071772407E-02	-5.63858923241E-02	4.29796858187E-02	-5.66788468223E-02	4.21149785736E-02	-4.06480124004E-02	1.72894805876E-01
1.70750000000E+09	-8.27299930258E-02	8.13091953477E-02	-5.54906783518E-02	4.42030005059E-02	-5.57786407363E-02	4.33545256460E-02	-3.63088026844E-02	1.75848107704E-01
1.70800000000E+09	-8.09854891752E-02	7.94050148291E-02	-5.45160034804E-02	4.53806556887E-02	-5.48437873935E-02	4.45423102812E-02	-3.19433629893E-02	1.78685957685E-01
1.70850000000E+09	-7.93269931766E-02	7.74007704933E-02	-5.35696543602E-02	4.65847240832E-02	-5.38752846207E-02	4.57384882174E-02	-2.74196062710E-02	1.81364572474E-01
1.70900000000E+09	-7.78276395810E-02	7.54043563951E-02	-5.25455924622E-02	4.77330218242E-02	-5.29002083121E-02	4.69001744311E-02	-2.28779723464E-02	1.83917489698E-01
1.70950000000E+09	-7.63639299582E-02	7.32907934833E-02	-5.14993488301E-02	4.88842845554E-02	-5.19029816144E-02	4.80421077175E-02	-1.82418127143E-02	1.86353718570E-01
1.71000000000E+09	-7.50363379640E-02	7.11074800244E-02	-5.04448203671E-02	4.99849153629E-02	-5.08524695876E-02	4.91725464760E-02	-1.35479180097E-02	1.88623383618E-01
1.71050000000E+09	-7.38230359813E-02	6.89034841911E-02	-4.93601838749E-02	5.10903347743E-02	-4.97835057539E-02	5.02803095565E-02	-8.74574761670E-03	1.90716136590E-01
1.71100000000E+09	-7.26940763329E-02	6.66363764072E-02	-4.82549349134E-02	5.21693600347E-02	-4.86895983544E-02	5.13605869117E-02	-3.90383536730E-03	1.92673083293E-01
1.71150000000E+09	-7.16670372818E-02	6.43050909556E-02	-4.71398759895E-02	5.32054952050E-02	-4.75784489666E-02	5.23974600808E-02	1.06141450043E-03	1.94496607919E-01
1.71200000000E+09	-7.08053127435E-02	6.19706695171E-02	-4.59405813706E-02	5.42513486539E-02	-4.64266975760E-02	5.34287897473E-02	6.04406185361E-03	1.96172400308E-01
1.71250000000E+09	-7.00105461200E-02	5.96035912440E-02	-4.47768942439E-02	5.52310988276E-02	-4.52536443398E-02	5.44392917712E-02	1.10499939037E-02	1.97723622765E-01
1.71300000000E+09	-6.93220379749E-02	5.72085279781E-02	-4.35876127741E-02	5.62049812341E-02	-4.40736830810E-02	5.54386765254E-02	1.61472894463E-02	1.99098484461E-01
1.71350000000E+09	-6.87665813856E-02	5.47852466732E-02	-4.23468704740E-02	5.71338486591E-02	-4.28696364709E-02	5.63560799229E-02	2.12868641158E-02	2.00309993003E-01
1.71400000000E+09	-6.82761134875E-02	5.23145446386E-02	-4.11073574195E-02	5.80530384231E-02	-4.16535008310E-02	5.73043235087E-02	2.64317703666E-02	2.01346114238E-01
1.71450000000E+09	-6.79304112393E-02	4.98756963143E-02	-3.98342774803E-02	5.89358547281E-02	-4.03778727546E-02	5.81961963052E-02	3.16222291851E-02	2.02195226575E-01
1.71500000000E+09	-6.76828740136E-02	4.74271204031E-02	-3.85374716222E-02	5.97833263940E-02	-3.91037291939E-02	5.90936345105E-02	3.68576055099E-02	2.02970639593E-01
1.71550000000E+09	-6.75600221109E-02	4.49720330211E-02	-3.72329402424E-02	6.06065152489E-02	-3.78235771204E-02	5.99091573335E-02	4.20821209724E-02	2.03514542667E-01
1.71600000000E+09	-6.74954518400E-02	4.24893687471E-02	-3.59039410363E-02	6.14210850303E-02	-3.64909715194E-02	6.07236689742E-02	4.73884205384E-02	2.03966315848E-01
1.71650000000E+09	-6.75632639846E-02	4.00189341419E-02	-3.45527698077E-02	6.21881248804E-02	-3.51728716652E-02	6.15045672844E-02	5.26608513786E-02	2.04194404016E-01
1.71700000000E+09	-6.77255359094E-02	3.75680338395E-02	-3.31906414530E-02	6.29182551933E-02	-3.38229420676E-02	6.22604997888E-02	5.79576790068E-02	2.04273150594E-01
1.71750000000E+09	-6.79909261286E-02	3.51107456144E-02	-3.17845852665E-02	6.36346995281E-02	-3.24499780767E-02	6.29685713685E-02	6.32683849156E-02	2.04196254762E-01
1.71800000000E+09	-6.83532532684E-02	3.27006531068E-02	-3.03971225907E-02	6.42856299641E-02	-3.10649806750E-02	6.36568818931E-02	6.85740821079E-02	2.03977482406E-01
1.71850000000E+09	-6.88029738938E-02	3.02817819988E-02	-2.89846981322E-02	6.49393514806E-02	-2.96597833195E-02	6.43044916635E-02	7.38567088711E-02	2.03510864334E-01
1.71900000000E+09	-6.93487639504E-02	2.79162388241E-02	-2.75515108046E-02	6.55658288741E-02	-2.82494351219E-02	6.49396490285E-02	7.91535255148E-02	2.02962666626E-01
1.71950000000E+09	-7.00013969855E-02	2.55174516994E-02	-2.60959927067E-02	6.61447113768E-02	-2.68287388547E-02	6.55405190514E-02	8.43700147222E-02	2.02240762935E-01
1.72000000000E+09	-7.07380497195E-02	2.31778717420E-02	-2.46704775075E-02	6.66938688842E-02	-2.53767002615E-02	6.61095741520E-02	8.96582395515E-02	2.01415430501E-01
1.72050000000E+09	-7.15759983324E-02	2.08695104382E-02	-2.31937587221E-02	6.71938429351E-02	-2.39019851792E-02	6.66344170360E-02	9.48865957003E-02	2.00346279700E-01
1.72100000000E+09	-7.24747951584E-02	1.85833000418E-02	-2.17165446121E-02	6.76742861148E-02	-2.24468552173E-02	6.71278566149E-02	1.00093487134E-01	1.99118521704E-01
1.72150000000E+09	-7.34972114810E-02	1.63211886699E-02	-2.02257124001E-02	6.81179139178E-02	-2.10106627569E-02	6.75689237145E-02	1.05232334871E-01	1.97758234656E-01
1.72200000000E+09	-7.45942467360E-02	1.41233137694E-02	-1.87238447739E-02	6.85157453286E-02	-1.95046922814E-02	6.80207828283E-02	1.10352339562E-01	1.96194596853E-01
1.72250000000E+09	-7.57685471558E-02	1.19535475135E-02	-1.72203578275E-02	6.88940164358E-02	-1.79953905629E-02	6.84023351146E-02	1.15460269342E-01	1.94488282048E-01
1.72300000000E+09	-7.70382167002E-02	9.79977900842E-03	-1.57148653521E-02	6.92469851112E-02	-1.64983064886E-02	6.87678518771E-02	1.20496030361E-01	1.92735551648E-01
1.72350000000E+09	-7.84020145870E-02	7.70295990429E-03	-1.41918907621E-02	6.95431979577E-02	-1.50053807639E-02	6.90640038998E-02	1.25427830623E-01	1.90665417052E-01
1.72400000000E+09	-7.98385133580E-02	5.64084998213E-03	-1.26742763511E-02	6.98147763183E-02	-1.34772721843E-02	6.93579599084E-02	1.30328051744E-01	1.88533650548E-01
1.72450000000E+09	-8.13475325269E-02	3.64509689130E-03	-1.11336299671E-02	7.00488912777E-02	-1.19516425795E-02	6.96335252625E-02	1.35207152986E-01	1.86280926826E-01
1.72500000000E+09	-8.29084076201E-02	1.71276247049E-03	-9.61578586345E-03	7.02551720693E-02	-1.04134243278E-02	6.98299808128E-02	1.39994844292E-01	1.83780792787E-01
1.72550000000E+09	-8.45831132858E-02	-1.90371569361E-04	-8.08835102153E-03	7.03943562411E-02	-8.90270162107E-03	7.00360297742E-02	1.44717388558E-01	1.81199871434E-01
1.72600000000E+09	-8.63502865212E-02	-2.03930995085E-03	-6.51060819669E-03	7.05538921307E-02	-7.37391806888E-03	7.01742752223E-02	1.49349300621E-01	1.78445792607E-01
1.72650000000E+09	-8.81468952546E-02	-3.81916319518E-03	-4.97420807209E-03	7.06599415431E-02	-5.81257853495E-03	7.02995045945E-02	1.53905131756E-01	1.75575583111E-01
1.72700000000E+09	-9.00402284782E-02	-5.52505345646E-03	-3.43502048954E-03	7.07102822551E-02	-4.29467814971E-03	7.03850257442E-02	1.58373536666E-01	1.72532931082E-01
1.72750000000E+09	-9.19907825792E-02	-7.21545632748E-03	-1.88428625251E-03	7.07286493794E-02	-2.76562634682E-03	7.04077670776E-02	1.62740994261E-01	1.69405946879E-01
1.72800000000E+09	-9.40230133185E-02	-8.82195835000E-03	-3.33096390023E-04	7.07294503447E-02	-1.23910394602E-03	7.04395473113E-02	1.67009996464E-01	1.66045557042E-01
1.72850000000E+09	-9.61187196991E-02	-1.03432985705E-02	1.18641089924E-03	7.06771097139E-02	3.11086788959E-04	7.03836834051E-02	1.71240348884E-01	1.62569141051E-01
1.72900000000E+09	-9.83251432237E-02	-1.18176450076E-02	2.72540828055E-03	7.06007132683E-02	1.85028861735E-03	7.03694321008E-02	1.75325811932E-01	1.59082553295E-01
1.72950000000E+09	-1.00559545831E-01	-1.31808765277E-02	4.26838966729E-03	7.04778866220E-02	3.36433043116E-03	7.02505358414E-02	1.79265821969E-01	1.55393880821E-01
1.73000000000E+09	-1.02864387545E-01	-1.45028364885E-02	5.80140236636E-03	7.03458289306E-02	4.89606513231E-03	7.01199489768E-02	1.83151884321E-01	1.51592321555E-01
1.73050000000E+09	-1.05232731502E-01	-1.57582879793E-02	7.31710425315E-03	7.01533938223E-02	6.43456365260E-03	6.99625492346E-02	1.86922764512E-01	1.47602895192E-01
1.73100000000E+09	-1.07641286052E-01	-1.69304828319E-02	8.82067220466E-03	6.99435979917E-02	7.92543971988E-03	6.97550859087E-02	1.90556784545E-01	1.43549257668E-01
1.73150000000E+09	-1.10142957215E-01	-1.79901296830E-02	1.03423969354E-02	6.96827286866E-02	9.43730995481E-03	6.95286937453E-02	1.94017624837E-01	1.39395821735E-01
1.73200000000E+09	-1.12674097656E-01	-1.89800419295E-02	1.18476134451E-02	6.93952277689E-02	1.09485905085E-02	6.92664425718E-02	1.97439125341E-01	1.35083596116E-01
1.73250000000E+09	-1.15285660419E-01	-1.98741235084E-02	1.33503641689E-02	6.91009963243E-02	1.24464080314E-02	6.89494161566E-02	2.00732898617E-01	1.30695729040E-01
1.73300000000E+09	-1.17909323648E-01	-2.07118216235E-02	1.48354795522E-02	6.87311540280E-02	1.39338115084E-02	6.86270138123E-02	2.03868641118E-01	1.26208196542E-01
1.73350000000E+09	-1.20611523392E-01	-2.14132821788E-02	1.63028198823E-02	6.83652251159E-02	1.54099613421E-02	6.82718144651E-02	2.06892072943E-01	1.21640673860E-01
1.73400000000E+09	-1.23326119309E-01	-2.20321019072E-02	1.77635670270E-02	6.79169329656E-02	1.68722532478E-02	6.78682990841E-02	2.09672621095E-01	1.16918901460E-01
1.73450000000E+09	-1.26158128052E-01	-2.25476982019E-02	1.92272933580E-02	6.74755778770E-02	1.83307300190E-02	6.74198754624E-02	2.12402903670E-01	1.12126112383E-01
1.73500000000E+09	-1.28983031290E-01	-2.29751196912E-02	2.06527069275E-02	6.69949238209E-02	1.97570616844E-02	6.69561745964E-02	2.14993768127E-01	1.07230971258E-01
1.73550000000E+09	-1.31821172551E-01	-2.32684386635E-02	2.20866236519E-02	6.64807610116E-02	2.11761685603E-02	6.64537911340E-02	2.17430499350E-01	1.02306645465E-01
1.73600000000E+09	-1.34715761522E-01	-2.34894416096E-02	2.35053881305E-02	6.59315161626E-02	2.25896832388E-02	6.59365642223E-02	2.19662386999E-01	9.72722323591E-02
1.73650000000E+09	-1.37613641336E-01	-2.35986593126E-02	2.48870923209E-02	6.53428120413E-02	2.39850990897E-02	6.53928884531E-02	2.21784672665E-01	9.21535103916E-02
1.73700000000E+09	-1.40551459078E-01	-2.35845936839E-02	2.62818292753E-02	6.47341983862E-02	2.53908854610E-02	6.47838875773E-02	2.23743305797E-01	8.69649901868E-02
1.73750000000E+09	-1.43554218187E-01	-2.34381749378E-02	2.76376014396E-02	6.41069794602E-02	2.67435407054E-02	6.41922908193E-02	2.25559372666E-01	8.17499504900E-02
1.73800000000E+09	-1.46513572053E-01	-2.32425909027E-02	2.89765987046E-02	6.34411886518E-02	2.80868230783E-02	6.35409367040E-02	2.27183319370E-01	7.64540401101E-02
1.73850000000E+09	-1.49500546444E-01	-2.28898594997E-02	3.03262280703E-02	6.27679644869E-02	2.94153832538E-02	6.28490300926E-02	2.28684364525E-01	7.10843016223E-02
1.73900000000E+09	-1.52516425904E-01	-2.24338746964E-02	3.16335614246E-02	6.20312475839E-02	3.07373914053E-02	6.21592426650E-02	2.30056946090E-01	6.56458814743E-02
1.73950000000E+09	-1.55522128297E-01	-2.18054148291E-02	3.29436718674E-02	6.12647768429E-02	3.20395909782E-02	6.14089927669E-02	2.31161147866E-01	6.02030855099E-02
1.74000000000E+09	-1.58512864172E-01	-2.11315965203E-02	3.41895331344E-02	6.05066092950E-02	3.32960051039E-02	6.06777527901E-02	2.32144519591E-01	5.46818892467E-02
1.74050000000E+09	-1.61503848216E-01	-2.02900242253E-02	3.54519993435E-02	5.97002390070E-02	3.45536876911E-02	5.98846340032E-02	2.32953981867E-01	4.91806535658E-02
1.74100000000E+09	-1.64528053477E-01	-1.93425656111E-02	3.66833629468E-02	5.88766042907E-02	3.58112011043E-02	5.90591501804E-02	2.33615125515E-01	4.35550290388E-02
1.74150000000E+09	-1.67475672392E-01	-1.83031196561E-02	3.78968126175E-02	5.80239276593E-02	3.70189603083E-02	5.82368752947E-02	2.34093027815E-01	3.79883502053E-02
1.74200000000E+09	-1.70463785337E-01	-1.70784446209E-02	3.90912388805E-02	5.71682604870E-02	3.81969589023E-02	5.73805750259E-02	2.34391358658E-01	3.23412217002E-02
1.74250000000E+09	-1.73399346053E-01	-1.57312306480E-02	4.02590341426E-02	5.62346021973E-02	3.93817318312E-02	5.64828737932E-02	2.34493831210E-01	2.67276731159E-02
1.74300000000E+09	-1.76302550088E-01	-1.43123702267E-02	4.13687435334E-02	5.53149440986E-02	4.05349318692E-02	5.55788934103E-02	2.34481083127E-01	2.10633740090E-02
1.74350000000E+09	-1.79174956466E-01	-1.27435375014E-02	4.25407375046E-02	5.43754285652E-02	4.16549634284E-02	5.46425300430E-02	2.34249293459E-01	1.54296312014E-02
1.74400000000E+09	-1.81984202539E-01	-1.10334237725E-02	4.35893347011E-02	5.33907294832E-02	4.27448262774E-02	5.37068851774E-02	2.33836194667E-01	9.79127157347E-03
1.74450000000E+09	-1.84792120453E-01	-9.19287174383E-03	4.46919404209E-02	5.24172301501E-02	4.38331320834E-02	5.27287385113E-02	2.33249651376E-01	4.14855992449E-03
1.74500000000E+09	-1.87515594081E-01	-7.24881532897E-03	4.57617185903E-02	5.13962922752E-02	4.48814579493E-02	5.17449146755E-02	2.32492707155E-01	-1.46261026366E-03
1.74550000000E+09	-1.90177382149E-01	-5.17861846381E-03	4.67612419289E-02	5.03921892553E-02	4.59130174858E-02	5.07175122455E-02	2.31591037858E-01	-7.09148079496E-03
1.74600000000E+09	-1.92780805414E-01	-2.97302622894E-03	4.77594906677E-02	4.93262045443E-02	4.69245821051E-02	4.96918480759E-02	2.30490474167E-01	-1.27091339642E-02
1.74650000000E+09	-1.95267707960E-01	-6.65051053487E-04	4.87461525229E-02	4.82388338972E-02	4.79077063744E-02	4.86541069323E-02	2.29227257480E-01	-1.82826298489E-02
1.74700000000E+09	-1.97732191156E-01	1.77480704148E-03	4.96766355739E-02	4.71719444327E-02	4.88657636488E-02	4.75798714847E-02	2.27710385950E-01	-2.38041508843E-02
1.74750000000E+09	-2.00136545489E-01	4.32123762836E-03	5.05903161667E-02	4.60668918638E-02	4.97961190256E-02	4.64980661106E-02	2.26100691306E-01	-2.92976245339E-02
1.74800000000E+09	-2.02397299742E-01	7.01587591429E-03	5.14990145994E-02	4.49493845551E-02	5.06751133374E-02	4.53885506598E-02	2.24274810385E-01	-3.47283664560E-02
1.74850000000E+09	-2.04643408322E-01	9.77717998486E-03	5.23979050516E-02	4.38040967196E-02	5.15672699227E-02	4.42742341348E-02	2.22317154870E-01	-4.01597156289E-02
1.74900000000E+09	-2.06680036533E-01	1.26238205175E-02	5.32142444751E-02	4.26757242216E-02	5.24182184490E-02	4.31560124026E-02	2.20148857948E-01	-4.54665451797E-02
1.74950000000E+09	-2.08662385749E-01	1.56520721921E-02	5.40097561473E-02	4.15270912041E-02	5.32569925820E-02	4.20072088412E-02	2.17866224203E-01	-5.07748969573E-02
1.75000000000E+09	-2.10542480501E-01	1.87475723730E-02	5.48130670878E-02	4.03487286038E-02	5.40444640976E-02	4.08556282712E-02	2.15319743708E-01	-5.59710250927E-02
1.75050000000E+09	-2.12209368030E-01	2.19596254349E-02	5.55784077017E-02	3.91563362695E-02	5.48277623781E-02	3.96724775983E-02	2.12688202911E-01	-6.11606475972E-02
1.75100000000E+09	-2.13863546487E-01	2.52442257065E-02	5.63031775633E-02	3.79479005272E-02	5.55601984347E-02	3.85087477277E-02	2.09860004094E-01	-6.62406039787E-02
1.75150000000E+09	-2.15363528930E-01	2.86415143961E-02	5.70190977757E-02	3.67558745372E-02	5.62896109441E-02	3.73078679239E-02	2.06882471835E-01	-7.12307067238E-02
1.75200000000E+09	-2.16632582699E-01	3.20933283102E-02	5.77094186105E-02	3.55669767996E-02	5.69604290856E-02	3.61268468107E-02	2.03695904301E-01	-7.60978973262E-02
1.75250000000E+09	-2.17827501779E-01	3.56156028180E-02	5.83728779136E-02	3.43265273038E-02	5.76272530171E-02	3.49255356025E-02	2.00404456077E-01	-8.09207390031E-02
1.75300000000E+09	-2.18871512997E-01	3.92330413045E-02	5.89934541108E-02	3.30956930238E-02	5.82944197662E-02	3.37034578066E-02	1.96949865807E-01	-8.56299915343E-02
1.75350000000E+09	-2.19721489300E-01	4.28903013169E-02	5.95850480570E-02	3.18797541530E-02	5.88897132668E-02	3.24866020226E-02	1.93314158283E-01	-9.01960866023E-02
1.75400000000E+09	-2.20414203657E-01	4.65725314397E-02	6.01846431028E-02	3.05913199484E-02	5.94927153156E-02	3.12502369488E-02	1.89581117618E-01	-9.47424487994E-02
1.75450000000E+09	-2.20964431396E-01	5.03456714966E-02	6.07256453684E-02	2.93619470440E-02	6.00498152430E-02	3.00197144716E-02	1.85661213506E-01	-9.91163880860E-02
1.75500000000E+09	-2.21323690628E-01	5.41444142005E-02	6.12721126827E-02	2.81116472283E-02	6.06044794292E-02	2.87927224551E-02	1.81644765871E-01	-1.03403040640E-01
1.75550000000E+09	-2.21512623442E-01	5.79844076172E-02	6.17572809958E-02	2.68541702678E-02	6.11083518223E-02	2.74970784949E-02	1.77397058525E-01	-1.07514684548E-01
1.75600000000E+09	-2.21506182326E-01	6.17678049227E-02	6.22249819936E-02	2.55646183901E-02	6.16202827450E-02	2.62724565129E-02	1.73054970351E-01	-1.11592076957E-01
1.75650000000E+09	-2.21352197357E-01	6.56439045988E-02	6.26879194170E-02	2.42978409057E-02	6.20585820539E-02	2.50084031172E-02	1.68598078113E-01	-1.15431397813E-01
1.75700000000E+09	-2.20992513162E-01	6.94444467549E-02	6.31414664066E-02	2.30071610374E-02	6.25469521659E-02	2.37450579316E-02	1.63997535731E-01	-1.19178576372E-01
1.75750000000E+09	-2.20488560852E-01	7.32699964804E-02	6.35220045288E-02	2.17365956661E-02	6.29709021251E-02	2.24865073279E-02	1.59256181763E-01	-1.22787126605E-01
1.75800000000E+09	-2.19794729393E-01	7.70951454741E-02	6.39322528759E-02	2.04494930402E-02	6.33606788519E-02	2.12086193278E-02	1.54437080274E-01	-1.26269328671E-01
1.75850000000E+09	-2.18889164915E-01	8.08457406922E-02	6.42894035372E-02	1.91719156253E-02	6.37490422195E-02	1.99309295285E-02	1.49522260858E-01	-1.29575180200E-01
1.75900000000E+09	-2.17828323576E-01	8.45493430134E-02	6.46282858558E-02	1.78787391375E-02	6.40742197528E-02	1.86720706222E-02	1.44424795430E-01	-1.32712469056E-01
