# Hz S RI R 50
! CMT, CMT808U, 21440046, 21.4.3/4
! Date: 4/9/2026 1:50:00 AM
! Data: Format (Calibration Info)
! Freq	S11:Re/Im(F2)	S41:Re/Im(F2)	S14:Re/Im(F2)	S44:Re/Im(F2)
1.70000000000E+09	-1.13874829175E-01	9.95732527332E-02	-6.82469315817E-02	1.86615722067E-02	-6.81607455202E-02	1.77969816097E-02	-8.34322551109E-02	1.44687710933E-01
1.70050000000E+09	-1.11018279159E-01	9.91843329802E-02	-6.78101410619E-02	2.01096559749E-02	-6.77805190995E-02	1.92370127271E-02	-8.06373330707E-02	1.48977067668E-01
1.70100000000E+09	-1.08227071903E-01	9.86498538061E-02	-6.73719849767E-02	2.15228862808E-02	-6.73629642078E-02	2.06528216678E-02	-7.77810277711E-02	1.53122032320E-01
1.70150000000E+09	-1.05486168401E-01	9.79778397019E-02	-6.68963293429E-02	2.29395941580E-02	-6.68716147132E-02	2.20662883491E-02	-7.47568883334E-02	1.57183300771E-01
1.70200000000E+09	-1.02785897917E-01	9.71938084732E-02	-6.63696128244E-02	2.43431554372E-02	-6.64036740785E-02	2.34492143516E-02	-7.15683369707E-02	1.61175083940E-01
1.70250000000E+09	-1.00149432903E-01	9.62223017296E-02	-6.58466731725E-02	2.57359110024E-02	-6.58702324585E-02	2.48433256360E-02	-6.82305880032E-02	1.65055725210E-01
1.70300000000E+09	-9.75788087823E-02	9.51140546985E-02	-6.52811549936E-02	2.70891341088E-02	-6.53326818383E-02	2.62424304115E-02	-6.47903975701E-02	1.68831547833E-01
1.70350000000E+09	-9.51090915371E-02	9.39158330570E-02	-6.47087313758E-02	2.84879982585E-02	-6.47556633820E-02	2.76081485277E-02	-6.12495528902E-02	1.72571243378E-01
1.70400000000E+09	-9.26654932505E-02	9.25537257282E-02	-6.40793711816E-02	2.98368193650E-02	-6.41529864069E-02	2.89536342946E-02	-5.75999974770E-02	1.76111719592E-01
1.70450000000E+09	-9.03192008801E-02	9.11222568091E-02	-6.34260736331E-02	3.11722966597E-02	-6.35287607576E-02	3.02873294313E-02	-5.38002400316E-02	1.79567500679E-01
1.70500000000E+09	-8.80673032781E-02	8.95387621316E-02	-6.27458907291E-02	3.24947209354E-02	-6.28538870287E-02	3.16347775942E-02	-4.98875986667E-02	1.82892751190E-01
1.70550000000E+09	-8.59205424987E-02	8.78614490447E-02	-6.20195231534E-02	3.38255088428E-02	-6.21610890318E-02	3.29194692458E-02	-4.59238041920E-02	1.86111049629E-01
1.70600000000E+09	-8.38419820991E-02	8.61089343321E-02	-6.12617330502E-02	3.51215788130E-02	-6.14675171699E-02	3.42479977710E-02	-4.18260908892E-02	1.89235313248E-01
1.70650000000E+09	-8.18723231887E-02	8.42464012360E-02	-6.05487539075E-02	3.64010842667E-02	-6.07064307288E-02	3.55360635988E-02	-3.76319110100E-02	1.92181276974E-01
1.70700000000E+09	-7.99945966899E-02	8.23030262509E-02	-5.97364837096E-02	3.76686119590E-02	-5.99547805862E-02	3.67880724640E-02	-3.33258599986E-02	1.95044805286E-01
1.70750000000E+09	-7.82348122093E-02	8.02784125315E-02	-5.89221574269E-02	3.89276047935E-02	-5.91555642031E-02	3.80448449663E-02	-2.89366873521E-02	1.97797186374E-01
1.70800000000E+09	-7.65641653359E-02	7.81818120860E-02	-5.80835522563E-02	4.01483880088E-02	-5.83272082105E-02	3.92865120828E-02	-2.44923290860E-02	2.00343787263E-01
1.70850000000E+09	-7.50164892801E-02	7.60089528397E-02	-5.72040805500E-02	4.13737538823E-02	-5.74638370933E-02	4.05269449156E-02	-1.98857989282E-02	2.02792043097E-01
1.70900000000E+09	-7.36037397395E-02	7.37668210144E-02	-5.63203396186E-02	4.25769045563E-02	-5.66090862059E-02	4.17206029924E-02	-1.53140944865E-02	2.05118815037E-01
1.70950000000E+09	-7.22524407555E-02	7.15009960586E-02	-5.53823191235E-02	4.37581840480E-02	-5.57013136950E-02	4.28930491415E-02	-1.05815329751E-02	2.07305781792E-01
1.71000000000E+09	-7.10624978024E-02	6.91449665827E-02	-5.44568444572E-02	4.49184622384E-02	-5.47853440415E-02	4.40796475489E-02	-5.83501349393E-03	2.09325448929E-01
1.71050000000E+09	-6.99585998736E-02	6.67664973054E-02	-5.34857070913E-02	4.60604817950E-02	-5.38178427792E-02	4.52007481562E-02	-9.76302429087E-04	2.11162334434E-01
1.71100000000E+09	-6.89945230298E-02	6.43181993095E-02	-5.25063717492E-02	4.71532413358E-02	-5.28464380861E-02	4.63155298915E-02	3.87204028212E-03	2.12899743321E-01
1.71150000000E+09	-6.80999082934E-02	6.18653812669E-02	-5.14875660842E-02	4.82586129425E-02	-5.18422894418E-02	4.74266739811E-02	8.85070672426E-03	2.14478007735E-01
1.71200000000E+09	-6.73597990267E-02	5.93779350460E-02	-5.04451827737E-02	4.93407508906E-02	-5.08284743432E-02	4.85224601020E-02	1.38972323046E-02	2.15897572901E-01
1.71250000000E+09	-6.67088810895E-02	5.68742508672E-02	-4.93862759007E-02	5.03744605822E-02	-4.97820970754E-02	4.95769497943E-02	1.89301547869E-02	2.17150731105E-01
1.71300000000E+09	-6.61780264477E-02	5.43365145322E-02	-4.83002299971E-02	5.14232101001E-02	-4.87292518149E-02	5.05892681571E-02	2.39863434988E-02	2.18300045113E-01
1.71350000000E+09	-6.57624463827E-02	5.18036694237E-02	-4.71874309176E-02	5.24102309265E-02	-4.76408600484E-02	5.16383372663E-02	2.91316276440E-02	2.19286823992E-01
1.71400000000E+09	-6.54266620272E-02	4.92333591728E-02	-4.60757754157E-02	5.34029923021E-02	-4.65487847096E-02	5.26414601989E-02	3.42766416121E-02	2.20111422772E-01
1.71450000000E+09	-6.52316456589E-02	4.66777169779E-02	-4.49195457561E-02	5.43644020953E-02	-4.53834857776E-02	5.36060285931E-02	3.94737624285E-02	2.20731331944E-01
1.71500000000E+09	-6.51544664981E-02	4.41348476943E-02	-4.37378562831E-02	5.52751864723E-02	-4.42360816364E-02	5.45376254822E-02	4.46918923648E-02	2.21258749206E-01
1.71550000000E+09	-6.51816554073E-02	4.15744825150E-02	-4.25880639732E-02	5.62128883344E-02	-4.30873868714E-02	5.54547397494E-02	4.99088446004E-02	2.21580752119E-01
1.71600000000E+09	-6.52915286998E-02	3.90341826482E-02	-4.13941244020E-02	5.71068165555E-02	-4.18911195916E-02	5.63546624531E-02	5.51812600263E-02	2.21737062626E-01
1.71650000000E+09	-6.55238359321E-02	3.64912244629E-02	-4.01375866879E-02	5.79632835600E-02	-4.06728196131E-02	5.72144051087E-02	6.04114733493E-02	2.21737545521E-01
1.71700000000E+09	-6.58680550628E-02	3.39740469824E-02	-3.89149064602E-02	5.87825100380E-02	-3.94727076505E-02	5.80920998379E-02	6.56518696903E-02	2.21600823818E-01
1.71750000000E+09	-6.62634196238E-02	3.14568322609E-02	-3.76555504582E-02	5.96090383505E-02	-3.82164878125E-02	5.88930960208E-02	7.09220872526E-02	2.21304230015E-01
1.71800000000E+09	-6.68218477955E-02	2.89865101185E-02	-3.63705772406E-02	6.03855053810E-02	-3.69670637699E-02	5.96657232109E-02	7.61719270120E-02	2.20856163135E-01
1.71850000000E+09	-6.74339498376E-02	2.65494500617E-02	-3.50760847221E-02	6.11398914645E-02	-3.56745800372E-02	6.04503290713E-02	8.13684382272E-02	2.20188132818E-01
1.71900000000E+09	-6.81598818576E-02	2.40988221899E-02	-3.37893299436E-02	6.18633404112E-02	-3.44042395780E-02	6.11992714403E-02	8.65820682425E-02	2.19442521899E-01
1.71950000000E+09	-6.89867052391E-02	2.17137879248E-02	-3.24847364583E-02	6.25567411937E-02	-3.30819189367E-02	6.19002042012E-02	9.17533873679E-02	2.18494133527E-01
1.72000000000E+09	-6.98638066214E-02	1.93253600907E-02	-3.11214704174E-02	6.32284406466E-02	-3.17709131958E-02	6.25991988961E-02	9.69364822507E-02	2.17445240909E-01
1.72050000000E+09	-7.08755992293E-02	1.69978022894E-02	-2.97769740954E-02	6.38741389792E-02	-3.04649980657E-02	6.32434401258E-02	1.02093454686E-01	2.16181493809E-01
1.72100000000E+09	-7.19634711659E-02	1.46961315093E-02	-2.84129078939E-02	6.45084370166E-02	-2.90941596789E-02	6.38863440630E-02	1.07157056158E-01	2.14759377297E-01
1.72150000000E+09	-7.31424815039E-02	1.24723615315E-02	-2.70412676516E-02	6.50779556347E-02	-2.77284505554E-02	6.44685711939E-02	1.12227420028E-01	2.13165839650E-01
1.72200000000E+09	-7.44078618571E-02	1.02526371776E-02	-2.56628809846E-02	6.56245402617E-02	-2.63389281466E-02	6.50492326342E-02	1.17256650057E-01	2.11427456140E-01
1.72250000000E+09	-7.57352043890E-02	8.08300526687E-03	-2.42586280475E-02	6.61782311436E-02	-2.49641710451E-02	6.56207032543E-02	1.22214841118E-01	2.09582207853E-01
1.72300000000E+09	-7.71747266380E-02	5.95080529768E-03	-2.28273719492E-02	6.66861217494E-02	-2.35298915939E-02	6.61320649010E-02	1.27094564586E-01	2.07577123358E-01
1.72350000000E+09	-7.86861483119E-02	3.88259276617E-03	-2.14085074404E-02	6.71323069546E-02	-2.21388348818E-02	6.66211046887E-02	1.31940749675E-01	2.05364809361E-01
1.72400000000E+09	-8.02801654149E-02	1.86784922560E-03	-1.99686230741E-02	6.75799559722E-02	-2.07183185617E-02	6.70653670501E-02	1.36734246629E-01	2.03047011554E-01
1.72450000000E+09	-8.19366433488E-02	-1.21811736649E-04	-1.85152889757E-02	6.79987727538E-02	-1.92957609943E-02	6.74784611066E-02	1.41419504983E-01	2.00620457236E-01
1.72500000000E+09	-8.36579670715E-02	-1.99972838124E-03	-1.70729572051E-02	6.83634643044E-02	-1.78308512493E-02	6.79031425861E-02	1.46055805262E-01	1.97998571930E-01
1.72550000000E+09	-8.54788460514E-02	-3.86803328336E-03	-1.56193782215E-02	6.87344311897E-02	-1.63910646889E-02	6.82497130277E-02	1.50624383922E-01	1.95214363488E-01
1.72600000000E+09	-8.73842701376E-02	-5.66965509047E-03	-1.41155082692E-02	6.90673580755E-02	-1.49399191201E-02	6.86138787119E-02	1.55118792831E-01	1.92293056182E-01
1.72650000000E+09	-8.93674471038E-02	-7.41200209973E-03	-1.26696485874E-02	6.93444652900E-02	-1.34513177712E-02	6.89113465656E-02	1.59526971304E-01	1.89287871904E-01
1.72700000000E+09	-9.13782792921E-02	-9.07243098631E-03	-1.11570488042E-02	6.95782768299E-02	-1.19728001640E-02	6.91897964045E-02	1.63819826973E-01	1.86120822112E-01
1.72750000000E+09	-9.34899349186E-02	-1.06496849559E-02	-9.68149908536E-03	6.98170057419E-02	-1.04948833004E-02	6.94165057428E-02	1.68039887045E-01	1.82836480591E-01
1.72800000000E+09	-9.56731661223E-02	-1.21688323077E-02	-8.19012974152E-03	7.00211780579E-02	-8.98554527660E-03	6.96342121779E-02	1.72145340439E-01	1.79371669735E-01
1.72850000000E+09	-9.79053980156E-02	-1.36585652742E-02	-6.67321503352E-03	7.01782504469E-02	-7.50657430972E-03	6.97859580764E-02	1.76182043146E-01	1.75809919254E-01
1.72900000000E+09	-1.00229004074E-01	-1.50286642611E-02	-5.16937204498E-03	7.02706145628E-02	-6.01955933897E-03	6.99565446896E-02	1.80075751767E-01	1.72153906407E-01
1.72950000000E+09	-1.02595365770E-01	-1.63229590220E-02	-3.66294060564E-03	7.03860589810E-02	-4.49454161626E-03	7.00511133034E-02	1.83827460257E-01	1.68385802848E-01
1.73000000000E+09	-1.05031887628E-01	-1.75592489290E-02	-2.15858099220E-03	7.04445297774E-02	-3.02375548548E-03	7.01310558301E-02	1.87539920541E-01	1.64460490099E-01
1.73050000000E+09	-1.07537760072E-01	-1.87222158510E-02	-6.34198346917E-04	7.04587542282E-02	-1.48572225308E-03	7.01862435736E-02	1.91116837135E-01	1.60423180460E-01
1.73100000000E+09	-1.10068986195E-01	-1.97903162466E-02	8.79151378810E-04	7.04536825912E-02	-2.86520345273E-06	7.01787171927E-02	1.94590957040E-01	1.56240903790E-01
1.73150000000E+09	-1.12661944021E-01	-2.07291390862E-02	2.38403869561E-03	7.04185537781E-02	1.51343455591E-03	7.01751385149E-02	1.97861125809E-01	1.52004030225E-01
1.73200000000E+09	-1.15322449216E-01	-2.16197599616E-02	3.90648394265E-03	7.03554328885E-02	3.03391160550E-03	7.01146682474E-02	2.01059586817E-01	1.47660283570E-01
1.73250000000E+09	-1.18023402570E-01	-2.24111534336E-02	5.40710995386E-03	7.02454383267E-02	4.52287841463E-03	7.00166260221E-02	2.04145979227E-01	1.43191203179E-01
1.73300000000E+09	-1.20775242059E-01	-2.31019337187E-02	6.92096874938E-03	7.00764616588E-02	6.04322720736E-03	6.98968316766E-02	2.07062084253E-01	1.38668245777E-01
1.73350000000E+09	-1.23569599725E-01	-2.37105267578E-02	8.42929435205E-03	6.99025282266E-02	7.55074677004E-03	6.97394432740E-02	2.09878674872E-01	1.33989139283E-01
1.73400000000E+09	-1.26386933989E-01	-2.41753933316E-02	9.91451401647E-03	6.96864874917E-02	9.04801051303E-03	6.95395770887E-02	2.12485744495E-01	1.29238440303E-01
1.73450000000E+09	-1.29293402167E-01	-2.45693641074E-02	1.14339115213E-02	6.94606544939E-02	1.05489029122E-02	6.93236342395E-02	2.14997910538E-01	1.24453748647E-01
1.73500000000E+09	-1.32185369292E-01	-2.48936258837E-02	1.29067835881E-02	6.91616586297E-02	1.20383573976E-02	6.90620166648E-02	2.17396781170E-01	1.19518419281E-01
1.73550000000E+09	-1.35122164003E-01	-2.50619898811E-02	1.43901938839E-02	6.88642480448E-02	1.35218849196E-02	6.87709228213E-02	2.19580908038E-01	1.14572892765E-01
1.73600000000E+09	-1.38079133098E-01	-2.51122653516E-02	1.58859724115E-02	6.85332452430E-02	1.49847344974E-02	6.84394246551E-02	2.21702213106E-01	1.09539417356E-01
1.73650000000E+09	-1.41089321501E-01	-2.50918306843E-02	1.73340372832E-02	6.81458899085E-02	1.64508734236E-02	6.80739142084E-02	2.23585284208E-01	1.04415065996E-01
1.73700000000E+09	-1.44071054170E-01	-2.49350032259E-02	1.88108170568E-02	6.77364961494E-02	1.79198554992E-02	6.76730499867E-02	2.25319023353E-01	9.91730783891E-02
1.73750000000E+09	-1.47110669531E-01	-2.46625680096E-02	2.02523038849E-02	6.73039026633E-02	1.93678896882E-02	6.72685420908E-02	2.26924137572E-01	9.39985278634E-02
1.73800000000E+09	-1.50137242188E-01	-2.42725346067E-02	2.16951022403E-02	6.68041753765E-02	2.07755101395E-02	6.68116549157E-02	2.28326631447E-01	8.87153256370E-02
1.73850000000E+09	-1.53175115911E-01	-2.37899374363E-02	2.31192270937E-02	6.63144785728E-02	2.22101355783E-02	6.63210668206E-02	2.29642733363E-01	8.33627824933E-02
1.73900000000E+09	-1.56209630015E-01	-2.31406873061E-02	2.45474321231E-02	6.57857217729E-02	2.36269680532E-02	6.57959638604E-02	2.30775846392E-01	7.79885756194E-02
1.73950000000E+09	-1.59274618498E-01	-2.24236418751E-02	2.59324827801E-02	6.52235851629E-02	2.50475567800E-02	6.52467300673E-02	2.31677410809E-01	7.25655688690E-02
1.74000000000E+09	-1.62295572263E-01	-2.15364371906E-02	2.73221318045E-02	6.46153407242E-02	2.64218060439E-02	6.46706798435E-02	2.32483752430E-01	6.71274566679E-02
1.74050000000E+09	-1.65327499135E-01	-2.05751363200E-02	2.86701504889E-02	6.39561965829E-02	2.77889006273E-02	6.40585122664E-02	2.33096241723E-01	6.16573203101E-02
1.74100000000E+09	-1.68352872559E-01	-1.94389651704E-02	3.00502839308E-02	6.33169171680E-02	2.91462412250E-02	6.33999312431E-02	2.33525943135E-01	5.60646889826E-02
1.74150000000E+09	-1.71342953341E-01	-1.82516559273E-02	3.13794373018E-02	6.26397003279E-02	3.04712665425E-02	6.27497675009E-02	2.33816501758E-01	5.05706893164E-02
1.74200000000E+09	-1.74322309170E-01	-1.68874532812E-02	3.27000261718E-02	6.19304047771E-02	3.18033615928E-02	6.20510501591E-02	2.33906588663E-01	4.49896145097E-02
1.74250000000E+09	-1.77251609019E-01	-1.53850510145E-02	3.40046488262E-02	6.11539460493E-02	3.31119825013E-02	6.13262079048E-02	2.33819750072E-01	3.94474990730E-02
1.74300000000E+09	-1.80159113449E-01	-1.37799639143E-02	3.52982543750E-02	6.03852695489E-02	3.44104017128E-02	6.05470344798E-02	2.33600573646E-01	3.39030384602E-02
1.74350000000E+09	-1.82998548118E-01	-1.20211314673E-02	3.65560599346E-02	5.95872643717E-02	3.56643150210E-02	5.97859648170E-02	2.33174293648E-01	2.83504005822E-02
1.74400000000E+09	-1.85812201202E-01	-1.01714733966E-02	3.78041162276E-02	5.87474874012E-02	3.69087127550E-02	5.89586483927E-02	2.32590533164E-01	2.28098034716E-02
1.74450000000E+09	-1.88604568207E-01	-8.15531086928E-03	3.90398747799E-02	5.79399655623E-02	3.81454255415E-02	5.81184808616E-02	2.31829512579E-01	1.72926401510E-02
1.74500000000E+09	-1.91294191128E-01	-6.04417868521E-03	4.02374865097E-02	5.70240262085E-02	3.93606198413E-02	5.72778854293E-02	2.30912766403E-01	1.17721354432E-02
1.74550000000E+09	-1.93880979696E-01	-3.81253917320E-03	4.14190678931E-02	5.61055466169E-02	4.05410184952E-02	5.63907422335E-02	2.29814250017E-01	6.28744555505E-03
1.74600000000E+09	-1.96465188907E-01	-1.45210029580E-03	4.25802258685E-02	5.51821521384E-02	4.17073944332E-02	5.54585264882E-02	2.28529449198E-01	8.06625809415E-04
1.74650000000E+09	-1.98923598868E-01	1.04285246450E-03	4.37178348372E-02	5.42470823819E-02	4.28461008409E-02	5.45241844156E-02	2.27022590400E-01	-4.69191394928E-03
1.74700000000E+09	-2.01341175097E-01	3.62499344857E-03	4.48391798516E-02	5.32699202329E-02	4.39655643534E-02	5.35895232007E-02	2.25422136942E-01	-1.00275380316E-02
1.74750000000E+09	-2.03646402319E-01	6.33927347696E-03	4.59213147870E-02	5.22649490505E-02	4.50668830650E-02	5.25925735947E-02	2.23600070310E-01	-1.54041281505E-02
1.74800000000E+09	-2.05849860397E-01	9.19218915591E-03	4.70233097943E-02	5.12390352911E-02	4.61436534898E-02	5.15650923702E-02	2.21640129908E-01	-2.06901432208E-02
1.74850000000E+09	-2.07989759502E-01	1.21198048871E-02	4.80347218301E-02	5.02028417713E-02	4.72113033105E-02	5.05563859260E-02	2.19533287876E-01	-2.59666603845E-02
1.74900000000E+09	-2.09957269079E-01	1.51445093821E-02	4.90590122944E-02	4.91126138826E-02	4.82184167626E-02	4.95298582320E-02	2.17213425856E-01	-3.10879911793E-02
1.74950000000E+09	-2.11854197183E-01	1.83252144629E-02	5.00589571066E-02	4.80371360647E-02	4.92349146170E-02	4.84594956569E-02	2.14738939293E-01	-3.62445576630E-02
1.75000000000E+09	-2.13626060364E-01	2.15727399074E-02	5.10176544275E-02	4.69446446820E-02	5.02025529420E-02	4.73911663524E-02	2.12096043321E-01	-4.12750122181E-02
1.75050000000E+09	-2.15223585653E-01	2.49212824189E-02	5.19704932847E-02	4.58210052158E-02	5.11392377784E-02	4.62732368807E-02	2.09335618861E-01	-4.62744678812E-02
1.75100000000E+09	-2.16741099903E-01	2.83698896947E-02	5.28882292900E-02	4.47182027997E-02	5.20924475795E-02	4.51498802732E-02	2.06355735693E-01	-5.11619508157E-02
1.75150000000E+09	-2.18121189022E-01	3.19314696426E-02	5.37849103220E-02	4.35605823729E-02	5.29789300861E-02	4.40272011799E-02	2.03215367528E-01	-5.59519426035E-02
1.75200000000E+09	-2.19253476967E-01	3.55448303662E-02	5.46330251217E-02	4.23768608956E-02	5.38407518470E-02	4.28605905337E-02	1.99970749515E-01	-6.06579494107E-02
1.75250000000E+09	-2.20325987873E-01	3.91607719793E-02	5.54798309735E-02	4.11920705828E-02	5.47167828491E-02	4.17056843920E-02	1.96537580539E-01	-6.52262539985E-02
1.75300000000E+09	-2.21235322684E-01	4.29517187844E-02	5.63008605558E-02	3.99930414710E-02	5.55272939931E-02	4.05306257891E-02	1.92958769419E-01	-6.97360013511E-02
1.75350000000E+09	-2.21917209401E-01	4.67219592556E-02	5.70740561131E-02	3.88056678568E-02	5.63153184109E-02	3.93361241720E-02	1.89216103152E-01	-7.41380472905E-02
1.75400000000E+09	-2.22476937124E-01	5.05391718258E-02	5.78229234032E-02	3.75606452056E-02	5.70813821946E-02	3.81143783488E-02	1.85364984031E-01	-7.84303029397E-02
1.75450000000E+09	-2.22824394312E-01	5.44187978090E-02	5.85698716434E-02	3.63316153904E-02	5.78268015168E-02	3.69004215908E-02	1.81356020965E-01	-8.25962484416E-02
1.75500000000E+09	-2.23008847265E-01	5.83411922076E-02	5.92873588171E-02	3.50716277659E-02	5.85566396663E-02	3.56706349202E-02	1.77245830847E-01	-8.66779330518E-02
1.75550000000E+09	-2.23035096228E-01	6.22580210933E-02	5.99599932080E-02	3.38246179029E-02	5.92551440495E-02	3.44241193084E-02	1.72900224189E-01	-9.05439185280E-02
1.75600000000E+09	-2.22872398641E-01	6.62049492341E-02	6.06111444264E-02	3.25440246137E-02	5.99220272461E-02	3.31664759414E-02	1.68464193979E-01	-9.44095132365E-02
1.75650000000E+09	-2.22456781851E-01	7.01519769186E-02	6.12313384974E-02	3.12481274094E-02	6.05578549735E-02	3.19091025257E-02	1.63954532924E-01	-9.80006112126E-02
1.75700000000E+09	-2.21908914392E-01	7.40496200120E-02	6.18366011625E-02	2.99696401043E-02	6.11643348629E-02	3.06243357497E-02	1.59298078325E-01	-1.01501262472E-01
1.75750000000E+09	-2.21208329070E-01	7.79278804070E-02	6.24190329099E-02	2.86829725431E-02	6.17685273320E-02	2.93458211392E-02	1.54477316453E-01	-1.04883712423E-01
1.75800000000E+09	-2.20279673772E-01	8.17854672786E-02	6.29667591034E-02	2.73522061910E-02	6.22962515556E-02	2.80684135090E-02	1.49634580769E-01	-1.08100992700E-01
1.75850000000E+09	-2.19175106247E-01	8.56162578448E-02	6.34806389415E-02	2.60337093072E-02	6.28576389209E-02	2.67561103210E-02	1.44675562114E-01	-1.11174883964E-01
1.75900000000E+09	-2.17878791952E-01	8.93839147996E-02	6.39749784494E-02	2.47176697620E-02	6.33659056791E-02	2.54358487566E-02	1.39507539998E-01	-1.14048011237E-01
