# Hz S RI R 50
! CMT, CMT808U, 21440046, 21.4.3/4
! Date: 4/9/2026 1:45:10 AM
! Data: Format (Calibration Info)
! Freq	S11:Re/Im(F2)	S41:Re/Im(F2)	S14:Re/Im(F2)	S44:Re/Im(F2)
1.70000000000E+09	-1.16077465902E-01	9.72562795146E-02	-7.40249482550E-02	1.77229607292E-02	-7.39569403782E-02	1.68248066829E-02	-5.54957613795E-02	1.41972689174E-01
1.70050000000E+09	-1.13327754771E-01	9.69965807634E-02	-7.36422778034E-02	1.93359121376E-02	-7.35925622079E-02	1.83691877969E-02	-5.25093241713E-02	1.45798429734E-01
1.70100000000E+09	-1.10656386021E-01	9.65988534879E-02	-7.32446547750E-02	2.09264262222E-02	-7.31942637368E-02	1.99782127742E-02	-4.94280975366E-02	1.49463209110E-01
1.70150000000E+09	-1.07983552274E-01	9.60780010321E-02	-7.27856002223E-02	2.25065644055E-02	-7.27591744387E-02	2.15753325548E-02	-4.62435363681E-02	1.53107029911E-01
1.70200000000E+09	-1.05369562411E-01	9.54185015725E-02	-7.23095847443E-02	2.40670511385E-02	-7.23094934777E-02	2.31421218553E-02	-4.29065310328E-02	1.56604332059E-01
1.70250000000E+09	-1.02806219763E-01	9.46396106814E-02	-7.18180197664E-02	2.56659978932E-02	-7.17933745315E-02	2.47041897743E-02	-3.94450123340E-02	1.60019939359E-01
1.70300000000E+09	-1.00304392646E-01	9.36702184514E-02	-7.12387783450E-02	2.71983735138E-02	-7.12598249399E-02	2.62631364233E-02	-3.58697226266E-02	1.63330028539E-01
1.70350000000E+09	-9.78739035164E-02	9.26116279073E-02	-7.06582815404E-02	2.87346737330E-02	-7.07019863748E-02	2.78080927419E-02	-3.22491422075E-02	1.66535917386E-01
1.70400000000E+09	-9.54712051614E-02	9.14249009637E-02	-7.00246251247E-02	3.02851239544E-02	-7.00825524210E-02	2.93246609118E-02	-2.85002855788E-02	1.69575389457E-01
1.70450000000E+09	-9.31940589978E-02	9.01571811225E-02	-6.93595909088E-02	3.17990287627E-02	-6.94557759692E-02	3.08703642697E-02	-2.46376725855E-02	1.72546374125E-01
1.70500000000E+09	-9.09725785514E-02	8.87302403908E-02	-6.86673004689E-02	3.33095371487E-02	-6.87569288247E-02	3.23600625089E-02	-2.06956231131E-02	1.75367402010E-01
1.70550000000E+09	-8.87900305146E-02	8.72136332881E-02	-6.79264042430E-02	3.47925653329E-02	-6.80533840601E-02	3.38611518773E-02	-1.66840532813E-02	1.78080881326E-01
1.70600000000E+09	-8.67484268886E-02	8.56130520603E-02	-6.71526101347E-02	3.62640281745E-02	-6.73155870254E-02	3.53416733656E-02	-1.25595690128E-02	1.80657849068E-01
1.70650000000E+09	-8.47782281097E-02	8.38911882341E-02	-6.63512381871E-02	3.77312174103E-02	-6.65380606932E-02	3.67998960416E-02	-8.37736571699E-03	1.83132760800E-01
1.70700000000E+09	-8.29007284770E-02	8.20877816470E-02	-6.55266781997E-02	3.91809280709E-02	-6.56972316924E-02	3.82670507791E-02	-4.06647826442E-03	1.85464906368E-01
1.70750000000E+09	-8.11298134259E-02	8.02202232911E-02	-6.46521259197E-02	4.05981555663E-02	-6.48645283552E-02	3.96734294388E-02	2.90576815716E-04	1.87646276929E-01
1.70800000000E+09	-7.94322850276E-02	7.82655671942E-02	-6.37507400655E-02	4.19789430984E-02	-6.39786197661E-02	4.10591089864E-02	4.68819795933E-03	1.89695362926E-01
1.70850000000E+09	-7.78686845058E-02	7.62209620234E-02	-6.28215790602E-02	4.33841695839E-02	-6.30757767880E-02	4.24774758907E-02	9.21421530929E-03	1.91605742986E-01
1.70900000000E+09	-7.64094095431E-02	7.41314517155E-02	-6.18598366554E-02	4.47278599182E-02	-6.21179139706E-02	4.38104659711E-02	1.37432075463E-02	1.93397967846E-01
1.70950000000E+09	-7.50275002222E-02	7.19720539841E-02	-6.08547333804E-02	4.60548408391E-02	-6.11528398684E-02	4.51767604324E-02	1.83129825077E-02	1.95038851433E-01
1.71000000000E+09	-7.37691443862E-02	6.97811553594E-02	-5.98300728527E-02	4.73888951525E-02	-6.01473262790E-02	4.65199967133E-02	2.29626503907E-02	1.96516077954E-01
1.71050000000E+09	-7.26324077862E-02	6.74986487663E-02	-5.87739896898E-02	4.86897961255E-02	-5.91175157098E-02	4.77943607964E-02	2.76637556119E-02	1.97864332828E-01
1.71100000000E+09	-7.15939387340E-02	6.52110299748E-02	-5.76951839213E-02	4.99542329563E-02	-5.80372572249E-02	4.90748863682E-02	3.24021148359E-02	1.99064638670E-01
1.71150000000E+09	-7.06616741689E-02	6.28633318165E-02	-5.65532344570E-02	5.11870466932E-02	-5.69452145102E-02	5.03049502328E-02	3.71961547859E-02	2.00123879660E-01
1.71200000000E+09	-6.98571013541E-02	6.05036680275E-02	-5.54311783116E-02	5.24013814962E-02	-5.58111646316E-02	5.15526746098E-02	4.20410462535E-02	2.01020152419E-01
1.71250000000E+09	-6.91329457449E-02	5.81077667095E-02	-5.42377816962E-02	5.36294676604E-02	-5.46799620751E-02	5.27335487014E-02	4.68531265453E-02	2.01837733499E-01
1.71300000000E+09	-6.85268330796E-02	5.56754357925E-02	-5.30866076135E-02	5.47439365721E-02	-5.34964210480E-02	5.39409770405E-02	5.17098980340E-02	2.02439798541E-01
1.71350000000E+09	-6.80480164158E-02	5.32242060484E-02	-5.18251581780E-02	5.58905892940E-02	-5.23048380134E-02	5.50648379840E-02	5.66198689740E-02	2.02915826810E-01
1.71400000000E+09	-6.76371859096E-02	5.07373198675E-02	-5.06040243777E-02	5.69827873162E-02	-5.10410357936E-02	5.61633383514E-02	6.14904501823E-02	2.03217372601E-01
1.71450000000E+09	-6.73603185007E-02	4.82905666405E-02	-4.93072115066E-02	5.80613888211E-02	-4.98005799502E-02	5.72491101750E-02	6.64181628273E-02	2.03356913367E-01
1.71500000000E+09	-6.72021888395E-02	4.58258563083E-02	-4.80166075978E-02	5.91049778882E-02	-4.85122448261E-02	5.83131249035E-02	7.13640908369E-02	2.03375985007E-01
1.71550000000E+09	-6.71414277810E-02	4.33730875355E-02	-4.67112578560E-02	6.01431316393E-02	-4.72377583797E-02	5.93335057265E-02	7.62393065161E-02	2.03223603034E-01
1.71600000000E+09	-6.71540526219E-02	4.08970960754E-02	-4.53691885286E-02	6.11310783777E-02	-4.59081046465E-02	6.03087896961E-02	8.11585576536E-02	2.02953297117E-01
1.71650000000E+09	-6.72960681577E-02	3.84127712591E-02	-4.39871595539E-02	6.20694990979E-02	-4.45437320187E-02	6.12935426709E-02	8.60786194438E-02	2.02474719108E-01
1.71700000000E+09	-6.75346141280E-02	3.59863659169E-02	-4.26132569094E-02	6.29951649859E-02	-4.31844474130E-02	6.22224150143E-02	9.09510048554E-02	2.01917869850E-01
1.71750000000E+09	-6.78826117126E-02	3.35376612797E-02	-4.12111655902E-02	6.38852923503E-02	-4.18059027691E-02	6.31241435430E-02	9.58669447973E-02	2.01141425556E-01
1.71800000000E+09	-6.83156875547E-02	3.11270656264E-02	-3.97967861394E-02	6.47242945236E-02	-4.04236317111E-02	6.40073748176E-02	1.00702699190E-01	2.00262408071E-01
1.71850000000E+09	-6.88233185806E-02	2.87198070624E-02	-3.83546324790E-02	6.55387931214E-02	-3.89745452732E-02	6.48392431870E-02	1.05491509333E-01	1.99188979999E-01
1.71900000000E+09	-6.94505131137E-02	2.63479597734E-02	-3.69274888386E-02	6.63305381421E-02	-3.75460542513E-02	6.56455134802E-02	1.10330216567E-01	1.97988418406E-01
1.71950000000E+09	-7.01736801896E-02	2.40031480271E-02	-3.54224182918E-02	6.71009762459E-02	-3.60924252580E-02	6.63969701329E-02	1.15064070238E-01	1.96685083425E-01
1.72000000000E+09	-7.09642120841E-02	2.16517566651E-02	-3.39573431957E-02	6.78133963961E-02	-3.46203313633E-02	6.71478539314E-02	1.19770754407E-01	1.95261900483E-01
1.72050000000E+09	-7.18948380868E-02	1.93949792954E-02	-3.24481756864E-02	6.84918763690E-02	-3.31338772652E-02	6.78381418781E-02	1.24460432031E-01	1.93549598118E-01
1.72100000000E+09	-7.28489141352E-02	1.71057949018E-02	-3.09215890939E-02	6.91568424265E-02	-3.16308810250E-02	6.85086205039E-02	1.29103133891E-01	1.91800051814E-01
1.72150000000E+09	-7.39277823919E-02	1.49097225346E-02	-2.94089593149E-02	6.97738645261E-02	-3.01231506105E-02	6.91414776111E-02	1.33688320841E-01	1.89879993753E-01
1.72200000000E+09	-7.50786242690E-02	1.27216903939E-02	-2.78767026424E-02	7.03274682864E-02	-2.85607512002E-02	6.97444158902E-02	1.38195093242E-01	1.87769522064E-01
1.72250000000E+09	-7.63221216917E-02	1.05989099725E-02	-2.63285963501E-02	7.08960225334E-02	-2.70427186271E-02	7.03103466792E-02	1.42663054980E-01	1.85598402655E-01
1.72300000000E+09	-7.76701814184E-02	8.47296549714E-03	-2.47787710561E-02	7.14166761410E-02	-2.55027073658E-02	7.08270198121E-02	1.47023906460E-01	1.83306435301E-01
1.72350000000E+09	-7.90815357205E-02	6.42171215432E-03	-2.31872237050E-02	7.18947414877E-02	-2.39546057337E-02	7.13208236863E-02	1.51356637575E-01	1.80767034603E-01
1.72400000000E+09	-8.05420437248E-02	4.42147385318E-03	-2.16141432601E-02	7.23122901917E-02	-2.23880427183E-02	7.17755739508E-02	1.55583776025E-01	1.78185898414E-01
1.72450000000E+09	-8.21037085227E-02	2.46855221110E-03	-2.00582949062E-02	7.27220110654E-02	-2.08123101469E-02	7.22101759191E-02	1.59776684347E-01	1.75505437974E-01
1.72500000000E+09	-8.37316166891E-02	5.62620085649E-04	-1.84494160949E-02	7.30942668866E-02	-1.92369964497E-02	7.26039061160E-02	1.63834539354E-01	1.72641344569E-01
1.72550000000E+09	-8.54478779950E-02	-1.29113458994E-03	-1.68693517967E-02	7.34341719942E-02	-1.76557766383E-02	7.29137408576E-02	1.67831965266E-01	1.69618485312E-01
1.72600000000E+09	-8.72449828931E-02	-3.10145771177E-03	-1.52543546012E-02	7.37250488132E-02	-1.60807586751E-02	7.32511672218E-02	1.71727944682E-01	1.66517631649E-01
1.72650000000E+09	-8.91110248117E-02	-4.83071109260E-03	-1.36524775990E-02	7.39994870221E-02	-1.44813781869E-02	7.35460454585E-02	1.75554380797E-01	1.63277166039E-01
1.72700000000E+09	-9.10346369333E-02	-6.48725479396E-03	-1.20281012237E-02	7.42061974956E-02	-1.28728519422E-02	7.37833139570E-02	1.79290780411E-01	1.59939001027E-01
1.72750000000E+09	-9.30402804830E-02	-8.11451278886E-03	-1.04422964531E-02	7.44217810267E-02	-1.12673390661E-02	7.39793437952E-02	1.82861096641E-01	1.56478122095E-01
1.72800000000E+09	-9.51118515168E-02	-9.67149234711E-03	-8.80335349889E-03	7.45568731781E-02	-9.69076226978E-03	7.41544991327E-02	1.86374604401E-01	1.52895673888E-01
1.72850000000E+09	-9.72553328084E-02	-1.11406201573E-02	-7.21576687582E-03	7.46887748157E-02	-8.05023938993E-03	7.42871691050E-02	1.89796579173E-01	1.49155695303E-01
1.72900000000E+09	-9.94793863877E-02	-1.25594477954E-02	-5.60342549059E-03	7.47660898900E-02	-6.45773786984E-03	7.44008761950E-02	1.93052828531E-01	1.45402329346E-01
1.72950000000E+09	-1.01763706120E-01	-1.38655322811E-02	-3.99288411819E-03	7.48096364539E-02	-4.87827089228E-03	7.44711128856E-02	1.96230600111E-01	1.41499135552E-01
1.73000000000E+09	-1.04071634635E-01	-1.51282098737E-02	-2.37699713198E-03	7.48258770664E-02	-3.25373203483E-03	7.44903080126E-02	1.99282124683E-01	1.37532410809E-01
1.73050000000E+09	-1.06449716539E-01	-1.63090702440E-02	-7.64603442952E-04	7.48076582880E-02	-1.66497477628E-03	7.44979027666E-02	2.02204432149E-01	1.33430076285E-01
1.73100000000E+09	-1.08883384896E-01	-1.74299052582E-02	8.27371539853E-04	7.47620403534E-02	-5.96935888586E-05	7.44280081625E-02	2.05026403892E-01	1.29214465556E-01
1.73150000000E+09	-1.11421445031E-01	-1.84202191844E-02	2.42893179559E-03	7.46589033616E-02	1.51002295740E-03	7.43832065301E-02	2.07680964754E-01	1.24986912457E-01
1.73200000000E+09	-1.13965627773E-01	-1.93587004909E-02	4.01497029194E-03	7.45281685943E-02	3.13282744372E-03	7.42621802656E-02	2.10233053609E-01	1.20615396986E-01
1.73250000000E+09	-1.16593930298E-01	-2.01888655650E-02	5.62044266063E-03	7.43714103663E-02	4.71125688286E-03	7.41309355214E-02	2.12681485977E-01	1.16181997540E-01
1.73300000000E+09	-1.19220252068E-01	-2.09533396273E-02	7.18295069382E-03	7.41675471484E-02	6.28670856558E-03	7.39646740399E-02	2.14971502751E-01	1.11697294168E-01
1.73350000000E+09	-1.21962276066E-01	-2.15793030867E-02	8.76901638264E-03	7.39546311253E-02	7.85825414349E-03	7.37404230236E-02	2.17113121103E-01	1.07097640024E-01
1.73400000000E+09	-1.24683091259E-01	-2.21408109455E-02	1.03264464721E-02	7.36666880971E-02	9.41142289723E-03	7.35122242282E-02	2.19069202649E-01	1.02429843310E-01
1.73450000000E+09	-1.27494276352E-01	-2.26087086100E-02	1.18909621022E-02	7.33910234105E-02	1.09758295449E-02	7.32143437332E-02	2.20945557490E-01	9.77124227961E-02
1.73500000000E+09	-1.30308075770E-01	-2.29861883599E-02	1.34421614478E-02	7.30347998876E-02	1.25174854270E-02	7.29159474615E-02	2.22656333885E-01	9.28849498260E-02
1.73550000000E+09	-1.33152479325E-01	-2.32228034435E-02	1.49893414308E-02	7.26954237612E-02	1.40707342343E-02	7.25690957681E-02	2.24222933240E-01	8.80716310576E-02
1.73600000000E+09	-1.36062715775E-01	-2.33733382288E-02	1.65088269086E-02	7.22812181814E-02	1.55628834617E-02	7.22013354416E-02	2.25664135634E-01	8.31896588208E-02
1.73650000000E+09	-1.38961601485E-01	-2.34183573009E-02	1.80383902231E-02	7.18664356966E-02	1.70894991544E-02	7.17812166874E-02	2.26958856823E-01	7.82756061675E-02
1.73700000000E+09	-1.41885904216E-01	-2.33591129383E-02	1.95112327875E-02	7.14007871988E-02	1.85946040511E-02	7.13558243126E-02	2.28078672256E-01	7.32661183668E-02
1.73750000000E+09	-1.44834871620E-01	-2.31521699180E-02	2.10177745896E-02	7.08904627921E-02	2.00930935618E-02	7.08546979719E-02	2.29032201452E-01	6.82712894032E-02
1.73800000000E+09	-1.47842411332E-01	-2.28505447501E-02	2.24879501659E-02	7.03829071368E-02	2.15566140004E-02	7.03584650013E-02	2.29816886437E-01	6.32089192577E-02
1.73850000000E+09	-1.50811851173E-01	-2.24557645114E-02	2.39637703372E-02	6.98280911165E-02	2.30226852349E-02	6.98505226418E-02	2.30483509680E-01	5.80996639845E-02
1.73900000000E+09	-1.53793195990E-01	-2.19156264598E-02	2.54140664319E-02	6.92851163565E-02	2.44864025954E-02	6.92650129980E-02	2.31016652365E-01	5.30125667346E-02
1.73950000000E+09	-1.56792395457E-01	-2.12570164953E-02	2.68273624631E-02	6.86406442199E-02	2.59300228656E-02	6.86731139652E-02	2.31338619489E-01	4.78967212950E-02
1.74000000000E+09	-1.59758097300E-01	-2.04899876460E-02	2.82528870967E-02	6.79980342478E-02	2.73327352087E-02	6.80374544423E-02	2.31525291263E-01	4.27361513607E-02
1.74050000000E+09	-1.62722605064E-01	-1.96039371700E-02	2.96609725273E-02	6.73268418770E-02	2.87301301904E-02	6.73999778706E-02	2.31536979282E-01	3.75892829112E-02
1.74100000000E+09	-1.65730261993E-01	-1.86101365558E-02	3.10464733240E-02	6.66471101117E-02	3.00945989272E-02	6.67272407309E-02	2.31427019840E-01	3.24139342198E-02
1.74150000000E+09	-1.68668981753E-01	-1.74973775724E-02	3.24077119712E-02	6.59305584687E-02	3.14695659780E-02	6.60450274174E-02	2.31130626684E-01	2.72649137810E-02
1.74200000000E+09	-1.71608266943E-01	-1.62590448231E-02	3.37470830403E-02	6.51672540027E-02	3.28218640602E-02	6.52922417515E-02	2.30674859830E-01	2.20881538794E-02
1.74250000000E+09	-1.74484144788E-01	-1.48560125969E-02	3.50561169243E-02	6.43838288647E-02	3.41563669150E-02	6.45174944940E-02	2.30034592893E-01	1.69440958758E-02
1.74300000000E+09	-1.77360945020E-01	-1.33555953361E-02	3.63655853933E-02	6.35691117631E-02	3.54598682077E-02	6.37511058375E-02	2.29255561101E-01	1.18366901410E-02
1.74350000000E+09	-1.80213956960E-01	-1.17462247068E-02	3.76568602328E-02	6.27678535408E-02	3.67451265267E-02	6.29237051950E-02	2.28324430426E-01	6.68355919595E-03
1.74400000000E+09	-1.82966282585E-01	-9.98868848271E-03	3.89259341004E-02	6.18794437405E-02	3.80255329184E-02	6.21105337874E-02	2.27196578684E-01	1.61477581979E-03
1.74450000000E+09	-1.85741080710E-01	-8.06223611856E-03	4.01984972684E-02	6.10332148117E-02	3.92737494055E-02	6.12279938787E-02	2.25927172741E-01	-3.42551987273E-03
1.74500000000E+09	-1.88406938930E-01	-6.06274997069E-03	4.14103947420E-02	6.01174981321E-02	4.04906651744E-02	6.03559939774E-02	2.24518181235E-01	-8.45758570679E-03
1.74550000000E+09	-1.91009574729E-01	-3.96097588172E-03	4.26093518258E-02	5.91860659660E-02	4.16942697772E-02	5.94471191657E-02	2.22904637302E-01	-1.34328229564E-02
1.74600000000E+09	-1.93572100890E-01	-1.70069330991E-03	4.37858513920E-02	5.82384088004E-02	4.28774394417E-02	5.85210348275E-02	2.21195667968E-01	-1.83967250971E-02
1.74650000000E+09	-1.96036026227E-01	6.45288206168E-04	4.49483328843E-02	5.72891090819E-02	4.40587489859E-02	5.75698414805E-02	2.19270168457E-01	-2.32944741666E-02
1.74700000000E+09	-1.98448762257E-01	3.09744208416E-03	4.60758023618E-02	5.62944694923E-02	4.51998563269E-02	5.66029479390E-02	2.17231115803E-01	-2.81208189970E-02
1.74750000000E+09	-2.00792025659E-01	5.71253028334E-03	4.72110761497E-02	5.53007348897E-02	4.63367561688E-02	5.56085757235E-02	2.15038770692E-01	-3.29010834621E-02
1.74800000000E+09	-2.02989370569E-01	8.43027340956E-03	4.82847209877E-02	5.42486282681E-02	4.74172236272E-02	5.45937336228E-02	2.12663554161E-01	-3.76385012556E-02
1.74850000000E+09	-2.05135005984E-01	1.12472997947E-02	4.93569090656E-02	5.32094357282E-02	4.84736815481E-02	5.35693655304E-02	2.10143856094E-01	-4.22501704867E-02
1.74900000000E+09	-2.07142565232E-01	1.41382528176E-02	5.04066110149E-02	5.21480264936E-02	4.95413486609E-02	5.25176221096E-02	2.07487630996E-01	-4.68140573890E-02
1.74950000000E+09	-2.09075561236E-01	1.71897279070E-02	5.14327440928E-02	5.10706036227E-02	5.05651527417E-02	5.14831323300E-02	2.04694927537E-01	-5.13129431150E-02
1.75000000000E+09	-2.10848572275E-01	2.03189155530E-02	5.24227020783E-02	4.99710963088E-02	5.15872423294E-02	5.03785168089E-02	2.01715513136E-01	-5.57219996659E-02
1.75050000000E+09	-2.12485958092E-01	2.35579760378E-02	5.33961887495E-02	4.88445563454E-02	5.25439193982E-02	4.92858551451E-02	1.98656400285E-01	-6.00847166317E-02
1.75100000000E+09	-2.14052987675E-01	2.68557997140E-02	5.43481665738E-02	4.77112978919E-02	5.35208590409E-02	4.81617550460E-02	1.95421330925E-01	-6.43013909914E-02
1.75150000000E+09	-2.15471638763E-01	3.02754723934E-02	5.52613789258E-02	4.65760286145E-02	5.44396942144E-02	4.70326230991E-02	1.92019153819E-01	-6.84423056596E-02
1.75200000000E+09	-2.16666543952E-01	3.37550106631E-02	5.61470561229E-02	4.53975015055E-02	5.53498695700E-02	4.58716556844E-02	1.88503510082E-01	-7.24562331137E-02
1.75250000000E+09	-2.17798925206E-01	3.73025925674E-02	5.70241513623E-02	4.42278266177E-02	5.62374733430E-02	4.47326962753E-02	1.84870369707E-01	-7.63476467298E-02
1.75300000000E+09	-2.18751513007E-01	4.09291345132E-02	5.78999127947E-02	4.30467019226E-02	5.70898350561E-02	4.35581065297E-02	1.81115713482E-01	-8.01608927375E-02
1.75350000000E+09	-2.19508771262E-01	4.45826910419E-02	5.87106763638E-02	4.18261943033E-02	5.79271353528E-02	4.23640418226E-02	1.77221552567E-01	-8.38430941656E-02
1.75400000000E+09	-2.20148342900E-01	4.83036502048E-02	5.95332847778E-02	4.06122499210E-02	5.87479113355E-02	4.11645731205E-02	1.73203645682E-01	-8.74751206308E-02
1.75450000000E+09	-2.20596444329E-01	5.20521436941E-02	6.03104120182E-02	3.93981976847E-02	5.95565447295E-02	3.99601726741E-02	1.69068754815E-01	-9.09599512091E-02
1.75500000000E+09	-2.20874103956E-01	5.58551585845E-02	6.10727247577E-02	3.81764998741E-02	6.03117468812E-02	3.87239966201E-02	1.64833284614E-01	-9.42852250118E-02
1.75550000000E+09	-2.20964297301E-01	5.96579589782E-02	6.17737495860E-02	3.69149071524E-02	6.10380676391E-02	3.75185120560E-02	1.60446705289E-01	-9.74558389812E-02
1.75600000000E+09	-2.20910134483E-01	6.34642576893E-02	6.25064416852E-02	3.56512038053E-02	6.17711713704E-02	3.62676743174E-02	1.55952237711E-01	-1.00551879369E-01
1.75650000000E+09	-2.20632023516E-01	6.72811104998E-02	6.31768836849E-02	3.43734026071E-02	6.24595975578E-02	3.50055233180E-02	1.51383675697E-01	-1.03424759850E-01
1.75700000000E+09	-2.20219059746E-01	7.10889274476E-02	6.38458819043E-02	3.31067658127E-02	6.31438809818E-02	3.37448055356E-02	1.46753604834E-01	-1.06260217742E-01
1.75750000000E+09	-2.19634341844E-01	7.48692524289E-02	6.45076543538E-02	3.18120525776E-02	6.38016842925E-02	3.24485145271E-02	1.41969838107E-01	-1.08906043011E-01
1.75800000000E+09	-2.18824612265E-01	7.86412002221E-02	6.51205035832E-02	3.05035411868E-02	6.44336297170E-02	3.11792431486E-02	1.37133607989E-01	-1.11377767621E-01
1.75850000000E+09	-2.17855286850E-01	8.23513061757E-02	6.57169178899E-02	2.91866853330E-02	6.50498292083E-02	2.99004021807E-02	1.32236945744E-01	-1.13713931304E-01
1.75900000000E+09	-2.16693218919E-01	8.60048427540E-02	6.62585773860E-02	2.78667742867E-02	6.56217376067E-02	2.85957800743E-02	1.27175082387E-01	-1.15901392314E-01
