# Hz S RI R 50
! CMT, CMT808U, 21440046, 21.4.3/4
! Date: 4/9/2026 1:41:41 AM
! Data: Format (Calibration Info)
! Freq	S11:Re/Im(F2)	S41:Re/Im(F2)	S14:Re/Im(F2)	S44:Re/Im(F2)
1.70000000000E+09	-1.19206878232E-01	9.68178721320E-02	-7.17388274836E-02	2.81589945507E-02	-7.17989717646E-02	2.72040665005E-02	-3.27710975625E-02	1.69825160638E-01
1.70050000000E+09	-1.16488023243E-01	9.67417136276E-02	-7.11319817445E-02	2.96606526227E-02	-7.11796739199E-02	2.87390742512E-02	-2.90896747217E-02	1.73551460119E-01
1.70100000000E+09	-1.13771579530E-01	9.64975016729E-02	-7.04886493846E-02	3.11661095256E-02	-7.05663937292E-02	3.02285178644E-02	-2.53403002272E-02	1.77162577018E-01
1.70150000000E+09	-1.11067172231E-01	9.61266297813E-02	-6.98056050625E-02	3.26455799718E-02	-6.98860279586E-02	3.17229034981E-02	-2.14840738976E-02	1.80666792007E-01
1.70200000000E+09	-1.08405891517E-01	9.56456843827E-02	-6.90946998785E-02	3.41018294282E-02	-6.92020566056E-02	3.31842620094E-02	-1.74919468887E-02	1.84063314340E-01
1.70250000000E+09	-1.05813804822E-01	9.49879892665E-02	-6.83459571795E-02	3.55787131545E-02	-6.84957748814E-02	3.46581135443E-02	-1.33510516025E-02	1.87323785136E-01
1.70300000000E+09	-1.03248573655E-01	9.41859983291E-02	-6.75598384845E-02	3.70483220496E-02	-6.77120030356E-02	3.61010356030E-02	-9.18688636186E-03	1.90464826569E-01
1.70350000000E+09	-1.00752166897E-01	9.32658958068E-02	-6.67636397867E-02	3.84460414781E-02	-6.69456084896E-02	3.75251460541E-02	-4.92212247666E-03	1.93478370427E-01
1.70400000000E+09	-9.82887394228E-02	9.22286042570E-02	-6.59322555094E-02	3.98572556626E-02	-6.61192406765E-02	3.89483077345E-02	-5.30219541520E-04	1.96324311763E-01
1.70450000000E+09	-9.59540653832E-02	9.10713602469E-02	-6.50820652783E-02	4.12489126106E-02	-6.52830307679E-02	4.03419246607E-02	3.93018630693E-03	1.99062380015E-01
1.70500000000E+09	-9.36395781958E-02	8.97935921155E-02	-6.41601347771E-02	4.26158125672E-02	-6.43963181657E-02	4.17435498640E-02	8.49356445117E-03	2.01599777178E-01
1.70550000000E+09	-9.14215188818E-02	8.83685442348E-02	-6.32379005045E-02	4.39817996448E-02	-6.34977209757E-02	4.31002936540E-02	1.30897806975E-02	2.04097354879E-01
1.70600000000E+09	-8.92924026996E-02	8.69033095392E-02	-6.23013255697E-02	4.53375238150E-02	-6.25635443810E-02	4.44251111549E-02	1.77486189903E-02	2.06406487321E-01
1.70650000000E+09	-8.72294396292E-02	8.52798084904E-02	-6.12983451941E-02	4.66541039254E-02	-6.15940917161E-02	4.57341479853E-02	2.24657736195E-02	2.08569035404E-01
1.70700000000E+09	-8.52604805015E-02	8.35759891557E-02	-6.03156037467E-02	4.79492131000E-02	-6.06025956835E-02	4.70441327033E-02	2.73081992683E-02	2.10590995708E-01
1.70750000000E+09	-8.33763459238E-02	8.18079053899E-02	-5.92406207476E-02	4.92082228939E-02	-5.95792643636E-02	4.83400468159E-02	3.21972393878E-02	2.12455837123E-01
1.70800000000E+09	-8.16056277077E-02	7.99380234005E-02	-5.81836313680E-02	5.04415721222E-02	-5.85448090653E-02	4.95943452128E-02	3.70889829498E-02	2.14183500211E-01
1.70850000000E+09	-7.99334225673E-02	7.79914191978E-02	-5.70814579834E-02	5.16724768805E-02	-5.74569024828E-02	5.08388506170E-02	4.20973343309E-02	2.15740815062E-01
1.70900000000E+09	-7.83851214301E-02	7.59714974028E-02	-5.59706477549E-02	5.28880185453E-02	-5.63541195551E-02	5.20468250727E-02	4.71123292966E-02	2.17141645112E-01
1.70950000000E+09	-7.69060591315E-02	7.39140999752E-02	-5.48059375082E-02	5.40928213796E-02	-5.52276847265E-02	5.32409615581E-02	5.21509781268E-02	2.18467386739E-01
1.71000000000E+09	-7.55572644245E-02	7.17583250638E-02	-5.36389335548E-02	5.52370961876E-02	-5.40656702277E-02	5.44076592362E-02	5.71986483820E-02	2.19573942979E-01
1.71050000000E+09	-7.42952299473E-02	6.95563482804E-02	-5.24480077056E-02	5.63719900012E-02	-5.29088640100E-02	5.55395089730E-02	6.23403212896E-02	2.20530107979E-01
1.71100000000E+09	-7.31440146157E-02	6.72960576268E-02	-5.12115727874E-02	5.74839354332E-02	-5.16858221112E-02	5.66734348478E-02	6.74937374011E-02	2.21316884719E-01
1.71150000000E+09	-7.21227155903E-02	6.50184164042E-02	-4.99627289103E-02	5.85583521544E-02	-5.04449206503E-02	5.77482473641E-02	7.26231849309E-02	2.22000992776E-01
1.71200000000E+09	-7.11897040853E-02	6.26718019458E-02	-4.86940816721E-02	5.96007393029E-02	-4.91820096705E-02	5.88103059658E-02	7.78482086024E-02	2.22459108439E-01
1.71250000000E+09	-7.04016326153E-02	6.03352033724E-02	-4.73966675268E-02	6.06412436731E-02	-4.78882440767E-02	5.98493128809E-02	8.30456450665E-02	2.22825168162E-01
1.71300000000E+09	-6.96551583976E-02	5.79565855928E-02	-4.60884359941E-02	6.16526199944E-02	-4.66057862332E-02	6.08504474887E-02	8.81951936427E-02	2.22999144595E-01
1.71350000000E+09	-6.90871139030E-02	5.55463225238E-02	-4.47484386159E-02	6.26189124147E-02	-4.52824929726E-02	6.18456900898E-02	9.34198938416E-02	2.23043260862E-01
1.71400000000E+09	-6.85617617922E-02	5.30944127284E-02	-4.33752189090E-02	6.35501810822E-02	-4.39275912693E-02	6.27810789813E-02	9.86063196411E-02	2.22930057600E-01
1.71450000000E+09	-6.81935265868E-02	5.06651814761E-02	-4.20005319515E-02	6.44423499402E-02	-4.25691437364E-02	6.37020450297E-02	1.03794117433E-01	2.22624703965E-01
1.71500000000E+09	-6.79006185564E-02	4.82283700326E-02	-4.06063469105E-02	6.53271644993E-02	-4.12051845412E-02	6.46062319093E-02	1.08987568101E-01	2.22229606874E-01
1.71550000000E+09	-6.77561103064E-02	4.57659161530E-02	-3.91860727901E-02	6.61722222719E-02	-3.97991765900E-02	6.54583550531E-02	1.14142302939E-01	2.21621824483E-01
1.71600000000E+09	-6.76547742169E-02	4.33016272506E-02	-3.77520279297E-02	6.69696752040E-02	-3.83851955568E-02	6.62963256835E-02	1.19268817523E-01	2.20865493526E-01
1.71650000000E+09	-6.76969127383E-02	4.08505458481E-02	-3.62889191673E-02	6.77629877349E-02	-3.69288201549E-02	6.70562009511E-02	1.24377746832E-01	2.19961351919E-01
1.71700000000E+09	-6.78336229755E-02	3.84098441800E-02	-3.48116041389E-02	6.85275586848E-02	-3.54877450884E-02	6.78397410517E-02	1.29427157856E-01	2.18923787162E-01
1.71750000000E+09	-6.80719907413E-02	3.59616542488E-02	-3.33354274265E-02	6.92576979469E-02	-3.39984792618E-02	6.85891035502E-02	1.34518516392E-01	2.17728508826E-01
1.71800000000E+09	-6.84095661099E-02	3.35545884499E-02	-3.18185751058E-02	6.99219386845E-02	-3.25091658793E-02	6.92755988732E-02	1.39475045941E-01	2.16411000927E-01
1.71850000000E+09	-6.88290202165E-02	3.11396979184E-02	-3.03021338007E-02	7.05637264523E-02	-3.10088473327E-02	6.99442083118E-02	1.44444888395E-01	2.14877663282E-01
1.71900000000E+09	-6.93376917246E-02	2.87737022764E-02	-2.87665647647E-02	7.11897701286E-02	-2.94999371981E-02	7.05833547987E-02	1.49343688580E-01	2.13258278761E-01
1.71950000000E+09	-6.99699588866E-02	2.63996451801E-02	-2.72510696645E-02	7.17682977221E-02	-2.79797777436E-02	7.11797903160E-02	1.54197236860E-01	2.11435692159E-01
1.72000000000E+09	-7.06866783676E-02	2.40603686441E-02	-2.56959372037E-02	7.23295237773E-02	-2.64217719314E-02	7.17448354617E-02	1.58980152012E-01	2.09576633235E-01
1.72050000000E+09	-7.14813788916E-02	2.17441439084E-02	-2.41273690316E-02	7.28480034490E-02	-2.48813237969E-02	7.22486437143E-02	1.63693020794E-01	2.07525567245E-01
1.72100000000E+09	-7.23458530124E-02	1.94698713402E-02	-2.25365781759E-02	7.33417416315E-02	-2.33184831574E-02	7.27787362621E-02	1.68432457323E-01	2.05291869563E-01
1.72150000000E+09	-7.33442141301E-02	1.72035296763E-02	-2.09534954623E-02	7.37752105893E-02	-2.17420149339E-02	7.32313407221E-02	1.72974772003E-01	2.02926303569E-01
1.72200000000E+09	-7.44053085735E-02	1.50075622856E-02	-1.93660668429E-02	7.41615905372E-02	-2.01707765337E-02	7.36738695877E-02	1.77518664052E-01	2.00437713202E-01
1.72250000000E+09	-7.55425148970E-02	1.28577969668E-02	-1.77652794556E-02	7.45647732918E-02	-1.85665459822E-02	7.40547869881E-02	1.81982639499E-01	1.97864907169E-01
1.72300000000E+09	-7.68046666890E-02	1.06874160383E-02	-1.61553643455E-02	7.49074573038E-02	-1.69666499125E-02	7.44035731382E-02	1.86335485526E-01	1.95184891943E-01
1.72350000000E+09	-7.81273553769E-02	8.59130110632E-03	-1.45609181046E-02	7.51911771377E-02	-1.53703522944E-02	7.47514314605E-02	1.90609047343E-01	1.92242962364E-01
1.72400000000E+09	-7.95383755506E-02	6.56004372280E-03	-1.29227028558E-02	7.54667721071E-02	-1.37748496779E-02	7.50164968978E-02	1.94816234821E-01	1.89260507660E-01
1.72450000000E+09	-8.10163840018E-02	4.53754197788E-03	-1.12910117557E-02	7.57217109678E-02	-1.21373464439E-02	7.52750419537E-02	1.98921140113E-01	1.86230253363E-01
1.72500000000E+09	-8.25720833966E-02	2.60276922407E-03	-9.67197528010E-03	7.59177715017E-02	-1.05018700578E-02	7.54921070347E-02	2.02924114985E-01	1.82948288518E-01
1.72550000000E+09	-8.41888032190E-02	7.02586499006E-04	-8.03653549500E-03	7.60704285330E-02	-8.89316883152E-03	7.56814324046E-02	2.06808288865E-01	1.79588123439E-01
1.72600000000E+09	-8.59290956916E-02	-1.14218623984E-03	-6.41067840560E-03	7.62116308637E-02	-7.28927354514E-03	7.58247459476E-02	2.10620570402E-01	1.76148189159E-01
1.72650000000E+09	-8.77124056077E-02	-2.92342368020E-03	-4.78537831770E-03	7.62991506339E-02	-5.63222948962E-03	7.59489438917E-02	2.14320645951E-01	1.72545282638E-01
1.72700000000E+09	-8.95443432107E-02	-4.67177267772E-03	-3.13999182002E-03	7.63489973662E-02	-4.01141622249E-03	7.60253862724E-02	2.17922329852E-01	1.68914196812E-01
1.72750000000E+09	-9.14713513813E-02	-6.34296593722E-03	-1.51804181399E-03	7.63809363358E-02	-2.38467978617E-03	7.60533091134E-02	2.21386298921E-01	1.65135754266E-01
1.72800000000E+09	-9.35129466824E-02	-7.95657925671E-03	1.33065910280E-04	7.63716592111E-02	-7.87240904465E-04	7.60644293189E-02	2.24737447591E-01	1.61219338464E-01
1.72850000000E+09	-9.55664448085E-02	-9.47015366311E-03	1.78252511560E-03	7.63092304624E-02	8.76419656043E-04	7.60402184631E-02	2.28012927988E-01	1.57263654901E-01
1.72900000000E+09	-9.77302045143E-02	-1.09565329779E-02	3.40204163971E-03	7.62321250657E-02	2.50205186423E-03	7.59792577142E-02	2.31163688723E-01	1.53169388399E-01
1.72950000000E+09	-9.99433052767E-02	-1.23505070052E-02	5.03716074352E-03	7.61154985140E-02	4.10699572789E-03	7.58903094875E-02	2.34113829705E-01	1.49058872168E-01
1.73000000000E+09	-1.02190137556E-01	-1.36753942431E-02	6.65555742156E-03	7.59669391732E-02	5.74939793494E-03	7.57335430831E-02	2.37006251859E-01	1.44764996873E-01
1.73050000000E+09	-1.04548140180E-01	-1.49261628385E-02	8.26489741716E-03	7.57643396699E-02	7.34806817159E-03	7.55712809251E-02	2.39728855402E-01	1.40418754150E-01
1.73100000000E+09	-1.06894352659E-01	-1.61037056665E-02	9.88995124805E-03	7.55353789858E-02	8.95968170313E-03	7.53528883097E-02	2.42354945782E-01	1.35990113109E-01
1.73150000000E+09	-1.09392850676E-01	-1.72034613501E-02	1.14859439371E-02	7.52968149318E-02	1.05668175776E-02	7.51158041891E-02	2.44821387855E-01	1.31538905000E-01
1.73200000000E+09	-1.11871266216E-01	-1.82155200697E-02	1.30763607580E-02	7.49644866249E-02	1.21702854511E-02	7.48500340028E-02	2.47145526182E-01	1.26988232943E-01
1.73250000000E+09	-1.14448530452E-01	-1.91083288876E-02	1.46734532735E-02	7.46741805482E-02	1.37568501401E-02	7.45458225867E-02	2.49410411762E-01	1.22342467486E-01
1.73300000000E+09	-1.17045760986E-01	-1.99600045459E-02	1.62680521638E-02	7.42806935389E-02	1.53375702417E-02	7.41948308761E-02	2.51451801053E-01	1.17661660669E-01
1.73350000000E+09	-1.19719495536E-01	-2.06822228654E-02	1.78464574303E-02	7.39162327262E-02	1.69062016991E-02	7.38167806733E-02	2.53359790638E-01	1.12921203196E-01
1.73400000000E+09	-1.22418758745E-01	-2.13089499728E-02	1.94148319091E-02	7.34807786796E-02	1.84668268874E-02	7.34184634811E-02	2.55098802143E-01	1.08107972378E-01
1.73450000000E+09	-1.25191637106E-01	-2.18697736215E-02	2.09536941348E-02	7.29996841317E-02	2.00191115663E-02	7.29720431837E-02	2.56744288210E-01	1.03263630297E-01
1.73500000000E+09	-1.27991286584E-01	-2.23470588943E-02	2.24971731527E-02	7.25136851417E-02	2.15634431202E-02	7.24830978414E-02	2.58254185492E-01	9.83257725785E-02
1.73550000000E+09	-1.30787157782E-01	-2.26632716615E-02	2.40414360784E-02	7.19771063407E-02	2.30946302054E-02	7.19845537488E-02	2.59572733593E-01	9.34022867757E-02
1.73600000000E+09	-1.33657060315E-01	-2.29078851503E-02	2.55434182253E-02	7.13972842468E-02	2.46133088918E-02	7.14402004647E-02	2.60755166555E-01	8.83873227559E-02
1.73650000000E+09	-1.36515807824E-01	-2.30470611012E-02	2.70380659391E-02	7.08114022113E-02	2.61088357553E-02	7.08650770505E-02	2.61793601894E-01	8.33714731723E-02
1.73700000000E+09	-1.39451335844E-01	-2.30692692005E-02	2.85079419210E-02	7.01906762002E-02	2.75804905409E-02	7.02390673844E-02	2.62645026135E-01	7.83451987762E-02
1.73750000000E+09	-1.42373105276E-01	-2.29661173688E-02	2.99663559316E-02	6.95160936213E-02	2.90804463463E-02	6.96061718755E-02	2.63397282435E-01	7.32841366499E-02
1.73800000000E+09	-1.45355553814E-01	-2.27962511961E-02	3.14526232212E-02	6.88519956242E-02	3.05260490855E-02	6.89351243181E-02	2.63916121391E-01	6.81839931573E-02
1.73850000000E+09	-1.48290477164E-01	-2.24768349660E-02	3.28883521820E-02	6.81393459347E-02	3.19597701558E-02	6.82246897599E-02	2.64377481030E-01	6.31169249366E-02
1.73900000000E+09	-1.51280613662E-01	-2.20370061540E-02	3.42970224928E-02	6.73915832838E-02	3.33912520280E-02	6.74950618001E-02	2.64646461889E-01	5.79283968688E-02
1.73950000000E+09	-1.54271877887E-01	-2.14980854125E-02	3.57100015024E-02	6.66071312872E-02	3.47996226727E-02	6.67508645412E-02	2.64742430540E-01	5.28615204043E-02
1.74000000000E+09	-1.57250816296E-01	-2.08515368959E-02	3.70750484804E-02	6.58016839752E-02	3.61872403274E-02	6.59556067939E-02	2.64648495009E-01	4.77114458651E-02
1.74050000000E+09	-1.60236927391E-01	-2.00725627428E-02	3.84422183239E-02	6.49614950546E-02	3.75419996031E-02	6.51216300133E-02	2.64444671457E-01	4.26047746371E-02
1.74100000000E+09	-1.63228970486E-01	-1.91679741009E-02	3.98137314182E-02	6.40861267964E-02	3.88983237656E-02	6.43072422610E-02	2.64098581672E-01	3.74846638198E-02
1.74150000000E+09	-1.66163507962E-01	-1.81961704780E-02	4.11136050589E-02	6.31927492121E-02	4.02048060348E-02	6.34193794573E-02	2.63545668840E-01	3.23737618496E-02
1.74200000000E+09	-1.69158932160E-01	-1.70496033173E-02	4.24274930936E-02	6.22828245335E-02	4.15331656968E-02	6.25377940449E-02	2.62853290361E-01	2.72734458169E-02
1.74250000000E+09	-1.72041026174E-01	-1.57353569943E-02	4.37251432446E-02	6.13297735891E-02	4.28153420814E-02	6.16150355150E-02	2.61994217406E-01	2.22499347848E-02
1.74300000000E+09	-1.74963456584E-01	-1.43624511495E-02	4.49815714719E-02	6.03801522186E-02	4.40846084958E-02	6.06472239658E-02	2.60998787767E-01	1.71957553795E-02
1.74350000000E+09	-1.77810472655E-01	-1.28746871680E-02	4.62119077128E-02	5.93718366410E-02	4.53192021525E-02	5.96770234943E-02	2.59847144456E-01	1.21991145108E-02
1.74400000000E+09	-1.80670376150E-01	-1.11846712042E-02	4.74053634997E-02	5.83585807790E-02	4.65418690746E-02	5.86629659313E-02	2.58532097914E-01	7.24359537036E-03
1.74450000000E+09	-1.83423745121E-01	-9.41994703098E-03	4.86112173550E-02	5.73134927635E-02	4.77302462614E-02	5.76467544502E-02	2.57075533600E-01	2.29638926333E-03
1.74500000000E+09	-1.86162427097E-01	-7.53223413537E-03	4.97854263677E-02	5.62357762618E-02	4.88984528622E-02	5.66038107604E-02	2.55465061757E-01	-2.53769113818E-03
1.74550000000E+09	-1.88837815133E-01	-5.54064720532E-03	5.09251007232E-02	5.51575543990E-02	5.00558655159E-02	5.55144903879E-02	2.53685546031E-01	-7.38927954816E-03
1.74600000000E+09	-1.91444240324E-01	-3.38643742621E-03	5.20394167322E-02	5.40269265991E-02	5.11865672965E-02	5.44223539048E-02	2.51771592282E-01	-1.21466414237E-02
1.74650000000E+09	-1.93949626947E-01	-1.11721042491E-03	5.31380890971E-02	5.28828221802E-02	5.22703958610E-02	5.32994111389E-02	2.49681630295E-01	-1.68919635867E-02
1.74700000000E+09	-1.96428951691E-01	1.21875907720E-03	5.41856738143E-02	5.17460476518E-02	5.33421322296E-02	5.21668625283E-02	2.47455699047E-01	-2.15571728679E-02
1.74750000000E+09	-1.98874171201E-01	3.72763387550E-03	5.52401216744E-02	5.05709736060E-02	5.43901862033E-02	5.10304369808E-02	2.45111089416E-01	-2.61185081618E-02
1.74800000000E+09	-2.01144290100E-01	6.36593839560E-03	5.62508086491E-02	4.93864972565E-02	5.53975791720E-02	4.98485710523E-02	2.42561866499E-01	-3.05940400906E-02
1.74850000000E+09	-2.03400855784E-01	9.04654759181E-03	5.72412734135E-02	4.81897514316E-02	5.64037543272E-02	4.86474397754E-02	2.39939230847E-01	-3.50551093544E-02
1.74900000000E+09	-2.05485865821E-01	1.18549785972E-02	5.81807976574E-02	4.69377329279E-02	5.73652343508E-02	4.74233824039E-02	2.37144599467E-01	-3.93731354314E-02
1.74950000000E+09	-2.07518400738E-01	1.48347888752E-02	5.91253310982E-02	4.56910399264E-02	5.83179487650E-02	4.62176067672E-02	2.34228706431E-01	-4.36507079171E-02
1.75000000000E+09	-2.09446022453E-01	1.78803073359E-02	6.00415479832E-02	4.44710594017E-02	5.92381896722E-02	4.49607513598E-02	2.31166603139E-01	-4.77938591378E-02
1.75050000000E+09	-2.11176982462E-01	2.09957024979E-02	6.09016262849E-02	4.31580935564E-02	6.01192685549E-02	4.36973229089E-02	2.27948685695E-01	-5.18750855730E-02
1.75100000000E+09	-2.12835146499E-01	2.42296906377E-02	6.17670095015E-02	4.18675425017E-02	6.09768196803E-02	4.24235946633E-02	2.24614819339E-01	-5.58581992445E-02
1.75150000000E+09	-2.14377968025E-01	2.75716594552E-02	6.25634248033E-02	4.05636653420E-02	6.18172368601E-02	4.11216820638E-02	2.21159606829E-01	-5.96927975970E-02
1.75200000000E+09	-2.15715401950E-01	3.10050902989E-02	6.33758280626E-02	3.92300955885E-02	6.26067536641E-02	3.98285994246E-02	2.17568061631E-01	-6.34331741346E-02
1.75250000000E+09	-2.16976465157E-01	3.44740949447E-02	6.41374143530E-02	3.79031109433E-02	6.33873529586E-02	3.85210561319E-02	2.13889211970E-01	-6.70129113155E-02
1.75300000000E+09	-2.18059505970E-01	3.80378325833E-02	6.48709933758E-02	3.65589115822E-02	6.41495340090E-02	3.71801732162E-02	2.10054148296E-01	-7.05232046228E-02
1.75350000000E+09	-2.18990028590E-01	4.16478287906E-02	6.55898099413E-02	3.52169392880E-02	6.48611277545E-02	3.58396064854E-02	2.06122626388E-01	-7.39362703867E-02
1.75400000000E+09	-2.19755653715E-01	4.52756053009E-02	6.62658624981E-02	3.38205913172E-02	6.55606335855E-02	3.44996272163E-02	2.02086656566E-01	-7.72148831746E-02
1.75450000000E+09	-2.20371179870E-01	4.90334973305E-02	6.69198345501E-02	3.24601763679E-02	6.62142570029E-02	3.31390741965E-02	1.97948121274E-01	-8.03295525051E-02
1.75500000000E+09	-2.20800726060E-01	5.27892880310E-02	6.75548285750E-02	3.10534803281E-02	6.68478936775E-02	3.17631778137E-02	1.93733938374E-01	-8.33962351511E-02
1.75550000000E+09	-2.21032425839E-01	5.65818172870E-02	6.81536253428E-02	2.96604575582E-02	6.74772280892E-02	3.03804696851E-02	1.89328779725E-01	-8.62192885293E-02
1.75600000000E+09	-2.21162359710E-01	6.04029365523E-02	6.87397150329E-02	2.82626183528E-02	6.80853822751E-02	2.89917097813E-02	1.84877659281E-01	-8.89621803756E-02
1.75650000000E+09	-2.21069450531E-01	6.41925619577E-02	6.92865673111E-02	2.68332681842E-02	6.86446225730E-02	2.75801792116E-02	1.80353957787E-01	-9.15278292760E-02
1.75700000000E+09	-2.20802750604E-01	6.79979419262E-02	6.98027839906E-02	2.54104883756E-02	6.91800609688E-02	2.61487073868E-02	1.75755824127E-01	-9.39718846660E-02
1.75750000000E+09	-2.20406322774E-01	7.17989516091E-02	7.03082477442E-02	2.39704379477E-02	6.96845842792E-02	2.47489598203E-02	1.71025719683E-01	-9.62459790433E-02
1.75800000000E+09	-2.19760001674E-01	7.55898709664E-02	7.07750746604E-02	2.25442880246E-02	7.01665923134E-02	2.33172462095E-02	1.66273605607E-01	-9.84181841076E-02
1.75850000000E+09	-2.18967901664E-01	7.93602775426E-02	7.12001239385E-02	2.10613895886E-02	7.06412091538E-02	2.18931853640E-02	1.61456034070E-01	-1.00368086952E-01
1.75900000000E+09	-2.17990914590E-01	8.30711679165E-02	7.15984588563E-02	1.96311968560E-02	7.10585609970E-02	2.04275714729E-02	1.56506855245E-01	-1.02187368895E-01
