# Hz S RI R 50
! CMT, CMT808U, 21440046, 21.4.3/4
! Date: 4/9/2026 1:47:28 AM
! Data: Format (Calibration Info)
! Freq	S11:Re/Im(F2)	S41:Re/Im(F2)	S14:Re/Im(F2)	S44:Re/Im(F2)
1.70000000000E+09	-1.20639359057E-01	1.05998162421E-01	-7.10474808378E-02	1.37801586358E-02	-7.09153612405E-02	1.28781288846E-02	-5.85582136284E-02	1.37330734792E-01
1.70050000000E+09	-1.17482636210E-01	1.05989917544E-01	-7.07480864982E-02	1.52872693814E-02	-7.06348178799E-02	1.43967030409E-02	-5.60951860904E-02	1.41324121468E-01
1.70100000000E+09	-1.14359858775E-01	1.05786599455E-01	-7.04782077530E-02	1.68017946969E-02	-7.03537030592E-02	1.58889515083E-02	-5.35271648075E-02	1.45255555901E-01
1.70150000000E+09	-1.11231225487E-01	1.05440441755E-01	-7.00863625052E-02	1.83001710930E-02	-6.99992806392E-02	1.74116662496E-02	-5.08607263513E-02	1.49130408033E-01
1.70200000000E+09	-1.08159411323E-01	1.04938974099E-01	-6.97278574794E-02	1.97792214294E-02	-6.96424564081E-02	1.88965580764E-02	-4.80216241897E-02	1.52946456251E-01
1.70250000000E+09	-1.05139809201E-01	1.04279084672E-01	-6.92935771572E-02	2.12896296948E-02	-6.92598632877E-02	2.03814823728E-02	-4.50741218928E-02	1.56628757944E-01
1.70300000000E+09	-1.02136420380E-01	1.03440237633E-01	-6.88491614797E-02	2.27571296634E-02	-6.88194680241E-02	2.18854581020E-02	-4.19848694861E-02	1.60261697331E-01
1.70350000000E+09	-9.92296969203E-02	1.02470513078E-01	-6.83772909753E-02	2.42513418875E-02	-6.83607634972E-02	2.33405835810E-02	-3.88162329370E-02	1.63766616510E-01
1.70400000000E+09	-9.63375155553E-02	1.01368074668E-01	-6.78499271762E-02	2.57336310910E-02	-6.78672987481E-02	2.48203744252E-02	-3.54858038387E-02	1.67203928044E-01
1.70450000000E+09	-9.35403132076E-02	1.00137882024E-01	-6.73061961499E-02	2.71697683980E-02	-6.73384490630E-02	2.62624880252E-02	-3.20917560047E-02	1.70543839785E-01
1.70500000000E+09	-9.08416697054E-02	9.87197091848E-02	-6.67111043202E-02	2.86274929376E-02	-6.67697262651E-02	2.77133742860E-02	-2.85828129120E-02	1.73691787957E-01
1.70550000000E+09	-8.81831164138E-02	9.71922356623E-02	-6.60888842417E-02	3.00475901201E-02	-6.61714872856E-02	2.91562281940E-02	-2.49561999242E-02	1.76845302836E-01
1.70600000000E+09	-8.56325295300E-02	9.55372139881E-02	-6.54576689890E-02	3.14810781426E-02	-6.55372377512E-02	3.05928253797E-02	-2.12349275621E-02	1.79874560859E-01
1.70650000000E+09	-8.31921974469E-02	9.37620140768E-02	-6.47778943400E-02	3.28841823348E-02	-6.48759575802E-02	3.20031736320E-02	-1.74460751625E-02	1.82747311984E-01
1.70700000000E+09	-8.08259422942E-02	9.18948846127E-02	-6.40540487998E-02	3.42910558891E-02	-6.41833258553E-02	3.34088094705E-02	-1.35163712154E-02	1.85534282110E-01
1.70750000000E+09	-7.85229608848E-02	8.99070799262E-02	-6.32956929088E-02	3.56829442454E-02	-6.34632024505E-02	3.47957491175E-02	-9.45404699186E-03	1.88211780066E-01
1.70800000000E+09	-7.63625781614E-02	8.78105448197E-02	-6.25358506687E-02	3.70639155731E-02	-6.26967748939E-02	3.61404265378E-02	-5.41367758952E-03	1.90745310974E-01
1.70850000000E+09	-7.42998237638E-02	8.56192271710E-02	-6.17128216738E-02	3.83842856863E-02	-6.19266356974E-02	3.75240938480E-02	-1.20350344492E-03	1.93177731326E-01
1.70900000000E+09	-7.23657608454E-02	8.33621203569E-02	-6.08736120731E-02	3.97182067259E-02	-6.10717955000E-02	3.88506387872E-02	3.06814656405E-03	1.95416399854E-01
1.70950000000E+09	-7.05153404367E-02	8.10107373097E-02	-6.00114517427E-02	4.10628403439E-02	-6.02392798057E-02	4.01719369858E-02	7.38018619570E-03	1.97597635440E-01
1.71000000000E+09	-6.88306116085E-02	7.85306169034E-02	-5.90997737717E-02	4.23613053000E-02	-5.93545076892E-02	4.14638150923E-02	1.17360576315E-02	1.99628817887E-01
1.71050000000E+09	-6.72353812464E-02	7.60190466596E-02	-5.81777011569E-02	4.36349015278E-02	-5.84514935356E-02	4.27480654953E-02	1.62405626621E-02	2.01532872764E-01
1.71100000000E+09	-6.57603132347E-02	7.34269074743E-02	-5.72045050683E-02	4.48675159909E-02	-5.74821933737E-02	4.40187288651E-02	2.07732407793E-02	2.03265942605E-01
1.71150000000E+09	-6.44309769185E-02	7.07833436278E-02	-5.62227282151E-02	4.61176165761E-02	-5.65044881766E-02	4.52453274526E-02	2.53652194019E-02	2.04872266816E-01
1.71200000000E+09	-6.32132270752E-02	6.80881850880E-02	-5.51836454147E-02	4.73321399138E-02	-5.55293482113E-02	4.64629550233E-02	3.00121606689E-02	2.06368640030E-01
1.71250000000E+09	-6.21064561444E-02	6.53503182630E-02	-5.41347933421E-02	4.85060752441E-02	-5.45107381782E-02	4.76819427406E-02	3.47180229310E-02	2.07739489791E-01
1.71300000000E+09	-6.11342149893E-02	6.25464058458E-02	-5.30623272618E-02	4.96653654647E-02	-5.34313693171E-02	4.88339266067E-02	3.94447259762E-02	2.08925176371E-01
1.71350000000E+09	-6.03153507275E-02	5.97344106476E-02	-5.19718517242E-02	5.08027108568E-02	-5.23478952359E-02	4.99720435108E-02	4.42376869594E-02	2.09999933124E-01
1.71400000000E+09	-5.95561522180E-02	5.68377637257E-02	-5.08372498118E-02	5.19051275561E-02	-5.12349565904E-02	5.10921837525E-02	4.90389372229E-02	2.10902101455E-01
1.71450000000E+09	-5.90038809023E-02	5.39592620431E-02	-4.96924874327E-02	5.29905053414E-02	-5.00953921348E-02	5.21734011431E-02	5.39250888095E-02	2.11663901778E-01
1.71500000000E+09	-5.85558251484E-02	5.10525490806E-02	-4.84935128148E-02	5.40343322024E-02	-4.89490757155E-02	5.32560169198E-02	5.88074158539E-02	2.12317550375E-01
1.71550000000E+09	-5.82479805380E-02	4.81485735175E-02	-4.73076197501E-02	5.50870157388E-02	-4.77693210359E-02	5.42916960852E-02	6.36898676286E-02	2.12748609077E-01
1.71600000000E+09	-5.80200945769E-02	4.51935367842E-02	-4.60787827375E-02	5.60885143597E-02	-4.65484088531E-02	5.53194286830E-02	6.86521954595E-02	2.13093448714E-01
1.71650000000E+09	-5.79527333351E-02	4.22434487838E-02	-4.48283613870E-02	5.70676429031E-02	-4.52878517041E-02	5.63003400032E-02	7.35953325344E-02	2.13238030164E-01
1.71700000000E+09	-5.80147477620E-02	3.93131448924E-02	-4.35583338470E-02	5.80081193726E-02	-4.40672245149E-02	5.72593321602E-02	7.85528382300E-02	2.13265251940E-01
1.71750000000E+09	-5.81879910236E-02	3.63582411244E-02	-4.22550934250E-02	5.89416586287E-02	-4.27886671467E-02	5.81785204296E-02	8.35116518067E-02	2.13164985142E-01
1.71800000000E+09	-5.84924426437E-02	3.34443478437E-02	-4.09598088693E-02	5.98169655689E-02	-4.15088528852E-02	5.90709672104E-02	8.84776939073E-02	2.12855428386E-01
1.71850000000E+09	-5.89184138478E-02	3.05315390451E-02	-3.95943124449E-02	6.06704685342E-02	-4.01747737724E-02	5.99457655542E-02	9.33929991825E-02	2.12431822637E-01
1.71900000000E+09	-5.94701049066E-02	2.76325885679E-02	-3.82799543136E-02	6.14840953773E-02	-3.88588325143E-02	6.07609760208E-02	9.83496751058E-02	2.11859849168E-01
1.71950000000E+09	-6.01673500473E-02	2.47545491652E-02	-3.69195017124E-02	6.22799498866E-02	-3.74945911218E-02	6.15702191293E-02	1.03284237796E-01	2.11124945677E-01
1.72000000000E+09	-6.09439889409E-02	2.19131022556E-02	-3.55382164117E-02	6.30183296822E-02	-3.61517133179E-02	6.23599670966E-02	1.08172556277E-01	2.10303153897E-01
1.72050000000E+09	-6.18300206093E-02	1.90941352050E-02	-3.41479162471E-02	6.37520783838E-02	-3.47579098348E-02	6.30926215656E-02	1.13103317882E-01	2.09234859851E-01
1.72100000000E+09	-6.28946310824E-02	1.63052934704E-02	-3.27365802136E-02	6.44465856998E-02	-3.33627483674E-02	6.37902635090E-02	1.17991201669E-01	2.08051002698E-01
1.72150000000E+09	-6.40298015416E-02	1.35686927200E-02	-3.13057174141E-02	6.50982890918E-02	-3.19701357162E-02	6.44510582947E-02	1.22799971914E-01	2.06717526710E-01
1.72200000000E+09	-6.52626960640E-02	1.08906467192E-02	-2.98534550843E-02	6.57217069724E-02	-3.05145943118E-02	6.50953370958E-02	1.27639313329E-01	2.05207146418E-01
1.72250000000E+09	-6.66399510629E-02	8.24482387162E-03	-2.84074781907E-02	6.63135963177E-02	-2.90731070338E-02	6.57200695281E-02	1.32417529189E-01	2.03633296042E-01
1.72300000000E+09	-6.81619705346E-02	5.66040648613E-03	-2.69436194381E-02	6.68882434908E-02	-2.76489481536E-02	6.62868109982E-02	1.37096756280E-01	2.01901701388E-01
1.72350000000E+09	-6.97601497541E-02	3.11183446069E-03	-2.54753994310E-02	6.74261991297E-02	-2.61833617217E-02	6.68161979969E-02	1.41784013797E-01	1.99901524157E-01
1.72400000000E+09	-7.14234706798E-02	6.46028650892E-04	-2.40097578469E-02	6.78946240461E-02	-2.47329783515E-02	6.73122715431E-02	1.46385664106E-01	1.97865880760E-01
1.72450000000E+09	-7.32191709049E-02	-1.77835609826E-03	-2.24968734639E-02	6.83413910465E-02	-2.32306901444E-02	6.78040624534E-02	1.50959244074E-01	1.95714577076E-01
1.72500000000E+09	-7.50998229631E-02	-4.10200812577E-03	-2.10217250182E-02	6.87742112398E-02	-2.17249396525E-02	6.82657546016E-02	1.55465516327E-01	1.93351881929E-01
1.72550000000E+09	-7.71098893028E-02	-6.39742534837E-03	-1.94949952826E-02	6.91604967706E-02	-2.02413803796E-02	6.86631432325E-02	1.59906901702E-01	1.90899209165E-01
1.72600000000E+09	-7.91851900564E-02	-8.60598688722E-03	-1.79927674263E-02	6.95329623648E-02	-1.87372352635E-02	6.90206627038E-02	1.64280549534E-01	1.88251116859E-01
1.72650000000E+09	-8.13824762979E-02	-1.07215573633E-02	-1.64846875448E-02	6.98360220424E-02	-1.72487726715E-02	6.93449526226E-02	1.68516821483E-01	1.85511554946E-01
1.72700000000E+09	-8.36244564333E-02	-1.27592042439E-02	-1.49402317300E-02	7.01277575457E-02	-1.57361654941E-02	6.96553329912E-02	1.72757960201E-01	1.82632928592E-01
1.72750000000E+09	-8.59945768459E-02	-1.47259780817E-02	-1.34575925794E-02	7.03731555090E-02	-1.42114848168E-02	6.99398015994E-02	1.76875338703E-01	1.79675136627E-01
1.72800000000E+09	-8.84460645914E-02	-1.65938091331E-02	-1.18875778750E-02	7.06151569927E-02	-1.27100598617E-02	7.01694975974E-02	1.80927033992E-01	1.76491199534E-01
1.72850000000E+09	-9.09493073580E-02	-1.83555514734E-02	-1.03573001196E-02	7.07853328464E-02	-1.11652992418E-02	7.03470431269E-02	1.84891137611E-01	1.73211882085E-01
1.72900000000E+09	-9.35838580856E-02	-2.00416652410E-02	-8.83695287065E-03	7.09317147841E-02	-9.65455056428E-03	7.05237902485E-02	1.88753222123E-01	1.69837872203E-01
1.72950000000E+09	-9.62584233158E-02	-2.16080590915E-02	-7.31094758417E-03	7.10462085582E-02	-8.13721742850E-03	7.06487919626E-02	1.92496057515E-01	1.66338379490E-01
1.73000000000E+09	-9.90215359731E-02	-2.31045702375E-02	-5.77343171287E-03	7.11155165054E-02	-6.62361682398E-03	7.07609383705E-02	1.96161514486E-01	1.62756659048E-01
1.73050000000E+09	-1.01827366498E-01	-2.45060088039E-02	-4.25668185948E-03	7.11615293542E-02	-5.09884943673E-03	7.08176760078E-02	1.99733105999E-01	1.59022023489E-01
1.73100000000E+09	-1.04702468652E-01	-2.57733312300E-02	-2.74847396072E-03	7.11749823708E-02	-3.56761046959E-03	7.08472952293E-02	2.03182059248E-01	1.55153483970E-01
1.73150000000E+09	-1.07666953869E-01	-2.69511148042E-02	-1.19119552592E-03	7.11525791371E-02	-2.06464631837E-03	7.08461522094E-02	2.06482017299E-01	1.51206991206E-01
1.73200000000E+09	-1.10647213043E-01	-2.80312470180E-02	3.18805819209E-04	7.10941894965E-02	-5.27505502771E-04	7.08086384474E-02	2.09689945160E-01	1.47124825336E-01
1.73250000000E+09	-1.13695866336E-01	-2.89636682235E-02	1.83007651435E-03	7.10213243200E-02	9.93911357291E-04	7.07540925861E-02	2.12842624264E-01	1.42981022978E-01
1.73300000000E+09	-1.16779975134E-01	-2.98175548871E-02	3.32787838538E-03	7.08962401517E-02	2.47187263862E-03	7.06259147166E-02	2.15806211385E-01	1.38716184270E-01
1.73350000000E+09	-1.19925799668E-01	-3.05167048758E-02	4.86956387351E-03	7.07220504926E-02	3.96937846628E-03	7.04950614551E-02	2.18683194415E-01	1.34363643680E-01
1.73400000000E+09	-1.23125978267E-01	-3.10943884414E-02	6.35430804407E-03	7.05381890958E-02	5.48101380313E-03	7.03357267942E-02	2.21356601660E-01	1.29899019417E-01
1.73450000000E+09	-1.26374878582E-01	-3.16063758203E-02	7.85985756096E-03	7.03497752904E-02	6.95075770817E-03	7.01324381491E-02	2.23964743884E-01	1.25356267564E-01
1.73500000000E+09	-1.29653531506E-01	-3.19693572471E-02	9.33170615757E-03	7.00702862959E-02	8.44793522356E-03	6.99014037193E-02	2.26430335609E-01	1.20741642997E-01
1.73550000000E+09	-1.32906782776E-01	-3.21803058294E-02	1.07770503410E-02	6.97922334354E-02	9.90092232942E-03	6.96367714899E-02	2.28754844063E-01	1.16046173087E-01
1.73600000000E+09	-1.36232291468E-01	-3.22770969728E-02	1.22546117729E-02	6.94850387977E-02	1.13668311926E-02	6.93530813578E-02	2.30936349969E-01	1.11226813667E-01
1.73650000000E+09	-1.39557631168E-01	-3.22619208357E-02	1.37058505315E-02	6.91474805860E-02	1.28150150045E-02	6.90274277441E-02	2.32999393438E-01	1.06384755062E-01
1.73700000000E+09	-1.42876218388E-01	-3.20726728528E-02	1.51544483327E-02	6.87648407951E-02	1.42677898629E-02	6.86531641192E-02	2.34854772538E-01	1.01459240925E-01
1.73750000000E+09	-1.46255668370E-01	-3.17985317929E-02	1.65937044239E-02	6.83373961950E-02	1.56924876118E-02	6.82622045589E-02	2.36624629704E-01	9.64870694873E-02
1.73800000000E+09	-1.49637012748E-01	-3.14116857490E-02	1.80094050296E-02	6.79230479922E-02	1.71008743838E-02	6.78623342543E-02	2.38189214821E-01	9.14494491749E-02
1.73850000000E+09	-1.52976702731E-01	-3.08691928373E-02	1.94157919991E-02	6.74539592417E-02	1.85228515499E-02	6.74095160509E-02	2.39671041283E-01	8.63519351404E-02
1.73900000000E+09	-1.56336515675E-01	-3.01734633277E-02	2.07944335916E-02	6.69868009745E-02	1.99425350284E-02	6.69343947257E-02	2.41000381314E-01	8.11929927509E-02
1.73950000000E+09	-1.59686013570E-01	-2.93779211068E-02	2.21782931086E-02	6.64519590648E-02	2.12992270129E-02	6.64244272069E-02	2.42090560456E-01	7.60039080565E-02
1.74000000000E+09	-1.63028151560E-01	-2.84194603562E-02	2.35509727872E-02	6.59123533512E-02	2.26521429656E-02	6.59072226006E-02	2.43073977969E-01	7.07601862721E-02
1.74050000000E+09	-1.66353451563E-01	-2.73779266400E-02	2.48933663191E-02	6.53488313498E-02	2.39993808731E-02	6.53607152142E-02	2.43870852711E-01	6.54764443192E-02
1.74100000000E+09	-1.69653764457E-01	-2.61498839365E-02	2.62319334470E-02	6.47445215672E-02	2.53131823558E-02	6.47868152668E-02	2.44599578069E-01	6.01748097564E-02
1.74150000000E+09	-1.72919049010E-01	-2.48368161245E-02	2.75267775033E-02	6.41130422935E-02	2.66364063704E-02	6.41780996830E-02	2.45076946009E-01	5.48245783003E-02
1.74200000000E+09	-1.76166099467E-01	-2.33583292957E-02	2.88357853037E-02	6.34505077048E-02	2.79691606837E-02	6.35316839353E-02	2.45411971864E-01	4.94616729485E-02
1.74250000000E+09	-1.79357797963E-01	-2.17017167768E-02	3.01250112465E-02	6.27697335569E-02	2.92494595554E-02	6.28807010421E-02	2.45602922297E-01	4.40923251176E-02
1.74300000000E+09	-1.82493414666E-01	-1.99598255736E-02	3.13767163326E-02	6.20706651047E-02	3.05014662681E-02	6.21805691383E-02	2.45558573388E-01	3.86893180942E-02
1.74350000000E+09	-1.85620366009E-01	-1.80772519446E-02	3.26424349551E-02	6.13411656347E-02	3.17440066691E-02	6.14632009972E-02	2.45464393664E-01	3.32818780115E-02
1.74400000000E+09	-1.88643630828E-01	-1.60802906411E-02	3.38881638661E-02	6.05826678863E-02	3.29818554139E-02	6.07403588256E-02	2.45094389035E-01	2.78891695428E-02
1.74450000000E+09	-1.91631495975E-01	-1.39016285037E-02	3.50740656818E-02	5.98134224614E-02	3.42289457666E-02	5.99941601689E-02	2.44638588205E-01	2.24829164806E-02
1.74500000000E+09	-1.94558697003E-01	-1.16244354560E-02	3.62942624732E-02	5.90249620869E-02	3.53832957603E-02	5.92170642596E-02	2.43991864685E-01	1.71049123923E-02
1.74550000000E+09	-1.97384862509E-01	-9.20871523927E-03	3.74585903446E-02	5.82061618714E-02	3.65556864706E-02	5.84043588381E-02	2.43134782812E-01	1.17220696816E-02
1.74600000000E+09	-2.00128098282E-01	-6.63658543674E-03	3.86095927582E-02	5.73535768518E-02	3.77395490830E-02	5.75746588966E-02	2.42172794969E-01	6.32659519326E-03
1.74650000000E+09	-2.02777939732E-01	-3.99276998402E-03	3.97189402212E-02	5.64961903187E-02	3.88685384138E-02	5.67370870000E-02	2.40984308307E-01	9.50704221823E-04
1.74700000000E+09	-2.05371324398E-01	-1.21490247579E-03	4.08488981432E-02	5.56112038194E-02	3.99942730619E-02	5.58663277652E-02	2.39682275989E-01	-4.37387361522E-03
1.74750000000E+09	-2.07872105411E-01	1.69416117520E-03	4.19383893033E-02	5.47452684373E-02	4.10907950023E-02	5.49975769448E-02	2.38209076526E-01	-9.63687053999E-03
1.74800000000E+09	-2.10239869013E-01	4.73099293593E-03	4.30115099088E-02	5.38086183961E-02	4.21658216204E-02	5.40772665132E-02	2.36538461314E-01	-1.48568382532E-02
1.74850000000E+09	-2.12534265660E-01	7.85486542155E-03	4.40381087486E-02	5.28823084716E-02	4.32219810163E-02	5.31638463900E-02	2.34738267033E-01	-2.00722754158E-02
1.74900000000E+09	-2.14653101159E-01	1.10956895325E-02	4.51018197576E-02	5.18927743837E-02	4.42377144425E-02	5.22232494754E-02	2.32736136650E-01	-2.52275470334E-02
1.74950000000E+09	-2.16713462792E-01	1.44480057942E-02	4.60989840316E-02	5.09334480102E-02	4.52548400390E-02	5.12705042157E-02	2.30618291404E-01	-3.03678073999E-02
1.75000000000E+09	-2.18601518029E-01	1.79359913789E-02	4.70928141423E-02	4.99445600179E-02	4.62478695969E-02	5.03018667052E-02	2.28273172011E-01	-3.53887170149E-02
1.75050000000E+09	-2.20293704033E-01	2.15113523817E-02	4.80521894480E-02	4.89511142735E-02	4.72145598036E-02	4.93011111970E-02	2.25832421817E-01	-4.03976403493E-02
1.75100000000E+09	-2.21988759578E-01	2.51622713571E-02	4.89883730139E-02	4.79242996741E-02	4.81702013492E-02	4.82858448220E-02	2.23183596474E-01	-4.53294865735E-02
1.75150000000E+09	-2.23433835818E-01	2.89425777522E-02	4.99101076853E-02	4.68745214538E-02	4.90848306960E-02	4.72770703928E-02	2.20407307486E-01	-5.01482042085E-02
1.75200000000E+09	-2.24703339310E-01	3.27373721786E-02	5.07782136236E-02	4.58322070792E-02	5.00028003962E-02	4.62519881649E-02	2.17440097665E-01	-5.49240519613E-02
1.75250000000E+09	-2.25854563084E-01	3.66530249873E-02	5.16823937869E-02	4.47665750382E-02	5.08800448144E-02	4.52058348052E-02	2.14392049399E-01	-5.95614807103E-02
1.75300000000E+09	-2.26832831116E-01	4.06196482524E-02	5.25450429374E-02	4.36856386032E-02	5.17379087452E-02	4.41309838659E-02	2.11150604328E-01	-6.41530452033E-02
1.75350000000E+09	-2.27583485253E-01	4.46335484349E-02	5.33694164311E-02	4.25814195212E-02	5.25772006502E-02	4.30853759516E-02	2.07734030128E-01	-6.86317319671E-02
1.75400000000E+09	-2.28223277405E-01	4.86831607131E-02	5.41826342771E-02	4.14908022557E-02	5.34033957728E-02	4.19729503681E-02	2.04182586604E-01	-7.30724841243E-02
1.75450000000E+09	-2.28665273465E-01	5.27991001291E-02	5.49695099424E-02	4.03667007853E-02	5.42024789212E-02	4.08644932989E-02	2.00547931446E-01	-7.73469860173E-02
1.75500000000E+09	-2.28869195893E-01	5.69532313603E-02	5.57431597371E-02	3.92273434054E-02	5.49790071450E-02	3.97494622999E-02	1.96706028597E-01	-8.15786492145E-02
1.75550000000E+09	-2.28959344716E-01	6.11136762328E-02	5.64765889054E-02	3.81017112473E-02	5.57357732347E-02	3.86174950479E-02	1.92690195630E-01	-8.56263251195E-02
1.75600000000E+09	-2.28836033866E-01	6.52910748692E-02	5.72191733511E-02	3.69545831749E-02	5.64727485447E-02	3.75177209379E-02	1.88601113170E-01	-8.96016469163E-02
1.75650000000E+09	-2.28469719238E-01	6.94319726129E-02	5.78957526558E-02	3.57921944739E-02	5.71713903881E-02	3.63672780975E-02	1.84383147502E-01	-9.34188297191E-02
1.75700000000E+09	-2.27954224804E-01	7.35765837911E-02	5.85813622419E-02	3.46173843338E-02	5.78771843249E-02	3.52034188711E-02	1.80044749855E-01	-9.71153422339E-02
1.75750000000E+09	-2.27273851842E-01	7.77179219031E-02	5.92602700089E-02	3.34355147129E-02	5.85447638907E-02	3.40408331960E-02	1.75547604917E-01	-1.00704654756E-01
1.75800000000E+09	-2.26340404390E-01	8.18433113108E-02	5.98845630506E-02	3.22419860830E-02	5.91825492152E-02	3.28571357338E-02	1.70949562607E-01	-1.04163507449E-01
1.75850000000E+09	-2.25228571134E-01	8.58401784519E-02	6.05062624141E-02	3.10251852407E-02	5.98302669332E-02	3.16686083627E-02	1.66276931288E-01	-1.07457085868E-01
1.75900000000E+09	-2.23916430084E-01	8.98434893116E-02	6.10867834814E-02	2.98204737725E-02	6.04343575050E-02	3.04726187769E-02	1.61413696697E-01	-1.10568362268E-01
