# Hz S RI R 50
! CMT, CMT808U, 21440046, 21.4.3/4
! Date: 4/9/2026 1:46:40 AM
! Data: Format (Calibration Info)
! Freq	S11:Re/Im(F2)	S41:Re/Im(F2)	S14:Re/Im(F2)	S44:Re/Im(F2)
1.70000000000E+09	-1.18013570059E-01	9.69097845437E-02	-7.04085299022E-02	2.24637562554E-02	-7.03843703233E-02	2.15443179651E-02	-4.36686141423E-02	1.57116065302E-01
1.70050000000E+09	-1.15294305676E-01	9.67754775934E-02	-6.99209523951E-02	2.39588942863E-02	-6.99138761162E-02	2.30807996903E-02	-4.00692396414E-02	1.61059936635E-01
1.70100000000E+09	-1.12587574823E-01	9.64721384765E-02	-6.94430706322E-02	2.54458750698E-02	-6.94442005073E-02	2.45336565477E-02	-3.64056541000E-02	1.64817633292E-01
1.70150000000E+09	-1.09906663102E-01	9.60510184482E-02	-6.88777073691E-02	2.69452143165E-02	-6.89198924807E-02	2.60452409376E-02	-3.25538406006E-02	1.68529130284E-01
1.70200000000E+09	-1.07256128490E-01	9.54822790802E-02	-6.83321937780E-02	2.84372892095E-02	-6.83652705088E-02	2.75061965644E-02	-2.86056992749E-02	1.72117546654E-01
1.70250000000E+09	-1.04680390198E-01	9.47743812911E-02	-6.77219150384E-02	2.98975417971E-02	-6.77929592005E-02	2.89850662183E-02	-2.45317014303E-02	1.75522147019E-01
1.70300000000E+09	-1.02143031161E-01	9.39204467314E-02	-6.70683790083E-02	3.13435939833E-02	-6.71677139443E-02	3.04462691088E-02	-2.03713676278E-02	1.78882536149E-01
1.70350000000E+09	-9.96731944016E-02	9.29567252906E-02	-6.64386064269E-02	3.28080662587E-02	-6.65208410598E-02	3.18687373521E-02	-1.60934146698E-02	1.82067924346E-01
1.70400000000E+09	-9.72359429199E-02	9.18243783974E-02	-6.57081990105E-02	3.42212950220E-02	-6.58681217123E-02	3.33073723885E-02	-1.17543122842E-02	1.85127974738E-01
1.70450000000E+09	-9.48939730460E-02	9.06713277258E-02	-6.49851675371E-02	3.56569346834E-02	-6.51306255564E-02	3.47342939763E-02	-7.26146208518E-03	1.88073384683E-01
1.70500000000E+09	-9.26499005644E-02	8.93137912468E-02	-6.42088702098E-02	3.70473123243E-02	-6.43897451179E-02	3.61589108989E-02	-2.69433299395E-03	1.90813491455E-01
1.70550000000E+09	-9.04549269923E-02	8.78465936641E-02	-6.34228892842E-02	3.84515305961E-02	-6.35918096885E-02	3.75438474309E-02	1.94650493539E-03	1.93464166071E-01
1.70600000000E+09	-8.83464709650E-02	8.63236221398E-02	-6.25851738534E-02	3.97800740026E-02	-6.27865093480E-02	3.89009646931E-02	6.66611042373E-03	1.95940491598E-01
1.70650000000E+09	-8.63475666351E-02	8.46812083175E-02	-6.17317293711E-02	4.11519032638E-02	-6.19247257798E-02	4.02787230966E-02	1.14763014275E-02	1.98277534948E-01
1.70700000000E+09	-8.44056118887E-02	8.29582329465E-02	-6.08205055149E-02	4.24979005601E-02	-6.10654095551E-02	4.16121061587E-02	1.63562657070E-02	2.00521066000E-01
1.70750000000E+09	-8.25492893180E-02	8.11223706588E-02	-5.98996147664E-02	4.38155791479E-02	-6.01487516781E-02	4.29312012586E-02	2.13485205934E-02	2.02543538405E-01
1.70800000000E+09	-8.08254784141E-02	7.92367364831E-02	-5.89468967033E-02	4.51034353304E-02	-5.92248454136E-02	4.42336155613E-02	2.63320262469E-02	2.04464269435E-01
1.70850000000E+09	-7.91798171854E-02	7.72413273017E-02	-5.79453127381E-02	4.63793132177E-02	-5.82409028969E-02	4.55204005236E-02	3.14393848842E-02	2.06155719317E-01
1.70900000000E+09	-7.76660737087E-02	7.51974579036E-02	-5.69254843625E-02	4.76574782606E-02	-5.72381448942E-02	4.67784925103E-02	3.66009813512E-02	2.07758188331E-01
1.70950000000E+09	-7.62530061879E-02	7.30911880422E-02	-5.58831889677E-02	4.88430674593E-02	-5.62283297322E-02	4.80155261613E-02	4.17605662899E-02	2.09177777075E-01
1.71000000000E+09	-7.49475373365E-02	7.09174189518E-02	-5.48164737854E-02	5.00703221324E-02	-5.51773280914E-02	4.92234959412E-02	4.69593895927E-02	2.10446586612E-01
1.71050000000E+09	-7.37231060963E-02	6.87000818880E-02	-5.37224308791E-02	5.12503590262E-02	-5.40797836411E-02	5.04022071818E-02	5.22367078550E-02	2.11539781163E-01
1.71100000000E+09	-7.25961320866E-02	6.64179754845E-02	-5.25751121716E-02	5.24076292116E-02	-5.29915367239E-02	5.15869218355E-02	5.75021551966E-02	2.12458316206E-01
1.71150000000E+09	-7.15934159708E-02	6.41060217281E-02	-5.14323369837E-02	5.35476196439E-02	-5.18364360512E-02	5.27173153199E-02	6.28605838866E-02	2.13217214144E-01
1.71200000000E+09	-7.07163789370E-02	6.17659055378E-02	-5.02492253039E-02	5.46649785171E-02	-5.06730733428E-02	5.38417196430E-02	6.82554655766E-02	2.13821560265E-01
1.71250000000E+09	-6.99513823497E-02	5.93792254181E-02	-4.90389493661E-02	5.57213319470E-02	-4.95076937408E-02	5.49260599736E-02	7.36246031602E-02	2.14301821938E-01
1.71300000000E+09	-6.92657985867E-02	5.69825168646E-02	-4.78247267995E-02	5.67739523024E-02	-4.82651278812E-02	5.59819412130E-02	7.89818051865E-02	2.14561079124E-01
1.71350000000E+09	-6.87366975666E-02	5.45657473809E-02	-4.65439989354E-02	5.77926188734E-02	-4.70557877889E-02	5.70122059267E-02	8.43937601819E-02	2.14706801823E-01
1.71400000000E+09	-6.82576432256E-02	5.21158696300E-02	-4.52708757306E-02	5.88142597232E-02	-4.57792195246E-02	5.80123639818E-02	8.97844587076E-02	2.14646313568E-01
1.71450000000E+09	-6.79074260714E-02	4.96514290680E-02	-4.39864276663E-02	5.97571617809E-02	-4.44941453389E-02	5.89837417586E-02	9.51922836821E-02	2.14386025056E-01
1.71500000000E+09	-6.76743166860E-02	4.72283581560E-02	-4.26471224646E-02	6.06875484066E-02	-4.31997977344E-02	5.99486726867E-02	1.00612923112E-01	2.14056925591E-01
1.71550000000E+09	-6.75750434823E-02	4.47423133625E-02	-4.12987363866E-02	6.15999083183E-02	-4.18705382940E-02	6.08421258862E-02	1.05973456885E-01	2.13491547286E-01
1.71600000000E+09	-6.75002585413E-02	4.22775995649E-02	-3.99546774273E-02	6.24775977086E-02	-4.05319829502E-02	6.17389831134E-02	1.11389051304E-01	2.12771257020E-01
1.71650000000E+09	-6.75981890607E-02	3.98165111171E-02	-3.85473056641E-02	6.33130673802E-02	-3.91701608536E-02	6.25978899297E-02	1.16691933906E-01	2.11866673894E-01
1.71700000000E+09	-6.77869551868E-02	3.73793766103E-02	-3.71693939788E-02	6.41113866598E-02	-3.77608035736E-02	6.34079906171E-02	1.22040685665E-01	2.10818723419E-01
1.71750000000E+09	-6.80418338998E-02	3.49250841965E-02	-3.57507791096E-02	6.48871288667E-02	-3.63844588960E-02	6.42049513365E-02	1.27345678164E-01	2.09611590599E-01
1.71800000000E+09	-6.84351809923E-02	3.25079427578E-02	-3.43268279265E-02	6.56487081646E-02	-3.49508230890E-02	6.49735521138E-02	1.32571180270E-01	2.08238300456E-01
1.71850000000E+09	-6.89057143788E-02	3.00809509425E-02	-3.28762371756E-02	6.63279051348E-02	-3.35224992692E-02	6.56779597664E-02	1.37767487688E-01	2.06645554087E-01
1.71900000000E+09	-6.94516156512E-02	2.77233285991E-02	-3.13839254299E-02	6.70012496382E-02	-3.20566474726E-02	6.63576739001E-02	1.42977551531E-01	2.04965338262E-01
1.71950000000E+09	-7.00992575476E-02	2.53547690704E-02	-2.99344306928E-02	6.76603012569E-02	-3.06228512547E-02	6.70291513074E-02	1.48055316433E-01	2.03130048059E-01
1.72000000000E+09	-7.08633318800E-02	2.29992593575E-02	-2.84401159679E-02	6.82524877552E-02	-2.91380536934E-02	6.76409748216E-02	1.53163674630E-01	2.01190173761E-01
1.72050000000E+09	-7.16992943756E-02	2.07031556416E-02	-2.69247244066E-02	6.88336872064E-02	-2.76429447341E-02	6.82293448723E-02	1.58123203031E-01	1.99004117048E-01
1.72100000000E+09	-7.26255349232E-02	1.84280843459E-02	-2.54276268301E-02	6.93634942685E-02	-2.61378638004E-02	6.87868428095E-02	1.63096352739E-01	1.96679265289E-01
1.72150000000E+09	-7.36542133649E-02	1.61870313078E-02	-2.38877589842E-02	6.98784364339E-02	-2.46382777866E-02	6.93205715673E-02	1.67915855178E-01	1.94189443144E-01
1.72200000000E+09	-7.47435737730E-02	1.39955370220E-02	-2.23466355744E-02	7.03518223263E-02	-2.31002240817E-02	6.98042165316E-02	1.72742292530E-01	1.91562624880E-01
1.72250000000E+09	-7.59513050885E-02	1.18300020369E-02	-2.08276546571E-02	7.07733620581E-02	-2.15738236995E-02	7.02482917924E-02	1.77454220071E-01	1.88813799511E-01
1.72300000000E+09	-7.72420045794E-02	9.71529911799E-03	-1.92720828799E-02	7.11896363604E-02	-2.00345621883E-02	7.06722471775E-02	1.82085117318E-01	1.85919680515E-01
1.72350000000E+09	-7.85936924679E-02	7.62003977825E-03	-1.77082198333E-02	7.15369498383E-02	-1.84839616741E-02	7.10445169084E-02	1.86635272561E-01	1.82814988444E-01
1.72400000000E+09	-8.00355316483E-02	5.60486690480E-03	-1.61602962444E-02	7.18674784922E-02	-1.69344830486E-02	7.13859132888E-02	1.91071969838E-01	1.79633632021E-01
1.72450000000E+09	-8.15445314486E-02	3.60312048072E-03	-1.45890161467E-02	7.21882708352E-02	-1.53895317886E-02	7.16991965576E-02	1.95471246967E-01	1.76331447060E-01
1.72500000000E+09	-8.31269984569E-02	1.68631074588E-03	-1.30140918917E-02	7.24172891874E-02	-1.38125282562E-02	7.19862451366E-02	1.99684000864E-01	1.72884544709E-01
1.72550000000E+09	-8.48088862305E-02	-2.09354344431E-04	-1.14495962058E-02	7.26480383097E-02	-1.22594113989E-02	7.22447750287E-02	2.03875237331E-01	1.69264662352E-01
1.72600000000E+09	-8.65588008485E-02	-2.03515537276E-03	-9.84593449383E-03	7.28424272786E-02	-1.06740088297E-02	7.24282091933E-02	2.07909506335E-01	1.65476750860E-01
1.72650000000E+09	-8.83928860962E-02	-3.79720083582E-03	-8.24122074697E-03	7.30220183288E-02	-9.08839540688E-03	7.26334661805E-02	2.11839531929E-01	1.61663521235E-01
1.72700000000E+09	-9.02709560666E-02	-5.52194659497E-03	-6.69868702723E-03	7.31128102849E-02	-7.52032146538E-03	7.27473845961E-02	2.15658305691E-01	1.57719634428E-01
1.72750000000E+09	-9.22164366007E-02	-7.16694079109E-03	-5.08966256306E-03	7.31948502677E-02	-5.94727099178E-03	7.28409306012E-02	2.19361170928E-01	1.53630863838E-01
1.72800000000E+09	-9.42807132778E-02	-8.75911662808E-03	-3.52609021812E-03	7.32447279078E-02	-4.37440142739E-03	7.29028643872E-02	2.22893932060E-01	1.49416980239E-01
1.72850000000E+09	-9.63654451155E-02	-1.02696268219E-02	-1.95689181594E-03	7.32620605982E-02	-2.78989338303E-03	7.29232612588E-02	2.26428073926E-01	1.45072190109E-01
1.72900000000E+09	-9.85579656929E-02	-1.16951436451E-02	-3.66079549933E-04	7.32421245549E-02	-1.22803547413E-03	7.29167251313E-02	2.29686511683E-01	1.40629946173E-01
1.72950000000E+09	-1.00789220885E-01	-1.30483090643E-02	1.20974034994E-03	7.31939653015E-02	3.28446499019E-04	7.28981541179E-02	2.32860291288E-01	1.36143014450E-01
1.73000000000E+09	-1.03094316920E-01	-1.43496079259E-02	2.79767719739E-03	7.30886114717E-02	1.90611181525E-03	7.28235843279E-02	2.35927427329E-01	1.31502733434E-01
1.73050000000E+09	-1.05464192662E-01	-1.55988614666E-02	4.36662314079E-03	7.29531435826E-02	3.47229204259E-03	7.27188406548E-02	2.38844525265E-01	1.26748102440E-01
1.73100000000E+09	-1.07854478310E-01	-1.67413271213E-02	5.92026304927E-03	7.27806637965E-02	5.02823912587E-03	7.25673170113E-02	2.41593398917E-01	1.21974698009E-01
1.73150000000E+09	-1.10371655334E-01	-1.77993351978E-02	7.48634131345E-03	7.25958589878E-02	6.58060031314E-03	7.23892945123E-02	2.44185445367E-01	1.17030964900E-01
1.73200000000E+09	-1.12894953398E-01	-1.87722834351E-02	9.03229076031E-03	7.23831404481E-02	8.14441158820E-03	7.21800486170E-02	2.46663946393E-01	1.12061710095E-01
1.73250000000E+09	-1.15480013420E-01	-1.96337493059E-02	1.05796951689E-02	7.20898482967E-02	9.68832268532E-03	7.19393687995E-02	2.49007642224E-01	1.06987934270E-01
1.73300000000E+09	-1.18078999206E-01	-2.04729244801E-02	1.21197286884E-02	7.17929561334E-02	1.12018017820E-02	7.16566304679E-02	2.51154942291E-01	1.01864285160E-01
1.73350000000E+09	-1.20788110715E-01	-2.11344418497E-02	1.36375156156E-02	7.14738430551E-02	1.27299649588E-02	7.13456254141E-02	2.53165835107E-01	9.66155333468E-02
1.73400000000E+09	-1.23510832736E-01	-2.17493790401E-02	1.51565975979E-02	7.11016684644E-02	1.42425641422E-02	7.10062523955E-02	2.54998739415E-01	9.13547192665E-02
1.73450000000E+09	-1.26305559564E-01	-2.22440022910E-02	1.66469785225E-02	7.07332601184E-02	1.57572054456E-02	7.06101913164E-02	2.56684724671E-01	8.59676126838E-02
1.73500000000E+09	-1.29108464656E-01	-2.26961513456E-02	1.81444577888E-02	7.02814835497E-02	1.72460911444E-02	7.02097762509E-02	2.58192257528E-01	8.05514473554E-02
1.73550000000E+09	-1.31933126469E-01	-2.29688782150E-02	1.96540364798E-02	6.98207839447E-02	1.87250990385E-02	6.97937880797E-02	2.59566718587E-01	7.51293052440E-02
1.73600000000E+09	-1.34820213072E-01	-2.31630166402E-02	2.11252721787E-02	6.93348728962E-02	2.02047871185E-02	6.93178193293E-02	2.60751919934E-01	6.96114459450E-02
1.73650000000E+09	-1.37714377265E-01	-2.32476472247E-02	2.25544462013E-02	6.87998284915E-02	2.16487415415E-02	6.87854944056E-02	2.61793945619E-01	6.40965004013E-02
1.73700000000E+09	-1.40649178586E-01	-2.32334310359E-02	2.40025402839E-02	6.82696777224E-02	2.30791051825E-02	6.82641196189E-02	2.62647264378E-01	5.85180280202E-02
1.73750000000E+09	-1.43606731209E-01	-2.30616218122E-02	2.54169497089E-02	6.76748573382E-02	2.45186466541E-02	6.77148279226E-02	2.63324024740E-01	5.28852375424E-02
1.73800000000E+09	-1.46572156033E-01	-2.28691392375E-02	2.68331204265E-02	6.70885172696E-02	2.59484179800E-02	6.71090456479E-02	2.63818378591E-01	4.72763887530E-02
1.73850000000E+09	-1.49534464847E-01	-2.25008739605E-02	2.82272580263E-02	6.64346547332E-02	2.73291634604E-02	6.64824859980E-02	2.64157416467E-01	4.16174141652E-02
1.73900000000E+09	-1.52525129246E-01	-2.20095370794E-02	2.96212286534E-02	6.57654939571E-02	2.87147384426E-02	6.58251729371E-02	2.64311428156E-01	3.59086168901E-02
1.73950000000E+09	-1.55519656443E-01	-2.14095502231E-02	3.09989665153E-02	6.50626729566E-02	3.00931230573E-02	6.51479173206E-02	2.64315427089E-01	3.02518992237E-02
1.74000000000E+09	-1.58499761261E-01	-2.07050335028E-02	3.23406840088E-02	6.43410811257E-02	3.14265943341E-02	6.44476624138E-02	2.64114084211E-01	2.45333592766E-02
1.74050000000E+09	-1.61481416697E-01	-1.98843433738E-02	3.36575754737E-02	6.35777285111E-02	3.27488893763E-02	6.37139923126E-02	2.63745095635E-01	1.88920643383E-02
1.74100000000E+09	-1.64476725237E-01	-1.89309192272E-02	3.49666428134E-02	6.27988909487E-02	3.40702854596E-02	6.29547425092E-02	2.63214486826E-01	1.31561417050E-02
1.74150000000E+09	-1.67401928511E-01	-1.78657702666E-02	3.62431653839E-02	6.20044798091E-02	3.53472725073E-02	6.21744646817E-02	2.62437502814E-01	7.53643655369E-03
1.74200000000E+09	-1.70363171904E-01	-1.66706335553E-02	3.75249811378E-02	6.11682478814E-02	3.66348396576E-02	6.13300181957E-02	2.61570107604E-01	1.79492474566E-03
1.74250000000E+09	-1.73261664782E-01	-1.53212503275E-02	3.87606524867E-02	6.03056427886E-02	3.78827397016E-02	6.05210031181E-02	2.60467214099E-01	-3.84889761690E-03
1.74300000000E+09	-1.76142143401E-01	-1.38886492013E-02	3.99961171485E-02	5.94253569893E-02	3.90998954235E-02	5.96486206570E-02	2.59220829608E-01	-9.46355892316E-03
1.74350000000E+09	-1.78984901960E-01	-1.23272263671E-02	4.11953503676E-02	5.85208927483E-02	4.03249076352E-02	5.87638746802E-02	2.57793131057E-01	-1.50337951971E-02
1.74400000000E+09	-1.81790658610E-01	-1.06057637590E-02	4.23946725747E-02	5.75677492085E-02	4.14910609317E-02	5.78671139293E-02	2.56153176314E-01	-2.05590724458E-02
1.74450000000E+09	-1.84558977912E-01	-8.76964567957E-03	4.35321223578E-02	5.66432959624E-02	4.26579032327E-02	5.69102067408E-02	2.54384015023E-01	-2.60489966653E-02
1.74500000000E+09	-1.87268229499E-01	-6.82578876201E-03	4.46776257008E-02	5.56457275534E-02	4.38066801008E-02	5.59481851222E-02	2.52419905707E-01	-3.15405406806E-02
1.74550000000E+09	-1.89901377297E-01	-4.77089903200E-03	4.57795444440E-02	5.46465615537E-02	4.49218934276E-02	5.49698525604E-02	2.50277218014E-01	-3.69129282792E-02
1.74600000000E+09	-1.92484777089E-01	-2.58699744257E-03	4.68646456750E-02	5.36383362422E-02	4.60092759092E-02	5.39884033649E-02	2.48010191895E-01	-4.22453737937E-02
1.74650000000E+09	-1.94976989014E-01	-2.50287693150E-04	4.79415368052E-02	5.26047159067E-02	4.71001014910E-02	5.29380794250E-02	2.45496159403E-01	-4.75658318688E-02
1.74700000000E+09	-1.97388669586E-01	2.11598953119E-03	4.89540531833E-02	5.15348571540E-02	4.81365226196E-02	5.19012803215E-02	2.42851318506E-01	-5.27687935064E-02
1.74750000000E+09	-1.99768762307E-01	4.67315203465E-03	4.99848291521E-02	5.04705530452E-02	4.91622726018E-02	5.08441397637E-02	2.40012782505E-01	-5.79024048299E-02
1.74800000000E+09	-2.02018917798E-01	7.35087890658E-03	5.09895713020E-02	4.93615535864E-02	5.01710835701E-02	4.97670047706E-02	2.37042487675E-01	-6.29748001960E-02
1.74850000000E+09	-2.04213126999E-01	1.01013842311E-02	5.19532922938E-02	4.82582542592E-02	5.11257127113E-02	4.86895024164E-02	2.33899381944E-01	-6.78964004714E-02
1.74900000000E+09	-2.06249813253E-01	1.29414372182E-02	5.28804724312E-02	4.71251589931E-02	5.20721158887E-02	4.75633985294E-02	2.30588269868E-01	-7.27737751172E-02
1.74950000000E+09	-2.08248901872E-01	1.59622522341E-02	5.38118876589E-02	4.59862232488E-02	5.29856391735E-02	4.64444635199E-02	2.27143487253E-01	-7.75428346230E-02
1.75000000000E+09	-2.10085053115E-01	1.90104750786E-02	5.47032658633E-02	4.48316771015E-02	5.38853317087E-02	4.53016286185E-02	2.23493237247E-01	-8.21965362762E-02
1.75050000000E+09	-2.11764274118E-01	2.21835898444E-02	5.55580872922E-02	4.36600700688E-02	5.47730863828E-02	4.41172423814E-02	2.19728583842E-01	-8.68422750849E-02
1.75100000000E+09	-2.13374086467E-01	2.54310626002E-02	5.63805840481E-02	4.24708369557E-02	5.56148868107E-02	4.29627358189E-02	2.15775324293E-01	-9.12529647080E-02
1.75150000000E+09	-2.14837631733E-01	2.88416781405E-02	5.72268397822E-02	4.12793849558E-02	5.64350896035E-02	4.17937368855E-02	2.11733868723E-01	-9.55893489713E-02
1.75200000000E+09	-2.16130218816E-01	3.22419877487E-02	5.79739629441E-02	4.00661345604E-02	5.72416640183E-02	4.05691625002E-02	2.07496623073E-01	-9.97873841255E-02
1.75250000000E+09	-2.17286273914E-01	3.57396537420E-02	5.87498589266E-02	3.88417655333E-02	5.79817014325E-02	3.93803028287E-02	2.03158581368E-01	-1.03854346794E-01
1.75300000000E+09	-2.18333350303E-01	3.93241334541E-02	5.94940647650E-02	3.76025547195E-02	5.87445295761E-02	3.81709847725E-02	1.98635216828E-01	-1.07812258332E-01
1.75350000000E+09	-2.19162898911E-01	4.29642098467E-02	6.01899231369E-02	3.63566216291E-02	5.94579763819E-02	3.69414837339E-02	1.93995328314E-01	-1.11639672388E-01
1.75400000000E+09	-2.19894847193E-01	4.66210931215E-02	6.08661231057E-02	3.51043254360E-02	6.01390258556E-02	3.56801667226E-02	1.89245297016E-01	-1.15361792249E-01
1.75450000000E+09	-2.20439351496E-01	5.03761782298E-02	6.15398137676E-02	3.38345001986E-02	6.08291720043E-02	3.44395093307E-02	1.84390284235E-01	-1.18859158785E-01
1.75500000000E+09	-2.20750581293E-01	5.41113455380E-02	6.21587098792E-02	3.25677490301E-02	6.14688572292E-02	3.31867633836E-02	1.79379830943E-01	-1.22275270466E-01
1.75550000000E+09	-2.20965937534E-01	5.79103099663E-02	6.27623230352E-02	3.13003003086E-02	6.20872355322E-02	3.19221578738E-02	1.74246805107E-01	-1.25489997750E-01
1.75600000000E+09	-2.21019740213E-01	6.17051101516E-02	6.33786225557E-02	2.99780273656E-02	6.26792737356E-02	3.06399878534E-02	1.68984646913E-01	-1.28562836663E-01
1.75650000000E+09	-2.20827025322E-01	6.55250859470E-02	6.39106928116E-02	2.86631817880E-02	6.32671557690E-02	2.93596614192E-02	1.63672123636E-01	-1.31429692522E-01
1.75700000000E+09	-2.20507591532E-01	6.93139816643E-02	6.44363645277E-02	2.73855481948E-02	6.37907019493E-02	2.80635619352E-02	1.58243354189E-01	-1.34219305601E-01
1.75750000000E+09	-2.20001048740E-01	7.30881100502E-02	6.49467902013E-02	2.60965452830E-02	6.43069077776E-02	2.67650549593E-02	1.52664031898E-01	-1.36739880085E-01
1.75800000000E+09	-2.19308293704E-01	7.68626959548E-02	6.54601068692E-02	2.47515797028E-02	6.48016553929E-02	2.54653151165E-02	1.47060876990E-01	-1.39175456962E-01
1.75850000000E+09	-2.18458392133E-01	8.06086453809E-02	6.59048234947E-02	2.34249122517E-02	6.53082440387E-02	2.41687948528E-02	1.41401903520E-01	-1.41391676222E-01
1.75900000000E+09	-2.17413815031E-01	8.42832022809E-02	6.63250765414E-02	2.21043654736E-02	6.57508298635E-02	2.28462280235E-02	1.35575450003E-01	-1.43432888405E-01
