# Hz S RI R 50
! CMT, CMT808U, 21440046, 21.4.3/4
! Date: 4/9/2026 1:42:30 AM
! Data: Format (Calibration Info)
! Freq	S11:Re/Im(F2)	S41:Re/Im(F2)	S14:Re/Im(F2)	S44:Re/Im(F2)
1.70000000000E+09	-1.19614326981E-01	9.71816954940E-02	-6.84888367465E-02	3.08568502853E-02	-6.85555170589E-02	2.99349753676E-02	-4.28942103171E-02	1.69355387581E-01
1.70050000000E+09	-1.16845054270E-01	9.71156371712E-02	-6.78195095003E-02	3.22934227355E-02	-6.79194500406E-02	3.13902820251E-02	-3.90783049824E-02	1.72974490029E-01
1.70100000000E+09	-1.14115163625E-01	9.68814503570E-02	-6.71264746110E-02	3.37067055159E-02	-6.72638471887E-02	3.28076163370E-02	-3.51388183500E-02	1.76448550784E-01
1.70150000000E+09	-1.11393564815E-01	9.65346725819E-02	-6.63996763942E-02	3.51293950589E-02	-6.65333430790E-02	3.42441869280E-02	-3.11272623541E-02	1.79795815014E-01
1.70200000000E+09	-1.08744701014E-01	9.60461810869E-02	-6.56399570854E-02	3.65168640887E-02	-6.57973580445E-02	3.56277116614E-02	-2.69643613329E-02	1.83064188391E-01
1.70250000000E+09	-1.06104210859E-01	9.53968389792E-02	-6.48834299256E-02	3.79076268048E-02	-6.50381984817E-02	3.70168917566E-02	-2.27490897376E-02	1.86205641141E-01
1.70300000000E+09	-1.03542495235E-01	9.46060370434E-02	-6.40610211593E-02	3.92828211994E-02	-6.42678436679E-02	3.83928460069E-02	-1.84213607167E-02	1.89209086881E-01
1.70350000000E+09	-1.01014526664E-01	9.37111545480E-02	-6.32040432945E-02	4.06391214331E-02	-6.34281613372E-02	3.97417695677E-02	-1.39819128108E-02	1.92060539603E-01
1.70400000000E+09	-9.85278724098E-02	9.26850606222E-02	-6.23357176848E-02	4.19855283931E-02	-6.25610090350E-02	4.11011159478E-02	-9.51091672189E-03	1.94768181211E-01
1.70450000000E+09	-9.61446159783E-02	9.15270063920E-02	-6.14317806778E-02	4.33171164412E-02	-6.17012778066E-02	4.24194010990E-02	-4.89519953000E-03	1.97363276676E-01
1.70500000000E+09	-9.38556764536E-02	9.02330361382E-02	-6.05125966747E-02	4.45921224250E-02	-6.07605853369E-02	4.37324974815E-02	-2.35291812400E-04	1.99744551351E-01
1.70550000000E+09	-9.15705686465E-02	8.88369987519E-02	-5.95382504735E-02	4.58790878513E-02	-5.98564248292E-02	4.50130957443E-02	4.44825511094E-03	2.02080812398E-01
1.70600000000E+09	-8.94266813166E-02	8.73606251253E-02	-5.85578772923E-02	4.71375222481E-02	-5.88802959799E-02	4.62735899840E-02	9.26467726685E-03	2.04203302690E-01
1.70650000000E+09	-8.73555612593E-02	8.57475993948E-02	-5.75594060116E-02	4.83842543559E-02	-5.78548010146E-02	4.75445876504E-02	1.41372001366E-02	2.06193220278E-01
1.70700000000E+09	-8.53603410241E-02	8.40551457227E-02	-5.65205596650E-02	4.96243430584E-02	-5.68567375847E-02	4.87631669808E-02	1.90395877579E-02	2.08043214708E-01
1.70750000000E+09	-8.34495115648E-02	8.22832361703E-02	-5.53984202445E-02	5.08170950440E-02	-5.57957276707E-02	4.99744085573E-02	2.40504179906E-02	2.09736137794E-01
1.70800000000E+09	-8.16815491518E-02	8.04063481835E-02	-5.43415986181E-02	5.19897841376E-02	-5.47239712955E-02	5.11633759902E-02	2.90136906337E-02	2.11301721786E-01
1.70850000000E+09	-7.99875984902E-02	7.84689368468E-02	-5.32079735603E-02	5.31628054058E-02	-5.36078928063E-02	5.23409260139E-02	3.41077223687E-02	2.12678460487E-01
1.70900000000E+09	-7.83864083827E-02	7.64550563737E-02	-5.20937876994E-02	5.42884945008E-02	-5.24751540592E-02	5.34650022565E-02	3.92547778144E-02	2.13872622383E-01
1.70950000000E+09	-7.68841691396E-02	7.43600603049E-02	-5.08897347080E-02	5.54038552026E-02	-5.13509845553E-02	5.45897414275E-02	4.43675809259E-02	2.15004667743E-01
1.71000000000E+09	-7.55252848176E-02	7.22135397759E-02	-4.97040020776E-02	5.64757520546E-02	-5.01579667472E-02	5.56702390680E-02	4.94877567044E-02	2.15948374650E-01
1.71050000000E+09	-7.42463615127E-02	7.00309513601E-02	-4.84783697062E-02	5.75327043105E-02	-4.89465402252E-02	5.67318116021E-02	5.47031035145E-02	2.16638031928E-01
1.71100000000E+09	-7.30891039708E-02	6.77585341150E-02	-4.72316925034E-02	5.85824022975E-02	-4.77153175810E-02	5.77754837784E-02	5.99180134561E-02	2.17292641749E-01
1.71150000000E+09	-7.20228045789E-02	6.54497089033E-02	-4.59888568250E-02	5.95630907907E-02	-4.64683798639E-02	5.87990561768E-02	6.51177730573E-02	2.17706626426E-01
1.71200000000E+09	-7.10910513298E-02	6.31249710614E-02	-4.46644021984E-02	6.05398368701E-02	-4.51905875167E-02	5.97862824714E-02	7.04078607841E-02	2.18033122432E-01
1.71250000000E+09	-7.02606097292E-02	6.07727245267E-02	-4.33615659341E-02	6.14918539156E-02	-4.39167084173E-02	6.07285680207E-02	7.55941733008E-02	2.18202481642E-01
1.71300000000E+09	-6.95071497156E-02	5.83612706283E-02	-4.20216662309E-02	6.24266634034E-02	-4.25847842080E-02	6.16759794198E-02	8.08308009292E-02	2.18143789898E-01
1.71350000000E+09	-6.89110191507E-02	5.59528114224E-02	-4.06921188326E-02	6.33081099579E-02	-4.12626031120E-02	6.25739788824E-02	8.60916042233E-02	2.17976763314E-01
1.71400000000E+09	-6.83860828941E-02	5.34968570472E-02	-3.93167269011E-02	6.41556430086E-02	-3.98900691152E-02	6.34459889318E-02	9.13095314055E-02	2.17646717702E-01
1.71450000000E+09	-6.79994263782E-02	5.10468901967E-02	-3.79231376946E-02	6.49873136238E-02	-3.85166837585E-02	6.42882979830E-02	9.65525963301E-02	2.17139872272E-01
1.71500000000E+09	-6.76973638056E-02	4.85906261309E-02	-3.64843318573E-02	6.57773364881E-02	-3.71230573577E-02	6.51192134854E-02	1.01758905004E-01	2.16510279732E-01
1.71550000000E+09	-6.75201031423E-02	4.61307398720E-02	-3.50833878858E-02	6.65679678757E-02	-3.57118765138E-02	6.58793420968E-02	1.06922412738E-01	2.15724603475E-01
1.71600000000E+09	-6.74195812906E-02	4.36715009266E-02	-3.36300071702E-02	6.73012320853E-02	-3.42800412071E-02	6.66317624577E-02	1.12085674738E-01	2.14721296560E-01
1.71650000000E+09	-6.74593124453E-02	4.11832532722E-02	-3.21632494042E-02	6.80319173393E-02	-3.28281718037E-02	6.73437219602E-02	1.17196046744E-01	2.13609960188E-01
1.71700000000E+09	-6.75749238317E-02	3.87619180692E-02	-3.06920356723E-02	6.86659162510E-02	-3.13830211736E-02	6.80488124103E-02	1.22259767054E-01	2.12346147257E-01
1.71750000000E+09	-6.77709169807E-02	3.62753246874E-02	-2.92028760818E-02	6.93215054291E-02	-2.98843305866E-02	6.86953644080E-02	1.27306100995E-01	2.10924849666E-01
1.71800000000E+09	-6.80879078161E-02	3.38715525700E-02	-2.77040122750E-02	6.99336320058E-02	-2.84202068284E-02	6.93022366936E-02	1.32279777008E-01	2.09347814829E-01
1.71850000000E+09	-6.85180825042E-02	3.14265951019E-02	-2.61760085132E-02	7.04998304581E-02	-2.69064706288E-02	6.99207151950E-02	1.37216306371E-01	2.07625967552E-01
1.71900000000E+09	-6.90389606673E-02	2.90421361054E-02	-2.46670203412E-02	7.10466810765E-02	-2.53808597628E-02	7.04713335916E-02	1.42105109595E-01	2.05771447306E-01
1.71950000000E+09	-6.96601241515E-02	2.66591707393E-02	-2.30899236959E-02	7.15491924557E-02	-2.38361327975E-02	7.09736980713E-02	1.46890975222E-01	2.03708931818E-01
1.72000000000E+09	-7.03465586975E-02	2.42983558373E-02	-2.15801448018E-02	7.20133214812E-02	-2.23105787835E-02	7.14673186450E-02	1.51695241446E-01	2.01641880504E-01
1.72050000000E+09	-7.11258656110E-02	2.19832450313E-02	-1.99816938972E-02	7.24422303337E-02	-2.07750039576E-02	7.19577956982E-02	1.56393565666E-01	1.99299588390E-01
1.72100000000E+09	-7.20039757174E-02	1.96788062945E-02	-1.84326397556E-02	7.28674597328E-02	-1.91902917537E-02	7.23487181674E-02	1.60986137666E-01	1.96846834398E-01
1.72150000000E+09	-7.30009017689E-02	1.74172874367E-02	-1.68443665259E-02	7.32123883280E-02	-1.76411489011E-02	7.27248956855E-02	1.65504061981E-01	1.94257164439E-01
1.72200000000E+09	-7.40372102154E-02	1.52192305145E-02	-1.52573645613E-02	7.35585153664E-02	-1.60580098369E-02	7.30962769476E-02	1.70009247889E-01	1.91509548355E-01
1.72250000000E+09	-7.51514224480E-02	1.30288818157E-02	-1.36637108346E-02	7.38471561791E-02	-1.44681419465E-02	7.34130563857E-02	1.74362023768E-01	1.88731468395E-01
1.72300000000E+09	-7.64248076397E-02	1.08438220395E-02	-1.20781591223E-02	7.41139776217E-02	-1.28877547642E-02	7.36870291653E-02	1.78699333133E-01	1.85766254181E-01
1.72350000000E+09	-7.77369581562E-02	8.74664261437E-03	-1.04643492953E-02	7.43487935022E-02	-1.12970709824E-02	7.39326795539E-02	1.82877718132E-01	1.82629793970E-01
1.72400000000E+09	-7.91235454745E-02	6.68957064198E-03	-8.84139989100E-03	7.45319767811E-02	-9.67837461465E-03	7.41302103176E-02	1.86957723185E-01	1.79384603346E-01
1.72450000000E+09	-8.05802685010E-02	4.63849852445E-03	-7.25520572357E-03	7.46938596119E-02	-8.10984421624E-03	7.42952506711E-02	1.90940667531E-01	1.76054289213E-01
1.72500000000E+09	-8.21323767518E-02	2.69206070696E-03	-5.62356796823E-03	7.48147751913E-02	-6.48217242413E-03	7.44463760061E-02	1.94871750974E-01	1.72617217157E-01
1.72550000000E+09	-8.37693808940E-02	7.73207548624E-04	-4.01036795887E-03	7.48928832383E-02	-4.86759721021E-03	7.45529031999E-02	1.98642415002E-01	1.69019857342E-01
1.72600000000E+09	-8.55020579276E-02	-1.08012327123E-03	-2.39714914797E-03	7.49446390418E-02	-3.23110339294E-03	7.46335644709E-02	2.02324532125E-01	1.65274436672E-01
1.72650000000E+09	-8.72695406095E-02	-2.87823524400E-03	-7.89784251254E-04	7.49529897871E-02	-1.64934343457E-03	7.46487339950E-02	2.05901468017E-01	1.61520612675E-01
1.72700000000E+09	-8.91145105395E-02	-4.65750031084E-03	8.35722128303E-04	7.49329136447E-02	-3.21628304268E-05	7.46573303043E-02	2.09355819393E-01	1.57585571257E-01
1.72750000000E+09	-9.10361782775E-02	-6.33355953326E-03	2.46191358180E-03	7.48900338695E-02	1.56905710175E-03	7.46192118254E-02	2.12679516578E-01	1.53615175995E-01
1.72800000000E+09	-9.30485472674E-02	-7.97389792969E-03	4.07645583809E-03	7.47889925519E-02	3.15968300598E-03	7.45432312602E-02	2.15884783618E-01	1.49441120889E-01
1.72850000000E+09	-9.51135302730E-02	-9.52089750109E-03	5.68652043210E-03	7.46808835106E-02	4.78220197123E-03	7.44258461614E-02	2.19004445445E-01	1.45230467677E-01
1.72900000000E+09	-9.72744724384E-02	-1.10072870937E-02	7.29248123011E-03	7.44969672923E-02	6.39483382627E-03	7.43063352100E-02	2.21940568121E-01	1.40932699820E-01
1.72950000000E+09	-9.94911756570E-02	-1.24176129464E-02	8.89639681676E-03	7.43047481574E-02	7.98437367909E-03	7.41144001412E-02	2.24759939895E-01	1.36571073301E-01
1.73000000000E+09	-1.01756020117E-01	-1.37672316942E-02	1.04847453385E-02	7.40595792781E-02	9.57538611317E-03	7.39019220355E-02	2.27447532899E-01	1.32092043017E-01
1.73050000000E+09	-1.04091540785E-01	-1.50463357720E-02	1.20702544367E-02	7.38026629421E-02	1.11539361133E-02	7.36489062231E-02	2.29964129105E-01	1.27572097395E-01
1.73100000000E+09	-1.06467057393E-01	-1.62557525693E-02	1.36436776688E-02	7.34907110524E-02	1.27465304073E-02	7.33598260853E-02	2.32400206082E-01	1.22927968888E-01
1.73150000000E+09	-1.08920643222E-01	-1.73542249470E-02	1.52249441986E-02	7.31573478233E-02	1.43093610561E-02	7.30326431018E-02	2.34639428279E-01	1.18215801578E-01
1.73200000000E+09	-1.11421052139E-01	-1.83893386659E-02	1.67979328352E-02	7.27891779856E-02	1.58844110667E-02	7.26785443424E-02	2.36766020380E-01	1.13450083360E-01
1.73250000000E+09	-1.14020192989E-01	-1.93157620895E-02	1.83444974117E-02	7.23799426746E-02	1.74272219820E-02	7.23053912073E-02	2.38782844313E-01	1.08611736490E-01
1.73300000000E+09	-1.16606474994E-01	-2.01896081536E-02	1.98924693664E-02	7.19438548678E-02	1.89756040057E-02	7.19051452201E-02	2.40624542973E-01	1.03781573959E-01
1.73350000000E+09	-1.19289863797E-01	-2.09247467926E-02	2.14369878289E-02	7.14756616549E-02	2.05053396989E-02	7.14292344208E-02	2.42294675246E-01	9.87772242033E-02
1.73400000000E+09	-1.22000391677E-01	-2.15728076422E-02	2.29624916876E-02	7.09556647892E-02	2.20411789004E-02	7.09382545864E-02	2.43777430755E-01	9.37800445667E-02
1.73450000000E+09	-1.24783912291E-01	-2.21399434628E-02	2.44779313440E-02	7.04105342644E-02	2.35434850834E-02	7.04246032658E-02	2.45163029100E-01	8.87167441914E-02
1.73500000000E+09	-1.27583647030E-01	-2.26393871172E-02	2.59724052293E-02	6.98474574704E-02	2.50565047988E-02	6.98392682459E-02	2.46391993236E-01	8.36197686905E-02
1.73550000000E+09	-1.30402758761E-01	-2.29960359013E-02	2.74455392630E-02	6.92171917778E-02	2.65251356370E-02	6.92608148919E-02	2.47461739037E-01	7.85099619013E-02
1.73600000000E+09	-1.33237678121E-01	-2.32513366372E-02	2.89101250802E-02	6.85767201232E-02	2.79879182757E-02	6.86501544311E-02	2.48386046724E-01	7.33658797632E-02
1.73650000000E+09	-1.36155875795E-01	-2.34042847268E-02	3.03523596831E-02	6.79319163803E-02	2.94483527526E-02	6.80093911374E-02	2.49124903118E-01	6.82166864926E-02
1.73700000000E+09	-1.39064306171E-01	-2.34696882136E-02	3.18061728520E-02	6.72268018555E-02	3.08601666761E-02	6.73081325169E-02	2.49661113675E-01	6.29671664877E-02
1.73750000000E+09	-1.42018516764E-01	-2.33826235197E-02	3.32152904115E-02	6.65058064172E-02	3.22839388259E-02	6.66091879569E-02	2.50101894694E-01	5.77409816040E-02
1.73800000000E+09	-1.45005377132E-01	-2.32106024510E-02	3.46178290943E-02	6.57198857259E-02	3.37022616556E-02	6.58427623812E-02	2.50374363631E-01	5.25192328271E-02
1.73850000000E+09	-1.47953948472E-01	-2.29458703224E-02	3.60119542944E-02	6.49353503684E-02	3.50919086607E-02	6.50701028947E-02	2.50491793654E-01	4.72413309787E-02
1.73900000000E+09	-1.50952399605E-01	-2.25396489408E-02	3.73626365298E-02	6.41139493706E-02	3.64650401324E-02	6.42705942098E-02	2.50464240391E-01	4.20072182647E-02
1.73950000000E+09	-1.53978756123E-01	-2.20090281186E-02	3.86967353912E-02	6.32526165718E-02	3.78123112185E-02	6.34540836792E-02	2.50226423171E-01	3.67440504147E-02
1.74000000000E+09	-1.56940288858E-01	-2.13540925904E-02	4.00330425145E-02	6.23696363236E-02	3.91377716234E-02	6.25940179004E-02	2.49839414952E-01	3.15088025732E-02
1.74050000000E+09	-1.59959190356E-01	-2.06035367433E-02	4.13317244091E-02	6.14709411661E-02	4.04323276166E-02	6.16792185357E-02	2.49265593956E-01	2.62616928305E-02
1.74100000000E+09	-1.62951974082E-01	-1.97233676132E-02	4.26230455386E-02	6.05375958167E-02	4.17154619993E-02	6.07601872295E-02	2.48575175057E-01	2.10149725880E-02
1.74150000000E+09	-1.65938234103E-01	-1.87368352000E-02	4.38651784722E-02	5.95895014726E-02	4.29758232442E-02	5.98537574934E-02	2.47678292231E-01	1.58436227925E-02
1.74200000000E+09	-1.68955095075E-01	-1.76111238025E-02	4.51052068988E-02	5.85857172371E-02	4.42064239582E-02	5.88778233855E-02	2.46629790116E-01	1.06339216190E-02
1.74250000000E+09	-1.71899930329E-01	-1.63370770898E-02	4.63198588684E-02	5.75767350813E-02	4.54270675911E-02	5.78717881427E-02	2.45420270903E-01	5.52935194393E-03
1.74300000000E+09	-1.74775958988E-01	-1.49952946634E-02	4.75100001125E-02	5.65404553946E-02	4.66433853918E-02	5.68656553726E-02	2.44081682487E-01	4.06597307089E-04
1.74350000000E+09	-1.77704897590E-01	-1.34694219670E-02	4.86702074060E-02	5.54802647222E-02	4.77835838559E-02	5.58316290183E-02	2.42551045111E-01	-4.65316680469E-03
1.74400000000E+09	-1.80542124164E-01	-1.18510952883E-02	4.98107169632E-02	5.43967056107E-02	4.89278820699E-02	5.47653718275E-02	2.40846098930E-01	-9.69484810218E-03
1.74450000000E+09	-1.83369494350E-01	-1.00965946540E-02	5.09068938260E-02	5.32909976986E-02	5.00444238508E-02	5.36673143030E-02	2.39001786010E-01	-1.46498375393E-02
1.74500000000E+09	-1.86122488775E-01	-8.20420752950E-03	5.20168948683E-02	5.21694998040E-02	5.11446903786E-02	5.25371905096E-02	2.36994306447E-01	-1.95611379183E-02
1.74550000000E+09	-1.88816917554E-01	-6.24507425827E-03	5.30354417749E-02	5.10358516324E-02	5.21924390214E-02	5.14083630631E-02	2.34812261449E-01	-2.44267058088E-02
1.74600000000E+09	-1.91486761400E-01	-4.11032399361E-03	5.40716514304E-02	4.98515908580E-02	5.32361978829E-02	5.02553106496E-02	2.32530247634E-01	-2.91780724557E-02
1.74650000000E+09	-1.94020306609E-01	-1.84335690907E-03	5.50753871558E-02	4.86443676827E-02	5.42582681831E-02	4.91206625583E-02	2.30040974730E-01	-3.39433269610E-02
1.74700000000E+09	-1.96532403905E-01	5.06798061883E-04	5.60463471637E-02	4.74380279620E-02	5.52481301300E-02	4.78944915546E-02	2.27452253674E-01	-3.85770358754E-02
1.74750000000E+09	-1.98992163829E-01	3.01229467835E-03	5.70112063300E-02	4.62259365350E-02	5.62065462138E-02	4.67098263745E-02	2.24690743784E-01	-4.31533670874E-02
1.74800000000E+09	-2.01322676425E-01	5.64312060494E-03	5.79339647284E-02	4.49720251569E-02	5.71320370768E-02	4.54797389213E-02	2.21754326725E-01	-4.76252202328E-02
1.74850000000E+09	-2.03602362196E-01	8.31169437833E-03	5.88185555012E-02	4.37306914636E-02	5.80304150713E-02	4.42213395365E-02	2.18700573618E-01	-5.20100489041E-02
1.74900000000E+09	-2.05720666762E-01	1.11433291278E-02	5.96822930763E-02	4.24554927404E-02	5.88801114628E-02	4.29766892752E-02	2.15509084177E-01	-5.63070478128E-02
1.74950000000E+09	-2.07807600798E-01	1.40846326314E-02	6.05211290240E-02	4.11483109981E-02	5.97593093709E-02	4.17115213729E-02	2.12181141451E-01	-6.05050467189E-02
1.75000000000E+09	-2.09753063164E-01	1.71473686997E-02	6.13181538867E-02	3.98427312365E-02	6.05726069304E-02	4.04256237275E-02	2.08674157809E-01	-6.45823119997E-02
1.75050000000E+09	-2.11518854499E-01	2.02771838110E-02	6.20948588200E-02	3.85330464545E-02	6.13548053072E-02	3.91116283126E-02	2.05076525468E-01	-6.85686003066E-02
1.75100000000E+09	-2.13230304176E-01	2.34896917260E-02	6.28214563456E-02	3.71912016010E-02	6.21107716302E-02	3.77877476175E-02	2.01322005393E-01	-7.24495729668E-02
1.75150000000E+09	-2.14824098228E-01	2.68929942681E-02	6.35369264562E-02	3.58381900433E-02	6.28253191200E-02	3.64956550600E-02	1.97454640730E-01	-7.62167351596E-02
1.75200000000E+09	-2.16175006689E-01	3.03165363746E-02	6.42456149862E-02	3.44985560625E-02	6.35367807868E-02	3.51168668329E-02	1.93436938547E-01	-7.98355299732E-02
1.75250000000E+09	-2.17484089682E-01	3.38110310009E-02	6.49027019330E-02	3.31304828779E-02	6.42056317603E-02	3.37890844752E-02	1.89384302892E-01	-8.33348827330E-02
1.75300000000E+09	-2.18658881197E-01	3.73759980057E-02	6.55543329010E-02	3.17856229662E-02	6.48550418188E-02	3.23958462819E-02	1.85110655712E-01	-8.66709828320E-02
1.75350000000E+09	-2.19582783822E-01	4.10212624767E-02	6.61288320066E-02	3.03727153269E-02	6.54558855391E-02	3.10550220518E-02	1.80752386485E-01	-8.99154472849E-02
1.75400000000E+09	-2.20413036477E-01	4.46832439047E-02	6.67071887261E-02	2.89739706822E-02	6.60643061951E-02	2.96642594926E-02	1.76309318439E-01	-9.30795103669E-02
1.75450000000E+09	-2.21057512855E-01	4.84446724411E-02	6.72605532549E-02	2.75797785503E-02	6.66088342586E-02	2.82886936751E-02	1.71742445084E-01	-9.60369289260E-02
1.75500000000E+09	-2.21510692031E-01	5.22422687374E-02	6.77822222035E-02	2.61729940460E-02	6.71417715902E-02	2.68989270016E-02	1.67123245048E-01	-9.88872041622E-02
1.75550000000E+09	-2.21807690093E-01	5.60576940212E-02	6.82565932953E-02	2.47755995996E-02	6.76256949728E-02	2.55001426386E-02	1.62300536025E-01	-1.01514272379E-01
1.75600000000E+09	-2.21937116765E-01	5.99110984146E-02	6.87036427312E-02	2.33384723436E-02	6.81291632750E-02	2.41102533623E-02	1.57463240284E-01	-1.04042863791E-01
1.75650000000E+09	-2.21876224869E-01	6.37571713773E-02	6.91595714617E-02	2.19091086642E-02	6.85547389745E-02	2.26786424072E-02	1.52535186081E-01	-1.06402361758E-01
1.75700000000E+09	-2.21676581230E-01	6.76154130338E-02	6.95582281431E-02	2.04876710388E-02	6.89852579534E-02	2.12633247625E-02	1.47517296587E-01	-1.08618981782E-01
1.75750000000E+09	-2.21259746430E-01	7.14606023892E-02	6.99191081882E-02	1.90594158498E-02	6.93831357546E-02	1.98336508158E-02	1.42425992215E-01	-1.10699187219E-01
1.75800000000E+09	-2.20679367646E-01	7.53074560207E-02	7.02817170247E-02	1.76320551936E-02	6.97482087891E-02	1.84249267997E-02	1.37263758673E-01	-1.12569329649E-01
1.75850000000E+09	-2.19899407927E-01	7.91128997487E-02	7.06027190472E-02	1.61688954419E-02	7.00815032772E-02	1.69839474038E-02	1.32069555464E-01	-1.14281995429E-01
1.75900000000E+09	-2.18978120893E-01	8.28797616556E-02	7.09005901722E-02	1.47457203263E-02	7.03680905187E-02	1.55664284453E-02	1.26756086627E-01	-1.15824710918E-01
