# Hz S RI R 50
! CMT, CMT808U, 21440046, 21.4.3/4
! Date: 4/9/2026 1:44:24 AM
! Data: Format (Calibration Info)
! Freq	S11:Re/Im(F2)	S41:Re/Im(F2)	S14:Re/Im(F2)	S44:Re/Im(F2)
1.70000000000E+09	-1.16287722665E-01	9.70198083479E-02	-7.40982696976E-02	1.62691872144E-02	-7.39819998475E-02	1.53495533510E-02	-7.34854556364E-02	1.32702525809E-01
1.70050000000E+09	-1.13579298601E-01	9.67897517988E-02	-7.37539636279E-02	1.78588039890E-02	-7.36429830894E-02	1.69469845598E-02	-7.09186331253E-02	1.37144979645E-01
1.70100000000E+09	-1.10899651648E-01	9.64063507256E-02	-7.33457644372E-02	1.94584794316E-02	-7.32968312830E-02	1.85452104353E-02	-6.83051474068E-02	1.41480029829E-01
1.70150000000E+09	-1.08250927546E-01	9.58920384263E-02	-7.29537181476E-02	2.10591338431E-02	-7.28966187097E-02	2.01351089979E-02	-6.55203430441E-02	1.45716090487E-01
1.70200000000E+09	-1.05641118031E-01	9.52537020661E-02	-7.25027490862E-02	2.26555882616E-02	-7.24659454321E-02	2.16991268102E-02	-6.25617140939E-02	1.49919699816E-01
1.70250000000E+09	-1.03090041576E-01	9.44697706687E-02	-7.20194805378E-02	2.42106758940E-02	-7.19944595234E-02	2.32759603011E-02	-5.94711631685E-02	1.54005223878E-01
1.70300000000E+09	-1.00598091156E-01	9.35371395136E-02	-7.14840089728E-02	2.57738519122E-02	-7.15022963444E-02	2.48396038104E-02	-5.62665594170E-02	1.58014912635E-01
1.70350000000E+09	-9.81525919257E-02	9.25228074562E-02	-7.09111504730E-02	2.73295218808E-02	-7.09602115698E-02	2.63933465376E-02	-5.29428727184E-02	1.61891111284E-01
1.70400000000E+09	-9.57679040274E-02	9.13559180376E-02	-7.03339080397E-02	2.88885649362E-02	-7.03767098575E-02	2.79312146814E-02	-4.95017873214E-02	1.65698209013E-01
1.70450000000E+09	-9.34568367396E-02	9.00736653367E-02	-6.96898121529E-02	3.03996440173E-02	-6.97531060643E-02	2.94601386648E-02	-4.59009375285E-02	1.69358359939E-01
1.70500000000E+09	-9.12308639798E-02	8.86853611148E-02	-6.90175272265E-02	3.19035979977E-02	-6.90894803295E-02	3.09641032687E-02	-4.22416734418E-02	1.72882772429E-01
1.70550000000E+09	-8.90890533932E-02	8.71733099105E-02	-6.83089286469E-02	3.34145759244E-02	-6.84164976308E-02	3.24709079767E-02	-3.84211103704E-02	1.76391637706E-01
1.70600000000E+09	-8.70446946348E-02	8.55802104711E-02	-6.75616566056E-02	3.48834991930E-02	-6.76898239890E-02	3.39576355223E-02	-3.45220649250E-02	1.79719080260E-01
1.70650000000E+09	-8.50796737007E-02	8.38838526484E-02	-6.68107967547E-02	3.63549755963E-02	-6.69493133537E-02	3.54458984780E-02	-3.05534963464E-02	1.82930842390E-01
1.70700000000E+09	-8.31994039583E-02	8.21319248964E-02	-6.59665728212E-02	3.78075549356E-02	-6.61596153567E-02	3.69041876706E-02	-2.63850092979E-02	1.86049705126E-01
1.70750000000E+09	-8.14167690665E-02	8.02360970940E-02	-6.51409373989E-02	3.92408602976E-02	-6.53339846883E-02	3.83349607886E-02	-2.21586219784E-02	1.89033805468E-01
1.70800000000E+09	-7.97122787916E-02	7.83066739942E-02	-6.42660343698E-02	4.06549697249E-02	-6.44768933614E-02	3.97452653991E-02	-1.78899514398E-02	1.91840846153E-01
1.70850000000E+09	-7.81686280723E-02	7.62899806840E-02	-6.33517261716E-02	4.20501324215E-02	-6.35876495265E-02	4.11326704195E-02	-1.34450089434E-02	1.94537510072E-01
1.70900000000E+09	-7.66855487578E-02	7.42278140771E-02	-6.24153557034E-02	4.34332507591E-02	-6.26637153194E-02	4.25198422962E-02	-8.96767068805E-03	1.97135547501E-01
1.70950000000E+09	-7.53075063959E-02	7.20819566359E-02	-6.14214354074E-02	4.47556979890E-02	-6.17118986139E-02	4.38588776354E-02	-4.41309146331E-03	1.99546287391E-01
1.71000000000E+09	-7.40601895222E-02	6.98700475601E-02	-6.04253516023E-02	4.60916410451E-02	-6.07283066941E-02	4.51953819733E-02	2.28086470822E-04	2.01881792489E-01
1.71050000000E+09	-7.29128140602E-02	6.76265537244E-02	-5.93742320790E-02	4.74023177942E-02	-5.96818105628E-02	4.65074821840E-02	4.94125662278E-03	2.04028684924E-01
1.71100000000E+09	-7.18534234863E-02	6.53185777529E-02	-5.83286929650E-02	4.86916376439E-02	-5.86635770260E-02	4.77719662438E-02	9.71852431399E-03	2.06003362598E-01
1.71150000000E+09	-7.09091777210E-02	6.30021331466E-02	-5.72307927656E-02	4.99176421542E-02	-5.75675124796E-02	4.90406113230E-02	1.45518834418E-02	2.07857019885E-01
1.71200000000E+09	-7.00826423904E-02	6.06307666649E-02	-5.61039995539E-02	5.11305401227E-02	-5.64879098743E-02	5.02753768110E-02	1.95408705489E-02	2.09563064262E-01
1.71250000000E+09	-6.93719582602E-02	5.82627714236E-02	-5.49656911577E-02	5.23599034702E-02	-5.53382074402E-02	5.14765064887E-02	2.44267583385E-02	2.11137414346E-01
1.71300000000E+09	-6.87421757494E-02	5.58427284581E-02	-5.37886122229E-02	5.35224501543E-02	-5.41874559035E-02	5.26586130572E-02	2.93966314675E-02	2.12542196454E-01
1.71350000000E+09	-6.82414762704E-02	5.34143861964E-02	-5.25774916080E-02	5.46500889453E-02	-5.30058292015E-02	5.38275578519E-02	3.45245826053E-02	2.13833731644E-01
1.71400000000E+09	-6.78383993693E-02	5.09613304291E-02	-5.13546489856E-02	5.57709085095E-02	-5.17976121526E-02	5.49446218782E-02	3.95607835924E-02	2.14906262766E-01
1.71450000000E+09	-6.75501522212E-02	4.85183552770E-02	-5.00982448547E-02	5.68498782903E-02	-5.05542996421E-02	5.60186447691E-02	4.47284412782E-02	2.15846817189E-01
1.71500000000E+09	-6.73587868854E-02	4.60436284669E-02	-4.88271503251E-02	5.79136731439E-02	-4.92791074899E-02	5.71084542466E-02	4.99080018785E-02	2.16664677654E-01
1.71550000000E+09	-6.72991916255E-02	4.35969785480E-02	-4.75165081292E-02	5.89395334091E-02	-4.80349883888E-02	5.81196310358E-02	5.50327669068E-02	2.17256992523E-01
1.71600000000E+09	-6.72853053532E-02	4.11250065660E-02	-4.61960783089E-02	5.99329583761E-02	-4.67141531992E-02	5.91566658054E-02	6.02954862619E-02	2.17751144082E-01
1.71650000000E+09	-6.74346445629E-02	3.86746772154E-02	-4.48428021943E-02	6.08927680073E-02	-4.53924085354E-02	6.01104819319E-02	6.54892300363E-02	2.18056554357E-01
1.71700000000E+09	-6.76556073004E-02	3.62374538385E-02	-4.34953101730E-02	6.18197152520E-02	-4.40338496270E-02	6.10574526897E-02	7.07630584062E-02	2.18229113739E-01
1.71750000000E+09	-6.79652811096E-02	3.37882053580E-02	-4.20951859226E-02	6.27210406083E-02	-4.26638117848E-02	6.19465960102E-02	7.60329871071E-02	2.18224807936E-01
1.71800000000E+09	-6.83759394136E-02	3.13797735038E-02	-4.07006439722E-02	6.35775322313E-02	-4.12936404641E-02	6.28192720375E-02	8.12160194259E-02	2.18059872859E-01
1.71850000000E+09	-6.88947861990E-02	2.89825175420E-02	-3.92755186731E-02	6.43963575126E-02	-3.98844722440E-02	6.36767751196E-02	8.64352716823E-02	2.17707900975E-01
1.71900000000E+09	-6.94924634978E-02	2.66233719320E-02	-3.78430234770E-02	6.51856124851E-02	-3.84625972304E-02	6.44767844814E-02	9.16751945761E-02	2.17224234567E-01
1.71950000000E+09	-7.01964962139E-02	2.42691046214E-02	-3.63917613907E-02	6.59684809518E-02	-3.70337025422E-02	6.52642730819E-02	9.68680513949E-02	2.16576058951E-01
1.72000000000E+09	-7.09883281720E-02	2.19230850125E-02	-3.49510345614E-02	6.66983478677E-02	-3.56072328280E-02	6.59931110321E-02	1.02069839677E-01	2.15815461916E-01
1.72050000000E+09	-7.18747074150E-02	1.96359385591E-02	-3.34664219613E-02	6.73731809964E-02	-3.41195667049E-02	6.67050964181E-02	1.07274605994E-01	2.14828240804E-01
1.72100000000E+09	-7.28201972740E-02	1.73695092154E-02	-3.19614477153E-02	6.80332450758E-02	-3.26456503457E-02	6.73683375188E-02	1.12400995179E-01	2.13701049574E-01
1.72150000000E+09	-7.39032539848E-02	1.51664151124E-02	-3.04644711437E-02	6.86598310231E-02	-3.11316608206E-02	6.80208996388E-02	1.17555722755E-01	2.12406056483E-01
1.72200000000E+09	-7.50276011273E-02	1.29678699358E-02	-2.89384496441E-02	6.92159682154E-02	-2.96533826249E-02	6.86287376071E-02	1.22605089954E-01	2.10965395667E-01
1.72250000000E+09	-7.62574534903E-02	1.08471844581E-02	-2.74289299254E-02	6.97947214734E-02	-2.81258047237E-02	6.92114827674E-02	1.27640847908E-01	2.09400340966E-01
1.72300000000E+09	-7.75902577091E-02	8.71747025045E-03	-2.58789581318E-02	7.03331250422E-02	-2.66083560058E-02	6.97375555833E-02	1.32601485807E-01	2.07679711293E-01
1.72350000000E+09	-7.89917885782E-02	6.67495625618E-03	-2.43332249066E-02	7.07912985919E-02	-2.50516893983E-02	7.02256964721E-02	1.37499761473E-01	2.05722337356E-01
1.72400000000E+09	-8.04584608619E-02	4.64323793598E-03	-2.27890874346E-02	7.12440140532E-02	-2.35143224289E-02	7.06784533883E-02	1.42437014615E-01	2.03664952891E-01
1.72450000000E+09	-8.20085069979E-02	2.68424838533E-03	-2.12384753683E-02	7.16462204567E-02	-2.19996439750E-02	7.11140710078E-02	1.47215617419E-01	2.01540461177E-01
1.72500000000E+09	-8.36196239221E-02	7.67284234174E-04	-1.96593901882E-02	7.20449491508E-02	-2.04363943590E-02	7.15098787693E-02	1.51981137327E-01	1.99195532322E-01
1.72550000000E+09	-8.53295556003E-02	-1.09891343935E-03	-1.80874547930E-02	7.23933821051E-02	-1.88795255835E-02	7.18822618649E-02	1.56662281344E-01	1.96677408652E-01
1.72600000000E+09	-8.71012352678E-02	-2.88373000003E-03	-1.65148635283E-02	7.26676686955E-02	-1.73071537310E-02	7.22004046833E-02	1.61267270417E-01	1.94022732706E-01
1.72650000000E+09	-8.89708380891E-02	-4.62193145936E-03	-1.49369299260E-02	7.29679464864E-02	-1.57636272307E-02	7.24987317038E-02	1.65812756971E-01	1.91276961446E-01
1.72700000000E+09	-9.08701371113E-02	-6.31907457297E-03	-1.33673667531E-02	7.32137061325E-02	-1.41799361799E-02	7.27498680608E-02	1.70287594400E-01	1.88367135715E-01
1.72750000000E+09	-9.28657318106E-02	-7.93849704404E-03	-1.17866328890E-02	7.34036177152E-02	-1.26005847116E-02	7.29779261653E-02	1.74588923799E-01	1.85321138363E-01
1.72800000000E+09	-9.49412122457E-02	-9.50418382668E-03	-1.02169951505E-02	7.35613802154E-02	-1.10311194872E-02	7.31602157401E-02	1.78871732618E-01	1.82105144541E-01
1.72850000000E+09	-9.70683410054E-02	-1.09913604647E-02	-8.60752398270E-03	7.36948139424E-02	-9.43679395414E-03	7.32900378872E-02	1.83045823705E-01	1.78750121551E-01
1.72900000000E+09	-9.92828595325E-02	-1.24076400757E-02	-7.01396666299E-03	7.37886925619E-02	-7.86645232374E-03	7.34163934871E-02	1.87112250161E-01	1.75375706857E-01
1.72950000000E+09	-1.01564132412E-01	-1.37494808740E-02	-5.45209989168E-03	7.38723006164E-02	-6.30448350864E-03	7.35084781795E-02	1.91092923952E-01	1.71786986623E-01
1.73000000000E+09	-1.03873018766E-01	-1.49909351984E-02	-3.85039848089E-03	7.38751892184E-02	-4.72351012101E-03	7.35522712273E-02	1.94942410126E-01	1.68130559971E-01
1.73050000000E+09	-1.06238160557E-01	-1.62307992194E-02	-2.28962001432E-03	7.38969273944E-02	-3.14805099069E-03	7.35484865263E-02	1.98685399988E-01	1.64282006339E-01
1.73100000000E+09	-1.08679923672E-01	-1.73263379251E-02	-7.12304448317E-04	7.38389849517E-02	-1.59709531491E-03	7.35323412550E-02	2.02317867712E-01	1.60341223434E-01
1.73150000000E+09	-1.11213819325E-01	-1.83472192293E-02	8.35115473851E-04	7.37787067342E-02	-4.17342775039E-05	7.34879910391E-02	2.05825286656E-01	1.56320250825E-01
1.73200000000E+09	-1.13751686022E-01	-1.92997989115E-02	2.40834444244E-03	7.36443171884E-02	1.51211235756E-03	7.33667823833E-02	2.09214371144E-01	1.52182030294E-01
1.73250000000E+09	-1.16394750813E-01	-2.01287022418E-02	3.97357474788E-03	7.35218930008E-02	3.09130215853E-03	7.32782802430E-02	2.12548509279E-01	1.47929717847E-01
1.73300000000E+09	-1.19024565496E-01	-2.09009704350E-02	5.50696957181E-03	7.33349050411E-02	4.62653345474E-03	7.30948687289E-02	2.15660436074E-01	1.43572167046E-01
1.73350000000E+09	-1.21741872086E-01	-2.15566595784E-02	7.07612440764E-03	7.31023477396E-02	6.17480900681E-03	7.29133560533E-02	2.18661489941E-01	1.39104892870E-01
1.73400000000E+09	-1.24481715200E-01	-2.21246567305E-02	8.60679447713E-03	7.28563916557E-02	7.68078272156E-03	7.26876274718E-02	2.21528073923E-01	1.34547708682E-01
1.73450000000E+09	-1.27277672604E-01	-2.26024435359E-02	1.01263929967E-02	7.26087981378E-02	9.19244509084E-03	7.24390521590E-02	2.24257094433E-01	1.29933480823E-01
1.73500000000E+09	-1.30117960281E-01	-2.29955892701E-02	1.16386389740E-02	7.23078418119E-02	1.07454871811E-02	7.21302719284E-02	2.26879218977E-01	1.25143629046E-01
1.73550000000E+09	-1.32971584975E-01	-2.32434125213E-02	1.31483444378E-02	7.19535575150E-02	1.22307991726E-02	7.18317028292E-02	2.29304488237E-01	1.20332974566E-01
1.73600000000E+09	-1.35841253346E-01	-2.33668192631E-02	1.46286163162E-02	7.15900115125E-02	1.37291245079E-02	7.14576373016E-02	2.31645761543E-01	1.15443296918E-01
1.73650000000E+09	-1.38772158281E-01	-2.34404785422E-02	1.61183208320E-02	7.11841718618E-02	1.52278487805E-02	7.10878979914E-02	2.33781607080E-01	1.10474357229E-01
1.73700000000E+09	-1.41712221573E-01	-2.33798091202E-02	1.75861167369E-02	7.07730515546E-02	1.66527659564E-02	7.06688795050E-02	2.35781276867E-01	1.05417731706E-01
1.73750000000E+09	-1.44665955886E-01	-2.31767931778E-02	1.90412133403E-02	7.03002376691E-02	1.81359144368E-02	7.02452695157E-02	2.37678901173E-01	1.00347731714E-01
1.73800000000E+09	-1.47644076279E-01	-2.28971931168E-02	2.05093276782E-02	6.98051710837E-02	1.95666372790E-02	6.97714670861E-02	2.39334675360E-01	9.51868792087E-02
1.73850000000E+09	-1.50654618507E-01	-2.25365241604E-02	2.19268826411E-02	6.93075004588E-02	2.10277319524E-02	6.92673727661E-02	2.40875936051E-01	8.99333764631E-02
1.73900000000E+09	-1.53621879057E-01	-2.19823045782E-02	2.33204887093E-02	6.87532294894E-02	2.24209321352E-02	6.87505918190E-02	2.42285881249E-01	8.46690170415E-02
1.73950000000E+09	-1.56631105872E-01	-2.13522952858E-02	2.47339786587E-02	6.81654010787E-02	2.38180517318E-02	6.81832925277E-02	2.43463819251E-01	7.93917285673E-02
1.74000000000E+09	-1.59613690602E-01	-2.05761231659E-02	2.61258274814E-02	6.75576086963E-02	2.51947613610E-02	6.75996285111E-02	2.44529926404E-01	7.39900431179E-02
1.74050000000E+09	-1.62635947567E-01	-1.97006994323E-02	2.74843579073E-02	6.69444375285E-02	2.65485277215E-02	6.69869137915E-02	2.45384181894E-01	6.86044745162E-02
1.74100000000E+09	-1.65613159093E-01	-1.87195457577E-02	2.88359886312E-02	6.62804303487E-02	2.79082695986E-02	6.63358234350E-02	2.46143785875E-01	6.31893699627E-02
1.74150000000E+09	-1.68560431439E-01	-1.76145306800E-02	3.01639905551E-02	6.56069315123E-02	2.92626067206E-02	6.56893038229E-02	2.46654440259E-01	5.77329029586E-02
1.74200000000E+09	-1.71491873633E-01	-1.63478541019E-02	3.14784077741E-02	6.48963319010E-02	3.05674921771E-02	6.49906872832E-02	2.47108411130E-01	5.21996041258E-02
1.74250000000E+09	-1.74411415215E-01	-1.49633236600E-02	3.27792656741E-02	6.41720315836E-02	3.18717785472E-02	6.42814658019E-02	2.47272883456E-01	4.67354201968E-02
1.74300000000E+09	-1.77276164981E-01	-1.34434639957E-02	3.40556689734E-02	6.34072738677E-02	3.31580614055E-02	6.35401691841E-02	2.47334701349E-01	4.12170239704E-02
1.74350000000E+09	-1.80103422300E-01	-1.18355652094E-02	3.53141069475E-02	6.26215579934E-02	3.44039945739E-02	6.27856787474E-02	2.47197839074E-01	3.57043750840E-02
1.74400000000E+09	-1.82918496740E-01	-1.00932357612E-02	3.65806131288E-02	6.18075676356E-02	3.56548354842E-02	6.20115705562E-02	2.46896624262E-01	3.01702249132E-02
1.74450000000E+09	-1.85690290489E-01	-8.19858512022E-03	3.77889368649E-02	6.10207361206E-02	3.68644469466E-02	6.11676431340E-02	2.46406180614E-01	2.46645879147E-02
1.74500000000E+09	-1.88382768140E-01	-6.18296744410E-03	3.89722910245E-02	6.01517486707E-02	3.80700257569E-02	6.03460046825E-02	2.45753836128E-01	1.91464621992E-02
1.74550000000E+09	-1.90960125986E-01	-4.07182497232E-03	4.01418959484E-02	5.93022290697E-02	3.92815844474E-02	5.95109382946E-02	2.44921760923E-01	1.36838324462E-02
1.74600000000E+09	-1.93542222997E-01	-1.82431096251E-03	4.13020364163E-02	5.84035539470E-02	4.04299953846E-02	5.86378957818E-02	2.43948202468E-01	8.20743342346E-03
1.74650000000E+09	-1.95999158651E-01	5.47065515817E-04	4.24292436474E-02	5.74541244415E-02	4.15753944082E-02	5.77547293420E-02	2.42758248855E-01	2.74390968316E-03
1.74700000000E+09	-1.98454879224E-01	3.00576912050E-03	4.35575997815E-02	5.65586223150E-02	4.26970402652E-02	5.68215449866E-02	2.41424025220E-01	-2.66192393813E-03
1.74750000000E+09	-2.00757694116E-01	5.60950057707E-03	4.46622121624E-02	5.56181285960E-02	4.37994130945E-02	5.59180828054E-02	2.39930809936E-01	-8.06168450530E-03
1.74800000000E+09	-2.02987795047E-01	8.35876031715E-03	4.57424454940E-02	5.46555812619E-02	4.48605181210E-02	5.49701950021E-02	2.38231695376E-01	-1.33924348020E-02
1.74850000000E+09	-2.05159050921E-01	1.11575915744E-02	4.67793469491E-02	5.36721444288E-02	4.59265198232E-02	5.40095608273E-02	2.36409859199E-01	-1.87018216172E-02
1.74900000000E+09	-2.07170363559E-01	1.40583864701E-02	4.78011820910E-02	5.26631201548E-02	4.69600545247E-02	5.30007829479E-02	2.34396181786E-01	-2.39354106183E-02
1.74950000000E+09	-2.09093887763E-01	1.71220208365E-02	4.88129101675E-02	5.16650830888E-02	4.79735389951E-02	5.20181403038E-02	2.32224319273E-01	-2.91085286555E-02
1.75000000000E+09	-2.10897527948E-01	2.02774905369E-02	4.98065015632E-02	5.06234372331E-02	4.89811360663E-02	5.09946002125E-02	2.29824118277E-01	-3.42116373079E-02
1.75050000000E+09	-2.12512734868E-01	2.35170686821E-02	5.07686104683E-02	4.95684821611E-02	4.99351209458E-02	4.99563477002E-02	2.27339925296E-01	-3.93101454276E-02
1.75100000000E+09	-2.14096399883E-01	2.68255464340E-02	5.17346975683E-02	4.85255749754E-02	5.08713800075E-02	4.89294262953E-02	2.24603053588E-01	-4.42828562497E-02
1.75150000000E+09	-2.15518663659E-01	3.02597844482E-02	5.26291210131E-02	4.74368598447E-02	5.17977873528E-02	4.78831332208E-02	2.21784095528E-01	-4.91878125281E-02
1.75200000000E+09	-2.16733516658E-01	3.37377680555E-02	5.35342818982E-02	4.63569240483E-02	5.27272755996E-02	4.67977436362E-02	2.18770680322E-01	-5.39861130490E-02
1.75250000000E+09	-2.17826827780E-01	3.72603869125E-02	5.43787980737E-02	4.52544010705E-02	5.36053968076E-02	4.57195900610E-02	2.15639791570E-01	-5.86829616675E-02
1.75300000000E+09	-2.18813970281E-01	4.09213670230E-02	5.52679766638E-02	4.41467643899E-02	5.44677940197E-02	4.46049923251E-02	2.12339824198E-01	-6.32874500502E-02
1.75350000000E+09	-2.19582952837E-01	4.45994384341E-02	5.60857373504E-02	4.30170318535E-02	5.52960935478E-02	4.35041871957E-02	2.08823398160E-01	-6.78386887420E-02
1.75400000000E+09	-2.20200751977E-01	4.83056760222E-02	5.69219827584E-02	4.18726084605E-02	5.61196692656E-02	4.23822442391E-02	2.05226974987E-01	-7.23184749482E-02
1.75450000000E+09	-2.20652936179E-01	5.21140901018E-02	5.77036831769E-02	4.07285527935E-02	5.69239103633E-02	4.12668752194E-02	2.01501798153E-01	-7.66131467109E-02
1.75500000000E+09	-2.20900189778E-01	5.58811094881E-02	5.84690708855E-02	3.95713338705E-02	5.76923300605E-02	4.01105909737E-02	1.97624461860E-01	-8.08688034670E-02
1.75550000000E+09	-2.21017951792E-01	5.97208233338E-02	5.92235982495E-02	3.84033662913E-02	5.84656075982E-02	3.89392415136E-02	1.93518562865E-01	-8.49067757609E-02
1.75600000000E+09	-2.20930600636E-01	6.35364979605E-02	5.99243628904E-02	3.72084244673E-02	5.92010149383E-02	3.77810969618E-02	1.89311941990E-01	-8.88838765835E-02
1.75650000000E+09	-2.20679998825E-01	6.73573444522E-02	6.06425868971E-02	3.60268549695E-02	5.99122697942E-02	3.66139355458E-02	1.85051273513E-01	-9.27106187251E-02
1.75700000000E+09	-2.20235076769E-01	7.11832138655E-02	6.13334055880E-02	3.48177464170E-02	6.06222111599E-02	3.54189933784E-02	1.80621680910E-01	-9.64175652575E-02
1.75750000000E+09	-2.19618348010E-01	7.49697594299E-02	6.19984498103E-02	3.36198877792E-02	6.12971795460E-02	3.42329614787E-02	1.76013900615E-01	-9.99992267135E-02
1.75800000000E+09	-2.18834684640E-01	7.87684603775E-02	6.26767090568E-02	3.23846341525E-02	6.19533564474E-02	3.30193173187E-02	1.71361060271E-01	-1.03416061726E-01
1.75850000000E+09	-2.17839098298E-01	8.24452772927E-02	6.32711226121E-02	3.11446270971E-02	6.25949962481E-02	3.17892787590E-02	1.66597732047E-01	-1.06672482562E-01
1.75900000000E+09	-2.16671108716E-01	8.61404623805E-02	6.39145892046E-02	2.99102492928E-02	6.32089757437E-02	3.05889990963E-02	1.61677510485E-01	-1.09783853438E-01
