# Hz S RI R 50
! CMT, CMT808U, 21440046, 21.4.3/4
! Date: 11/20/2025 11:36:14 PM
! Data: Format (Calibration Info)
! Freq	S11:Re/Im(F2)	S41:Re/Im(F2)	S14:Re/Im(F2)	S44:Re/Im(F2)
1.70000000000E+09	-7.34139715726E-02	-1.20584518128E-01	-5.77423361708E-02	-3.51726601022E-02	-5.83628336279E-02	-3.46877106651E-02	-1.02169557673E-01	7.01195738227E-02
1.70050000000E+09	-7.33395834723E-02	-1.17811272140E-01	-5.84936417374E-02	-3.40177321129E-02	-5.91113378720E-02	-3.35062276684E-02	-1.01250186128E-01	7.62734799340E-02
1.70100000000E+09	-7.30962057183E-02	-1.15015777443E-01	-5.92211369695E-02	-3.28315080017E-02	-5.98355063204E-02	-3.23256698400E-02	-1.00103589226E-01	8.23719305178E-02
1.70150000000E+09	-7.26760833257E-02	-1.12201631361E-01	-5.99298427320E-02	-3.16243081067E-02	-6.05190893077E-02	-3.11069131320E-02	-9.87915729819E-02	8.83975120559E-02
1.70200000000E+09	-7.20836862956E-02	-1.09436064792E-01	-6.06215554817E-02	-3.04332468414E-02	-6.11916947973E-02	-2.98707923907E-02	-9.72465586091E-02	9.44029491304E-02
1.70250000000E+09	-7.13198281007E-02	-1.06647522136E-01	-6.12809918013E-02	-2.92035819928E-02	-6.18478915382E-02	-2.86389061980E-02	-9.55163900493E-02	1.00347082651E-01
1.70300000000E+09	-7.03960114970E-02	-1.03865719721E-01	-6.19407753221E-02	-2.79320767782E-02	-6.24985699266E-02	-2.73693512651E-02	-9.36097424145E-02	1.06196806869E-01
1.70350000000E+09	-6.93348990941E-02	-1.01148412034E-01	-6.25660427552E-02	-2.66818618369E-02	-6.31107101368E-02	-2.61066027228E-02	-9.14948239729E-02	1.12017630990E-01
1.70400000000E+09	-6.80805395239E-02	-9.84750094670E-02	-6.31620349502E-02	-2.53943305312E-02	-6.37042382271E-02	-2.47944173006E-02	-8.91798462895E-02	1.17695192213E-01
1.70450000000E+09	-6.67051242670E-02	-9.58240296220E-02	-6.37535804596E-02	-2.40928903055E-02	-6.42680476039E-02	-2.34956145544E-02	-8.66962728930E-02	1.23353170428E-01
1.70500000000E+09	-6.51948792472E-02	-9.32514915445E-02	-6.43028742793E-02	-2.27736407432E-02	-6.48180380401E-02	-2.21597048460E-02	-8.40384181843E-02	1.28910167331E-01
1.70550000000E+09	-6.35340340060E-02	-9.07471159910E-02	-6.48418898816E-02	-2.14484978050E-02	-6.53323779533E-02	-2.08093484690E-02	-8.11940421311E-02	1.34349620159E-01
1.70600000000E+09	-6.17189287131E-02	-8.83103230788E-02	-6.53388885233E-02	-2.00931070313E-02	-6.58121230815E-02	-1.94481475709E-02	-7.81422097729E-02	1.39689990098E-01
1.70650000000E+09	-5.97989683542E-02	-8.59289978937E-02	-6.58085418429E-02	-1.87182112336E-02	-6.62931584214E-02	-1.80724927291E-02	-7.49654379563E-02	1.44916901127E-01
1.70700000000E+09	-5.77705826735E-02	-8.36720974842E-02	-6.62732214888E-02	-1.73445791045E-02	-6.67258743573E-02	-1.66768393050E-02	-7.16067444179E-02	1.50037749555E-01
1.70750000000E+09	-5.55939766170E-02	-8.14775384191E-02	-6.66850618971E-02	-1.59529114952E-02	-6.71346833506E-02	-1.52671653022E-02	-6.80839561218E-02	1.55028283848E-01
1.70800000000E+09	-5.33157701651E-02	-7.93760350348E-02	-6.70700151130E-02	-1.45291263358E-02	-6.75046112867E-02	-1.38467804195E-02	-6.43901517767E-02	1.59910919097E-01
1.70850000000E+09	-5.09259949636E-02	-7.74072050227E-02	-6.74392254937E-02	-1.31060870453E-02	-6.78528392664E-02	-1.24052111465E-02	-6.05389736976E-02	1.64663567113E-01
1.70900000000E+09	-4.84439729659E-02	-7.55183309665E-02	-6.77725288198E-02	-1.16661055580E-02	-6.81702148224E-02	-1.09694490836E-02	-5.65936778829E-02	1.69265618058E-01
1.70950000000E+09	-4.59059068604E-02	-7.37588756240E-02	-6.80748689936E-02	-1.02112962214E-02	-6.84443159034E-02	-9.50257253625E-03	-5.24735760312E-02	1.73752529575E-01
1.71000000000E+09	-4.32375799623E-02	-7.21050186772E-02	-6.83356233818E-02	-8.75225014452E-03	-6.87082068090E-02	-8.02900201739E-03	-4.81867307799E-02	1.78079598067E-01
1.71050000000E+09	-4.05200697159E-02	-7.05497469678E-02	-6.85780911008E-02	-7.28705328611E-03	-6.89378476059E-02	-6.54644193549E-03	-4.38450954358E-02	1.82281263664E-01
1.71100000000E+09	-3.77483889828E-02	-6.90987930740E-02	-6.87682766115E-02	-5.79028504058E-03	-6.91056729070E-02	-5.06147363274E-03	-3.92882586623E-02	1.86290652157E-01
1.71150000000E+09	-3.49024009740E-02	-6.77894386029E-02	-6.89450096693E-02	-4.29234760057E-03	-6.92581380595E-02	-3.54863613521E-03	-3.46304430011E-02	1.90202523045E-01
1.71200000000E+09	-3.19759007002E-02	-6.65930444991E-02	-6.90659873895E-02	-2.81589133007E-03	-6.93631226451E-02	-2.02993200660E-03	-2.98886846726E-02	1.93899125071E-01
1.71250000000E+09	-2.90356297121E-02	-6.55283250398E-02	-6.91702242106E-02	-1.30167407896E-03	-6.94626461873E-02	-5.45593817502E-04	-2.49982043598E-02	1.97464570888E-01
1.71300000000E+09	-2.60384295947E-02	-6.45892734355E-02	-6.92208073187E-02	2.03069488746E-04	-6.94940452179E-02	9.85494343622E-04	-2.00408093308E-02	2.00876808340E-01
1.71350000000E+09	-2.30195340295E-02	-6.37395504573E-02	-6.92513707866E-02	1.72425242804E-03	-6.94912715077E-02	2.49618283545E-03	-1.49589144349E-02	2.04102380175E-01
1.71400000000E+09	-1.99543419076E-02	-6.30306813367E-02	-6.92313873434E-02	3.23524254773E-03	-6.94655240206E-02	4.02154940428E-03	-9.81107966151E-03	2.07175364370E-01
1.71450000000E+09	-1.68663333909E-02	-6.24377722131E-02	-6.91842148378E-02	4.74919905820E-03	-6.94154264939E-02	5.53926922173E-03	-4.50305424236E-03	2.10075987265E-01
1.71500000000E+09	-1.37564258316E-02	-6.19508538123E-02	-6.91005798508E-02	6.27541800981E-03	-6.93116009318E-02	7.06643355544E-03	7.97727495800E-04	2.12792830772E-01
1.71550000000E+09	-1.06530263127E-02	-6.15982908320E-02	-6.89996936078E-02	7.79399002178E-03	-6.91744132394E-02	8.58190943793E-03	6.27266968485E-03	2.15326889671E-01
1.71600000000E+09	-7.53447913160E-03	-6.13613299203E-02	-6.88376725993E-02	9.32350649125E-03	-6.89975958456E-02	1.01215029847E-02	1.17414705225E-02	2.17725266082E-01
1.71650000000E+09	-4.42275934028E-03	-6.12341224630E-02	-6.86330121311E-02	1.08284699885E-02	-6.87811223510E-02	1.16452892905E-02	1.73270595433E-02	2.19875855669E-01
1.71700000000E+09	-1.29595568528E-03	-6.12118676863E-02	-6.84002000042E-02	1.23441435871E-02	-6.85423223123E-02	1.31626999993E-02	2.29157267592E-02	2.21883898591E-01
1.71750000000E+09	1.80278669082E-03	-6.13056793714E-02	-6.81563258083E-02	1.38584035202E-02	-6.82571666332E-02	1.46628707225E-02	2.86247259686E-02	2.23696372484E-01
1.71800000000E+09	4.93019996358E-03	-6.15323521541E-02	-6.78450236025E-02	1.53546373952E-02	-6.79310004567E-02	1.61806348078E-02	3.43346217403E-02	2.25345825884E-01
1.71850000000E+09	8.00598635737E-03	-6.18638408544E-02	-6.75120201390E-02	1.68609986903E-02	-6.75870348780E-02	1.76854097207E-02	4.00839158898E-02	2.26832802752E-01
1.71900000000E+09	1.10590746690E-02	-6.22919295422E-02	-6.71251522194E-02	1.83501128046E-02	-6.71798992518E-02	1.91693401423E-02	4.59501114316E-02	2.28073374130E-01
1.71950000000E+09	1.40872624028E-02	-6.28096575289E-02	-6.67287925582E-02	1.98287034611E-02	-6.67611221315E-02	2.06388477724E-02	5.17328815873E-02	2.29140258975E-01
1.72000000000E+09	1.71100635402E-02	-6.34596365766E-02	-6.62877879865E-02	2.12870775304E-02	-6.63019622515E-02	2.21157723125E-02	5.75941974330E-02	2.30059758753E-01
1.72050000000E+09	2.00933906480E-02	-6.41923881037E-02	-6.58063809865E-02	2.27448751042E-02	-6.58039473426E-02	2.35638038528E-02	6.34852074066E-02	2.30746409811E-01
1.72100000000E+09	2.30400750152E-02	-6.50430250383E-02	-6.52667279452E-02	2.41831254942E-02	-6.52547513631E-02	2.50240974079E-02	6.94064857071E-02	2.31286552811E-01
1.72150000000E+09	2.59556170228E-02	-6.59616727652E-02	-6.47385886027E-02	2.56297871494E-02	-6.46874826730E-02	2.64473871159E-02	7.53180527323E-02	2.31649917602E-01
1.72200000000E+09	2.88132343381E-02	-6.69767091032E-02	-6.41369001950E-02	2.70456038571E-02	-6.40895853102E-02	2.78630341335E-02	8.12237206417E-02	2.31800812557E-01
1.72250000000E+09	3.16455095477E-02	-6.80910878777E-02	-6.35321712723E-02	2.84552799826E-02	-6.34480510842E-02	2.92826415671E-02	8.71284945849E-02	2.31757818274E-01
1.72300000000E+09	3.44193563037E-02	-6.93098795402E-02	-6.28715993063E-02	2.98495459811E-02	-6.27718580896E-02	3.06690804721E-02	9.29880963058E-02	2.31520492532E-01
1.72350000000E+09	3.71448322068E-02	-7.05829435925E-02	-6.21907615417E-02	3.12247971838E-02	-6.20753431376E-02	3.20366530342E-02	9.88803592799E-02	2.31100086630E-01
1.72400000000E+09	3.98346299969E-02	-7.19563883989E-02	-6.14988617985E-02	3.25849641936E-02	-6.13466032873E-02	3.34028770766E-02	1.04757369210E-01	2.30562703593E-01
1.72450000000E+09	4.24584443329E-02	-7.34181486982E-02	-6.07418370277E-02	3.39216645308E-02	-6.05824817149E-02	3.47149444744E-02	1.10596159414E-01	2.29795586848E-01
1.72500000000E+09	4.50413105559E-02	-7.49389772970E-02	-5.99612168606E-02	3.52372207619E-02	-5.97840160046E-02	3.60461436004E-02	1.16379717438E-01	2.28801227714E-01
1.72550000000E+09	4.75570508049E-02	-7.65395534828E-02	-5.91580895224E-02	3.65292379151E-02	-5.89715736500E-02	3.73594038314E-02	1.22184613512E-01	2.27673364294E-01
1.72600000000E+09	5.00260851611E-02	-7.82236831192E-02	-5.83193519447E-02	3.78137823805E-02	-5.81049751025E-02	3.86087365449E-02	1.27860076276E-01	2.26350366095E-01
1.72650000000E+09	5.24195024581E-02	-7.99786723004E-02	-5.74411775659E-02	3.90751815084E-02	-5.72248938027E-02	3.98567212055E-02	1.33541910219E-01	2.24884061420E-01
1.72700000000E+09	5.47569618726E-02	-8.18072138603E-02	-5.65652404237E-02	4.03156438000E-02	-5.63036720968E-02	4.10968577124E-02	1.39175560358E-01	2.23190578725E-01
1.72750000000E+09	5.70266269858E-02	-8.36860143017E-02	-5.56409995689E-02	4.15247240963E-02	-5.53713328489E-02	4.22930949810E-02	1.44739677340E-01	2.21362114030E-01
1.72800000000E+09	5.92433174817E-02	-8.56567488836E-02	-5.46804711121E-02	4.27067357846E-02	-5.43992445006E-02	4.34840299149E-02	1.50244481159E-01	2.19340500596E-01
1.72850000000E+09	6.13786346778E-02	-8.76696789250E-02	-5.37241467795E-02	4.38606080028E-02	-5.34066971893E-02	4.46356206817E-02	1.55682098763E-01	2.17148810419E-01
1.72900000000E+09	6.34648811180E-02	-8.97480633687E-02	-5.27061519301E-02	4.50329161978E-02	-5.24059380294E-02	4.57829990531E-02	1.61050143946E-01	2.14836651251E-01
1.72950000000E+09	6.54546169757E-02	-9.18680484679E-02	-5.16798521144E-02	4.61410250908E-02	-5.13528024522E-02	4.68856475042E-02	1.66352350754E-01	2.12309039284E-01
1.73000000000E+09	6.74067791620E-02	-9.40700396158E-02	-5.06286163193E-02	4.72346249080E-02	-5.02985432836E-02	4.79684220994E-02	1.71512102218E-01	2.09616332943E-01
1.73050000000E+09	6.92850952121E-02	-9.62955167263E-02	-4.95803230686E-02	4.82914208816E-02	-4.92021223993E-02	4.90343455948E-02	1.76650355533E-01	2.06806394075E-01
1.73100000000E+09	7.10559088101E-02	-9.86072748286E-02	-4.84679523434E-02	4.93420372421E-02	-4.80934971224E-02	5.00584247977E-02	1.81713731674E-01	2.03816926164E-01
1.73150000000E+09	7.27836137567E-02	-1.00970229002E-01	-4.73670189061E-02	5.03414537555E-02	-4.69464120555E-02	5.10642150282E-02	1.86619888431E-01	2.00639435533E-01
1.73200000000E+09	7.44443379256E-02	-1.03358597287E-01	-4.62280643718E-02	5.13336068038E-02	-4.57944662999E-02	5.20309833972E-02	1.91442395288E-01	1.97364033647E-01
1.73250000000E+09	7.60090679296E-02	-1.05776874362E-01	-4.50589873030E-02	5.22974237040E-02	-4.46296888656E-02	5.29740087098E-02	1.96150790701E-01	1.93889131063E-01
1.73300000000E+09	7.74619519082E-02	-1.08291471410E-01	-4.38865342650E-02	5.32250142634E-02	-4.34338368768E-02	5.38879519146E-02	2.00756156552E-01	1.90371228341E-01
1.73350000000E+09	7.88847369465E-02	-1.10826329166E-01	-4.26787927860E-02	5.41125967885E-02	-4.22278145372E-02	5.47892413813E-02	2.05280316514E-01	1.86626705656E-01
1.73400000000E+09	8.02153140298E-02	-1.13388837555E-01	-4.14666490071E-02	5.50035134460E-02	-4.09961094811E-02	5.56521144814E-02	2.09684315934E-01	1.82750186785E-01
1.73450000000E+09	8.14608506070E-02	-1.16013975623E-01	-4.02468453695E-02	5.58275926770E-02	-3.97509889176E-02	5.64707387598E-02	2.13922895816E-01	1.78753433988E-01
1.73500000000E+09	8.26047372350E-02	-1.18644896881E-01	-3.89923203964E-02	5.66352263433E-02	-3.85014977977E-02	5.72797169882E-02	2.18070055302E-01	1.74631248125E-01
1.73550000000E+09	8.36737759033E-02	-1.21327459671E-01	-3.77394073218E-02	5.74281508838E-02	-3.72187812608E-02	5.80588464619E-02	2.22090551647E-01	1.70382737276E-01
1.73600000000E+09	8.46482467177E-02	-1.24038947506E-01	-3.64551082737E-02	5.81765901103E-02	-3.59370290725E-02	5.87841915826E-02	2.25943933291E-01	1.65999720691E-01
1.73650000000E+09	8.55369355083E-02	-1.26767738795E-01	-3.51602792241E-02	5.88969678355E-02	-3.46197372357E-02	5.94935237993E-02	2.29675182180E-01	1.61517173217E-01
1.73700000000E+09	8.63766307910E-02	-1.29529613528E-01	-3.38693410734E-02	5.96003289560E-02	-3.33082205905E-02	6.01586619017E-02	2.33271475861E-01	1.56898252726E-01
1.73750000000E+09	8.70507806468E-02	-1.32308204840E-01	-3.25463686997E-02	6.02527199049E-02	-3.19834691683E-02	6.08339676355E-02	2.36739730074E-01	1.52195053522E-01
1.73800000000E+09	8.76870247291E-02	-1.35117151615E-01	-3.12269045209E-02	6.08836376018E-02	-3.06517141176E-02	6.14321410928E-02	2.40030683304E-01	1.47343300376E-01
1.73850000000E+09	8.82299110628E-02	-1.37921859695E-01	-2.98643408551E-02	6.14801053586E-02	-2.92903903351E-02	6.20387105152E-02	2.43195727804E-01	1.42449447177E-01
1.73900000000E+09	8.86453338497E-02	-1.40768997681E-01	-2.85449446889E-02	6.20557448342E-02	-2.79332866479E-02	6.25860421689E-02	2.46201372882E-01	1.37422961533E-01
1.73950000000E+09	8.90221429912E-02	-1.43608845646E-01	-2.71663695875E-02	6.25848280990E-02	-2.65670254297E-02	6.31143951805E-02	2.49095874049E-01	1.32300557369E-01
1.74000000000E+09	8.92496034784E-02	-1.46492359581E-01	-2.58055815306E-02	6.31002705077E-02	-2.51839398112E-02	6.36021980275E-02	2.51769770826E-01	1.27119602392E-01
1.74050000000E+09	8.94030206840E-02	-1.49347711526E-01	-2.44413210764E-02	6.35826352774E-02	-2.37979504748E-02	6.40813426860E-02	2.54290359242E-01	1.21817012234E-01
1.74100000000E+09	8.94606365341E-02	-1.52219846321E-01	-2.30486800658E-02	6.40208128535E-02	-2.23987158295E-02	6.44975590038E-02	2.56636792425E-01	1.16459249488E-01
1.74150000000E+09	8.93838271277E-02	-1.55054805662E-01	-2.16690452018E-02	6.44432740096E-02	-2.10136780679E-02	6.48990371133E-02	2.58875244291E-01	1.11056866386E-01
1.74200000000E+09	8.92602142950E-02	-1.57934927313E-01	-2.02717533740E-02	6.48011191749E-02	-1.96269324555E-02	6.52634430009E-02	2.60893338342E-01	1.05544788101E-01
1.74250000000E+09	8.89926658910E-02	-1.60783426193E-01	-1.88807684719E-02	6.51628421416E-02	-1.82088929701E-02	6.56090945949E-02	2.62764213312E-01	9.99510471880E-02
1.74300000000E+09	8.86560077706E-02	-1.63636535259E-01	-1.74706598220E-02	6.54884191610E-02	-1.68087836820E-02	6.58934722894E-02	2.64465122147E-01	9.43230393631E-02
1.74350000000E+09	8.81924546803E-02	-1.66473078942E-01	-1.60647879548E-02	6.57757454836E-02	-1.53978004787E-02	6.61763931920E-02	2.65985182110E-01	8.86177777965E-02
1.74400000000E+09	8.76449691759E-02	-1.69268664479E-01	-1.46692127700E-02	6.60474558792E-02	-1.39733102098E-02	6.64218206808E-02	2.67300753783E-01	8.29272878854E-02
1.74450000000E+09	8.70000469770E-02	-1.72090832805E-01	-1.32544245138E-02	6.62665295065E-02	-1.25530752481E-02	6.66170230855E-02	2.68499701516E-01	7.71296239808E-02
1.74500000000E+09	8.62389038115E-02	-1.74818366182E-01	-1.18272002971E-02	6.64627387489E-02	-1.11488878092E-02	6.68232562697E-02	2.69499692321E-01	7.13530999896E-02
1.74550000000E+09	8.53554788003E-02	-1.77568310474E-01	-1.04306283718E-02	6.66245739501E-02	-9.72880695156E-03	6.69838824472E-02	2.70318227735E-01	6.55070230964E-02
1.74600000000E+09	8.44191031985E-02	-1.80261610166E-01	-9.03511230402E-03	6.67750736608E-02	-8.31738488402E-03	6.70994805763E-02	2.70941511425E-01	5.96443272510E-02
1.74650000000E+09	8.33422331535E-02	-1.82936076814E-01	-7.62173315820E-03	6.68743801998E-02	-6.90547003669E-03	6.71842934285E-02	2.71367163325E-01	5.37777128527E-02
1.74700000000E+09	8.21700045992E-02	-1.85552090403E-01	-6.21312481687E-03	6.69546062782E-02	-5.49865588511E-03	6.72590856292E-02	2.71625021926E-01	4.78354216444E-02
1.74750000000E+09	8.09218137007E-02	-1.88119492458E-01	-4.80627785118E-03	6.70019816132E-02	-4.07658552872E-03	6.72919329354E-02	2.71730532750E-01	4.19370150707E-02
1.74800000000E+09	7.95671412048E-02	-1.90652111811E-01	-3.40615574899E-03	6.70223321968E-02	-2.66680419524E-03	6.72788690805E-02	2.71607296598E-01	3.60328852515E-02
1.74850000000E+09	7.80763904786E-02	-1.93096103573E-01	-1.97789443223E-03	6.70012945281E-02	-1.27225023312E-03	6.72498387684E-02	2.71326205347E-01	3.01257944664E-02
1.74900000000E+09	7.65178250276E-02	-1.95494147336E-01	-5.93432550524E-04	6.69712687845E-02	1.33461127047E-04	6.72005803169E-02	2.70838585124E-01	2.42082080490E-02
1.74950000000E+09	7.48781376632E-02	-1.97833767497E-01	8.02420523946E-04	6.68863847374E-02	1.52468313324E-03	6.71204304574E-02	2.70195119862E-01	1.83062090674E-02
1.75000000000E+09	7.31161090861E-02	-2.00094345019E-01	2.17416063087E-03	6.68027463083E-02	2.92688587299E-03	6.69907470402E-02	2.69357656609E-01	1.24137115987E-02
1.75050000000E+09	7.12870330845E-02	-2.02289704021E-01	3.53828569461E-03	6.66742723137E-02	4.30185749060E-03	6.68515554510E-02	2.68311447427E-01	6.56232688683E-03
1.75100000000E+09	6.93835222395E-02	-2.04429559476E-01	4.91880021716E-03	6.65244140104E-02	5.65669619499E-03	6.66846684453E-02	2.67124943898E-01	7.26623012636E-04
1.75150000000E+09	6.73415587899E-02	-2.06486584423E-01	6.27899361966E-03	6.63278809557E-02	7.03900644923E-03	6.65001943070E-02	2.65744814274E-01	-5.02512688230E-03
1.75200000000E+09	6.52559823332E-02	-2.08415334462E-01	7.63119798597E-03	6.61258525022E-02	8.38840161778E-03	6.62775934162E-02	2.64173011909E-01	-1.08030355482E-02
1.75250000000E+09	6.30725239354E-02	-2.10278448230E-01	8.98676645570E-03	6.58845662290E-02	9.73806842598E-03	6.60190616751E-02	2.62412198069E-01	-1.65055875663E-02
1.75300000000E+09	6.08312845197E-02	-2.12029305852E-01	1.03315982951E-02	6.56335272434E-02	1.10804234601E-02	6.57436694782E-02	2.60470900015E-01	-2.21214362947E-02
1.75350000000E+09	5.84987747307E-02	-2.13703704891E-01	1.16588129372E-02	6.53241286509E-02	1.24209134777E-02	6.54510557310E-02	2.58332467216E-01	-2.77425993069E-02
1.75400000000E+09	5.60848894417E-02	-2.15258365483E-01	1.29841428607E-02	6.50111415821E-02	1.37250157718E-02	6.51093825172E-02	2.55992654757E-01	-3.32410534580E-02
1.75450000000E+09	5.36104864178E-02	-2.16684483691E-01	1.42977464027E-02	6.46788182906E-02	1.50502326704E-02	6.47622357362E-02	2.53555459125E-01	-3.87306378329E-02
1.75500000000E+09	5.10647284897E-02	-2.18028635693E-01	1.55798786082E-02	6.43180720427E-02	1.63461699121E-02	6.43768440887E-02	2.50923200810E-01	-4.41202067196E-02
1.75550000000E+09	4.84883808519E-02	-2.19220137902E-01	1.68768702854E-02	6.39147175270E-02	1.76481098241E-02	6.39744466908E-02	2.48075688861E-01	-4.94438578639E-02
1.75600000000E+09	4.58670979355E-02	-2.20331749033E-01	1.81444382703E-02	6.35034163071E-02	1.89337830890E-02	6.35365792250E-02	2.45116194180E-01	-5.46453959522E-02
1.75650000000E+09	4.31585515797E-02	-2.21289866169E-01	1.94263830770E-02	6.30775442098E-02	2.01957833275E-02	6.30865059227E-02	2.41966875967E-01	-5.97804522285E-02
1.75700000000E+09	4.04311143040E-02	-2.22122018485E-01	2.06741640510E-02	6.26161271685E-02	2.14427996787E-02	6.26274258769E-02	2.38628099712E-01	-6.47758382745E-02
1.75750000000E+09	3.76719205865E-02	-2.22833216539E-01	2.19111681265E-02	6.21382076204E-02	2.26701948049E-02	6.21186083221E-02	2.35151469051E-01	-6.97116436621E-02
1.75800000000E+09	3.48828784896E-02	-2.23395313995E-01	2.31437641575E-02	6.16267373933E-02	2.39070752168E-02	6.16015683295E-02	2.31484963391E-01	-7.45346339782E-02
1.75850000000E+09	3.20626644243E-02	-2.23829688689E-01	2.43494586178E-02	6.10975267548E-02	2.51233010301E-02	6.10683622311E-02	2.27696099788E-01	-7.92441856825E-02
