# Hz S RI R 50
! CMT, CMT808U, 21440046, 21.4.3/4
! Date: 11/20/2025 11:28:07 PM
! Data: Format (Calibration Info)
! Freq	S11:Re/Im(F2)	S41:Re/Im(F2)	S14:Re/Im(F2)	S44:Re/Im(F2)
1.70000000000E+09	-7.41271457345E-02	-1.23433943505E-01	-6.14205839156E-02	-3.02203365562E-02	-6.23529524972E-02	-2.92311721311E-02	-1.04855974493E-01	7.36959148562E-02
1.70050000000E+09	-7.41566993634E-02	-1.20659766016E-01	-6.20675622562E-02	-2.89250514948E-02	-6.29957049517E-02	-2.79057237014E-02	-1.03983600890E-01	7.96340971609E-02
1.70100000000E+09	-7.40151978180E-02	-1.17872903912E-01	-6.26934574243E-02	-2.76213691352E-02	-6.35942293195E-02	-2.65788524895E-02	-1.02926313351E-01	8.55355536094E-02
1.70150000000E+09	-7.37118475447E-02	-1.15063257171E-01	-6.33150680366E-02	-2.62934979813E-02	-6.41613114580E-02	-2.52513455630E-02	-1.01662366963E-01	9.13771758227E-02
1.70200000000E+09	-7.32372604480E-02	-1.12277034249E-01	-6.38786044581E-02	-2.49565931069E-02	-6.47310974280E-02	-2.39089523227E-02	-1.00207769428E-01	9.72436200603E-02
1.70250000000E+09	-7.25876742897E-02	-1.09472243733E-01	-6.44233424700E-02	-2.36309170226E-02	-6.52485032873E-02	-2.25258486439E-02	-9.85579550820E-02	1.02976689735E-01
1.70300000000E+09	-7.17824963714E-02	-1.06690125649E-01	-6.49587112468E-02	-2.22668929112E-02	-6.57414235075E-02	-2.11379813207E-02	-9.67281314140E-02	1.08683122760E-01
1.70350000000E+09	-7.08345901893E-02	-1.03930180898E-01	-6.54403363661E-02	-2.08771156835E-02	-6.62088938517E-02	-1.97553609586E-02	-9.47301090585E-02	1.14265338187E-01
1.70400000000E+09	-6.96850407080E-02	-1.01212704277E-01	-6.58925207962E-02	-1.94853592393E-02	-6.66503956496E-02	-1.83519504100E-02	-9.25397557263E-02	1.19824392588E-01
1.70450000000E+09	-6.84332872740E-02	-9.85431990212E-02	-6.63277564173E-02	-1.80785958547E-02	-6.70595244936E-02	-1.69338562192E-02	-9.01593150702E-02	1.25292936698E-01
1.70500000000E+09	-6.70087935002E-02	-9.59072199935E-02	-6.67292698433E-02	-1.66829702187E-02	-6.74253583338E-02	-1.54917325595E-02	-8.76261840129E-02	1.30686289654E-01
1.70550000000E+09	-6.54542240117E-02	-9.33692407372E-02	-6.71028689746E-02	-1.52610227400E-02	-6.77737682735E-02	-1.40504834431E-02	-8.49124899021E-02	1.35983479183E-01
1.70600000000E+09	-6.37334117204E-02	-9.08788794162E-02	-6.74419463468E-02	-1.38363072932E-02	-6.80860772637E-02	-1.26310372402E-02	-8.20517060112E-02	1.41169975750E-01
1.70650000000E+09	-6.19034074366E-02	-8.84476095300E-02	-6.77298352744E-02	-1.23813582669E-02	-6.83687034796E-02	-1.11484379320E-02	-7.89906008984E-02	1.46241386949E-01
1.70700000000E+09	-5.99833884148E-02	-8.61324797367E-02	-6.80157665833E-02	-1.09339422276E-02	-6.86142469656E-02	-9.69398723340E-03	-7.57940281609E-02	1.51248611015E-01
1.70750000000E+09	-5.78907905581E-02	-8.38716004514E-02	-6.82528960234E-02	-9.49009177986E-03	-6.88307616288E-02	-8.23451831065E-03	-7.24357077844E-02	1.56108594856E-01
1.70800000000E+09	-5.57012816724E-02	-8.17068498568E-02	-6.84566995957E-02	-8.01883175837E-03	-6.90151261360E-02	-6.75772477170E-03	-6.89176270182E-02	1.60874933636E-01
1.70850000000E+09	-5.34033929921E-02	-7.96608504161E-02	-6.86385674319E-02	-6.56162987514E-03	-6.91563216635E-02	-5.27414858772E-03	-6.52398613470E-02	1.65482890202E-01
1.70900000000E+09	-5.09982988203E-02	-7.76935293380E-02	-6.87840632822E-02	-5.08291252584E-03	-6.92681251369E-02	-3.78453692887E-03	-6.14549113703E-02	1.69972863034E-01
1.70950000000E+09	-4.85270212921E-02	-7.58664514838E-02	-6.88931581123E-02	-3.59316793953E-03	-6.93432242638E-02	-2.29456369382E-03	-5.75315711749E-02	1.74352097789E-01
1.71000000000E+09	-4.59634166387E-02	-7.41268128197E-02	-6.89780340703E-02	-2.12225598138E-03	-6.94000411731E-02	-8.19307197503E-04	-5.34300598840E-02	1.78610374535E-01
1.71050000000E+09	-4.33285836378E-02	-7.24827825715E-02	-6.90200428591E-02	-6.37829403478E-04	-6.94295354487E-02	6.81295933350E-04	-4.92486263871E-02	1.82669846626E-01
1.71100000000E+09	-4.06023800633E-02	-7.09607497087E-02	-6.90203834094E-02	8.51786099882E-04	-6.93991112986E-02	2.16449007753E-03	-4.49100596856E-02	1.86625087611E-01
1.71150000000E+09	-3.78291338469E-02	-6.95611505495E-02	-6.90071463489E-02	2.32352131917E-03	-6.93578328353E-02	3.64907940102E-03	-4.04601055825E-02	1.90442112898E-01
1.71200000000E+09	-3.49887280001E-02	-6.82790549888E-02	-6.89531956182E-02	3.79869424893E-03	-6.92750210809E-02	5.15179450941E-03	-3.59329853109E-02	1.94089736508E-01
1.71250000000E+09	-3.21057657940E-02	-6.71302490537E-02	-6.88563220343E-02	5.29459279859E-03	-6.91618275201E-02	6.64650328453E-03	-3.12339296061E-02	1.97588613131E-01
1.71300000000E+09	-2.91847614902E-02	-6.60778659614E-02	-6.87497180588E-02	6.77042987559E-03	-6.90085768005E-02	8.13478242422E-03	-2.64603885764E-02	2.00923676022E-01
1.71350000000E+09	-2.62209505611E-02	-6.51489787306E-02	-6.85934136213E-02	8.24738936430E-03	-6.88127341769E-02	9.59377875368E-03	-2.16077905408E-02	2.04119196056E-01
1.71400000000E+09	-2.31971095023E-02	-6.43505896643E-02	-6.83870710060E-02	9.71374678438E-03	-6.86126285114E-02	1.10768695026E-02	-1.66801404008E-02	2.07107099903E-01
1.71450000000E+09	-2.01883475031E-02	-6.36579254651E-02	-6.81775049491E-02	1.11885332785E-02	-6.83580439707E-02	1.25636008633E-02	-1.15930402172E-02	2.09976331172E-01
1.71500000000E+09	-1.71217427892E-02	-6.30809080976E-02	-6.79204342067E-02	1.26457963375E-02	-6.80600397037E-02	1.40256594909E-02	-6.48125701286E-03	2.12677429864E-01
1.71550000000E+09	-1.40694764463E-02	-6.26029683360E-02	-6.76379227475E-02	1.41134291537E-02	-6.77475251752E-02	1.54940637635E-02	-1.24987248946E-03	2.15203457753E-01
1.71600000000E+09	-1.09879278265E-02	-6.22765287992E-02	-6.73211859311E-02	1.55423937860E-02	-6.74046518995E-02	1.69253621037E-02	4.00583718730E-03	2.17563282003E-01
1.71650000000E+09	-7.90730979883E-03	-6.20613626316E-02	-6.69780691695E-02	1.69982546773E-02	-6.70148365660E-02	1.83859328581E-02	9.35987000467E-03	2.19720311701E-01
1.71700000000E+09	-4.81874124588E-03	-6.19411988063E-02	-6.65818884484E-02	1.84390623207E-02	-6.66007134371E-02	1.98040488803E-02	1.47512358435E-02	2.21710021658E-01
1.71750000000E+09	-1.75996661021E-03	-6.19302429240E-02	-6.61752812911E-02	1.98558307505E-02	-6.61586449561E-02	2.12430816341E-02	2.02225965296E-02	2.23531978426E-01
1.71800000000E+09	1.32367996025E-03	-6.20511169978E-02	-6.57130549687E-02	2.12731724972E-02	-6.56664500534E-02	2.26562830351E-02	2.57280795241E-02	2.25184660760E-01
1.71850000000E+09	4.36147283681E-03	-6.22895160848E-02	-6.52397490401E-02	2.26665827068E-02	-6.51769234599E-02	2.40608832808E-02	3.12379513189E-02	2.26683258102E-01
1.71900000000E+09	7.38483225674E-03	-6.26081671526E-02	-6.47386248784E-02	2.40640109347E-02	-6.46323405201E-02	2.54503033995E-02	3.68771160967E-02	2.27950481693E-01
1.71950000000E+09	1.04162290215E-02	-6.30245197566E-02	-6.41982497092E-02	2.54307727685E-02	-6.40553602186E-02	2.68294349948E-02	4.24500663434E-02	2.29055923024E-01
1.72000000000E+09	1.34007980363E-02	-6.35738193029E-02	-6.36314300502E-02	2.68076198437E-02	-6.34574661286E-02	2.81886020282E-02	4.80857566188E-02	2.29988549615E-01
1.72050000000E+09	1.63586673083E-02	-6.42051002577E-02	-6.30127774689E-02	2.81480065663E-02	-6.28337051395E-02	2.95328928726E-02	5.37444230331E-02	2.30741283073E-01
1.72100000000E+09	1.93009689192E-02	-6.49470497705E-02	-6.23918605863E-02	2.94901568809E-02	-6.21741568174E-02	3.08704448818E-02	5.94333184277E-02	2.31307639276E-01
1.72150000000E+09	2.21869985145E-02	-6.57573141778E-02	-6.17412665298E-02	3.08207390142E-02	-6.14903988554E-02	3.21928825888E-02	6.51046962662E-02	2.31689727780E-01
1.72200000000E+09	2.50448751339E-02	-6.66805363699E-02	-6.10645171504E-02	3.21127297271E-02	-6.07655295962E-02	3.34901032910E-02	7.08112277127E-02	2.31946450362E-01
1.72250000000E+09	2.78568537996E-02	-6.76873216925E-02	-6.03332658134E-02	3.34097763640E-02	-6.00186405105E-02	3.47599800846E-02	7.64652639238E-02	2.31988588367E-01
1.72300000000E+09	3.06256707317E-02	-6.87920771653E-02	-5.96041766566E-02	3.47040251663E-02	-5.92616036368E-02	3.60229390707E-02	8.21176463583E-02	2.31814530079E-01
1.72350000000E+09	3.33367387341E-02	-6.99605585829E-02	-5.88187047578E-02	3.59549073195E-02	-5.84487147914E-02	3.72852449999E-02	8.77794823777E-02	2.31493652342E-01
1.72400000000E+09	3.60144189181E-02	-7.12388950467E-02	-5.80330084248E-02	3.71839753052E-02	-5.76278440643E-02	3.85083687523E-02	9.34168669421E-02	2.31028714461E-01
1.72450000000E+09	3.86523536831E-02	-7.25973646040E-02	-5.71944911961E-02	3.84079180443E-02	-5.67723005972E-02	3.97301167987E-02	9.90632911056E-02	2.30334375079E-01
1.72500000000E+09	4.12397455354E-02	-7.40263194000E-02	-5.63723480094E-02	3.95952462835E-02	-5.58971330168E-02	4.09180344332E-02	1.04597660360E-01	2.29474018398E-01
1.72550000000E+09	4.37556359228E-02	-7.55256514071E-02	-5.54837941800E-02	4.07807573030E-02	-5.49986162172E-02	4.20850219669E-02	1.10171294434E-01	2.28429459933E-01
1.72600000000E+09	4.62145233736E-02	-7.70872550405E-02	-5.45909943669E-02	4.19349884697E-02	-5.40666090356E-02	4.32189435442E-02	1.15655252808E-01	2.27268350900E-01
1.72650000000E+09	4.86211453060E-02	-7.87522450682E-02	-5.36782570974E-02	4.30892054572E-02	-5.31154315234E-02	4.43545909993E-02	1.21109488092E-01	2.25875428777E-01
1.72700000000E+09	5.09701191298E-02	-8.04759229843E-02	-5.27199598681E-02	4.41945280055E-02	-5.21542225559E-02	4.54598980636E-02	1.26531367986E-01	2.24337327929E-01
1.72750000000E+09	5.32510945060E-02	-8.22785690656E-02	-5.17641392013E-02	4.52915797118E-02	-5.11458343297E-02	4.65412253279E-02	1.31878269422E-01	2.22631341181E-01
1.72800000000E+09	5.55010200468E-02	-8.40986117096E-02	-5.07619135474E-02	4.63768852192E-02	-5.01280361345E-02	4.75975154458E-02	1.37175070556E-01	2.20777975421E-01
1.72850000000E+09	5.76411893014E-02	-8.60304724566E-02	-4.97635385910E-02	4.74133676834E-02	-4.90976502015E-02	4.86333094550E-02	1.42401221869E-01	2.18736910260E-01
1.72900000000E+09	5.97404092991E-02	-8.80044594853E-02	-4.87248852246E-02	4.84618762224E-02	-4.80313379252E-02	4.96535650290E-02	1.47555692565E-01	2.16563552107E-01
1.72950000000E+09	6.17750365019E-02	-9.00340180235E-02	-4.76713577697E-02	4.94448370594E-02	-4.69525215237E-02	5.06494959780E-02	1.52650373301E-01	2.14219952512E-01
1.73000000000E+09	6.37367316588E-02	-9.21430516762E-02	-4.65994409003E-02	5.04206554277E-02	-4.58577459566E-02	5.15968665428E-02	1.57598127934E-01	2.11691311815E-01
1.73050000000E+09	6.56501016993E-02	-9.42828356835E-02	-4.55003299959E-02	5.13717579913E-02	-4.47274148488E-02	5.25488867180E-02	1.62555820443E-01	2.09055327245E-01
1.73100000000E+09	6.74584795280E-02	-9.64778860163E-02	-4.43966598416E-02	5.23150384981E-02	-4.35977363658E-02	5.34485461685E-02	1.67385385581E-01	2.06275965666E-01
1.73150000000E+09	6.92061181222E-02	-9.87397459976E-02	-4.32491464161E-02	5.32200631428E-02	-4.24305082047E-02	5.43308148737E-02	1.72123911940E-01	2.03299583286E-01
1.73200000000E+09	7.09088974003E-02	-1.01022035458E-01	-4.20885325443E-02	5.41020547935E-02	-4.12531763961E-02	5.51957353338E-02	1.76749625162E-01	2.00213404600E-01
1.73250000000E+09	7.25134315158E-02	-1.03368251730E-01	-4.09380038954E-02	5.49478577653E-02	-4.00533960293E-02	5.60263232880E-02	1.81273401962E-01	1.96977954043E-01
1.73300000000E+09	7.40271744445E-02	-1.05775222005E-01	-3.97429327662E-02	5.57718460945E-02	-3.88690883161E-02	5.68385129317E-02	1.85707553865E-01	1.93656119910E-01
1.73350000000E+09	7.54815053664E-02	-1.08231283153E-01	-3.85439210836E-02	5.65732942253E-02	-3.76409567644E-02	5.76289584510E-02	1.90038654872E-01	1.90157024514E-01
1.73400000000E+09	7.68621421546E-02	-1.10694407064E-01	-3.73199675789E-02	5.73524621348E-02	-3.63933683022E-02	5.83688976560E-02	1.94245895659E-01	1.86486827839E-01
1.73450000000E+09	7.81437982800E-02	-1.13238080343E-01	-3.60929753466E-02	5.81105094941E-02	-3.51381530112E-02	5.90984180683E-02	1.98365539867E-01	1.82757086181E-01
1.73500000000E+09	7.93400048439E-02	-1.15784554169E-01	-3.48424442445E-02	5.88266670725E-02	-3.38793183633E-02	5.98030416267E-02	2.02306165478E-01	1.78852811517E-01
1.73550000000E+09	8.04867591675E-02	-1.18380755702E-01	-3.35920156513E-02	5.95303791018E-02	-3.25957831237E-02	6.04662822457E-02	2.06171231811E-01	1.74848517353E-01
1.73600000000E+09	8.15251133492E-02	-1.21002590381E-01	-3.23253615225E-02	6.01773216605E-02	-3.13124787739E-02	6.11059560527E-02	2.09898499403E-01	1.70747395680E-01
1.73650000000E+09	8.24732802091E-02	-1.23637131229E-01	-3.10336845790E-02	6.08179293281E-02	-3.00026588268E-02	6.17447221649E-02	2.13467455256E-01	1.66555655913E-01
1.73700000000E+09	8.33435457391E-02	-1.26345156384E-01	-2.97461613716E-02	6.14513565842E-02	-2.86981840396E-02	6.23136993197E-02	2.16924020718E-01	1.62207903878E-01
1.73750000000E+09	8.41200461293E-02	-1.29036822063E-01	-2.84329717817E-02	6.20143546790E-02	-2.73754310466E-02	6.28809559065E-02	2.20251579275E-01	1.57782031637E-01
1.73800000000E+09	8.48207202017E-02	-1.31761875795E-01	-2.71270224238E-02	6.25716707546E-02	-2.60342342123E-02	6.34094952655E-02	2.23401984432E-01	1.53238422017E-01
1.73850000000E+09	8.54343693727E-02	-1.34521816704E-01	-2.58035253301E-02	6.30981621953E-02	-2.46854724516E-02	6.39086809782E-02	2.26437257789E-01	1.48649627086E-01
1.73900000000E+09	8.59274228521E-02	-1.37268215033E-01	-2.44582781616E-02	6.35938798714E-02	-2.33267984041E-02	6.43833119200E-02	2.29337434293E-01	1.43925346896E-01
1.73950000000E+09	8.63674010784E-02	-1.40060907725E-01	-2.30955546493E-02	6.40658944713E-02	-2.19804875414E-02	6.48380633595E-02	2.32099924704E-01	1.39137640039E-01
1.74000000000E+09	8.66906137370E-02	-1.42889667468E-01	-2.17513821792E-02	6.45145530543E-02	-2.06132590291E-02	6.52494082751E-02	2.34682671194E-01	1.34261378569E-01
1.74050000000E+09	8.69056135442E-02	-1.45675497345E-01	-2.03923099225E-02	6.49223714333E-02	-1.92475178113E-02	6.56312752803E-02	2.37091070466E-01	1.29287963380E-01
1.74100000000E+09	8.70578584886E-02	-1.48474823741E-01	-1.90292305910E-02	6.53035396687E-02	-1.78525066845E-02	6.59986066573E-02	2.39399293634E-01	1.24271065047E-01
1.74150000000E+09	8.70769856817E-02	-1.51287736684E-01	-1.76467713998E-02	6.56537868206E-02	-1.64754080390E-02	6.63156855194E-02	2.41494712471E-01	1.19173595872E-01
1.74200000000E+09	8.70321767086E-02	-1.54105938880E-01	-1.62861059273E-02	6.59795870285E-02	-1.50922890857E-02	6.66226950528E-02	2.43469192224E-01	1.14042767445E-01
1.74250000000E+09	8.68592107425E-02	-1.56904656659E-01	-1.48923153620E-02	6.62677433956E-02	-1.36774646439E-02	6.68823356469E-02	2.45313682393E-01	1.08811332569E-01
1.74300000000E+09	8.66043923734E-02	-1.59711639213E-01	-1.35041658855E-02	6.65316845688E-02	-1.23011797280E-02	6.71228129593E-02	2.46940130898E-01	1.03571146029E-01
1.74350000000E+09	8.62396023078E-02	-1.62508988191E-01	-1.21327612115E-02	6.67733738100E-02	-1.08879286919E-02	6.73341877487E-02	2.48433875578E-01	9.82635378134E-02
1.74400000000E+09	8.57734123060E-02	-1.65269054418E-01	-1.07181259321E-02	6.69828161842E-02	-9.48345584898E-03	6.75118461470E-02	2.49731069150E-01	9.29061802760E-02
1.74450000000E+09	8.52398106584E-02	-1.68047233287E-01	-9.35379392786E-03	6.71677439425E-02	-8.08741044318E-03	6.76736256400E-02	2.50880905333E-01	8.75404130135E-02
1.74500000000E+09	8.45648595980E-02	-1.70771934932E-01	-7.92918335981E-03	6.73277845691E-02	-6.68427745915E-03	6.77964990477E-02	2.51877296689E-01	8.21077117146E-02
1.74550000000E+09	8.37983270496E-02	-1.73504298992E-01	-6.54607034750E-03	6.74473779471E-02	-5.27058158486E-03	6.78906725178E-02	2.52680821645E-01	7.66756034953E-02
1.74600000000E+09	8.29556063654E-02	-1.76175279590E-01	-5.13423648443E-03	6.75213814198E-02	-3.87853272020E-03	6.79565999788E-02	2.53326873773E-01	7.12028547853E-02
1.74650000000E+09	8.19861860473E-02	-1.78831219642E-01	-3.75911271080E-03	6.75848898625E-02	-2.46705710975E-03	6.79983137731E-02	2.53789166673E-01	6.57451186415E-02
1.74700000000E+09	8.09323971739E-02	-1.81426706552E-01	-2.35295875916E-03	6.76283945214E-02	-1.04852493561E-03	6.80032245626E-02	2.54078538774E-01	6.02311339623E-02
1.74750000000E+09	7.97651350478E-02	-1.83981527841E-01	-9.46500194625E-04	6.76150110255E-02	3.46393353326E-04	6.79826436789E-02	2.54213573398E-01	5.47256684102E-02
1.74800000000E+09	7.85123837392E-02	-1.86523489505E-01	4.39823686343E-04	6.76048817562E-02	1.74693487288E-03	6.79283795291E-02	2.54169354793E-01	4.92142443563E-02
1.74850000000E+09	7.71569203487E-02	-1.88972292200E-01	1.83516613252E-03	6.75528853962E-02	3.13889252853E-03	6.78532224621E-02	2.53953454124E-01	4.37476297783E-02
1.74900000000E+09	7.56966811210E-02	-1.91399667893E-01	3.21759169797E-03	6.74832418704E-02	4.53389853999E-03	6.77553911253E-02	2.53552828483E-01	3.82624901828E-02
1.74950000000E+09	7.41406520290E-02	-1.93728151162E-01	4.61044849081E-03	6.73595653920E-02	5.92123552544E-03	6.76219367620E-02	2.53013454784E-01	3.27948126864E-02
1.75000000000E+09	7.25039146372E-02	-1.96027952813E-01	5.98940015055E-03	6.72339877316E-02	7.30932791621E-03	6.74595499395E-02	2.52275956866E-01	2.73621354281E-02
1.75050000000E+09	7.07535463219E-02	-1.98247344084E-01	7.36494594116E-03	6.70583208095E-02	8.69657583311E-03	6.72618238951E-02	2.51358594351E-01	2.19406304118E-02
1.75100000000E+09	6.89705613165E-02	-2.00408454162E-01	8.72923230783E-03	6.68839845634E-02	1.00682661144E-02	6.70554282319E-02	2.50316643043E-01	1.65149926610E-02
1.75150000000E+09	6.70480992800E-02	-2.02487363492E-01	1.00918869625E-02	6.66715410246E-02	1.14193453878E-02	6.68056613323E-02	2.49089595202E-01	1.12206068055E-02
1.75200000000E+09	6.50297732839E-02	-2.04468049724E-01	1.14536592777E-02	6.64392038089E-02	1.27868513594E-02	6.65385050164E-02	2.47702564857E-01	5.89641927126E-03
1.75250000000E+09	6.29801248810E-02	-2.06376762351E-01	1.27930960478E-02	6.61525851470E-02	1.41362546412E-02	6.62404081496E-02	2.46127976536E-01	6.46750864186E-04
1.75300000000E+09	6.07932905159E-02	-2.08193784033E-01	1.41454716638E-02	6.58698827399E-02	1.54857855945E-02	6.59356711503E-02	2.44359285821E-01	-4.54229403585E-03
1.75350000000E+09	5.85813993831E-02	-2.09917085151E-01	1.54746323767E-02	6.55347198254E-02	1.68191509019E-02	6.55825752445E-02	2.42456267811E-01	-9.70730812193E-03
1.75400000000E+09	5.62658171296E-02	-2.11529389735E-01	1.68066542990E-02	6.51814327219E-02	1.81422790501E-02	6.52047075066E-02	2.40353270890E-01	-1.47877529330E-02
1.75450000000E+09	5.38816570978E-02	-2.13050796313E-01	1.81221767011E-02	6.48195989173E-02	1.94618293840E-02	6.48171097537E-02	2.38173897031E-01	-1.98223813755E-02
1.75500000000E+09	5.14135906628E-02	-2.14466065281E-01	1.94297216879E-02	6.44115612311E-02	2.07669145589E-02	6.43801744718E-02	2.35789546181E-01	-2.47398350736E-02
1.75550000000E+09	4.89366189016E-02	-2.15745754628E-01	2.07333590489E-02	6.39914218447E-02	2.20697473719E-02	6.39206143325E-02	2.33233218186E-01	-2.95996260647E-02
1.75600000000E+09	4.63865233470E-02	-2.16956034666E-01	2.20148442503E-02	6.35417267129E-02	2.33554974189E-02	6.34676908441E-02	2.30537551353E-01	-3.43883011864E-02
1.75650000000E+09	4.37677286952E-02	-2.17980402233E-01	2.32973013914E-02	6.30919353588E-02	2.46259597692E-02	6.29660698647E-02	2.27712527904E-01	-3.90543388410E-02
1.75700000000E+09	4.11126588222E-02	-2.18938753862E-01	2.45752909031E-02	6.25789172902E-02	2.58883964669E-02	6.24348450560E-02	2.24696773238E-01	-4.36423814843E-02
1.75750000000E+09	3.84220742860E-02	-2.19726838604E-01	2.58335209843E-02	6.20709767385E-02	2.71401541925E-02	6.18992381042E-02	2.21558054977E-01	-4.81124408240E-02
1.75800000000E+09	3.56661274138E-02	-2.20405682565E-01	2.70715433502E-02	6.15290217098E-02	2.83888906298E-02	6.13393677706E-02	2.18270048028E-01	-5.25308810923E-02
1.75850000000E+09	3.29013561923E-02	-2.20964375313E-01	2.83103798470E-02	6.09592503781E-02	2.96252350833E-02	6.07534676896E-02	2.14848753425E-01	-5.67964634071E-02
