# Hz S RI R 50
! CMT, CMT808U, 21440046, 21.4.3/4
! Date: 11/20/2025 11:29:14 PM
! Data: Format (Calibration Info)
! Freq	S11:Re/Im(F2)	S41:Re/Im(F2)	S14:Re/Im(F2)	S44:Re/Im(F2)
1.70000000000E+09	-7.40415983217E-02	-1.22888535971E-01	-6.12194867397E-02	-2.73346220254E-02	-6.20275681515E-02	-2.63795184292E-02	-1.10070868076E-01	7.58665799197E-02
1.70050000000E+09	-7.40333012282E-02	-1.20150705484E-01	-6.18110414873E-02	-2.60418686526E-02	-6.26207145637E-02	-2.51046195429E-02	-1.09111879260E-01	8.24237378851E-02
1.70100000000E+09	-7.38743983223E-02	-1.17369049752E-01	-6.23381628383E-02	-2.47636564065E-02	-6.31383991852E-02	-2.37695551615E-02	-1.07904641254E-01	8.88897822881E-02
1.70150000000E+09	-7.35648620781E-02	-1.14576581707E-01	-6.28965186418E-02	-2.34267723730E-02	-6.36606028615E-02	-2.24588205090E-02	-1.06529947258E-01	9.53375394478E-02
1.70200000000E+09	-7.30575753189E-02	-1.11812593463E-01	-6.33911738954E-02	-2.21260690630E-02	-6.41198442510E-02	-2.11199461369E-02	-1.04913761310E-01	1.01745552159E-01
1.70250000000E+09	-7.23900103305E-02	-1.09032799220E-01	-6.38734177734E-02	-2.07852200561E-02	-6.45835062474E-02	-1.97711639700E-02	-1.03082523854E-01	1.08080833856E-01
1.70300000000E+09	-7.15682247363E-02	-1.06254596173E-01	-6.43127642985E-02	-1.94305115851E-02	-6.50195554716E-02	-1.84154764385E-02	-1.01075791804E-01	1.14317568797E-01
1.70350000000E+09	-7.05961930474E-02	-1.03517210355E-01	-6.47406435530E-02	-1.80703054162E-02	-6.54080868346E-02	-1.70221615471E-02	-9.88394545950E-02	1.20497646020E-01
1.70400000000E+09	-6.94257646903E-02	-1.00827056864E-01	-6.51072906131E-02	-1.67232844430E-02	-6.57777184808E-02	-1.56470603023E-02	-9.64377092423E-02	1.26598845264E-01
1.70450000000E+09	-6.81541036006E-02	-9.81787284914E-02	-6.54665643717E-02	-1.53392492970E-02	-6.61134055829E-02	-1.42719446238E-02	-9.38158621609E-02	1.32642994653E-01
1.70500000000E+09	-6.67327573583E-02	-9.55691362862E-02	-6.58344200233E-02	-1.39463833397E-02	-6.64303434855E-02	-1.28656380779E-02	-9.09754832989E-02	1.38592249404E-01
1.70550000000E+09	-6.51573043849E-02	-9.30381149809E-02	-6.61147055350E-02	-1.25517337627E-02	-6.66929422023E-02	-1.14414556071E-02	-8.79589934134E-02	1.44405597264E-01
1.70600000000E+09	-6.34551643594E-02	-9.05558659998E-02	-6.63692504219E-02	-1.11540198653E-02	-6.69498546471E-02	-1.00359287069E-02	-8.47822823270E-02	1.50111025835E-01
1.70650000000E+09	-6.16161703423E-02	-8.81597738155E-02	-6.66214901905E-02	-9.74114832934E-03	-6.71672493104E-02	-8.62213419492E-03	-8.14015988253E-02	1.55718673344E-01
1.70700000000E+09	-5.96465477308E-02	-8.58399854701E-02	-6.68298961086E-02	-8.32025540571E-03	-6.73386812274E-02	-7.18387066638E-03	-7.78465441897E-02	1.61235857131E-01
1.70750000000E+09	-5.75665639840E-02	-8.36193219111E-02	-6.70154044918E-02	-6.90554630409E-03	-6.74975780330E-02	-5.74497797203E-03	-7.41097551459E-02	1.66577423896E-01
1.70800000000E+09	-5.53648305711E-02	-8.14716792634E-02	-6.71620614504E-02	-5.47168735452E-03	-6.76209066498E-02	-4.31342656236E-03	-7.01985664044E-02	1.71838037091E-01
1.70850000000E+09	-5.30630730922E-02	-7.94391024070E-02	-6.72708528398E-02	-4.03517848080E-03	-6.77064963682E-02	-2.86393197371E-03	-6.61210247348E-02	1.76947457989E-01
1.70900000000E+09	-5.06425482720E-02	-7.74934778514E-02	-6.73405229858E-02	-2.61897755351E-03	-6.77615497386E-02	-1.41983439222E-03	-6.19415103182E-02	1.81940717758E-01
1.70950000000E+09	-4.81831719856E-02	-7.56787922788E-02	-6.73956300515E-02	-1.16721996912E-03	-6.77835861276E-02	1.27460737595E-05	-5.75705837217E-02	1.86751091676E-01
1.71000000000E+09	-4.56054031354E-02	-7.39360709560E-02	-6.74212500923E-02	2.69076931683E-04	-6.77859159874E-02	1.45789448692E-03	-5.30092471217E-02	1.91398785465E-01
1.71050000000E+09	-4.29478455161E-02	-7.23353045118E-02	-6.74124671066E-02	1.68883452187E-03	-6.77529646148E-02	2.91279526452E-03	-4.83626537101E-02	1.95925001121E-01
1.71100000000E+09	-4.02392907642E-02	-7.08245623475E-02	-6.73627208354E-02	3.15556190632E-03	-6.76602942583E-02	4.35611111748E-03	-4.35191965072E-02	2.00297454788E-01
1.71150000000E+09	-3.74506012942E-02	-6.94531808217E-02	-6.72831019223E-02	4.58053935478E-03	-6.75559542530E-02	5.81011670898E-03	-3.85792276372E-02	2.04532422343E-01
1.71200000000E+09	-3.46012255627E-02	-6.81697938231E-02	-6.71869063624E-02	6.02041053444E-03	-6.74490536184E-02	7.25499922129E-03	-3.35095522893E-02	2.08560358456E-01
1.71250000000E+09	-3.17175858808E-02	-6.70450055676E-02	-6.70271305657E-02	7.45246586862E-03	-6.72643220066E-02	8.68115647126E-03	-2.82858530192E-02	2.12412709296E-01
1.71300000000E+09	-2.88006702799E-02	-6.60134727937E-02	-6.68728273934E-02	8.88186391329E-03	-6.70687919623E-02	1.01162683919E-02	-2.29950120258E-02	2.16121149958E-01
1.71350000000E+09	-2.58044881008E-02	-6.50934781856E-02	-6.66652576863E-02	1.03204521564E-02	-6.68341730772E-02	1.15538739389E-02	-1.75781608634E-02	2.19625462095E-01
1.71400000000E+09	-2.28019141047E-02	-6.43128790981E-02	-6.64211282163E-02	1.17427714993E-02	-6.65564347134E-02	1.29753628137E-02	-1.20831574355E-02	2.22964261011E-01
1.71450000000E+09	-1.97789125314E-02	-6.36365178704E-02	-6.61441031228E-02	1.31497274243E-02	-6.62680571053E-02	1.44066255112E-02	-6.42296933125E-03	2.26136309059E-01
1.71500000000E+09	-1.67133324274E-02	-6.30802881597E-02	-6.58457655276E-02	1.45578093906E-02	-6.59504291388E-02	1.58213962957E-02	-7.30404297663E-04	2.29117987911E-01
1.71550000000E+09	-1.36520014261E-02	-6.26385192852E-02	-6.55129411311E-02	1.59534193827E-02	-6.55880614173E-02	1.72219935760E-02	5.10511830572E-03	2.31874747925E-01
1.71600000000E+09	-1.05803643172E-02	-6.23192561889E-02	-6.51586949071E-02	1.73509980356E-02	-6.51987665713E-02	1.86121656282E-02	1.09668129145E-02	2.34511527912E-01
1.71650000000E+09	-7.50467860986E-03	-6.21069714699E-02	-6.47580952806E-02	1.87337829764E-02	-6.47566986269E-02	1.99950832014E-02	1.69535620043E-02	2.36918433180E-01
1.71700000000E+09	-4.42086118164E-03	-6.20118450273E-02	-6.43433701508E-02	2.01100739294E-02	-6.43251894449E-02	2.13689370742E-02	2.29528454587E-02	2.39129713487E-01
1.71750000000E+09	-1.33969735608E-03	-6.20212232422E-02	-6.38741038600E-02	2.14692288509E-02	-6.38333101273E-02	2.27566890735E-02	2.90586436820E-02	2.41176014767E-01
1.71800000000E+09	1.73424881047E-03	-6.21581021133E-02	-6.34093695235E-02	2.28410177032E-02	-6.33356549854E-02	2.40927280350E-02	3.51765806034E-02	2.42986423659E-01
1.71850000000E+09	4.77900688244E-03	-6.24116156283E-02	-6.28730593659E-02	2.41778504051E-02	-6.27772321839E-02	2.54233727067E-02	4.13541479858E-02	2.44626481032E-01
1.71900000000E+09	7.80400630695E-03	-6.27451835045E-02	-6.23454737654E-02	2.55084950703E-02	-6.22121354080E-02	2.67611302046E-02	4.76297065628E-02	2.46048209523E-01
1.71950000000E+09	1.08245193782E-02	-6.31883369498E-02	-6.17642952074E-02	2.68066520473E-02	-6.15997711183E-02	2.80558638070E-02	5.38647396259E-02	2.47260721164E-01
1.72000000000E+09	1.38085957137E-02	-6.37458256712E-02	-6.11636475869E-02	2.81110242666E-02	-6.09786890414E-02	2.93663276560E-02	6.01565940802E-02	2.48326494865E-01
1.72050000000E+09	1.67672868326E-02	-6.43845002867E-02	-6.05299577736E-02	2.94095266496E-02	-6.03179230491E-02	3.06499856381E-02	6.64492356105E-02	2.49158930515E-01
1.72100000000E+09	1.96927123506E-02	-6.51451584495E-02	-5.98767922866E-02	3.06797929943E-02	-5.96498211318E-02	3.19157126650E-02	7.28128672669E-02	2.49813762234E-01
1.72150000000E+09	2.25830059630E-02	-6.59718030365E-02	-5.91953040105E-02	3.19349307192E-02	-5.89339116548E-02	3.31653979472E-02	7.91869859603E-02	2.50261966717E-01
1.72200000000E+09	2.54358687342E-02	-6.69196645819E-02	-5.84891348918E-02	3.31733266238E-02	-5.81929899322E-02	3.44117577093E-02	8.55437680287E-02	2.50513758552E-01
1.72250000000E+09	2.82494629280E-02	-6.79397450866E-02	-5.77412367754E-02	3.43924399110E-02	-5.74173088030E-02	3.56196939316E-02	9.18793589903E-02	2.50540507571E-01
1.72300000000E+09	3.10092972691E-02	-6.90528727660E-02	-5.69873696780E-02	3.56057681546E-02	-5.66282710496E-02	3.68273824438E-02	9.82327867682E-02	2.50385731209E-01
1.72350000000E+09	3.37415461860E-02	-7.02367973814E-02	-5.61872238160E-02	3.68060965633E-02	-5.58148338104E-02	3.79990188286E-02	1.04543342148E-01	2.50028699419E-01
1.72400000000E+09	3.64139055180E-02	-7.15334319203E-02	-5.53878512250E-02	3.79766408695E-02	-5.49882940747E-02	3.91633546715E-02	1.10879330309E-01	2.49524684957E-01
1.72450000000E+09	3.90382514435E-02	-7.29066449154E-02	-5.45283122236E-02	3.91090825005E-02	-5.41082327346E-02	4.02922029157E-02	1.17193768336E-01	2.48770261507E-01
1.72500000000E+09	4.16059386659E-02	-7.43489242821E-02	-5.36701287209E-02	4.02471432562E-02	-5.32337580089E-02	4.14243827508E-02	1.23419977420E-01	2.47853686966E-01
1.72550000000E+09	4.41291190745E-02	-7.58582571244E-02	-5.27936677296E-02	4.13490583413E-02	-5.23172588889E-02	4.25310062690E-02	1.29684139951E-01	2.46719073583E-01
1.72600000000E+09	4.65997241396E-02	-7.74584942246E-02	-5.18766246612E-02	4.24586701433E-02	-5.13807188720E-02	4.36196373924E-02	1.35817336707E-01	2.45437293987E-01
1.72650000000E+09	4.89852482536E-02	-7.91353644471E-02	-5.09520760779E-02	4.35191562413E-02	-5.04142141242E-02	4.46583451172E-02	1.41956030740E-01	2.43898370859E-01
1.72700000000E+09	5.13285408739E-02	-8.08759730247E-02	-4.99985003343E-02	4.45661429113E-02	-4.94333518542E-02	4.56827791617E-02	1.48072031823E-01	2.42206679005E-01
1.72750000000E+09	5.35986972007E-02	-8.26715072214E-02	-4.90217041230E-02	4.55858083644E-02	-4.84411237815E-02	4.67126336539E-02	1.54089950229E-01	2.40369739854E-01
1.72800000000E+09	5.58185401206E-02	-8.45135643076E-02	-4.80148280062E-02	4.65937383799E-02	-4.74309706842E-02	4.76927827533E-02	1.60036715791E-01	2.38287775907E-01
1.72850000000E+09	5.79765586668E-02	-8.64450878716E-02	-4.70032142565E-02	4.75673367161E-02	-4.63794191597E-02	4.86596977080E-02	1.65934586504E-01	2.36053166618E-01
1.72900000000E+09	6.00765680901E-02	-8.84664892367E-02	-4.59748389096E-02	4.85329362411E-02	-4.53167590539E-02	4.96129317443E-02	1.71747148286E-01	2.33636785581E-01
1.72950000000E+09	6.20988759067E-02	-9.04906476762E-02	-4.49201121067E-02	4.94635529092E-02	-4.42425579678E-02	5.05280699974E-02	1.77499056409E-01	2.31053011699E-01
1.73000000000E+09	6.40410093479E-02	-9.26163792696E-02	-4.38503093901E-02	5.03814751439E-02	-4.31411037063E-02	5.14196585796E-02	1.83115755262E-01	2.28278937121E-01
1.73050000000E+09	6.59283953942E-02	-9.47555055997E-02	-4.27605928423E-02	5.12733677802E-02	-4.20357164096E-02	5.22963027317E-02	1.88700353141E-01	2.25366350918E-01
1.73100000000E+09	6.77390135372E-02	-9.69858733001E-02	-4.16512622461E-02	5.21162399196E-02	-4.08977791869E-02	5.31286914018E-02	1.94202842894E-01	2.22256798848E-01
1.73150000000E+09	6.94750544886E-02	-9.92480646161E-02	-4.05142003231E-02	5.29701989214E-02	-3.97557966594E-02	5.39373477600E-02	1.99547870732E-01	2.18998188442E-01
1.73200000000E+09	7.11665180563E-02	-1.01547587652E-01	-3.93774845134E-02	5.37679156994E-02	-3.85940050521E-02	5.47401874703E-02	2.04808121000E-01	2.15578404510E-01
1.73250000000E+09	7.27594356959E-02	-1.03914591015E-01	-3.82065065211E-02	5.45466876286E-02	-3.74104343539E-02	5.55127064393E-02	2.10000624560E-01	2.12009512801E-01
1.73300000000E+09	7.42567218051E-02	-1.06331775785E-01	-3.70432746318E-02	5.53010114939E-02	-3.62337621666E-02	5.62556626212E-02	2.15015493704E-01	2.08305042745E-01
1.73350000000E+09	7.57025022051E-02	-1.08790597268E-01	-3.58509856585E-02	5.60462941849E-02	-3.50171168085E-02	5.69495835105E-02	2.19957361089E-01	2.04420033285E-01
1.73400000000E+09	7.70599314242E-02	-1.11282688640E-01	-3.46619480466E-02	5.67591317687E-02	-3.37937409887E-02	5.76448156758E-02	2.24784024618E-01	2.00351968018E-01
1.73450000000E+09	7.83464252130E-02	-1.13803385156E-01	-3.34602011977E-02	5.74164210742E-02	-3.25817408736E-02	5.83035141261E-02	2.29471507669E-01	1.96205697957E-01
1.73500000000E+09	7.95177284929E-02	-1.16394471949E-01	-3.22318681546E-02	5.80897220298E-02	-3.13187113364E-02	5.89504720015E-02	2.34018181377E-01	1.91899073430E-01
1.73550000000E+09	8.06460685545E-02	-1.18992864375E-01	-3.09799746740E-02	5.87105654033E-02	-3.00716830765E-02	5.95455043246E-02	2.38471840067E-01	1.87490559362E-01
1.73600000000E+09	8.16395195433E-02	-1.21613080858E-01	-2.97430559927E-02	5.93242271064E-02	-2.88095758013E-02	6.01306529285E-02	2.42732843900E-01	1.82912554276E-01
1.73650000000E+09	8.26006736269E-02	-1.24286968788E-01	-2.84830397380E-02	5.98869359160E-02	-2.75347876041E-02	6.06695001334E-02	2.46886778402E-01	1.78230902300E-01
1.73700000000E+09	8.34495752836E-02	-1.26972399444E-01	-2.72248984477E-02	6.04126492398E-02	-2.62444509837E-02	6.12069273643E-02	2.50918241047E-01	1.73377079911E-01
1.73750000000E+09	8.42149902187E-02	-1.29666276335E-01	-2.59316435678E-02	6.09477376212E-02	-2.49487468993E-02	6.17049104780E-02	2.54753643659E-01	1.68466059145E-01
1.73800000000E+09	8.48698027142E-02	-1.32412729408E-01	-2.46496814194E-02	6.14144723924E-02	-2.36708351442E-02	6.21803960075E-02	2.58437097327E-01	1.63413001187E-01
1.73850000000E+09	8.54532717870E-02	-1.35156176957E-01	-2.33480388085E-02	6.18869244184E-02	-2.23455322317E-02	6.26164418817E-02	2.62049503179E-01	1.58285860597E-01
1.73900000000E+09	8.59411828428E-02	-1.37942744358E-01	-2.20736290686E-02	6.23235255525E-02	-2.10277270097E-02	6.30124883332E-02	2.65419345932E-01	1.53003200966E-01
1.73950000000E+09	8.63713021318E-02	-1.40719906363E-01	-2.07560678309E-02	6.27377281482E-02	-1.96973994496E-02	6.33842690296E-02	2.68681415732E-01	1.47648328585E-01
1.74000000000E+09	8.66720799677E-02	-1.43552387625E-01	-1.94238288095E-02	6.31041589081E-02	-1.83954046842E-02	6.37661626212E-02	2.71751702142E-01	1.42222175647E-01
1.74050000000E+09	8.68540755648E-02	-1.46338048716E-01	-1.81225174012E-02	6.34598702009E-02	-1.70516696333E-02	6.40939561334E-02	2.74655467657E-01	1.36641988874E-01
1.74100000000E+09	8.69726133671E-02	-1.49142938659E-01	-1.68081233048E-02	6.37867893422E-02	-1.57221719665E-02	6.43768543041E-02	2.77390063644E-01	1.31060567593E-01
1.74150000000E+09	8.69633913566E-02	-1.51963229528E-01	-1.54545774865E-02	6.40735434655E-02	-1.43917175579E-02	6.46562934944E-02	2.79978918953E-01	1.25329022023E-01
1.74200000000E+09	8.69086591981E-02	-1.54774212372E-01	-1.41208219617E-02	6.43504093703E-02	-1.30422768950E-02	6.49076950222E-02	2.82406159704E-01	1.19579272157E-01
1.74250000000E+09	8.66809551799E-02	-1.57571235706E-01	-1.27840064619E-02	6.45961309556E-02	-1.16904167670E-02	6.51107426955E-02	2.84645772785E-01	1.13707435099E-01
1.74300000000E+09	8.64351272697E-02	-1.60378661773E-01	-1.14467925693E-02	6.47831585576E-02	-1.03407786968E-02	6.53061652741E-02	2.86701280994E-01	1.07776833635E-01
1.74350000000E+09	8.60263202811E-02	-1.63167911684E-01	-1.01159140540E-02	6.49757648741E-02	-8.99092473120E-03	6.54619056195E-02	2.88581118974E-01	1.01785637918E-01
1.74400000000E+09	8.55596405467E-02	-1.65908698768E-01	-8.75814420313E-03	6.51319438816E-02	-7.63736855633E-03	6.55735057826E-02	2.90267473186E-01	9.57499388154E-02
1.74450000000E+09	8.49752016510E-02	-1.68697862413E-01	-7.42788136339E-03	6.52670144406E-02	-6.29947469414E-03	6.57089193253E-02	2.91803129605E-01	8.96783597783E-02
1.74500000000E+09	8.43015806381E-02	-1.71396517386E-01	-6.08613896652E-03	6.53575844905E-02	-4.95997879790E-03	6.57858204680E-02	2.93163649040E-01	8.35621125355E-02
1.74550000000E+09	8.34857377346E-02	-1.74094298233E-01	-4.73051207573E-03	6.54267343478E-02	-3.59804717015E-03	6.58196812937E-02	2.94316928822E-01	7.74003496386E-02
1.74600000000E+09	8.26182338411E-02	-1.76795369827E-01	-3.39388296737E-03	6.54827660794E-02	-2.25029501720E-03	6.58437444207E-02	2.95303628307E-01	7.11993419145E-02
1.74650000000E+09	8.16072859324E-02	-1.79422623546E-01	-2.06187218861E-03	6.54986598328E-02	-9.08939760813E-04	6.58273388861E-02	2.96090962015E-01	6.49794905299E-02
1.74700000000E+09	8.05093388160E-02	-1.82014252511E-01	-7.26475526686E-04	6.54837352210E-02	4.37337946527E-04	6.58000859090E-02	2.96643837965E-01	5.87466471284E-02
1.74750000000E+09	7.93506012920E-02	-1.84549944383E-01	6.07479933719E-04	6.54504875481E-02	1.78019441194E-03	6.57537134104E-02	2.97103872365E-01	5.24698789686E-02
1.74800000000E+09	7.80762331279E-02	-1.87069210043E-01	1.93545218632E-03	6.53903047620E-02	3.12218125856E-03	6.56564529431E-02	2.97308885358E-01	4.61713201356E-02
1.74850000000E+09	7.66685875845E-02	-1.89499418069E-01	3.26155510471E-03	6.53172454062E-02	4.45739107463E-03	6.55496229477E-02	2.97333950305E-01	3.99046617788E-02
1.74900000000E+09	7.51970738674E-02	-1.91893067145E-01	4.60219570299E-03	6.51790506927E-02	5.77724079376E-03	6.53955692071E-02	2.97170558363E-01	3.36029594798E-02
1.74950000000E+09	7.36176060298E-02	-1.94199500004E-01	5.91839523954E-03	6.50332629753E-02	7.09488110128E-03	6.52477041988E-02	2.96850240097E-01	2.73378340792E-02
1.75000000000E+09	7.19383405657E-02	-1.96465787117E-01	7.23111180776E-03	6.48643328191E-02	8.43046070912E-03	6.50612721364E-02	2.96341617063E-01	2.10834457130E-02
1.75050000000E+09	7.01842598995E-02	-1.98676562956E-01	8.52866373367E-03	6.46763707630E-02	9.72580505523E-03	6.48484373145E-02	2.95566485057E-01	1.48435819536E-02
1.75100000000E+09	6.83657167693E-02	-2.00803995952E-01	9.83523391154E-03	6.44626648860E-02	1.10387850847E-02	6.45961070509E-02	2.94683753106E-01	8.58518976213E-03
1.75150000000E+09	6.64133549028E-02	-2.02857954996E-01	1.11285419732E-02	6.42152996074E-02	1.23215958487E-02	6.43284937699E-02	2.93609032783E-01	2.41983412493E-03
1.75200000000E+09	6.44017884216E-02	-2.04786399153E-01	1.24214732290E-02	6.39506681870E-02	1.36286356480E-02	6.40446324320E-02	2.92343534956E-01	-3.77499846330E-03
1.75250000000E+09	6.23156733000E-02	-2.06672405050E-01	1.36889621488E-02	6.36601856880E-02	1.48857642220E-02	6.37371488375E-02	2.90852764416E-01	-9.86695081077E-03
1.75300000000E+09	6.01265899248E-02	-2.08432823709E-01	1.49614018918E-02	6.33502625855E-02	1.61511644348E-02	6.33890100528E-02	2.89186628415E-01	-1.59292245814E-02
1.75350000000E+09	5.78778684445E-02	-2.10132703297E-01	1.62242948090E-02	6.30040880083E-02	1.74248789505E-02	6.30267566614E-02	2.87352631594E-01	-2.19778721631E-02
1.75400000000E+09	5.55192699844E-02	-2.11689058814E-01	1.74693198918E-02	6.26465696663E-02	1.86709444092E-02	6.26362813202E-02	2.85292910656E-01	-2.79296012863E-02
1.75450000000E+09	5.31534631257E-02	-2.13157301684E-01	1.87283237779E-02	6.22510271921E-02	1.99092951946E-02	6.22274630948E-02	2.83098462936E-01	-3.38512268021E-02
1.75500000000E+09	5.06966200649E-02	-2.14524432567E-01	1.99499999584E-02	6.18389690273E-02	2.11487612641E-02	6.17896770162E-02	2.80732543188E-01	-3.97003053741E-02
1.75550000000E+09	4.81869798863E-02	-2.15749171142E-01	2.11700220579E-02	6.14192617321E-02	2.23833429282E-02	6.13350076803E-02	2.78116801720E-01	-4.54985478886E-02
1.75600000000E+09	4.56333424258E-02	-2.16926083190E-01	2.23913922277E-02	6.09536173995E-02	2.36024109223E-02	6.08501389223E-02	2.75423946080E-01	-5.11714099613E-02
1.75650000000E+09	4.30082237284E-02	-2.17904104715E-01	2.36127451110E-02	6.04920726818E-02	2.47831956531E-02	6.03622764834E-02	2.72499349817E-01	-5.67784422873E-02
1.75700000000E+09	4.03412768076E-02	-2.18789414547E-01	2.47873907906E-02	5.99797363349E-02	2.59827121281E-02	5.98515955143E-02	2.69417684708E-01	-6.22536308489E-02
1.75750000000E+09	3.76412157353E-02	-2.19537730796E-01	2.59671952303E-02	5.94672945378E-02	2.71531769610E-02	5.92890484235E-02	2.66134873796E-01	-6.76669672792E-02
1.75800000000E+09	3.49285214728E-02	-2.20165373585E-01	2.71404357425E-02	5.89294687124E-02	2.83166647019E-02	5.87484738505E-02	2.62725537966E-01	-7.30075366202E-02
1.75850000000E+09	3.21693698404E-02	-2.20664479058E-01	2.82967712414E-02	5.83685349479E-02	2.94926137103E-02	5.81701042074E-02	2.59126242393E-01	-7.82109233440E-02
