# Hz S RI R 50
! CMT, CMT808U, 21440046, 21.4.3/4
! Date: 11/20/2025 11:37:22 PM
! Data: Format (Calibration Info)
! Freq	S11:Re/Im(F2)	S41:Re/Im(F2)	S14:Re/Im(F2)	S44:Re/Im(F2)
1.70000000000E+09	-8.07672777580E-02	-1.23138620342E-01	-5.60206015793E-02	-4.27867814196E-02	-5.66850952489E-02	-4.23706934312E-02	-1.07688365083E-01	4.77500986398E-02
1.70050000000E+09	-8.08134125997E-02	-1.20024430688E-01	-5.69488742189E-02	-4.16473324831E-02	-5.76066182286E-02	-4.12411533809E-02	-1.07828132014E-01	5.36076518962E-02
1.70100000000E+09	-8.06616503120E-02	-1.16884263094E-01	-5.78703147724E-02	-4.04923395495E-02	-5.84962688471E-02	-4.00501251690E-02	-1.07769566210E-01	5.94447279360E-02
1.70150000000E+09	-8.03141843973E-02	-1.13738432862E-01	-5.87594157509E-02	-3.93070124668E-02	-5.93812067613E-02	-3.88624021448E-02	-1.07526078096E-01	6.52600246819E-02
1.70200000000E+09	-7.98159455342E-02	-1.10603220133E-01	-5.96390514170E-02	-3.81151555924E-02	-6.02445416104E-02	-3.76329673488E-02	-1.07072763095E-01	7.11045386386E-02
1.70250000000E+09	-7.90959560903E-02	-1.07468279710E-01	-6.04595996637E-02	-3.68960074879E-02	-6.10722696437E-02	-3.64151571865E-02	-1.06413165946E-01	7.68949272434E-02
1.70300000000E+09	-7.82137868351E-02	-1.04331941398E-01	-6.12966937149E-02	-3.56407678991E-02	-6.18889857554E-02	-3.51302743871E-02	-1.05590846509E-01	8.26347182243E-02
1.70350000000E+09	-7.71630918748E-02	-1.01259635933E-01	-6.20970347979E-02	-3.43509407028E-02	-6.26789373259E-02	-3.38546978556E-02	-1.04588211928E-01	8.83567495886E-02
1.70400000000E+09	-7.59208754367E-02	-9.82191734487E-02	-6.28738214134E-02	-3.30810785262E-02	-6.34470910033E-02	-3.25560907688E-02	-1.03376480114E-01	9.40595523879E-02
1.70450000000E+09	-7.45356412874E-02	-9.52328461286E-02	-6.36404557884E-02	-3.17621228620E-02	-6.41969422668E-02	-3.12212747806E-02	-1.01952941698E-01	9.97160616180E-02
1.70500000000E+09	-7.29942574785E-02	-9.22735464595E-02	-6.43521469118E-02	-3.04250549726E-02	-6.49096684234E-02	-2.98562839343E-02	-1.00361874162E-01	1.05318711413E-01
1.70550000000E+09	-7.12664103148E-02	-8.94121375666E-02	-6.50572356962E-02	-2.90654413444E-02	-6.55910216910E-02	-2.85031683446E-02	-9.86112991655E-02	1.10831150510E-01
1.70600000000E+09	-6.94222352329E-02	-8.66306433856E-02	-6.57155159189E-02	-2.76918172711E-02	-6.62541859809E-02	-2.71075734623E-02	-9.66568378342E-02	1.16291864553E-01
1.70650000000E+09	-6.74084764725E-02	-8.38943623301E-02	-6.63628376983E-02	-2.62701400027E-02	-6.68833632138E-02	-2.57192759769E-02	-9.45007963783E-02	1.21703979982E-01
1.70700000000E+09	-6.52866609109E-02	-8.12873320769E-02	-6.69712474547E-02	-2.48627158585E-02	-6.74859045862E-02	-2.42560528190E-02	-9.22062122851E-02	1.27005013785E-01
1.70750000000E+09	-6.29895321470E-02	-7.87385252929E-02	-6.75521960523E-02	-2.34313067021E-02	-6.80464077635E-02	-2.28093798128E-02	-8.97484798520E-02	1.32248042214E-01
1.70800000000E+09	-6.05782336291E-02	-7.62984558031E-02	-6.80973955671E-02	-2.19904519201E-02	-6.85895665306E-02	-2.13629093971E-02	-8.70650703381E-02	1.37389406518E-01
1.70850000000E+09	-5.80685165758E-02	-7.39685103059E-02	-6.86237606210E-02	-2.05022047259E-02	-6.90814787675E-02	-1.98762745523E-02	-8.42689480985E-02	1.42441069855E-01
1.70900000000E+09	-5.54231834908E-02	-7.17499344031E-02	-6.90836611760E-02	-1.90328650853E-02	-6.95494768397E-02	-1.83754841472E-02	-8.12952393541E-02	1.47401074503E-01
1.70950000000E+09	-5.26951035586E-02	-6.96583916649E-02	-6.95372062882E-02	-1.75284717784E-02	-6.99885022760E-02	-1.68571274030E-02	-7.81636899684E-02	1.52215565248E-01
1.71000000000E+09	-4.98469238657E-02	-6.76718235027E-02	-6.99612525859E-02	-1.60142918207E-02	-7.03829195956E-02	-1.53511410442E-02	-7.48696091484E-02	1.56980948243E-01
1.71050000000E+09	-4.69243804696E-02	-6.58109914343E-02	-7.03253619551E-02	-1.44872226518E-02	-7.07544069160E-02	-1.38001954004E-02	-7.14650490791E-02	1.61614032968E-01
1.71100000000E+09	-4.39064290829E-02	-6.40663601541E-02	-7.06663303223E-02	-1.29461133822E-02	-7.10692954416E-02	-1.22521429202E-02	-6.78359584252E-02	1.66127622671E-01
1.71150000000E+09	-4.08185828435E-02	-6.24611772453E-02	-7.09761213451E-02	-1.14010756502E-02	-7.13570505177E-02	-1.07075509627E-02	-6.41066244440E-02	1.70498335504E-01
1.71200000000E+09	-3.76497861091E-02	-6.09707799392E-02	-7.12304523588E-02	-9.84268599936E-03	-7.16091222759E-02	-9.13848816526E-03	-6.02611799183E-02	1.74758657440E-01
1.71250000000E+09	-3.44310549843E-02	-5.96451154964E-02	-7.14765115265E-02	-8.27313150211E-03	-7.18231582042E-02	-7.55192398166E-03	-5.62580718503E-02	1.78913498639E-01
1.71300000000E+09	-3.11729711151E-02	-5.84441923787E-02	-7.16768632160E-02	-6.70955725202E-03	-7.20052952719E-02	-5.97838876320E-03	-5.21395577095E-02	1.82888196483E-01
1.71350000000E+09	-2.78556410111E-02	-5.73509802001E-02	-7.18252606841E-02	-5.11638620631E-03	-7.21580653047E-02	-4.38167035569E-03	-4.78954642914E-02	1.86760068634E-01
1.71400000000E+09	-2.44649917927E-02	-5.64092742855E-02	-7.19378348265E-02	-3.53854516503E-03	-7.22426133903E-02	-2.80805870331E-03	-4.35446781898E-02	1.90444113966E-01
1.71450000000E+09	-2.10810725822E-02	-5.55883759822E-02	-7.20062067381E-02	-1.95492086351E-03	-7.23175448318E-02	-1.20055798443E-03	-3.90439568809E-02	1.94029876629E-01
1.71500000000E+09	-1.76439914832E-02	-5.49128477324E-02	-7.20624048721E-02	-3.73403773816E-04	-7.23266596191E-02	3.86728297199E-04	-3.44697016809E-02	1.97448056799E-01
1.71550000000E+09	-1.41894387408E-02	-5.43650190579E-02	-7.20663985454E-02	1.24024439014E-03	-7.23251274374E-02	1.99593675509E-03	-2.97277231829E-02	2.00694799689E-01
1.71600000000E+09	-1.07274011684E-02	-5.39603456495E-02	-7.20253736048E-02	2.82327321679E-03	-7.22782416181E-02	3.58720915244E-03	-2.49639904882E-02	2.03842348964E-01
1.71650000000E+09	-7.23006652759E-03	-5.36803865603E-02	-7.19624979195E-02	4.42571978268E-03	-7.21740321245E-02	5.19990365601E-03	-2.00379062994E-02	2.06801102982E-01
1.71700000000E+09	-3.73864366151E-03	-5.35192212461E-02	-7.18228128535E-02	6.01359889775E-03	-7.20410147153E-02	6.78843845831E-03	-1.50781659541E-02	2.09550290821E-01
1.71750000000E+09	-2.43503231514E-04	-5.35083987265E-02	-7.16966522868E-02	7.60272237007E-03	-7.18733478985E-02	8.37649721666E-03	-9.99175353953E-03	2.12195930610E-01
1.71800000000E+09	3.25392337456E-03	-5.36368906339E-02	-7.15013546933E-02	9.16537630570E-03	-7.16720644038E-02	9.96398599584E-03	-4.86209759301E-03	2.14679893757E-01
1.71850000000E+09	6.72440241827E-03	-5.38924475492E-02	-7.12573408295E-02	1.07517686507E-02	-7.14192904316E-02	1.15314054002E-02	3.29013430984E-04	2.16991699442E-01
1.71900000000E+09	1.01697283257E-02	-5.42515742585E-02	-7.10047833597E-02	1.23341114724E-02	-7.11320926304E-02	1.31278112731E-02	5.67434688962E-03	2.19112016474E-01
1.71950000000E+09	1.36168452969E-02	-5.47499497241E-02	-7.07009999857E-02	1.38829647630E-02	-7.08066921813E-02	1.46797005178E-02	1.09852765087E-02	2.21064230645E-01
1.72000000000E+09	1.70340270750E-02	-5.53861605400E-02	-7.03507605514E-02	1.54292768986E-02	-7.04523193362E-02	1.62304046029E-02	1.63688728511E-02	2.22851687733E-01
1.72050000000E+09	2.04203774660E-02	-5.61079720039E-02	-6.99807460792E-02	1.69779595061E-02	-7.00594336117E-02	1.77933964923E-02	2.18551732465E-02	2.24455134318E-01
1.72100000000E+09	2.37678265225E-02	-5.69874542906E-02	-6.95624735755E-02	1.85236344989E-02	-6.96202040291E-02	1.93224774481E-02	2.73616888818E-02	2.25939583285E-01
1.72150000000E+09	2.70955600697E-02	-5.79610115775E-02	-6.91260559997E-02	2.00464133602E-02	-6.91491204303E-02	2.08400084489E-02	3.29072346567E-02	2.27216702079E-01
1.72200000000E+09	3.03688730766E-02	-5.90425548213E-02	-6.86281627921E-02	2.15555962814E-02	-6.86617486127E-02	2.23579630048E-02	3.85368214856E-02	2.28288341781E-01
1.72250000000E+09	3.35952091991E-02	-6.02437799268E-02	-6.81136488118E-02	2.30525364160E-02	-6.81183161965E-02	2.38428993848E-02	4.41240109127E-02	2.29216424780E-01
1.72300000000E+09	3.67537051234E-02	-6.15746033071E-02	-6.75535552017E-02	2.45153629118E-02	-6.75370672400E-02	2.53276014505E-02	4.97188500983E-02	2.29906992241E-01
1.72350000000E+09	3.98760976838E-02	-6.29861143694E-02	-6.69615912469E-02	2.59910073636E-02	-6.69309351181E-02	2.67910739580E-02	5.53884081871E-02	2.30462635175E-01
1.72400000000E+09	4.29443861287E-02	-6.44991318563E-02	-6.63453788891E-02	2.74466354360E-02	-6.62868635758E-02	2.82509421809E-02	6.10596650145E-02	2.30865041696E-01
1.72450000000E+09	4.59435395737E-02	-6.61385093273E-02	-6.56804693907E-02	2.88705711099E-02	-6.56207215342E-02	2.96794932028E-02	6.67483886566E-02	2.31068264668E-01
1.72500000000E+09	4.88787402074E-02	-6.78599390011E-02	-6.50020093430E-02	3.02832288112E-02	-6.48921387670E-02	3.10906647020E-02	7.23714590957E-02	2.31092006527E-01
1.72550000000E+09	5.17465852419E-02	-6.96579454249E-02	-6.42746770799E-02	3.16699180062E-02	-6.41807012298E-02	3.24690659942E-02	7.80964479455E-02	2.30916944972E-01
1.72600000000E+09	5.45747068359E-02	-7.15938600968E-02	-6.35313755477E-02	3.30579161548E-02	-6.33991764370E-02	3.38504672665E-02	8.37365243167E-02	2.30579960471E-01
1.72650000000E+09	5.72853725985E-02	-7.35897818629E-02	-6.27451059049E-02	3.44097013753E-02	-6.26047578588E-02	3.52151959905E-02	8.94054562377E-02	2.30066851823E-01
1.72700000000E+09	5.99476610785E-02	-7.56771925935E-02	-6.19437327034E-02	3.57313829131E-02	-6.17695948583E-02	3.65333809073E-02	9.50394090615E-02	2.29353539653E-01
1.72750000000E+09	6.25093057354E-02	-7.78543368493E-02	-6.10897461238E-02	3.70524810108E-02	-6.09087239743E-02	3.78382276727E-02	1.00632420793E-01	2.28517237297E-01
1.72800000000E+09	6.49927918363E-02	-8.00949590526E-02	-6.02195568118E-02	3.83439620760E-02	-6.00346004329E-02	3.91396660797E-02	1.06225473279E-01	2.27472359537E-01
1.72850000000E+09	6.73960279221E-02	-8.24295723259E-02	-5.93240284205E-02	3.96178530838E-02	-5.91026392700E-02	4.03888780738E-02	1.11775456137E-01	2.26242395447E-01
1.72900000000E+09	6.97411449704E-02	-8.48121885367E-02	-5.84131555280E-02	4.08712208840E-02	-5.81569852655E-02	4.16268969945E-02	1.17270033198E-01	2.24858616319E-01
1.72950000000E+09	7.19819753723E-02	-8.72934769054E-02	-5.74551538197E-02	4.20845361463E-02	-5.72071478526E-02	4.28510390686E-02	1.22728913199E-01	2.23323504820E-01
1.73000000000E+09	7.41425771298E-02	-8.98404924972E-02	-5.64853737599E-02	4.32835152429E-02	-5.62131421746E-02	4.40313644856E-02	1.28124995957E-01	2.21565287208E-01
1.73050000000E+09	7.61989622358E-02	-9.24322480151E-02	-5.54820908854E-02	4.44458543221E-02	-5.51870932686E-02	4.52126668689E-02	1.33491224527E-01	2.19676485370E-01
1.73100000000E+09	7.81427494498E-02	-9.51002263452E-02	-5.44548125759E-02	4.56079280074E-02	-5.41377797905E-02	4.63333342559E-02	1.38772217974E-01	2.17615878102E-01
1.73150000000E+09	8.00234624055E-02	-9.78227826479E-02	-5.34099619816E-02	4.67151978723E-02	-5.30870311804E-02	4.74633202233E-02	1.44005259763E-01	2.15396005024E-01
1.73200000000E+09	8.18061708654E-02	-1.00584020978E-01	-5.23465215585E-02	4.78179901408E-02	-5.19984645039E-02	4.85405848038E-02	1.49158255845E-01	2.12979719573E-01
1.73250000000E+09	8.34932869079E-02	-1.03406324308E-01	-5.12536689946E-02	4.88785787465E-02	-5.08867730687E-02	4.95930300924E-02	1.54207835982E-01	2.10451963728E-01
1.73300000000E+09	8.50689349107E-02	-1.06294498741E-01	-5.01282232766E-02	4.99245497810E-02	-4.97777225794E-02	5.06263638509E-02	1.59204538658E-01	2.07775587405E-01
1.73350000000E+09	8.65446885518E-02	-1.09206873041E-01	-4.90115660842E-02	5.09399925815E-02	-4.86036318824E-02	5.16206479853E-02	1.64144120521E-01	2.04918311177E-01
1.73400000000E+09	8.79263454817E-02	-1.12178350973E-01	-4.78547362832E-02	5.19230282170E-02	-4.74522179856E-02	5.26018988803E-02	1.68972817698E-01	2.01888336498E-01
1.73450000000E+09	8.91930829707E-02	-1.15167766796E-01	-4.66710770273E-02	5.28733820585E-02	-4.62583415894E-02	5.35533463951E-02	1.73741650159E-01	1.98732328996E-01
1.73500000000E+09	9.03509020047E-02	-1.18218425115E-01	-4.54873342731E-02	5.38086871512E-02	-4.50557626603E-02	5.44541868034E-02	1.78330193139E-01	1.95410100977E-01
1.73550000000E+09	9.14177846472E-02	-1.21272916180E-01	-4.42823967664E-02	5.47173702508E-02	-4.38330161494E-02	5.53517890291E-02	1.82905269331E-01	1.91965074585E-01
1.73600000000E+09	9.23593373288E-02	-1.24359468020E-01	-4.30752260200E-02	5.55869441672E-02	-4.26071868671E-02	5.62193202233E-02	1.87283209877E-01	1.88389477570E-01
1.73650000000E+09	9.32081098147E-02	-1.27477572816E-01	-4.18106936850E-02	5.64287947180E-02	-4.13542218428E-02	5.70527939022E-02	1.91621946106E-01	1.84668572693E-01
1.73700000000E+09	9.39508105010E-02	-1.30619657177E-01	-4.05789098811E-02	5.72353765901E-02	-4.00866042964E-02	5.78507517112E-02	1.95805613640E-01	1.80800236793E-01
1.73750000000E+09	9.45671571779E-02	-1.33757404543E-01	-3.93073844435E-02	5.80081728250E-02	-3.88091338471E-02	5.86196563314E-02	1.99897054806E-01	1.76844217743E-01
1.73800000000E+09	9.50887401620E-02	-1.36920621872E-01	-3.80197133262E-02	5.87741973598E-02	-3.75201246023E-02	5.93485260090E-02	2.03855035329E-01	1.72688249772E-01
1.73850000000E+09	9.54960432606E-02	-1.40085831309E-01	-3.67291316391E-02	5.94855399299E-02	-3.62101795798E-02	6.00693105224E-02	2.07690833821E-01	1.68485331879E-01
1.73900000000E+09	9.57977434406E-02	-1.43261778115E-01	-3.54248245779E-02	6.01858351383E-02	-3.49137447042E-02	6.07582307176E-02	2.11411398211E-01	1.64106868446E-01
1.73950000000E+09	9.60289271443E-02	-1.46423976047E-01	-3.41005637498E-02	6.08475241847E-02	-3.35693469204E-02	6.14087843155E-02	2.14984723974E-01	1.59641584680E-01
1.74000000000E+09	9.60869584687E-02	-1.49652463653E-01	-3.27819566482E-02	6.14761972863E-02	-3.22434753616E-02	6.20140225609E-02	2.18394577658E-01	1.55069548896E-01
1.74050000000E+09	9.60489823380E-02	-1.52814405075E-01	-3.14324019898E-02	6.20821287767E-02	-3.08925951459E-02	6.26275920001E-02	2.21677122194E-01	1.50382806849E-01
1.74100000000E+09	9.59101949047E-02	-1.55987385802E-01	-3.00966703114E-02	6.26605901898E-02	-2.95486949360E-02	6.31709162820E-02	2.24823602035E-01	1.45570636534E-01
1.74150000000E+09	9.56530154829E-02	-1.59141388565E-01	-2.87476149087E-02	6.31955435651E-02	-2.81828503657E-02	6.37008504694E-02	2.27817013510E-01	1.40689756672E-01
1.74200000000E+09	9.52968080295E-02	-1.62297939542E-01	-2.73937306489E-02	6.37201067344E-02	-2.68162465262E-02	6.42124847398E-02	2.30684348736E-01	1.35706319806E-01
1.74250000000E+09	9.47844569703E-02	-1.65401021670E-01	-2.60244123471E-02	6.41994303344E-02	-2.54328983649E-02	6.46822974269E-02	2.33399909167E-01	1.30626774837E-01
1.74300000000E+09	9.42277715969E-02	-1.68514717665E-01	-2.46576084455E-02	6.46485252959E-02	-2.40558524867E-02	6.51168808589E-02	2.35932186799E-01	1.25450162432E-01
1.74350000000E+09	9.35213248094E-02	-1.71580774247E-01	-2.32717130816E-02	6.50728221587E-02	-2.26747918828E-02	6.55200093430E-02	2.38325872655E-01	1.20204602294E-01
1.74400000000E+09	9.27158347996E-02	-1.74588846548E-01	-2.18888553850E-02	6.54645661221E-02	-2.12704309842E-02	6.59028921580E-02	2.40553693464E-01	1.14906031633E-01
1.74450000000E+09	9.17835320490E-02	-1.77633630820E-01	-2.05083558745E-02	6.58362176533E-02	-1.98775706515E-02	6.62536205451E-02	2.42609455592E-01	1.09499415911E-01
1.74500000000E+09	9.07606889130E-02	-1.80577592199E-01	-1.91187987204E-02	6.61702643088E-02	-1.84836789574E-02	6.65668999049E-02	2.44527042198E-01	1.04061704741E-01
1.74550000000E+09	8.96014874522E-02	-1.83509601956E-01	-1.77120716074E-02	6.64615242120E-02	-1.70899564699E-02	6.68666872876E-02	2.46237150185E-01	9.85567579299E-02
1.74600000000E+09	8.83819704465E-02	-1.86383888065E-01	-1.63464801868E-02	6.67450280539E-02	-1.56936008720E-02	6.71274574139E-02	2.47821840213E-01	9.29424457900E-02
1.74650000000E+09	8.69963782115E-02	-1.89194712958E-01	-1.49256876376E-02	6.69928734040E-02	-1.42903992318E-02	6.73445579836E-02	2.49203212703E-01	8.73566177005E-02
1.74700000000E+09	8.55282567422E-02	-1.91966011840E-01	-1.35258368767E-02	6.72007579718E-02	-1.28778827750E-02	6.75618407810E-02	2.50402095039E-01	8.16701663586E-02
1.74750000000E+09	8.39911293499E-02	-1.94662886071E-01	-1.21498712794E-02	6.73876371492E-02	-1.14800970575E-02	6.77391033927E-02	2.51473122330E-01	7.59811606955E-02
1.74800000000E+09	8.23036419611E-02	-1.97297157886E-01	-1.07498526731E-02	6.75457088947E-02	-1.00758801659E-02	6.78645902538E-02	2.52342223436E-01	7.02376842896E-02
1.74850000000E+09	8.05383750935E-02	-1.99856460729E-01	-9.35306372546E-03	6.76692864105E-02	-8.68562358253E-03	6.79801701619E-02	2.53012220438E-01	6.44491036429E-02
1.74900000000E+09	7.86559431849E-02	-2.02350596250E-01	-7.95859032829E-03	6.77773477001E-02	-7.27962006440E-03	6.80820795555E-02	2.53515106941E-01	5.86381083710E-02
1.74950000000E+09	7.66713160462E-02	-2.04768811342E-01	-6.56902075402E-03	6.78430188917E-02	-5.90378577939E-03	6.81357924805E-02	2.53856793712E-01	5.28612011860E-02
1.75000000000E+09	7.46186166541E-02	-2.07093074658E-01	-5.17344373187E-03	6.78929464171E-02	-4.49965500735E-03	6.81625224271E-02	2.54011473082E-01	4.69915653028E-02
1.75050000000E+09	7.24735991781E-02	-2.09343807796E-01	-3.79015792024E-03	6.79282119209E-02	-3.10784368243E-03	6.81764988010E-02	2.53966276600E-01	4.11660971843E-02
1.75100000000E+09	7.02482172376E-02	-2.11513356042E-01	-2.40606553663E-03	6.79097129308E-02	-1.73401890659E-03	6.81432181073E-02	2.53782568952E-01	3.52882876625E-02
1.75150000000E+09	6.78844499649E-02	-2.13569519625E-01	-1.04517296309E-03	6.78714616755E-02	-3.55876167146E-04	6.81026766612E-02	2.53381484823E-01	2.95066876399E-02
1.75200000000E+09	6.54946076400E-02	-2.15509888853E-01	3.23042322845E-04	6.78013672041E-02	1.02632813090E-03	6.80183646558E-02	2.52821500006E-01	2.36250861844E-02
1.75250000000E+09	6.30000642398E-02	-2.17378120161E-01	1.68160590544E-03	6.77349414402E-02	2.39908559858E-03	6.79185861578E-02	2.52066323777E-01	1.77939523458E-02
1.75300000000E+09	6.04221381464E-02	-2.19105654626E-01	3.03707305841E-03	6.76066773399E-02	3.74648955475E-03	6.78030688612E-02	2.51128094104E-01	1.20582998170E-02
1.75350000000E+09	5.77811965266E-02	-2.20743732605E-01	4.40272918369E-03	6.74636900798E-02	5.11713866189E-03	6.76517041072E-02	2.49992149701E-01	6.25535997313E-03
1.75400000000E+09	5.50425959133E-02	-2.22253508921E-01	5.74268167690E-03	6.72830183200E-02	6.46593694756E-03	6.74645194529E-02	2.48659327713E-01	5.03634120119E-04
1.75450000000E+09	5.22667826396E-02	-2.23638810844E-01	7.08159932523E-03	6.71102199878E-02	7.80478557653E-03	6.72614504761E-02	2.47181974804E-01	-5.21050909643E-03
1.75500000000E+09	4.94179014196E-02	-2.24884308059E-01	8.42001599588E-03	6.68912575035E-02	9.13081450887E-03	6.70561427555E-02	2.45566534947E-01	-1.08688648169E-02
1.75550000000E+09	4.65260244502E-02	-2.26013227338E-01	9.72913820274E-03	6.66572195919E-02	1.04678791311E-02	6.67789819605E-02	2.43679141118E-01	-1.65072012510E-02
1.75600000000E+09	4.35968866928E-02	-2.27025886460E-01	1.10416520060E-02	6.63994781593E-02	1.17717939429E-02	6.65094063543E-02	2.41699131314E-01	-2.20384662121E-02
1.75650000000E+09	4.05959594015E-02	-2.27859347093E-01	1.23497816406E-02	6.60996560504E-02	1.30835406566E-02	6.62020305256E-02	2.39495562330E-01	-2.75548052312E-02
1.75700000000E+09	3.75772210282E-02	-2.28572127488E-01	1.36504191158E-02	6.57880180917E-02	1.43761862251E-02	6.58930319539E-02	2.37139710999E-01	-3.29587477367E-02
1.75750000000E+09	3.45236996598E-02	-2.29153224034E-01	1.49189368385E-02	6.54671522137E-02	1.56789383981E-02	6.55402287984E-02	2.34592820215E-01	-3.83434877540E-02
1.75800000000E+09	3.14530003935E-02	-2.29578332683E-01	1.62215295855E-02	6.50984345262E-02	1.69437946304E-02	6.51656695067E-02	2.31859445266E-01	-4.36429796317E-02
1.75850000000E+09	2.83587505126E-02	-2.29848675773E-01	1.74882994116E-02	6.47366117014E-02	1.82188720236E-02	6.47969522398E-02	2.28974438973E-01	-4.88383850499E-02
