# Hz S RI R 50
! CMT, CMT808U, 21440046, 21.4.3/4
! Date: 11/20/2025 11:43:27 PM
! Data: Format (Calibration Info)
! Freq	S11:Re/Im(F2)	S41:Re/Im(F2)	S14:Re/Im(F2)	S44:Re/Im(F2)
1.70000000000E+09	-7.35243121103E-02	-1.20239211940E-01	-5.51938991863E-02	-3.65764248459E-02	-5.56185543677E-02	-3.62923001287E-02	-1.33100647750E-01	5.09315300371E-02
1.70050000000E+09	-7.34122354561E-02	-1.17479226324E-01	-5.59652390217E-02	-3.54593082117E-02	-5.64143659050E-02	-3.51703657486E-02	-1.32973315101E-01	5.69763256713E-02
1.70100000000E+09	-7.31401800416E-02	-1.14678526946E-01	-5.67340051691E-02	-3.43067843191E-02	-5.71632764257E-02	-3.40019952935E-02	-1.32623183965E-01	6.29947444732E-02
1.70150000000E+09	-7.27226397633E-02	-1.11902139880E-01	-5.74821987083E-02	-3.31477371257E-02	-5.78864543652E-02	-3.28278506324E-02	-1.32099657787E-01	6.90057006829E-02
1.70200000000E+09	-7.21007921805E-02	-1.09141308035E-01	-5.81972540320E-02	-3.19783204324E-02	-5.86201424904E-02	-3.16553875651E-02	-1.31362530624E-01	7.50206921869E-02
1.70250000000E+09	-7.13183075593E-02	-1.06337138853E-01	-5.89093926807E-02	-3.07781316811E-02	-5.93150894570E-02	-3.04401493314E-02	-1.30420819870E-01	8.09227111303E-02
1.70300000000E+09	-7.03836344646E-02	-1.03583769477E-01	-5.95959645699E-02	-2.95617172763E-02	-5.99954535216E-02	-2.92247410767E-02	-1.29313152635E-01	8.68507089475E-02
1.70350000000E+09	-6.93162381483E-02	-1.00860915753E-01	-6.02411959464E-02	-2.83459307331E-02	-6.06547861651E-02	-2.79949564753E-02	-1.28035949015E-01	9.27113236689E-02
1.70400000000E+09	-6.80477455607E-02	-9.81978714744E-02	-6.08650948211E-02	-2.70879913256E-02	-6.12725497561E-02	-2.67330072471E-02	-1.26545080510E-01	9.84916105341E-02
1.70450000000E+09	-6.66488243899E-02	-9.55763472053E-02	-6.14810660452E-02	-2.58215562405E-02	-6.18805933681E-02	-2.54601154311E-02	-1.24850699774E-01	1.04239993496E-01
1.70500000000E+09	-6.51257278757E-02	-9.30057077430E-02	-6.20651255132E-02	-2.45535566509E-02	-6.24527649931E-02	-2.41815608311E-02	-1.22992090710E-01	1.09926997206E-01
1.70550000000E+09	-6.34281207441E-02	-9.05232186057E-02	-6.26283853355E-02	-2.32483046093E-02	-6.30039330645E-02	-2.28653564551E-02	-1.20937092943E-01	1.15544978444E-01
1.70600000000E+09	-6.16232612657E-02	-8.80882905212E-02	-6.31512912300E-02	-2.19407029157E-02	-6.35382854378E-02	-2.15500195668E-02	-1.18732933700E-01	1.21094757695E-01
1.70650000000E+09	-5.96818321484E-02	-8.57373544467E-02	-6.36660274944E-02	-2.06156831634E-02	-6.40305526873E-02	-2.02133560969E-02	-1.16325287982E-01	1.26531662356E-01
1.70700000000E+09	-5.76342526280E-02	-8.34667285989E-02	-6.41467732065E-02	-1.92854509060E-02	-6.44883940232E-02	-1.88571289149E-02	-1.13746773727E-01	1.31914908754E-01
1.70750000000E+09	-5.54403683278E-02	-8.13067183141E-02	-6.45925516834E-02	-1.79178410499E-02	-6.49428012310E-02	-1.74970302983E-02	-1.11021443061E-01	1.37169850341E-01
1.70800000000E+09	-5.31479567060E-02	-7.92343156569E-02	-6.50112694653E-02	-1.65405178609E-02	-6.53518701843E-02	-1.61037901458E-02	-1.08105893392E-01	1.42363603813E-01
1.70850000000E+09	-5.07568553501E-02	-7.72619945577E-02	-6.54201200087E-02	-1.51567302872E-02	-6.57217915498E-02	-1.47195107317E-02	-1.05025817608E-01	1.47413736929E-01
1.70900000000E+09	-4.82672766683E-02	-7.53763939537E-02	-6.57777768288E-02	-1.37601180872E-02	-6.60783992000E-02	-1.33258849095E-02	-1.01824207803E-01	1.52367625879E-01
1.70950000000E+09	-4.57022130049E-02	-7.36292768139E-02	-6.61072113164E-02	-1.23607264836E-02	-6.64071198200E-02	-1.19155262719E-02	-9.84697635555E-02	1.57227156076E-01
1.71000000000E+09	-4.30493725813E-02	-7.19864176998E-02	-6.63983631600E-02	-1.09511947027E-02	-6.67089612066E-02	-1.05013960812E-02	-9.49315957835E-02	1.61949714891E-01
1.71050000000E+09	-4.03005719652E-02	-7.04596952456E-02	-6.66851694399E-02	-9.52139401013E-03	-6.69524626933E-02	-9.06547000425E-03	-9.13193862596E-02	1.66569098233E-01
1.71100000000E+09	-3.75128721562E-02	-6.90359799946E-02	-6.69082925555E-02	-8.08073034741E-03	-6.71842307375E-02	-7.61130662114E-03	-8.74731434201E-02	1.71051275643E-01
1.71150000000E+09	-3.46637529302E-02	-6.77220113633E-02	-6.71106395599E-02	-6.64328051653E-03	-6.73692304596E-02	-6.16253159681E-03	-8.35261527355E-02	1.75411790444E-01
1.71200000000E+09	-3.17315235159E-02	-6.65323110139E-02	-6.72766334818E-02	-5.19036640276E-03	-6.75431554792E-02	-4.71764767858E-03	-7.94791529005E-02	1.79622476981E-01
1.71250000000E+09	-2.87731072055E-02	-6.54930681374E-02	-6.74259520198E-02	-3.73926919509E-03	-6.76672627398E-02	-3.26213398462E-03	-7.52663519897E-02	1.83663506496E-01
1.71300000000E+09	-2.57763705935E-02	-6.45639822000E-02	-6.75348617905E-02	-2.26556426944E-03	-6.77562228797E-02	-1.79670213901E-03	-7.09478803587E-02	1.87618340538E-01
1.71350000000E+09	-2.27443414348E-02	-6.37402398223E-02	-6.76051755545E-02	-8.34090183246E-04	-6.78288397224E-02	-3.30036875216E-04	-6.65446031812E-02	1.91416025171E-01
1.71400000000E+09	-1.96711686885E-02	-6.30443276602E-02	-6.76349364365E-02	6.35491234127E-04	-6.78415423615E-02	1.15145101841E-03	-6.20073377534E-02	1.95019384865E-01
1.71450000000E+09	-1.65946679360E-02	-6.24733326676E-02	-6.76354936313E-02	2.10355659595E-03	-6.78446991414E-02	2.61825811806E-03	-5.73526894412E-02	1.98533201211E-01
1.71500000000E+09	-1.34857112449E-02	-6.20020280706E-02	-6.76213873526E-02	3.59162794004E-03	-6.78162478249E-02	4.09944606053E-03	-5.26159790148E-02	2.01861766272E-01
1.71550000000E+09	-1.03766020858E-02	-6.16771831640E-02	-6.75636230295E-02	5.04699334844E-03	-6.77303985419E-02	5.57364601285E-03	-4.77420123382E-02	2.05018660675E-01
1.71600000000E+09	-7.25554437482E-03	-6.14587027339E-02	-6.74615413098E-02	6.52101061610E-03	-6.76099625528E-02	7.03808459525E-03	-4.28289179931E-02	2.08047028330E-01
1.71650000000E+09	-4.13259551886E-03	-6.13578276196E-02	-6.73216242869E-02	7.99453984940E-03	-6.74705352252E-02	8.53423873791E-03	-3.77806761333E-02	2.10893980255E-01
1.71700000000E+09	-9.96898731794E-04	-6.13638544203E-02	-6.71874384770E-02	9.45282401527E-03	-6.72985392767E-02	9.98513616611E-03	-3.27010855264E-02	2.13583145687E-01
1.71750000000E+09	2.09650705745E-03	-6.14698293394E-02	-6.69645927108E-02	1.09265382678E-02	-6.71037585807E-02	1.14652976338E-02	-2.75066303992E-02	2.16091280408E-01
1.71800000000E+09	5.22131805905E-03	-6.17205500061E-02	-6.67337556257E-02	1.23684118581E-02	-6.68470043216E-02	1.29203109764E-02	-2.22936143119E-02	2.18438132459E-01
1.71850000000E+09	8.29307447921E-03	-6.20793656836E-02	-6.64768201536E-02	1.38236352531E-02	-6.65676617420E-02	1.43705961067E-02	-1.70045466470E-02	2.20637392788E-01
1.71900000000E+09	1.13350403916E-02	-6.25235640613E-02	-6.61833036056E-02	1.52722810967E-02	-6.62528773394E-02	1.58159013920E-02	-1.16060460620E-02	2.22647083101E-01
1.71950000000E+09	1.43680730343E-02	-6.30708396899E-02	-6.58438970637E-02	1.67192903288E-02	-6.59178194804E-02	1.72653479911E-02	-6.22609166353E-03	2.24463591073E-01
1.72000000000E+09	1.73753328596E-02	-6.37560870901E-02	-6.54725391251E-02	1.81534375027E-02	-6.55257942450E-02	1.86987722335E-02	-7.77388439838E-04	2.26142588523E-01
1.72050000000E+09	2.03482039253E-02	-6.44842810586E-02	-6.50729393827E-02	1.95874017718E-02	-6.51199646674E-02	2.01376327676E-02	4.73570194735E-03	2.27605687737E-01
1.72100000000E+09	2.32871710115E-02	-6.53581135480E-02	-6.46277876492E-02	2.09920448942E-02	-6.46809420802E-02	2.15498888718E-02	1.02714956440E-02	2.28936994136E-01
1.72150000000E+09	2.61954524911E-02	-6.63008205126E-02	-6.41714918207E-02	2.24040788518E-02	-6.41956854574E-02	2.29406077459E-02	1.58512641220E-02	2.30069101780E-01
1.72200000000E+09	2.90430235375E-02	-6.73246779402E-02	-6.36786106997E-02	2.37872395224E-02	-6.36966813697E-02	2.43521243970E-02	2.14479083631E-02	2.31044818376E-01
1.72250000000E+09	3.18569227399E-02	-6.84787650677E-02	-6.31638279170E-02	2.51722444423E-02	-6.31567387909E-02	2.57213668604E-02	2.70513705473E-02	2.31821967778E-01
1.72300000000E+09	3.46106270245E-02	-6.96990767095E-02	-6.25973097098E-02	2.65444832458E-02	-6.25720321969E-02	2.70968212612E-02	3.26393566088E-02	2.32423284818E-01
1.72350000000E+09	3.73382950256E-02	-7.10002312535E-02	-6.19943310615E-02	2.79232602914E-02	-6.19870138567E-02	2.84644848181E-02	3.82997158452E-02	2.32840341646E-01
1.72400000000E+09	3.99896278303E-02	-7.23915664324E-02	-6.13660333062E-02	2.92361166099E-02	-6.13228200495E-02	2.98016846017E-02	4.39362773255E-02	2.33114162792E-01
1.72450000000E+09	4.26000985338E-02	-7.38549143390E-02	-6.07282670370E-02	3.05706966290E-02	-6.06764736674E-02	3.11287039836E-02	4.95901663094E-02	2.33185659273E-01
1.72500000000E+09	4.51735027705E-02	-7.54143096864E-02	-6.00365952194E-02	3.18995608423E-02	-5.99740633661E-02	3.24299339473E-02	5.51904757600E-02	2.33079212000E-01
1.72550000000E+09	4.76729725143E-02	-7.70168691331E-02	-5.93269952040E-02	3.31814211597E-02	-5.92680585487E-02	3.37294170659E-02	6.08056882963E-02	2.32805955398E-01
1.72600000000E+09	5.00954026835E-02	-7.87166144725E-02	-5.85930795838E-02	3.44517282042E-02	-5.85046375351E-02	3.50046480315E-02	6.63554305639E-02	2.32363092329E-01
1.72650000000E+09	5.24604612218E-02	-8.04706486346E-02	-5.78250223297E-02	3.57149475225E-02	-5.77349168000E-02	3.62752885618E-02	7.19615358215E-02	2.31721649706E-01
1.72700000000E+09	5.47971082690E-02	-8.22938443875E-02	-5.70252622094E-02	3.69612138630E-02	-5.69124521926E-02	3.75101054467E-02	7.74847146904E-02	2.30903592419E-01
1.72750000000E+09	5.70493012628E-02	-8.41952257111E-02	-5.61973145791E-02	3.81788443975E-02	-5.60637500110E-02	3.87377566780E-02	8.29919047925E-02	2.29952543208E-01
1.72800000000E+09	5.92355456708E-02	-8.61446574994E-02	-5.53627005346E-02	3.93895274733E-02	-5.52128479080E-02	3.99197702629E-02	8.84496682931E-02	2.28817569561E-01
1.72850000000E+09	6.13478304802E-02	-8.81805860535E-02	-5.44763811371E-02	4.05640368650E-02	-5.43357813797E-02	4.10902924714E-02	9.38647337759E-02	2.27507395491E-01
1.72900000000E+09	6.34110057257E-02	-9.02408782949E-02	-5.35756041776E-02	4.17415067422E-02	-5.34081932101E-02	4.22581585196E-02	9.92326324099E-02	2.26036715113E-01
1.72950000000E+09	6.53942518040E-02	-9.23568716085E-02	-5.26548595720E-02	4.28782432212E-02	-5.24692518508E-02	4.33989681733E-02	1.04555077259E-01	2.24384865248E-01
1.73000000000E+09	6.72932123904E-02	-9.45742118646E-02	-5.16772306942E-02	4.39939976495E-02	-5.14907993164E-02	4.45038308533E-02	1.09810533850E-01	2.22580129130E-01
1.73050000000E+09	6.91739770720E-02	-9.67878685388E-02	-5.07139983934E-02	4.50883576738E-02	-5.05168702796E-02	4.56122802322E-02	1.14992347786E-01	2.20652455017E-01
1.73100000000E+09	7.09263345155E-02	-9.90882076397E-02	-4.97288207890E-02	4.61620517419E-02	-4.95039234764E-02	4.66696284435E-02	1.20132005541E-01	2.18536683039E-01
1.73150000000E+09	7.26216606232E-02	-1.01444881211E-01	-4.86867295481E-02	4.72074781854E-02	-4.84689404078E-02	4.77205091596E-02	1.25146686442E-01	2.16246800776E-01
1.73200000000E+09	7.42692897873E-02	-1.03818540591E-01	-4.76345627055E-02	4.82316708352E-02	-4.74063675062E-02	4.87345362101E-02	1.30129617154E-01	2.13807870020E-01
1.73250000000E+09	7.58058082605E-02	-1.06254611950E-01	-4.65698556965E-02	4.92457329343E-02	-4.63383356000E-02	4.97184442968E-02	1.34985394786E-01	2.11225889375E-01
1.73300000000E+09	7.72741487506E-02	-1.08731734191E-01	-4.54777466390E-02	5.02054965811E-02	-4.52313338339E-02	5.06974911940E-02	1.39799143970E-01	2.08531105912E-01
1.73350000000E+09	7.86642765482E-02	-1.11262731838E-01	-4.43660303834E-02	5.11752186104E-02	-4.41040386354E-02	5.16375432463E-02	1.44481693547E-01	2.05637125186E-01
1.73400000000E+09	7.99727154685E-02	-1.13825174400E-01	-4.32398035747E-02	5.20987288594E-02	-4.29772146133E-02	5.25691948001E-02	1.49144092154E-01	2.02618820136E-01
1.73450000000E+09	8.12070012451E-02	-1.16426580733E-01	-4.20962474519E-02	5.30000104722E-02	-4.17970028384E-02	5.34494873407E-02	1.53658023219E-01	1.99472654537E-01
1.73500000000E+09	8.23353739900E-02	-1.19067863865E-01	-4.09361893772E-02	5.38515161243E-02	-4.06322855375E-02	5.43152441663E-02	1.58029151526E-01	1.96180741910E-01
1.73550000000E+09	8.34016664590E-02	-1.21719017305E-01	-3.97375364909E-02	5.47168117274E-02	-3.94398639601E-02	5.51569503036E-02	1.62335912307E-01	1.92741705503E-01
1.73600000000E+09	8.43644709447E-02	-1.24410997160E-01	-3.85447842842E-02	5.55111626963E-02	-3.82167424879E-02	5.59566225557E-02	1.66516477343E-01	1.89182421609E-01
1.73650000000E+09	8.52243563123E-02	-1.27123065794E-01	-3.73022839890E-02	5.63115081793E-02	-3.70014474725E-02	5.67242878376E-02	1.70572154458E-01	1.85540484291E-01
1.73700000000E+09	8.60391277725E-02	-1.29876766637E-01	-3.60845816975E-02	5.70624115974E-02	-3.57539830243E-02	5.74932097146E-02	1.74538708324E-01	1.81723347843E-01
1.73750000000E+09	8.67529554597E-02	-1.32628488049E-01	-3.48510688898E-02	5.78006574133E-02	-3.45020383953E-02	5.82097106651E-02	1.78375312641E-01	1.77804532597E-01
1.73800000000E+09	8.73667160594E-02	-1.35423665746E-01	-3.35718286281E-02	5.84940658448E-02	-3.32380431659E-02	5.88991145576E-02	1.82026921657E-01	1.73753931983E-01
1.73850000000E+09	8.79040132994E-02	-1.38210783913E-01	-3.22941172850E-02	5.91703824815E-02	-3.19515373929E-02	5.95759302801E-02	1.85629202793E-01	1.69642228730E-01
1.73900000000E+09	8.83292506131E-02	-1.41038365549E-01	-3.10272476823E-02	5.98185171823E-02	-3.06345446353E-02	6.02165063807E-02	1.89060815918E-01	1.65369888985E-01
1.73950000000E+09	8.86927314989E-02	-1.43861508956E-01	-2.97099159452E-02	6.04460652455E-02	-2.93478700948E-02	6.08142265953E-02	1.92354667287E-01	1.61018066615E-01
1.74000000000E+09	8.89129695898E-02	-1.46748303266E-01	-2.83937731580E-02	6.10086256919E-02	-2.80296408357E-02	6.14083638083E-02	1.95541196142E-01	1.56581544950E-01
1.74050000000E+09	8.90720099155E-02	-1.49562540561E-01	-2.70777483070E-02	6.15784860784E-02	-2.66942457665E-02	6.19466695938E-02	1.98555380912E-01	1.52032653873E-01
1.74100000000E+09	8.91161096531E-02	-1.52422273150E-01	-2.57293449857E-02	6.20968548346E-02	-2.53394567271E-02	6.24629991163E-02	2.01404414930E-01	1.47372753771E-01
1.74150000000E+09	8.90545352293E-02	-1.55263824575E-01	-2.43982056081E-02	6.26099170595E-02	-2.39988586553E-02	6.29507124521E-02	2.04165496907E-01	1.42647257757E-01
1.74200000000E+09	8.89281945600E-02	-1.58122607958E-01	-2.30566808068E-02	6.30665165602E-02	-2.26370942845E-02	6.34106073221E-02	2.06727515000E-01	1.37866381407E-01
1.74250000000E+09	8.86491841268E-02	-1.60958243254E-01	-2.16892784557E-02	6.34909880133E-02	-2.12784616988E-02	6.38516324287E-02	2.09201092343E-01	1.32965456806E-01
1.74300000000E+09	8.83367484183E-02	-1.63808251248E-01	-2.03168098181E-02	6.39168796917E-02	-1.98983600332E-02	6.42378974725E-02	2.11439074713E-01	1.28015861412E-01
1.74350000000E+09	8.78692774234E-02	-1.66619588290E-01	-1.89563120910E-02	6.42839554889E-02	-1.85361936310E-02	6.45872308345E-02	2.13538428900E-01	1.22978228465E-01
1.74400000000E+09	8.73335516234E-02	-1.69411492626E-01	-1.75906957653E-02	6.46457550040E-02	-1.71529858357E-02	6.49390228556E-02	2.15498388008E-01	1.17911339669E-01
1.74450000000E+09	8.66780313194E-02	-1.72207921303E-01	-1.61934436019E-02	6.49522293033E-02	-1.57722845108E-02	6.52435628038E-02	2.17315836552E-01	1.12737645570E-01
1.74500000000E+09	8.59318328251E-02	-1.74938487746E-01	-1.48124587840E-02	6.52447065329E-02	-1.43741199519E-02	6.55188851195E-02	2.18967149509E-01	1.07580509924E-01
1.74550000000E+09	8.50592577109E-02	-1.77654272420E-01	-1.34211618833E-02	6.54864377035E-02	-1.29878934299E-02	6.57669233380E-02	2.20409323968E-01	1.02339334816E-01
1.74600000000E+09	8.41296599638E-02	-1.80355781219E-01	-1.20455727331E-02	6.57149152776E-02	-1.15920312593E-02	6.59855925388E-02	2.21729528887E-01	9.70481761890E-02
1.74650000000E+09	8.30466782356E-02	-1.83004796646E-01	-1.06475348845E-02	6.59143059066E-02	-1.01956752012E-02	6.61778467689E-02	2.22862086129E-01	9.17554396243E-02
1.74700000000E+09	8.18881675653E-02	-1.85638565436E-01	-9.24448619321E-03	6.60844944691E-02	-8.78884677069E-03	6.63212197553E-02	2.23804905698E-01	8.63553844861E-02
1.74750000000E+09	8.06447580235E-02	-1.88180369434E-01	-7.87233857272E-03	6.62189575093E-02	-7.39202315943E-03	6.64420751612E-02	2.24610177731E-01	8.10115013587E-02
1.74800000000E+09	7.92956367928E-02	-1.90708404518E-01	-6.46265930906E-03	6.63156084224E-02	-6.00030155271E-03	6.65680495749E-02	2.25247465337E-01	7.55983678748E-02
1.74850000000E+09	7.78376428537E-02	-1.93132657654E-01	-5.06800089987E-03	6.63966170106E-02	-4.60296345824E-03	6.66061242793E-02	2.25690973572E-01	7.01751184499E-02
1.74900000000E+09	7.62719914430E-02	-1.95549092374E-01	-3.66800422301E-03	6.64412751315E-02	-3.20047998069E-03	6.66514856111E-02	2.25970667123E-01	6.47312791772E-02
1.74950000000E+09	7.46347689598E-02	-1.97869402598E-01	-2.29942955960E-03	6.64726041634E-02	-1.82130544833E-03	6.66670647780E-02	2.26097997949E-01	5.93154480689E-02
1.75000000000E+09	7.28702902009E-02	-2.00145679075E-01	-9.02288426267E-04	6.64550349691E-02	-4.27556412200E-04	6.66402301846E-02	2.26063545941E-01	5.38628806320E-02
1.75050000000E+09	7.10459399436E-02	-2.02336094621E-01	4.88609172380E-04	6.64080852910E-02	9.64851771191E-04	6.65874250825E-02	2.25804283735E-01	4.84387978058E-02
1.75100000000E+09	6.91650643874E-02	-2.04453212383E-01	1.84852860934E-03	6.63451366929E-02	2.35036116197E-03	6.65176686884E-02	2.25428173246E-01	4.30150752387E-02
1.75150000000E+09	6.71309447099E-02	-2.06498208179E-01	3.22275858769E-03	6.62417424383E-02	3.73037465220E-03	6.64083382882E-02	2.24846461198E-01	3.76247385299E-02
1.75200000000E+09	6.50333121825E-02	-2.08440408781E-01	4.61257785997E-03	6.61212841596E-02	5.09850663970E-03	6.62628192713E-02	2.24091999703E-01	3.21945927492E-02
1.75250000000E+09	6.28790083067E-02	-2.10308777671E-01	5.96952833214E-03	6.59669007521E-02	6.47240913839E-03	6.60954034220E-02	2.23190711629E-01	2.68514337605E-02
1.75300000000E+09	6.06104504271E-02	-2.12017038428E-01	7.31279388974E-03	6.57787952525E-02	7.81904070056E-03	6.59234305028E-02	2.22065048162E-01	2.15264806624E-02
1.75350000000E+09	5.82905177019E-02	-2.13721040052E-01	8.68042595122E-03	6.55789412365E-02	9.16440176156E-03	6.57007921044E-02	2.20816731474E-01	1.62327816125E-02
1.75400000000E+09	5.58550980304E-02	-2.15261366853E-01	1.00281684548E-02	6.53340812412E-02	1.05209748899E-02	6.54471516875E-02	2.19367139308E-01	1.09915915069E-02
1.75450000000E+09	5.34015298700E-02	-2.16690638498E-01	1.13550463741E-02	6.50664127667E-02	1.18686263611E-02	6.51746466892E-02	2.17776961535E-01	5.78718483295E-03
1.75500000000E+09	5.08748800524E-02	-2.18025127158E-01	1.26803408995E-02	6.47882394269E-02	1.31968314656E-02	6.48945468948E-02	2.16035474871E-01	6.28420579958E-04
1.75550000000E+09	4.82840450263E-02	-2.19240755855E-01	1.40024749376E-02	6.44776374589E-02	1.45026602670E-02	6.45661171242E-02	2.14077913796E-01	-4.47122873697E-03
1.75600000000E+09	4.56569258960E-02	-2.20334287655E-01	1.53161291394E-02	6.41269542362E-02	1.58337572777E-02	6.42201723899E-02	2.12004990361E-01	-9.48815923509E-03
1.75650000000E+09	4.29445247806E-02	-2.21287543647E-01	1.66118380845E-02	6.37805725892E-02	1.71241330055E-02	6.38531441123E-02	2.09769067597E-01	-1.44555603122E-02
1.75700000000E+09	4.02251562398E-02	-2.22133697438E-01	1.78952096969E-02	6.33867079720E-02	1.84115358405E-02	6.34425457459E-02	2.07349110131E-01	-1.93341597631E-02
1.75750000000E+09	3.74576597727E-02	-2.22810767847E-01	1.91662785641E-02	6.29714317514E-02	1.96980398907E-02	6.30136607173E-02	2.04779296173E-01	-2.41185875346E-02
1.75800000000E+09	3.46799418663E-02	-2.23382370213E-01	2.04593309706E-02	6.25342485337E-02	2.09598357143E-02	6.25709603515E-02	2.02056329168E-01	-2.88574237591E-02
1.75850000000E+09	3.18732127785E-02	-2.23824793367E-01	2.17110179446E-02	6.20708548707E-02	2.22212670296E-02	6.21077621334E-02	1.99188272310E-01	-3.34870244529E-02
