# Hz S RI R 50
! CMT, CMT808U, 21440046, 21.4.3/4
! Date: 11/20/2025 11:41:35 PM
! Data: Format (Calibration Info)
! Freq	S11:Re/Im(F2)	S41:Re/Im(F2)	S14:Re/Im(F2)	S44:Re/Im(F2)
1.70000000000E+09	-7.34241833122E-02	-1.19504027539E-01	-5.65745678107E-02	-3.98751756396E-02	-5.70841262935E-02	-3.95513790012E-02	-9.29400302183E-02	4.57932752785E-02
1.70050000000E+09	-7.32839901183E-02	-1.16742651692E-01	-5.74370905366E-02	-3.87269589958E-02	-5.79456552883E-02	-3.84146696646E-02	-9.30920743642E-02	5.12568938306E-02
1.70100000000E+09	-7.29506258468E-02	-1.13978169364E-01	-5.82851013146E-02	-3.75552805949E-02	-5.87881648610E-02	-3.72055816915E-02	-9.30286241597E-02	5.67402373441E-02
1.70150000000E+09	-7.24801028115E-02	-1.11205709161E-01	-5.91223220907E-02	-3.63393213215E-02	-5.96045268036E-02	-3.60037903110E-02	-9.28048676670E-02	6.21840153293E-02
1.70200000000E+09	-7.18373893711E-02	-1.08466907991E-01	-5.99115245860E-02	-3.51459539158E-02	-6.03961281002E-02	-3.47725808729E-02	-9.23559045878E-02	6.76425972237E-02
1.70250000000E+09	-7.10141894037E-02	-1.05694564686E-01	-6.07073663647E-02	-3.39063776864E-02	-6.11808302485E-02	-3.35279404786E-02	-9.17632374797E-02	7.30767334555E-02
1.70300000000E+09	-7.00407900040E-02	-1.02959897699E-01	-6.14527922576E-02	-3.26425965192E-02	-6.19245020104E-02	-3.22496999255E-02	-9.09848321858E-02	7.84632532852E-02
1.70350000000E+09	-6.89207324626E-02	-1.00270364807E-01	-6.21702187179E-02	-3.13680341366E-02	-6.26340802398E-02	-3.09826676967E-02	-9.00338550997E-02	8.38186206644E-02
1.70400000000E+09	-6.76285168797E-02	-9.76358635533E-02	-6.28881407743E-02	-3.00722911220E-02	-6.33326824796E-02	-2.96688811175E-02	-8.89114049969E-02	8.91376303336E-02
1.70450000000E+09	-6.62116100417E-02	-9.50484472164E-02	-6.35667745063E-02	-2.87458110222E-02	-6.40065658431E-02	-2.83268998438E-02	-8.75866539576E-02	9.44178602856E-02
1.70500000000E+09	-6.46380023688E-02	-9.25022806183E-02	-6.42230422392E-02	-2.74061138644E-02	-6.46678833304E-02	-2.69870076976E-02	-8.61158904631E-02	9.96885424925E-02
1.70550000000E+09	-6.29358248708E-02	-9.00528655325E-02	-6.48395115220E-02	-2.60662492692E-02	-6.52673243638E-02	-2.56230581998E-02	-8.44641981100E-02	1.04837565284E-01
1.70600000000E+09	-6.11247335510E-02	-8.76653736340E-02	-6.54502018713E-02	-2.47016510212E-02	-6.58439534103E-02	-2.42527874919E-02	-8.26482644387E-02	1.09952249736E-01
1.70650000000E+09	-5.91604975161E-02	-8.53362896929E-02	-6.60114481462E-02	-2.33047625899E-02	-6.63992097078E-02	-2.28369280246E-02	-8.06558685288E-02	1.14997434550E-01
1.70700000000E+09	-5.70814249193E-02	-8.31201613767E-02	-6.65450108590E-02	-2.19057383769E-02	-6.69208226491E-02	-2.14245334872E-02	-7.85026692399E-02	1.19994926536E-01
1.70750000000E+09	-5.48865191497E-02	-8.09908241326E-02	-6.70505691323E-02	-2.04875235932E-02	-6.74311263730E-02	-2.00006590972E-02	-7.61852595395E-02	1.24880553719E-01
1.70800000000E+09	-5.25876750696E-02	-7.89447325391E-02	-6.75225021248E-02	-1.90562309773E-02	-6.78962146502E-02	-1.85617291227E-02	-7.37429339551E-02	1.29691890957E-01
1.70850000000E+09	-5.01880427346E-02	-7.70107248456E-02	-6.79506343559E-02	-1.75879582728E-02	-6.83188347684E-02	-1.71005996789E-02	-7.10799627092E-02	1.34410457700E-01
1.70900000000E+09	-4.76800074693E-02	-7.51781060473E-02	-6.83608153328E-02	-1.61413494873E-02	-6.87166324826E-02	-1.56350516070E-02	-6.83450988451E-02	1.39054096315E-01
1.70950000000E+09	-4.51238132473E-02	-7.34513877323E-02	-6.87433067584E-02	-1.46605074876E-02	-6.90761324838E-02	-1.41532218397E-02	-6.54305172713E-02	1.43595028443E-01
1.71000000000E+09	-4.24728007124E-02	-7.18403934360E-02	-6.90855223880E-02	-1.31673580974E-02	-6.94226141477E-02	-1.26473036835E-02	-6.23575511580E-02	1.48029140336E-01
1.71050000000E+09	-3.97296521452E-02	-7.03387407822E-02	-6.93910166675E-02	-1.16783056021E-02	-6.97068258263E-02	-1.11477266187E-02	-5.91817719106E-02	1.52355952018E-01
1.71100000000E+09	-3.69299589142E-02	-6.89462997336E-02	-6.96588026341E-02	-1.01729009703E-02	-6.99641293703E-02	-9.64819933814E-03	-5.58283094777E-02	1.56574778224E-01
1.71150000000E+09	-3.40735124211E-02	-6.76864957057E-02	-6.99027369876E-02	-8.66683110739E-03	-7.01919954230E-02	-8.11558147838E-03	-5.23548897233E-02	1.60695141356E-01
1.71200000000E+09	-3.11676022098E-02	-6.65201347676E-02	-7.01025989450E-02	-7.14378621423E-03	-7.04012040334E-02	-6.60496876446E-03	-4.87573508676E-02	1.64668347814E-01
1.71250000000E+09	-2.82157573846E-02	-6.55267851168E-02	-7.02683553657E-02	-5.60899931479E-03	-7.05417915882E-02	-5.06471083154E-03	-4.50258646451E-02	1.68526074683E-01
1.71300000000E+09	-2.52326643036E-02	-6.46051867479E-02	-7.03929188746E-02	-4.09233442591E-03	-7.06722625778E-02	-3.53470131413E-03	-4.11826448160E-02	1.72260669761E-01
1.71350000000E+09	-2.22162407991E-02	-6.38221338928E-02	-7.05059724069E-02	-2.56542962942E-03	-7.07607302976E-02	-1.98377292729E-03	-3.72617840105E-02	1.75863110359E-01
1.71400000000E+09	-1.91571376407E-02	-6.31410599283E-02	-7.05622079768E-02	-1.03227862090E-03	-7.07957333727E-02	-4.50001003693E-04	-3.31997946234E-02	1.79324766611E-01
1.71450000000E+09	-1.60905383819E-02	-6.25850764187E-02	-7.05887585763E-02	5.16869479535E-04	-7.08141025612E-02	1.11201492243E-03	-2.89789939304E-02	1.82697240709E-01
1.71500000000E+09	-1.29914794294E-02	-6.21536686611E-02	-7.05763282133E-02	2.06707445571E-03	-7.07802807724E-02	2.63254577644E-03	-2.47454806884E-02	1.85895393617E-01
1.71550000000E+09	-9.89726430162E-03	-6.18364148927E-02	-7.05272845155E-02	3.60935585796E-03	-7.07176714176E-02	4.19846556921E-03	-2.03388105876E-02	1.88928165288E-01
1.71600000000E+09	-6.79311402114E-03	-6.16342409093E-02	-7.04421904921E-02	5.14985187111E-03	-7.06138557662E-02	5.74515980537E-03	-1.58884789454E-02	1.91866942400E-01
1.71650000000E+09	-3.66410040092E-03	-6.15564327717E-02	-7.03254335237E-02	6.67227146311E-03	-7.04853385289E-02	7.28623426849E-03	-1.13274005765E-02	1.94623780969E-01
1.71700000000E+09	-5.63993471902E-04	-6.15710095847E-02	-7.01657175709E-02	8.22489287406E-03	-7.03237323123E-02	8.82480349072E-03	-6.72846684411E-03	1.97234936718E-01
1.71750000000E+09	2.52341622456E-03	-6.17011555768E-02	-6.99693804809E-02	9.74760887124E-03	-7.01040789205E-02	1.03627826910E-02	-1.98767313602E-03	1.99690886830E-01
1.71800000000E+09	5.64084105002E-03	-6.19557863634E-02	-6.97479471853E-02	1.12751644075E-02	-6.98718062881E-02	1.18862799725E-02	2.77922155622E-03	2.02004937807E-01
1.71850000000E+09	8.67179064115E-03	-6.23241006220E-02	-6.94762372261E-02	1.27882145338E-02	-6.95909358174E-02	1.34039856408E-02	7.62539505683E-03	2.04154563303E-01
1.71900000000E+09	1.17131103822E-02	-6.27931429364E-02	-6.91799990619E-02	1.43063445109E-02	-6.92878129975E-02	1.49249852851E-02	1.25801766532E-02	2.06151102293E-01
1.71950000000E+09	1.47497512016E-02	-6.33469878239E-02	-6.88473428380E-02	1.58110466220E-02	-6.89355831175E-02	1.64348748543E-02	1.75068539123E-02	2.07971533620E-01
1.72000000000E+09	1.77288909963E-02	-6.40368483638E-02	-6.84791587340E-02	1.73164333455E-02	-6.85491061761E-02	1.79254024418E-02	2.25460648666E-02	2.09663082054E-01
1.72050000000E+09	2.06868717488E-02	-6.47964544870E-02	-6.80631462663E-02	1.87943942261E-02	-6.81227827016E-02	1.94048886945E-02	2.76040408064E-02	2.11166844729E-01
1.72100000000E+09	2.36150926520E-02	-6.56692023997E-02	-6.76193010562E-02	2.02671226334E-02	-6.76817952033E-02	2.08821072210E-02	3.27211353925E-02	2.12523986798E-01
1.72150000000E+09	2.65033550706E-02	-6.66191281047E-02	-6.71617691556E-02	2.17367314651E-02	-6.71977556602E-02	2.23522331977E-02	3.78977207663E-02	2.13707939235E-01
1.72200000000E+09	2.93522659780E-02	-6.76688186355E-02	-6.66618242208E-02	2.31876672671E-02	-6.66857525096E-02	2.38186747579E-02	4.30913249074E-02	2.14757841573E-01
1.72250000000E+09	3.21514204771E-02	-6.88031658899E-02	-6.61085394744E-02	2.46325619291E-02	-6.61266031312E-02	2.52501347149E-02	4.82788367478E-02	2.15615637840E-01
1.72300000000E+09	3.49033238954E-02	-7.00492484767E-02	-6.55418785643E-02	2.60536161136E-02	-6.55319985069E-02	2.66663686391E-02	5.34871643027E-02	2.16276519265E-01
1.72350000000E+09	3.76046286193E-02	-7.13546412326E-02	-6.49454256736E-02	2.74790335832E-02	-6.49189279432E-02	2.80845506091E-02	5.87398899855E-02	2.16798127040E-01
1.72400000000E+09	4.02590377436E-02	-7.27467584380E-02	-6.43150122881E-02	2.88461430480E-02	-6.42754606097E-02	2.94842358756E-02	6.39940599844E-02	2.17176664758E-01
1.72450000000E+09	4.28693028738E-02	-7.42253086688E-02	-6.36386024890E-02	3.02292790101E-02	-6.36005713616E-02	3.08697423342E-02	6.92746190699E-02	2.17374146355E-01
1.72500000000E+09	4.54019199207E-02	-7.57765552974E-02	-6.29579914424E-02	3.16054052026E-02	-6.28800055413E-02	3.22291178452E-02	7.45132199772E-02	2.17392171375E-01
1.72550000000E+09	4.78935790087E-02	-7.73883616595E-02	-6.22157192794E-02	3.29532897867E-02	-6.21228203779E-02	3.35726785614E-02	7.98007787006E-02	2.17231015718E-01
1.72600000000E+09	5.03438050229E-02	-7.90951771652E-02	-6.14654195339E-02	3.42739983657E-02	-6.13593095913E-02	3.48805613006E-02	8.50219392869E-02	2.16927142212E-01
1.72650000000E+09	5.26878548653E-02	-8.08642111409E-02	-6.06709580362E-02	3.55753622951E-02	-6.05711907365E-02	3.61961545040E-02	9.02708830022E-02	2.16456615551E-01
1.72700000000E+09	5.50139265817E-02	-8.26961515547E-02	-5.98545013116E-02	3.68603557185E-02	-5.97289137111E-02	3.74754667054E-02	9.54894709133E-02	2.15803157432E-01
1.72750000000E+09	5.72365417713E-02	-8.46077705907E-02	-5.90300466883E-02	3.81437114348E-02	-5.88905267644E-02	3.87407762430E-02	1.00671320368E-01	2.15044822500E-01
1.72800000000E+09	5.94260022927E-02	-8.65647432526E-02	-5.81549450866E-02	3.93825465987E-02	-5.79989478498E-02	3.99899335435E-02	1.05844623729E-01	2.14058558776E-01
1.72850000000E+09	6.15177086073E-02	-8.85959674209E-02	-5.72617826282E-02	4.06016895587E-02	-5.70785388792E-02	4.12130606050E-02	1.10974444534E-01	2.12925923269E-01
1.72900000000E+09	6.35702100785E-02	-9.06756566483E-02	-5.63290250150E-02	4.17983684042E-02	-5.61524561290E-02	4.24000728689E-02	1.16076845885E-01	2.11658934286E-01
1.72950000000E+09	6.55408589105E-02	-9.28241934162E-02	-5.53847517473E-02	4.29938309088E-02	-5.51905137317E-02	4.35786772915E-02	1.21099413012E-01	2.10210646862E-01
1.73000000000E+09	6.74422592173E-02	-9.50220427654E-02	-5.44168373795E-02	4.41365577010E-02	-5.42079374599E-02	4.47272748695E-02	1.26091348256E-01	2.08605153319E-01
1.73050000000E+09	6.92862645991E-02	-9.72524911921E-02	-5.33969541876E-02	4.52793483254E-02	-5.31812100957E-02	4.58547823764E-02	1.31044395224E-01	2.06871380368E-01
1.73100000000E+09	7.10322293128E-02	-9.95656967586E-02	-5.23880437187E-02	4.63915950063E-02	-5.21524168004E-02	4.69545222297E-02	1.35945620168E-01	2.04941275681E-01
1.73150000000E+09	7.27237880958E-02	-1.01920831360E-01	-5.13510900698E-02	4.74672647853E-02	-5.10908219425E-02	4.80316859457E-02	1.40738482949E-01	2.02880431080E-01
1.73200000000E+09	7.43502392896E-02	-1.04301608360E-01	-5.02791383431E-02	4.85187830334E-02	-5.00228650765E-02	4.90860412318E-02	1.45502800877E-01	2.00659897425E-01
1.73250000000E+09	7.58809953993E-02	-1.06736847584E-01	-4.91944830176E-02	4.95402893380E-02	-4.89207144835E-02	5.01069915198E-02	1.50199108505E-01	1.98313234913E-01
1.73300000000E+09	7.73337542635E-02	-1.09236792491E-01	-4.80749365568E-02	5.05542794512E-02	-4.78018084023E-02	5.10983650917E-02	1.54786928483E-01	1.95833131171E-01
1.73350000000E+09	7.86962765535E-02	-1.11779943550E-01	-4.69654740379E-02	5.15388643806E-02	-4.66528861302E-02	5.20877642576E-02	1.59331016961E-01	1.93174947568E-01
1.73400000000E+09	7.99963481346E-02	-1.14345010044E-01	-4.58125918807E-02	5.24835335022E-02	-4.54947999567E-02	5.30233060839E-02	1.63779680391E-01	1.90379389017E-01
1.73450000000E+09	8.12149535562E-02	-1.16945214367E-01	-4.46315136097E-02	5.34020895154E-02	-4.43197084207E-02	5.39434916076E-02	1.68155699782E-01	1.87456398265E-01
1.73500000000E+09	8.23306263479E-02	-1.19595204363E-01	-4.34592185101E-02	5.43030856647E-02	-4.31336473257E-02	5.48227285917E-02	1.72392430701E-01	1.84388300287E-01
1.73550000000E+09	8.33839357501E-02	-1.22264283416E-01	-4.22539588623E-02	5.51935740878E-02	-4.19257977905E-02	5.56901143996E-02	1.76588432415E-01	1.81205215190E-01
1.73600000000E+09	8.43053603739E-02	-1.24942825959E-01	-4.10291108470E-02	5.60326002991E-02	-4.06820609963E-02	5.65219240769E-02	1.80636424545E-01	1.77885534066E-01
1.73650000000E+09	8.51924042246E-02	-1.27673737423E-01	-3.98013862025E-02	5.68423525147E-02	-3.94412438493E-02	5.73225489180E-02	1.84573788038E-01	1.74445233889E-01
1.73700000000E+09	8.59826409981E-02	-1.30421598022E-01	-3.85462678208E-02	5.76223641059E-02	-3.81691655454E-02	5.81034390000E-02	1.88456819408E-01	1.70869269451E-01
1.73750000000E+09	8.66566784653E-02	-1.33181946300E-01	-3.72872888904E-02	5.83888912136E-02	-3.69012988894E-02	5.88464370465E-02	1.92200396434E-01	1.67218922573E-01
1.73800000000E+09	8.72456004449E-02	-1.35981651436E-01	-3.60028499849E-02	5.90823687886E-02	-3.56107098822E-02	5.95505106091E-02	1.95785962452E-01	1.63363381971E-01
1.73850000000E+09	8.77631099194E-02	-1.38775066007E-01	-3.47235330042E-02	5.97927927099E-02	-3.43154913880E-02	6.02454420840E-02	1.99328981502E-01	1.59470359951E-01
1.73900000000E+09	8.81613384324E-02	-1.41606084760E-01	-3.34186866684E-02	6.04606930582E-02	-3.29951955293E-02	6.09012699005E-02	2.02702433668E-01	1.55446412130E-01
1.73950000000E+09	8.85052130712E-02	-1.44425130149E-01	-3.21049891159E-02	6.11031513724E-02	-3.16865406585E-02	6.15252073547E-02	2.05980624113E-01	1.51330124904E-01
1.74000000000E+09	8.87168943018E-02	-1.47309415507E-01	-3.07826112233E-02	6.17112488946E-02	-3.03524792305E-02	6.21260833605E-02	2.09093944776E-01	1.47079336598E-01
1.74050000000E+09	8.88338614078E-02	-1.50136478175E-01	-2.94393917679E-02	6.22773263258E-02	-2.90185510090E-02	6.27018808023E-02	2.12091028079E-01	1.42758073650E-01
1.74100000000E+09	8.88568240841E-02	-1.52994562257E-01	-2.80939109965E-02	6.28453034376E-02	-2.76737405078E-02	6.32191297331E-02	2.14936968004E-01	1.38341428496E-01
1.74150000000E+09	8.87744388973E-02	-1.55820072773E-01	-2.67394550698E-02	6.33389187368E-02	-2.63077934535E-02	6.37307192129E-02	2.17684144392E-01	1.33815415563E-01
1.74200000000E+09	8.86232185040E-02	-1.58686704227E-01	-2.54023940922E-02	6.38369206026E-02	-2.49401029882E-02	6.42073672995E-02	2.20270461318E-01	1.29227963925E-01
1.74250000000E+09	8.83461011242E-02	-1.61495226924E-01	-2.40192580747E-02	6.42855639659E-02	-2.35547073777E-02	6.46609098312E-02	2.22729366463E-01	1.24545899250E-01
1.74300000000E+09	8.79730051162E-02	-1.64334680552E-01	-2.26519494224E-02	6.46941112552E-02	-2.21836255465E-02	6.50663393147E-02	2.25022882172E-01	1.19763759961E-01
1.74350000000E+09	8.74936023918E-02	-1.67149241578E-01	-2.12751386232E-02	6.50979757658E-02	-2.08014806767E-02	6.54509872117E-02	2.27153454883E-01	1.14951967496E-01
1.74400000000E+09	8.69261444933E-02	-1.69927136917E-01	-1.98952594603E-02	6.54670129853E-02	-1.94109079433E-02	6.58139302859E-02	2.29158206946E-01	1.10041120601E-01
1.74450000000E+09	8.62545659448E-02	-1.72730358838E-01	-1.85134919759E-02	6.58001230700E-02	-1.80353217205E-02	6.61409358432E-02	2.31024270962E-01	1.05086642364E-01
1.74500000000E+09	8.54788660207E-02	-1.75449468950E-01	-1.71222056001E-02	6.61198028832E-02	-1.66471579615E-02	6.64468332169E-02	2.32730312114E-01	1.00084937467E-01
1.74550000000E+09	8.45880278134E-02	-1.78160889478E-01	-1.57259261521E-02	6.63782039202E-02	-1.52399170532E-02	6.66859019713E-02	2.34256454002E-01	9.50034223438E-02
1.74600000000E+09	8.36048824433E-02	-1.80834735418E-01	-1.43382490424E-02	6.66230884579E-02	-1.38451613206E-02	6.69311946369E-02	2.35664290642E-01	8.98812571731E-02
1.74650000000E+09	8.25117344665E-02	-1.83484610142E-01	-1.29310052148E-02	6.68480778217E-02	-1.24510796496E-02	6.71279278331E-02	2.36836768015E-01	8.47318817580E-02
1.74700000000E+09	8.13264319688E-02	-1.86066104399E-01	-1.15493755615E-02	6.70288776192E-02	-1.10295645742E-02	6.73136919801E-02	2.37901121281E-01	7.95083330776E-02
1.74750000000E+09	8.00705124811E-02	-1.88604633635E-01	-1.01524026377E-02	6.71885651918E-02	-9.63483051086E-03	6.74613154739E-02	2.38823346929E-01	7.42630175039E-02
1.74800000000E+09	7.86854235728E-02	-1.91115163751E-01	-8.75897161350E-03	6.73191197478E-02	-8.24167326612E-03	6.75690335002E-02	2.39538747805E-01	6.89862565614E-02
1.74850000000E+09	7.71981850714E-02	-1.93521961334E-01	-7.36419386721E-03	6.73973222545E-02	-6.84109663841E-03	6.76528130510E-02	2.40091384845E-01	6.36885342484E-02
1.74900000000E+09	7.56229018493E-02	-1.95910792075E-01	-5.97762415617E-03	6.74865593270E-02	-5.44591398163E-03	6.77114064618E-02	2.40526332356E-01	5.83573938875E-02
1.74950000000E+09	7.39444718561E-02	-1.98223331814E-01	-4.57420831857E-03	6.75222372768E-02	-4.06839842246E-03	6.77626391172E-02	2.40752978632E-01	5.30583211630E-02
1.75000000000E+09	7.21936852207E-02	-2.00464997145E-01	-3.21726617890E-03	6.75506840745E-02	-2.67710180402E-03	6.77683625562E-02	2.40827704914E-01	4.77033141342E-02
1.75050000000E+09	7.03349938611E-02	-2.02610558932E-01	-1.83472521205E-03	6.75195731439E-02	-1.29093510464E-03	6.77348818372E-02	2.40710094841E-01	4.23595119383E-02
1.75100000000E+09	6.84061301290E-02	-2.04710394796E-01	-4.37422447733E-04	6.74732755313E-02	9.39760327843E-05	6.76704929348E-02	2.40462725854E-01	3.70010899472E-02
1.75150000000E+09	6.63808260618E-02	-2.06725231438E-01	9.08224432645E-04	6.74205577814E-02	1.46462790822E-03	6.76110574447E-02	2.40044616453E-01	3.17130514126E-02
1.75200000000E+09	6.42582732153E-02	-2.08633804317E-01	2.29038403076E-03	6.73220415207E-02	2.82291911470E-03	6.74913258440E-02	2.39412000353E-01	2.63312668331E-02
1.75250000000E+09	6.20697083086E-02	-2.10467116872E-01	3.64812317199E-03	6.72020173980E-02	4.18107134747E-03	6.73712094122E-02	2.38664148143E-01	2.10452751619E-02
1.75300000000E+09	5.98029920463E-02	-2.12165670539E-01	5.00247675906E-03	6.70658531834E-02	5.55082811449E-03	6.72197111249E-02	2.37721120027E-01	1.57816229384E-02
1.75350000000E+09	5.74698907119E-02	-2.13816027810E-01	6.34177605338E-03	6.68753036280E-02	6.90150371976E-03	6.70444179198E-02	2.36602615075E-01	1.04902262690E-02
1.75400000000E+09	5.50499239303E-02	-2.15329181740E-01	7.68065705026E-03	6.66797553698E-02	8.23221290878E-03	6.68229714713E-02	2.35289807897E-01	5.25232808001E-03
1.75450000000E+09	5.25531944884E-02	-2.16740484532E-01	9.00957942090E-03	6.64659390094E-02	9.57106985581E-03	6.65963180256E-02	2.33882044051E-01	7.17246623117E-05
1.75500000000E+09	5.00237011159E-02	-2.18020154996E-01	1.03397293478E-02	6.62132129320E-02	1.09048467578E-02	6.63323345061E-02	2.32289566807E-01	-5.09999250012E-03
1.75550000000E+09	4.74381295268E-02	-2.19162996919E-01	1.16419649888E-02	6.59526828498E-02	1.22236390044E-02	6.60488431271E-02	2.30500957372E-01	-1.01887865396E-02
1.75600000000E+09	4.47814193980E-02	-2.20257064189E-01	1.29510010088E-02	6.56476101823E-02	1.35228759052E-02	6.57544161197E-02	2.28579400440E-01	-1.52430251781E-02
1.75650000000E+09	4.20796809502E-02	-2.21125259931E-01	1.42505894578E-02	6.53211226775E-02	1.48122392401E-02	6.54225875943E-02	2.26515683178E-01	-2.02258068700E-02
1.75700000000E+09	3.93557071611E-02	-2.21939635196E-01	1.55250107806E-02	6.49902170199E-02	1.61011967932E-02	6.50747108761E-02	2.24247595553E-01	-2.51191078471E-02
1.75750000000E+09	3.66121282141E-02	-2.22594188778E-01	1.68159892972E-02	6.46306765899E-02	1.73857115773E-02	6.46867271829E-02	2.21831508467E-01	-2.99995991889E-02
1.75800000000E+09	3.38170735246E-02	-2.23096133466E-01	1.80901445713E-02	6.42477335142E-02	1.86420231793E-02	6.42979097671E-02	2.19249614336E-01	-3.47743651746E-02
1.75850000000E+09	3.09900281402E-02	-2.23515068463E-01	1.93416528453E-02	6.38450040703E-02	1.99116169691E-02	6.38920372049E-02	2.16551616672E-01	-3.94634837194E-02
