# Hz S RI R 50
! CMT, CMT808U, 21440046, 21.4.3/4
! Date: 11/20/2025 11:42:34 PM
! Data: Format (Calibration Info)
! Freq	S11:Re/Im(F2)	S41:Re/Im(F2)	S14:Re/Im(F2)	S44:Re/Im(F2)
1.70000000000E+09	-7.36548554100E-02	-1.20377537592E-01	-5.55592513591E-02	-3.73264974665E-02	-5.60269902084E-02	-3.70237176769E-02	-1.21940109560E-01	5.75266124567E-02
1.70050000000E+09	-7.35647005687E-02	-1.17616096332E-01	-5.63480198028E-02	-3.62067444614E-02	-5.68207095598E-02	-3.58916626001E-02	-1.21610171575E-01	6.35638607039E-02
1.70100000000E+09	-7.32914759239E-02	-1.14818699560E-01	-5.71271160022E-02	-3.50366751031E-02	-5.75987234596E-02	-3.47143603347E-02	-1.21059370510E-01	6.95803346959E-02
1.70150000000E+09	-7.28557834478E-02	-1.12018530487E-01	-5.78999012413E-02	-3.38687491444E-02	-5.83359536382E-02	-3.35218257549E-02	-1.20352955278E-01	7.55616730962E-02
1.70200000000E+09	-7.22645876977E-02	-1.09240415001E-01	-5.86439522614E-02	-3.26697986982E-02	-5.90739421371E-02	-3.23294733547E-02	-1.19415354932E-01	8.15603432628E-02
1.70250000000E+09	-7.14743481507E-02	-1.06437983300E-01	-5.93616315081E-02	-3.14787537944E-02	-5.97894798446E-02	-3.11068497263E-02	-1.18277634560E-01	8.74756627676E-02
1.70300000000E+09	-7.05435928848E-02	-1.03680307504E-01	-6.00378007776E-02	-3.02498395532E-02	-6.04709866899E-02	-2.98718696145E-02	-1.16989730689E-01	9.33436444615E-02
1.70350000000E+09	-6.94566804099E-02	-1.00960943063E-01	-6.07180682110E-02	-2.89959464593E-02	-6.11359747254E-02	-2.86324223893E-02	-1.15496098067E-01	9.91526300351E-02
1.70400000000E+09	-6.81950106395E-02	-9.82775744564E-02	-6.13609475476E-02	-2.77261118467E-02	-6.17691243282E-02	-2.73437579619E-02	-1.13814372316E-01	1.04916116155E-01
1.70450000000E+09	-6.68123640348E-02	-9.56596673966E-02	-6.19729963427E-02	-2.64505079164E-02	-6.23911761808E-02	-2.60568218233E-02	-1.11924395756E-01	1.10638180587E-01
1.70500000000E+09	-6.52807490993E-02	-9.30713517728E-02	-6.25667683898E-02	-2.51575709749E-02	-6.29752185686E-02	-2.47485256480E-02	-1.09865971696E-01	1.16275819912E-01
1.70550000000E+09	-6.35920315090E-02	-9.05826689284E-02	-6.31476323645E-02	-2.38422967001E-02	-6.35459584077E-02	-2.34432465401E-02	-1.07638378880E-01	1.21812666250E-01
1.70600000000E+09	-6.17745217063E-02	-8.81508580879E-02	-6.36883362609E-02	-2.25236298795E-02	-6.40720305944E-02	-2.20982439333E-02	-1.05230065282E-01	1.27277075512E-01
1.70650000000E+09	-5.98509226127E-02	-8.57800316375E-02	-6.41970231901E-02	-2.11628596539E-02	-6.45839339072E-02	-2.07496096551E-02	-1.02622841443E-01	1.32646673942E-01
1.70700000000E+09	-5.77923563559E-02	-8.35179638058E-02	-6.46856743527E-02	-1.98110572146E-02	-6.50474640701E-02	-1.93853907809E-02	-9.98647426587E-02	1.37974421080E-01
1.70750000000E+09	-5.56109152131E-02	-8.13479633181E-02	-6.51437078223E-02	-1.84515541547E-02	-6.55073676453E-02	-1.80087340452E-02	-9.69702048747E-02	1.43142089724E-01
1.70800000000E+09	-5.33175579935E-02	-7.92568074245E-02	-6.55706275925E-02	-1.70670035227E-02	-6.59179840353E-02	-1.66095987631E-02	-9.38560987304E-02	1.48241086271E-01
1.70850000000E+09	-5.09220790070E-02	-7.72891117322E-02	-6.59744658809E-02	-1.56714834602E-02	-6.62967399515E-02	-1.51954447318E-02	-9.06136541401E-02	1.53225755917E-01
1.70900000000E+09	-4.84355362968E-02	-7.53972022741E-02	-6.63330235037E-02	-1.42362966443E-02	-6.66717456928E-02	-1.37917682808E-02	-8.72307566096E-02	1.58094626357E-01
1.70950000000E+09	-4.58577977246E-02	-7.36481941303E-02	-6.66666288183E-02	-1.28327448577E-02	-6.69849694906E-02	-1.23555170547E-02	-8.36766504223E-02	1.62833487834E-01
1.71000000000E+09	-4.31975661039E-02	-7.19959574534E-02	-6.69538735154E-02	-1.13985153065E-02	-6.72732078923E-02	-1.09204928240E-02	-7.99588968020E-02	1.67451004128E-01
1.71050000000E+09	-4.04635979046E-02	-7.04417167076E-02	-6.72370026623E-02	-9.96563205750E-03	-6.75557549820E-02	-9.46766144377E-03	-7.61563085869E-02	1.71952820548E-01
1.71100000000E+09	-3.76580584107E-02	-6.90199482435E-02	-6.74706858401E-02	-8.51507609998E-03	-6.77624061371E-02	-8.01487536341E-03	-7.21632195078E-02	1.76309436978E-01
1.71150000000E+09	-3.48144367389E-02	-6.77186928123E-02	-6.76968470848E-02	-7.05004059859E-03	-6.79568522440E-02	-6.55138120379E-03	-6.80543905096E-02	1.80567779201E-01
1.71200000000E+09	-3.18910003454E-02	-6.65302293663E-02	-6.78528343743E-02	-5.60047587910E-03	-6.81200685433E-02	-5.09524538091E-03	-6.38374115653E-02	1.84641516428E-01
1.71250000000E+09	-2.89393749300E-02	-6.54859943666E-02	-6.80091021472E-02	-4.13864027963E-03	-6.82463231134E-02	-3.60915929829E-03	-5.94482822962E-02	1.88609491865E-01
1.71300000000E+09	-2.59305236977E-02	-6.45417460497E-02	-6.81055204832E-02	-2.64329174312E-03	-6.83369164839E-02	-2.13258752024E-03	-5.49704306064E-02	1.92391989209E-01
1.71350000000E+09	-2.28886186286E-02	-6.37281885238E-02	-6.81818349784E-02	-1.16883908868E-03	-6.84191811258E-02	-6.51643417327E-04	-5.04192517210E-02	1.96051357051E-01
1.71400000000E+09	-1.98181718344E-02	-6.30195081266E-02	-6.82124799062E-02	3.06576462019E-04	-6.84267781432E-02	8.23451571262E-04	-4.57266488981E-02	1.99551044177E-01
1.71450000000E+09	-1.67518101928E-02	-6.24340075008E-02	-6.82181817845E-02	1.78835019107E-03	-6.84295011151E-02	2.31529258521E-03	-4.08916111596E-02	2.02893963687E-01
1.71500000000E+09	-1.36350454090E-02	-6.19778350392E-02	-6.81923346905E-02	3.25922755679E-03	-6.83914609705E-02	3.80703857448E-03	-3.60471102035E-02	2.06113638514E-01
1.71550000000E+09	-1.05115264402E-02	-6.16175006277E-02	-6.81180516759E-02	4.74722544117E-03	-6.83107062706E-02	5.27402766688E-03	-3.10214650259E-02	2.09117227312E-01
1.71600000000E+09	-7.38680338593E-03	-6.14024829628E-02	-6.80217065983E-02	6.22229789141E-03	-6.81929531490E-02	6.77415147780E-03	-2.59677138249E-02	2.11996980030E-01
1.71650000000E+09	-4.25451855477E-03	-6.12938537047E-02	-6.78902199498E-02	7.70754785787E-03	-6.80473737446E-02	8.27264750365E-03	-2.07789330818E-02	2.14693613096E-01
1.71700000000E+09	-1.13689048158E-03	-6.12971992061E-02	-6.77293021049E-02	9.18294602105E-03	-6.78872390416E-02	9.73708564471E-03	-1.55828180844E-02	2.17220413666E-01
1.71750000000E+09	1.97626564447E-03	-6.14051537987E-02	-6.75324610049E-02	1.06471922812E-02	-6.76553176579E-02	1.12070035385E-02	-1.02546329217E-02	2.19576533192E-01
1.71800000000E+09	5.10588713345E-03	-6.16640060473E-02	-6.72951180092E-02	1.21308408565E-02	-6.74095734692E-02	1.26792380038E-02	-4.92126829909E-03	2.21766921156E-01
1.71850000000E+09	8.16715373489E-03	-6.20076987365E-02	-6.70295819043E-02	1.35787884205E-02	-6.71128204250E-02	1.41351672123E-02	4.95424094122E-04	2.23798811547E-01
1.71900000000E+09	1.12269795320E-02	-6.24532882650E-02	-6.67267234725E-02	1.50249242337E-02	-6.68010886006E-02	1.56108254842E-02	6.02134449316E-03	2.25635951621E-01
1.71950000000E+09	1.42765760720E-02	-6.29905290377E-02	-6.63959270198E-02	1.64715162667E-02	-6.64576971943E-02	1.70516855601E-02	1.14995003714E-02	2.27307785251E-01
1.72000000000E+09	1.72783074403E-02	-6.36587375992E-02	-6.60068720561E-02	1.79302071106E-02	-6.60815582064E-02	1.84848128540E-02	1.70725347830E-02	2.28831554780E-01
1.72050000000E+09	2.02571032564E-02	-6.44046820669E-02	-6.56029456021E-02	1.93567582277E-02	-6.56609304862E-02	1.99277394439E-02	2.26850167712E-02	2.30118771441E-01
1.72100000000E+09	2.32020723567E-02	-6.52748220230E-02	-6.51885705225E-02	2.07679120813E-02	-6.52212539888E-02	2.13573411479E-02	2.83246472851E-02	2.31255673216E-01
1.72150000000E+09	2.61144511618E-02	-6.62025399022E-02	-6.47158721072E-02	2.21787001618E-02	-6.47432993493E-02	2.27508442332E-02	3.40080941245E-02	2.32263804704E-01
1.72200000000E+09	2.89631174610E-02	-6.72478743711E-02	-6.42208516085E-02	2.35925441214E-02	-6.42222620802E-02	2.41771833760E-02	3.97030464284E-02	2.33022419372E-01
1.72250000000E+09	3.17909163173E-02	-6.83836865825E-02	-6.36872020646E-02	2.49796881003E-02	-6.36883973776E-02	2.55387424213E-02	4.53829719001E-02	2.33668783613E-01
1.72300000000E+09	3.45640217834E-02	-6.96074151298E-02	-6.31256408968E-02	2.63371037313E-02	-6.31103885056E-02	2.69396284960E-02	5.10523783042E-02	2.34064118665E-01
1.72350000000E+09	3.72805287991E-02	-7.09014414993E-02	-6.25308236152E-02	2.77167887005E-02	-6.25091714387E-02	2.82851059866E-02	5.67792147561E-02	2.34335793131E-01
1.72400000000E+09	3.99388856797E-02	-7.22941018135E-02	-6.19062050675E-02	2.90602092885E-02	-6.18702944479E-02	2.96331670292E-02	6.24964403974E-02	2.34435527344E-01
1.72450000000E+09	4.25642380926E-02	-7.37702954828E-02	-6.12493643910E-02	3.03877311012E-02	-6.12046866633E-02	3.09647090368E-02	6.82104378894E-02	2.34333028695E-01
1.72500000000E+09	4.51305453410E-02	-7.53095108219E-02	-6.05616168136E-02	3.17014650393E-02	-6.05087081227E-02	3.22789605617E-02	7.38734931478E-02	2.34042101330E-01
1.72550000000E+09	4.76296634800E-02	-7.69203682933E-02	-5.98568248678E-02	3.30018389537E-02	-5.97771579807E-02	3.35757569979E-02	7.95764813371E-02	2.33581088346E-01
1.72600000000E+09	5.00884079654E-02	-7.86206468422E-02	-5.91073112701E-02	3.42829740890E-02	-5.90342162827E-02	3.48472631087E-02	8.52182262218E-02	2.32960779973E-01
1.72650000000E+09	5.24594244812E-02	-8.03828837977E-02	-5.83416772317E-02	3.55471898888E-02	-5.82506293166E-02	3.61228188364E-02	9.08618181118E-02	2.32156710335E-01
1.72700000000E+09	5.47787652063E-02	-8.22175028321E-02	-5.75488170700E-02	3.67864734527E-02	-5.74443076371E-02	3.73513901552E-02	9.64546973059E-02	2.31191339957E-01
1.72750000000E+09	5.70414726543E-02	-8.41025298358E-02	-5.67221275430E-02	3.80245083437E-02	-5.65886945790E-02	3.85626959607E-02	1.01990622130E-01	2.30049597868E-01
1.72800000000E+09	5.92260050447E-02	-8.60498404109E-02	-5.58871227441E-02	3.92336892858E-02	-5.57263496587E-02	3.97760960677E-02	1.07524547811E-01	2.28717889405E-01
1.72850000000E+09	6.13374169456E-02	-8.81054285854E-02	-5.49936320266E-02	4.03955930868E-02	-5.48590463861E-02	4.09611587216E-02	1.12962200128E-01	2.27244968655E-01
1.72900000000E+09	6.34036866017E-02	-9.01665257248E-02	-5.41009107026E-02	4.15864445577E-02	-5.39336372654E-02	4.21240373869E-02	1.18410121200E-01	2.25597251344E-01
1.72950000000E+09	6.54026149110E-02	-9.22977713403E-02	-5.31771176683E-02	4.27084025521E-02	-5.29937280282E-02	4.32580653196E-02	1.23737227895E-01	2.23813456026E-01
1.73000000000E+09	6.73162771536E-02	-9.45227331132E-02	-5.22287178394E-02	4.38400262526E-02	-5.20254966323E-02	4.43815736007E-02	1.29037599665E-01	2.21806240159E-01
1.73050000000E+09	6.91851685197E-02	-9.67369285170E-02	-5.12385298079E-02	4.49339758315E-02	-5.10448502096E-02	4.54544725664E-02	1.34252708934E-01	2.19714366733E-01
1.73100000000E+09	7.09395782188E-02	-9.90483837320E-02	-5.02579868784E-02	4.60089055181E-02	-5.00306988026E-02	4.65359856823E-02	1.39422056387E-01	2.17402742170E-01
1.73150000000E+09	7.26533609211E-02	-1.01399298236E-01	-4.92187660904E-02	4.70541356100E-02	-4.89987765541E-02	4.75922757191E-02	1.44507947873E-01	2.14953598727E-01
1.73200000000E+09	7.42939132030E-02	-1.03779863013E-01	-4.81824913906E-02	4.80902369993E-02	-4.79291333775E-02	4.86181580434E-02	1.49496937109E-01	2.12356634239E-01
1.73250000000E+09	7.58462701088E-02	-1.06211642110E-01	-4.71221102308E-02	4.91008515476E-02	-4.68569583186E-02	4.96006888944E-02	1.54396771268E-01	2.09595437749E-01
1.73300000000E+09	7.72904681990E-02	-1.08701050512E-01	-4.60260156946E-02	5.00749784941E-02	-4.57729201337E-02	5.05708640627E-02	1.59227163126E-01	2.06725684425E-01
1.73350000000E+09	7.87013334889E-02	-1.11246303890E-01	-4.49258295649E-02	5.10243808571E-02	-4.46416005066E-02	5.15133825763E-02	1.63961403842E-01	2.03690514276E-01
1.73400000000E+09	8.00195236645E-02	-1.13802121431E-01	-4.37945237467E-02	5.19592553384E-02	-4.35018068801E-02	5.24411202784E-02	1.68610591276E-01	2.00486384735E-01
1.73450000000E+09	8.12539142739E-02	-1.16398064936E-01	-4.26557495252E-02	5.28490578132E-02	-4.23662722850E-02	5.33385986900E-02	1.73140145121E-01	1.97194698234E-01
1.73500000000E+09	8.23768455829E-02	-1.19024461902E-01	-4.14993512650E-02	5.37240568423E-02	-4.11805640958E-02	5.41882305260E-02	1.77540841003E-01	1.93731586843E-01
1.73550000000E+09	8.34489922418E-02	-1.21694759966E-01	-4.03144944156E-02	5.45794832151E-02	-3.99983507974E-02	5.50386688581E-02	1.81874525529E-01	1.90135280325E-01
1.73600000000E+09	8.43884850661E-02	-1.24402776202E-01	-3.91194371482E-02	5.53912412619E-02	-3.87895337213E-02	5.58407569944E-02	1.86037520789E-01	1.86413343369E-01
1.73650000000E+09	8.52932468273E-02	-1.27129503757E-01	-3.79082769787E-02	5.61788117566E-02	-3.75644809884E-02	5.66186232497E-02	1.90152710630E-01	1.82574199085E-01
1.73700000000E+09	8.60989350753E-02	-1.29876267671E-01	-3.66711371611E-02	5.69375566784E-02	-3.63430636339E-02	5.73733695919E-02	1.94103356308E-01	1.78640555487E-01
1.73750000000E+09	8.67957286866E-02	-1.32634116044E-01	-3.54448049537E-02	5.76647258200E-02	-3.50799899353E-02	5.81019257981E-02	1.97963154710E-01	1.74557698849E-01
1.73800000000E+09	8.74097290654E-02	-1.35447762367E-01	-3.41895425384E-02	5.83791136754E-02	-3.38154724939E-02	5.88063266125E-02	2.01628742324E-01	1.70348553798E-01
1.73850000000E+09	8.79320946668E-02	-1.38237221210E-01	-3.29102483706E-02	5.90620045598E-02	-3.25362855202E-02	5.94751502853E-02	2.05214998405E-01	1.66044636656E-01
1.73900000000E+09	8.83712381363E-02	-1.41064435010E-01	-3.16432759350E-02	5.96887045359E-02	-3.12412488879E-02	6.01205163936E-02	2.08687363742E-01	1.61642163021E-01
1.73950000000E+09	8.87319154903E-02	-1.43885348635E-01	-3.03389182056E-02	6.03257585795E-02	-2.99521569981E-02	6.07391286606E-02	2.12009888565E-01	1.57119814393E-01
1.74000000000E+09	8.89791321853E-02	-1.46777021282E-01	-2.90379773212E-02	6.09278600327E-02	-2.86330951843E-02	6.13213256760E-02	2.15181707530E-01	1.52536790149E-01
1.74050000000E+09	8.90945385542E-02	-1.49617749819E-01	-2.77146201600E-02	6.14850930140E-02	-2.73085412135E-02	6.18700728723E-02	2.18180113346E-01	1.47813337248E-01
1.74100000000E+09	8.91448457454E-02	-1.52469469084E-01	-2.64148134295E-02	6.20178842004E-02	-2.59890096225E-02	6.23988555003E-02	2.21039276816E-01	1.43031187942E-01
1.74150000000E+09	8.90990703192E-02	-1.55315262496E-01	-2.50703981177E-02	6.25105342151E-02	-2.46403247371E-02	6.28856686553E-02	2.23788204391E-01	1.38134655190E-01
1.74200000000E+09	8.89594680065E-02	-1.58168345061E-01	-2.37259744631E-02	6.29904899052E-02	-2.33071351997E-02	6.33472706528E-02	2.26354353586E-01	1.33181891061E-01
1.74250000000E+09	8.86852483381E-02	-1.61007260242E-01	-2.23818061698E-02	6.34377421996E-02	-2.19606623055E-02	6.37717446584E-02	2.28816987661E-01	1.28143852914E-01
1.74300000000E+09	8.83461295595E-02	-1.63860375923E-01	-2.10291726120E-02	6.38495736997E-02	-2.05939121155E-02	6.41782796634E-02	2.31095729653E-01	1.23007276914E-01
1.74350000000E+09	8.78765642254E-02	-1.66682530366E-01	-1.96719783125E-02	6.42444210803E-02	-1.92232079563E-02	6.45604593959E-02	2.33204978788E-01	1.17844422201E-01
1.74400000000E+09	8.73385476574E-02	-1.69467150702E-01	-1.83009742066E-02	6.46010576583E-02	-1.78465889039E-02	6.48995562600E-02	2.35161895850E-01	1.12600023526E-01
1.74450000000E+09	8.66847102153E-02	-1.72271250145E-01	-1.69287071935E-02	6.49107406800E-02	-1.64749799047E-02	6.52180501235E-02	2.36997638504E-01	1.07307852102E-01
1.74500000000E+09	8.59340494444E-02	-1.74996590152E-01	-1.55472475289E-02	6.52123625983E-02	-1.50930329581E-02	6.54980324803E-02	2.38602151555E-01	1.01958285485E-01
1.74550000000E+09	8.50677974480E-02	-1.77751149151E-01	-1.41722373972E-02	6.54667441213E-02	-1.37107186929E-02	6.57628097858E-02	2.40072039601E-01	9.65918417725E-02
1.74600000000E+09	8.41217404937E-02	-1.80447475144E-01	-1.27825113421E-02	6.57056239970E-02	-1.23276724126E-02	6.59885257931E-02	2.41386799326E-01	9.11242708057E-02
1.74650000000E+09	8.30348950117E-02	-1.83092921626E-01	-1.14139557765E-02	6.59202212961E-02	-1.09387550487E-02	6.61914899354E-02	2.42509951894E-01	8.56486321770E-02
1.74700000000E+09	8.18689002887E-02	-1.85702998773E-01	-1.00225990451E-02	6.61042329056E-02	-9.54212659511E-03	6.63692150731E-02	2.43443937585E-01	8.01253158327E-02
1.74750000000E+09	8.06205582231E-02	-1.88265238176E-01	-8.64576057310E-03	6.62457326103E-02	-8.16541135221E-03	6.64973026696E-02	2.44278867544E-01	7.45919375751E-02
1.74800000000E+09	7.92624940599E-02	-1.90788399381E-01	-7.25046495500E-03	6.63715864968E-02	-6.76353051337E-03	6.66037532125E-02	2.44881158517E-01	6.90173830918E-02
1.74850000000E+09	7.78071279399E-02	-1.93233505714E-01	-5.87208236834E-03	6.64651736080E-02	-5.38836901052E-03	6.66757286566E-02	2.45331482156E-01	6.34474211183E-02
1.74900000000E+09	7.62331936044E-02	-1.95634834023E-01	-4.49676670993E-03	6.65281931440E-02	-3.99282353802E-03	6.67331212404E-02	2.45601812478E-01	5.78446714061E-02
1.74950000000E+09	7.45918115206E-02	-1.97954664637E-01	-3.10625026846E-03	6.65509367694E-02	-2.60646598484E-03	6.67488753710E-02	2.45720827450E-01	5.22537714793E-02
1.75000000000E+09	7.28264337683E-02	-2.00198078463E-01	-1.72662955789E-03	6.65534731450E-02	-1.23927048378E-03	6.67515432465E-02	2.45646304241E-01	4.66454466953E-02
1.75050000000E+09	7.09990781473E-02	-2.02395962653E-01	-3.49085181709E-04	6.65332757208E-02	1.47695637493E-04	6.67240566313E-02	2.45405947691E-01	4.10468506058E-02
1.75100000000E+09	6.91181177879E-02	-2.04528835674E-01	1.01217629130E-03	6.64820601308E-02	1.52039406752E-03	6.66520905485E-02	2.44998653766E-01	3.54336947455E-02
1.75150000000E+09	6.70679111957E-02	-2.06555290566E-01	2.37526395879E-03	6.64023443109E-02	2.89422305026E-03	6.65717751653E-02	2.44431875947E-01	2.99155465541E-02
1.75200000000E+09	6.49734010082E-02	-2.08498215539E-01	3.75413873528E-03	6.63021078400E-02	4.26644589324E-03	6.64550415706E-02	2.43680222098E-01	2.43208275531E-02
1.75250000000E+09	6.27947048286E-02	-2.10356175219E-01	5.09955523851E-03	6.61486370798E-02	5.63813965515E-03	6.63109075521E-02	2.42755161979E-01	1.87952254581E-02
1.75300000000E+09	6.05317503265E-02	-2.12101691690E-01	6.45705315569E-03	6.59962799574E-02	6.96431876242E-03	6.61295510242E-02	2.41625764743E-01	1.32997335675E-02
1.75350000000E+09	5.82242142476E-02	-2.13779409572E-01	7.79633676014E-03	6.57983618953E-02	8.31919479060E-03	6.59430495362E-02	2.40343188701E-01	7.83397644248E-03
1.75400000000E+09	5.57972952089E-02	-2.15305087336E-01	9.12444596990E-03	6.55876367077E-02	9.66685107671E-03	6.57220295680E-02	2.38893757360E-01	2.40664746358E-03
1.75450000000E+09	5.33409805527E-02	-2.16748359436E-01	1.04739719423E-02	6.53591797001E-02	1.09877523867E-02	6.54703871034E-02	2.37291053274E-01	-2.98912480428E-03
1.75500000000E+09	5.08071060776E-02	-2.18071630505E-01	1.17946407483E-02	6.50863485936E-02	1.23098212592E-02	6.51956306577E-02	2.35524201458E-01	-8.30481023651E-03
1.75550000000E+09	4.82080056040E-02	-2.19286924104E-01	1.31005578088E-02	6.47975261146E-02	1.36355473102E-02	6.48871460459E-02	2.33546023662E-01	-1.36063883122E-02
1.75600000000E+09	4.55835731705E-02	-2.20382082092E-01	1.43978557349E-02	6.44845747200E-02	1.49462642407E-02	6.45717198454E-02	2.31437833697E-01	-1.87859612357E-02
1.75650000000E+09	4.28721404465E-02	-2.21338719750E-01	1.57103112710E-02	6.41502808692E-02	1.62394471204E-02	6.42149136272E-02	2.29176167616E-01	-2.39489537102E-02
1.75700000000E+09	4.01484126017E-02	-2.22152838221E-01	1.69983643816E-02	6.37932560126E-02	1.75352935701E-02	6.38604040574E-02	2.26725218978E-01	-2.90202660096E-02
1.75750000000E+09	3.73886484002E-02	-2.22853247381E-01	1.82751271455E-02	6.33895973205E-02	1.88079396832E-02	6.34521068399E-02	2.24115619939E-01	-3.39973037183E-02
1.75800000000E+09	3.45956035059E-02	-2.23393033747E-01	1.95365854586E-02	6.29968862492E-02	2.00734923250E-02	6.30421788368E-02	2.21335443715E-01	-3.89169111396E-02
1.75850000000E+09	3.17801110953E-02	-2.23834348922E-01	2.07927657496E-02	6.25558578190E-02	2.13350570021E-02	6.25747351342E-02	2.18448165682E-01	-4.37330370407E-02
