# Hz S RI R 50
! CMT, CMT808U, 21440046, 21.4.3/4
! Date: 11/20/2025 11:32:23 PM
! Data: Format (Calibration Info)
! Freq	S11:Re/Im(F2)	S41:Re/Im(F2)	S14:Re/Im(F2)	S44:Re/Im(F2)
1.70000000000E+09	-7.49578760461E-02	-1.19568010977E-01	-5.53754265606E-02	-3.85685505530E-02	-5.61719495048E-02	-3.79615804699E-02	-1.17049764346E-01	6.50236197468E-02
1.70050000000E+09	-7.47902335040E-02	-1.16808198645E-01	-5.62011842234E-02	-3.74466518256E-02	-5.70051943086E-02	-3.68367507429E-02	-1.16678553550E-01	7.08941059154E-02
1.70100000000E+09	-7.44370149115E-02	-1.14008478779E-01	-5.70119493155E-02	-3.62994645813E-02	-5.77961920616E-02	-3.56527065359E-02	-1.16125495887E-01	7.67680350848E-02
1.70150000000E+09	-7.39179925889E-02	-1.11241423166E-01	-5.78073973806E-02	-3.51335860708E-02	-5.85840092897E-02	-3.44754144532E-02	-1.15409121265E-01	8.25770275957E-02
1.70200000000E+09	-7.32553345344E-02	-1.08476704617E-01	-5.85834878280E-02	-3.39663330691E-02	-5.93514382536E-02	-3.32633111596E-02	-1.14477640715E-01	8.84215129321E-02
1.70250000000E+09	-7.23954805213E-02	-1.05711918810E-01	-5.93477346743E-02	-3.27426808837E-02	-6.01077649219E-02	-3.20482885638E-02	-1.13357338796E-01	9.42071526642E-02
1.70300000000E+09	-7.13941934373E-02	-1.02974515991E-01	-6.00690862998E-02	-3.15410178792E-02	-6.08146830492E-02	-3.08149282165E-02	-1.12067630557E-01	9.99157192258E-02
1.70350000000E+09	-7.02670474179E-02	-1.00283366690E-01	-6.07857853863E-02	-3.02646301039E-02	-6.15141679258E-02	-2.95552574788E-02	-1.10560194186E-01	1.05585784080E-01
1.70400000000E+09	-6.89303029983E-02	-9.76520357349E-02	-6.14628106329E-02	-2.90304091212E-02	-6.21889794167E-02	-2.82777529904E-02	-1.08912017389E-01	1.11175753447E-01
1.70450000000E+09	-6.74903867648E-02	-9.50587829392E-02	-6.21243214439E-02	-2.77286168860E-02	-6.28190264212E-02	-2.69773270481E-02	-1.07051642566E-01	1.16732050586E-01
1.70500000000E+09	-6.59000563357E-02	-9.25370339950E-02	-6.27709834277E-02	-2.64252708947E-02	-6.34631375018E-02	-2.56581832627E-02	-1.05020632919E-01	1.22241209162E-01
1.70550000000E+09	-6.41767053075E-02	-9.00672124927E-02	-6.33980070532E-02	-2.51183548166E-02	-6.40637737608E-02	-2.43163812166E-02	-1.02828527609E-01	1.27618654184E-01
1.70600000000E+09	-6.23307671794E-02	-8.76933659448E-02	-6.39735426153E-02	-2.37816854942E-02	-6.46197594839E-02	-2.29774892228E-02	-1.00459700169E-01	1.32972300198E-01
1.70650000000E+09	-6.03492231081E-02	-8.53876454700E-02	-6.45371746482E-02	-2.24086230052E-02	-6.51639869341E-02	-2.16022858847E-02	-9.78992888242E-02	1.38185640257E-01
1.70700000000E+09	-5.82724432363E-02	-8.31930194909E-02	-6.50564659843E-02	-2.10482808059E-02	-6.56755293180E-02	-2.02125503475E-02	-9.51928121176E-02	1.43335976971E-01
1.70750000000E+09	-5.60353813152E-02	-8.10679579738E-02	-6.55480456308E-02	-1.96595048862E-02	-6.61448227235E-02	-1.87985446993E-02	-9.23435735650E-02	1.48387319494E-01
1.70800000000E+09	-5.37357892104E-02	-7.90369663457E-02	-6.60186909715E-02	-1.82464172216E-02	-6.66065309393E-02	-1.73891607512E-02	-8.93038961487E-02	1.53333608466E-01
1.70850000000E+09	-5.13197109062E-02	-7.71093579407E-02	-6.64558102142E-02	-1.68293804735E-02	-6.70023974178E-02	-1.59648356688E-02	-8.61259759926E-02	1.58164901091E-01
1.70900000000E+09	-4.88290889021E-02	-7.52989591242E-02	-6.68640101675E-02	-1.53971140030E-02	-6.74044724362E-02	-1.45283811224E-02	-8.28077234514E-02	1.62911500053E-01
1.70950000000E+09	-4.62583184347E-02	-7.35985774709E-02	-6.72398965285E-02	-1.39430023099E-02	-6.77508259141E-02	-1.30632988917E-02	-7.93477780570E-02	1.67518922439E-01
1.71000000000E+09	-4.35920788119E-02	-7.19934208554E-02	-6.75855516938E-02	-1.24783280891E-02	-6.80667784994E-02	-1.15891567738E-02	-7.57103892575E-02	1.72011941915E-01
1.71050000000E+09	-4.08642663035E-02	-7.05174662292E-02	-6.78768234499E-02	-1.10343136586E-02	-6.83440529410E-02	-1.01141785501E-02	-7.20028278711E-02	1.76383673172E-01
1.71100000000E+09	-3.80817829729E-02	-6.91339673606E-02	-6.81385619089E-02	-9.55133089821E-03	-6.86152939349E-02	-8.61303225112E-03	-6.80751369272E-02	1.80634789058E-01
1.71150000000E+09	-3.52375720510E-02	-6.78918669979E-02	-6.83835290522E-02	-8.06020093079E-03	-6.88195394548E-02	-7.13513739716E-03	-6.40779050565E-02	1.84747491747E-01
1.71200000000E+09	-3.23259872068E-02	-6.67498296115E-02	-6.85934953058E-02	-6.57050760539E-03	-6.90148268083E-02	-5.62223250669E-03	-5.99588801191E-02	1.88720509582E-01
1.71250000000E+09	-2.93967125364E-02	-6.57556511448E-02	-6.87611062453E-02	-5.06218661612E-03	-6.91489511110E-02	-4.10985297283E-03	-5.56790808589E-02	1.92553273457E-01
1.71300000000E+09	-2.64240746417E-02	-6.48617738231E-02	-6.88804269491E-02	-3.55968113472E-03	-6.92608624443E-02	-2.58564148120E-03	-5.13248485050E-02	1.96242386753E-01
1.71350000000E+09	-2.34253206908E-02	-6.40865547283E-02	-6.89764103815E-02	-2.06080055948E-03	-6.93273566220E-02	-1.06140282689E-03	-4.68515206848E-02	1.99797627322E-01
1.71400000000E+09	-2.03730703830E-02	-6.34283340755E-02	-6.90346229619E-02	-5.40362091659E-04	-6.93611658349E-02	4.40416632339E-04	-4.22913090866E-02	2.03198101012E-01
1.71450000000E+09	-1.73441412361E-02	-6.28863017613E-02	-6.90578549749E-02	9.83861786116E-04	-6.93664970387E-02	1.98292888313E-03	-3.75865748283E-02	2.06450227915E-01
1.71500000000E+09	-1.42744233580E-02	-6.24674532291E-02	-6.90399018659E-02	2.49890353095E-03	-6.93430558874E-02	3.50376457589E-03	-3.28390119982E-02	2.09565214164E-01
1.71550000000E+09	-1.12033393677E-02	-6.21376611591E-02	-6.89999622997E-02	4.02667400116E-03	-6.92651618024E-02	5.03365358891E-03	-2.79232236758E-02	2.12477522218E-01
1.71600000000E+09	-8.12713229663E-03	-6.19620025910E-02	-6.89183259945E-02	5.53763462467E-03	-6.91356590159E-02	6.54383040633E-03	-2.30203061181E-02	2.15267645945E-01
1.71650000000E+09	-5.04146690328E-03	-6.18834415862E-02	-6.87946001299E-02	7.05895765981E-03	-6.89935484247E-02	8.08531422640E-03	-1.79793955897E-02	2.17902608366E-01
1.71700000000E+09	-1.96278454687E-03	-6.19260893067E-02	-6.86271436150E-02	8.57679805917E-03	-6.88160383178E-02	9.60476424852E-03	-1.28926706928E-02	2.20344936164E-01
1.71750000000E+09	1.09401920668E-03	-6.20437781260E-02	-6.84451020259E-02	1.00884219046E-02	-6.86014211961E-02	1.11272157271E-02	-7.70457601601E-03	2.22648671001E-01
1.71800000000E+09	4.15816433229E-03	-6.23096933836E-02	-6.81869711509E-02	1.15966475168E-02	-6.83590749865E-02	1.26219352048E-02	-2.47528577636E-03	2.24784662595E-01
1.71850000000E+09	7.17891201125E-03	-6.26626129813E-02	-6.79287122315E-02	1.30865374917E-02	-6.80719492214E-02	1.41332910233E-02	2.79343121541E-03	2.26761470811E-01
1.71900000000E+09	1.01787843244E-02	-6.31215388241E-02	-6.76482591794E-02	1.45884084993E-02	-6.77345449343E-02	1.56265467455E-02	8.17604495990E-03	2.28517085810E-01
1.71950000000E+09	1.31596778174E-02	-6.36675164802E-02	-6.72939352829E-02	1.60685588065E-02	-6.73693343292E-02	1.71109486614E-02	1.35317412543E-02	2.30154378562E-01
1.72000000000E+09	1.60987796106E-02	-6.43452029723E-02	-6.69403096629E-02	1.75364724114E-02	-6.69766335524E-02	1.85865465468E-02	1.89362732314E-02	2.31606044536E-01
1.72050000000E+09	1.90235570052E-02	-6.50912656135E-02	-6.65337215789E-02	1.89987900130E-02	-6.65468744329E-02	2.00576644217E-02	2.44175486402E-02	2.32879997562E-01
1.72100000000E+09	2.19119311339E-02	-6.59514193859E-02	-6.60797549264E-02	2.04545419815E-02	-6.60899658013E-02	2.15267589268E-02	2.99192615689E-02	2.34006358570E-01
1.72150000000E+09	2.47550276252E-02	-6.68769349755E-02	-6.56060681116E-02	2.19168426602E-02	-6.55798940063E-02	2.29579955670E-02	3.54537212170E-02	2.34933308340E-01
1.72200000000E+09	2.75597133784E-02	-6.79056445970E-02	-6.51025760967E-02	2.33340164878E-02	-6.50579961017E-02	2.43890017010E-02	4.10225977734E-02	2.35698320250E-01
1.72250000000E+09	3.03001332967E-02	-6.90288097426E-02	-6.45605440103E-02	2.47739662984E-02	-6.44853028305E-02	2.58079469118E-02	4.65487396841E-02	2.36307759986E-01
1.72300000000E+09	3.30208742278E-02	-7.02443640284E-02	-6.39933578305E-02	2.61700885660E-02	-6.39033264840E-02	2.72080362508E-02	5.21072751462E-02	2.36719418136E-01
1.72350000000E+09	3.56814356280E-02	-7.14994867768E-02	-6.33650950560E-02	2.75565652707E-02	-6.32557450719E-02	2.85938054020E-02	5.77036279488E-02	2.36935660652E-01
1.72400000000E+09	3.82981805833E-02	-7.28727881194E-02	-6.27502110154E-02	2.89287197749E-02	-6.26062091912E-02	2.99683658945E-02	6.32493025734E-02	2.37027307829E-01
1.72450000000E+09	4.08512105455E-02	-7.43294410855E-02	-6.20819362867E-02	3.02772428505E-02	-6.19135472103E-02	3.13247765819E-02	6.88622083604E-02	2.36900654936E-01
1.72500000000E+09	4.33455642717E-02	-7.58356818452E-02	-6.13749592744E-02	3.16244416457E-02	-6.11782884321E-02	3.26634732422E-02	7.43886251632E-02	2.36621786083E-01
1.72550000000E+09	4.58074693966E-02	-7.74256509615E-02	-6.06332003174E-02	3.29514582838E-02	-6.04315863902E-02	3.39763494796E-02	7.99605004409E-02	2.36193035741E-01
1.72600000000E+09	4.82063949090E-02	-7.90942871024E-02	-5.98821860762E-02	3.42490546316E-02	-5.96526106315E-02	3.52728958192E-02	8.54679020067E-02	2.35566467747E-01
1.72650000000E+09	5.05123586275E-02	-8.08218449766E-02	-5.91060238779E-02	3.55205143587E-02	-5.88262996378E-02	3.65490526723E-02	9.09735271973E-02	2.34770151049E-01
1.72700000000E+09	5.27959069710E-02	-8.26189426703E-02	-5.82861524282E-02	3.67938085935E-02	-5.79953491900E-02	3.78145070557E-02	9.64321298435E-02	2.33813528272E-01
1.72750000000E+09	5.50109429197E-02	-8.44814348229E-02	-5.74310800808E-02	3.80327579137E-02	-5.71301962793E-02	3.90569005294E-02	1.01851266594E-01	2.32697090522E-01
1.72800000000E+09	5.71453023295E-02	-8.63872811892E-02	-5.65743789149E-02	3.92786621269E-02	-5.62362550125E-02	4.02452692668E-02	1.07233276619E-01	2.31418086296E-01
1.72850000000E+09	5.92139735095E-02	-8.83800579091E-02	-5.56692555491E-02	4.04619066048E-02	-5.53221301003E-02	4.14430800384E-02	1.12577635109E-01	2.29936483441E-01
1.72900000000E+09	6.12359950359E-02	-9.04133106279E-02	-5.47469554608E-02	4.16263476642E-02	-5.43763887235E-02	4.26190161421E-02	1.17884577055E-01	2.28339068912E-01
1.72950000000E+09	6.31831265026E-02	-9.24889535939E-02	-5.38105697244E-02	4.27914967077E-02	-5.34069105017E-02	4.37596080758E-02	1.23125588701E-01	2.26583874169E-01
1.73000000000E+09	6.50477085583E-02	-9.46567163879E-02	-5.28300974653E-02	4.39359401860E-02	-5.24161230338E-02	4.48933917495E-02	1.28263232298E-01	2.24622174754E-01
1.73050000000E+09	6.68581190729E-02	-9.68375951862E-02	-5.18512575430E-02	4.50160698418E-02	-5.14007669843E-02	4.59854124666E-02	1.33395984309E-01	2.22570292872E-01
1.73100000000E+09	6.85940924386E-02	-9.91077517217E-02	-5.08229318063E-02	4.61182897938E-02	-5.03669191052E-02	4.70564055098E-02	1.38440930780E-01	2.20296312297E-01
1.73150000000E+09	7.02587144231E-02	-1.01385478191E-01	-4.97753331503E-02	4.71662713784E-02	-4.92850597499E-02	4.80957494369E-02	1.43411647172E-01	2.17882952003E-01
1.73200000000E+09	7.18572824146E-02	-1.03721294430E-01	-4.87161912956E-02	4.81999716353E-02	-4.82203765344E-02	4.91153092385E-02	1.48294902559E-01	2.15344707020E-01
1.73250000000E+09	7.33674382544E-02	-1.06110470307E-01	-4.76413989053E-02	4.91896118228E-02	-4.71142478651E-02	5.00961045212E-02	1.53110702604E-01	2.12634045599E-01
1.73300000000E+09	7.47929660149E-02	-1.08545572126E-01	-4.65319634481E-02	5.01749968324E-02	-4.60100327197E-02	5.10678532876E-02	1.57822355075E-01	2.09820927253E-01
1.73350000000E+09	7.61431988922E-02	-1.11039885988E-01	-4.54263727057E-02	5.11403323201E-02	-4.48517409254E-02	5.20062392165E-02	1.62421856239E-01	2.06831718138E-01
1.73400000000E+09	7.74223625110E-02	-1.13532845475E-01	-4.42724202074E-02	5.20753422640E-02	-4.36954474252E-02	5.29338258177E-02	1.66983811098E-01	2.03719360772E-01
1.73450000000E+09	7.86231296607E-02	-1.16082295519E-01	-4.31221904577E-02	5.29727986600E-02	-4.25124550770E-02	5.38193215353E-02	1.71414963061E-01	2.00438861486E-01
1.73500000000E+09	7.97323729958E-02	-1.18653624678E-01	-4.19292693500E-02	5.38256883785E-02	-4.13159659996E-02	5.46751998487E-02	1.75729521121E-01	1.97026390251E-01
1.73550000000E+09	8.07589151399E-02	-1.21263534721E-01	-4.07527189579E-02	5.46868151956E-02	-4.01005975888E-02	5.54988076183E-02	1.79974230001E-01	1.93530317693E-01
1.73600000000E+09	8.16943258009E-02	-1.23904543637E-01	-3.95236727909E-02	5.55090237287E-02	-3.88991338469E-02	5.62952362860E-02	1.84049366378E-01	1.89887480980E-01
1.73650000000E+09	8.25367713189E-02	-1.26556136045E-01	-3.83105229247E-02	5.62812832409E-02	-3.76376602766E-02	5.70629776911E-02	1.88038398975E-01	1.86151489376E-01
1.73700000000E+09	8.33289593079E-02	-1.29241291031E-01	-3.70784465654E-02	5.70352181236E-02	-3.64087847240E-02	5.78250335647E-02	1.91960066580E-01	1.82227466403E-01
1.73750000000E+09	8.39995152391E-02	-1.31947938376E-01	-3.58276067612E-02	5.77726200846E-02	-3.51413130651E-02	5.85356387877E-02	1.95691022927E-01	1.78237704833E-01
1.73800000000E+09	8.46108945030E-02	-1.34677943858E-01	-3.45494160241E-02	5.84695464454E-02	-3.38478836786E-02	5.92085073331E-02	1.99308951976E-01	1.74091164598E-01
1.73850000000E+09	8.51077184446E-02	-1.37409539757E-01	-3.32734862080E-02	5.91335627296E-02	-3.25579016778E-02	5.98580795757E-02	2.02798932490E-01	1.69889042346E-01
1.73900000000E+09	8.55177035293E-02	-1.40165537130E-01	-3.20024560703E-02	5.97877302302E-02	-3.12549719461E-02	6.05007391777E-02	2.06199343219E-01	1.65544323436E-01
1.73950000000E+09	8.58570599135E-02	-1.42927720999E-01	-3.07049721276E-02	6.04093232409E-02	-2.99616792636E-02	6.10936162338E-02	2.09433746301E-01	1.61129000086E-01
1.74000000000E+09	8.60887379378E-02	-1.45728383819E-01	-2.93744235823E-02	6.09945136662E-02	-2.86333594188E-02	6.16660530278E-02	2.12522817464E-01	1.56599933196E-01
1.74050000000E+09	8.62013431960E-02	-1.48501180888E-01	-2.80654698686E-02	6.15625308005E-02	-2.72944791489E-02	6.22107929908E-02	2.15489161469E-01	1.51975291497E-01
1.74100000000E+09	8.62488525557E-02	-1.51285668544E-01	-2.67552858720E-02	6.20847755068E-02	-2.59498531966E-02	6.27203295760E-02	2.18288917239E-01	1.47251965301E-01
1.74150000000E+09	8.61489201607E-02	-1.54067368385E-01	-2.54011686531E-02	6.25608721776E-02	-2.46164336925E-02	6.31990798725E-02	2.20982417211E-01	1.42466875320E-01
1.74200000000E+09	8.60399231874E-02	-1.56844473250E-01	-2.40662881469E-02	6.30431769966E-02	-2.32509551347E-02	6.36481260874E-02	2.23496810660E-01	1.37602272135E-01
1.74250000000E+09	8.57688229309E-02	-1.59610591384E-01	-2.27141944522E-02	6.34803744728E-02	-2.18788832437E-02	6.40708805457E-02	2.25886138251E-01	1.32633850334E-01
1.74300000000E+09	8.54233531345E-02	-1.62389986884E-01	-2.13595164133E-02	6.39015805295E-02	-2.05335126807E-02	6.44612632268E-02	2.28101748230E-01	1.27621363670E-01
1.74350000000E+09	8.49590583701E-02	-1.65139633887E-01	-1.99957325271E-02	6.42848484808E-02	-1.91460458547E-02	6.48194535590E-02	2.30136939835E-01	1.22527490755E-01
1.74400000000E+09	8.44320686102E-02	-1.67850574941E-01	-1.86175787954E-02	6.46187144271E-02	-1.77840259885E-02	6.51606151943E-02	2.32071752696E-01	1.17377934247E-01
1.74450000000E+09	8.37677984822E-02	-1.70585889164E-01	-1.72518971407E-02	6.49441904200E-02	-1.63966915144E-02	6.54730006660E-02	2.33819038441E-01	1.12162754200E-01
1.74500000000E+09	8.30197973898E-02	-1.73246620756E-01	-1.58890650559E-02	6.52528058957E-02	-1.50165912780E-02	6.57460832400E-02	2.35420800120E-01	1.06933015877E-01
1.74550000000E+09	8.21702191427E-02	-1.75893893518E-01	-1.45143920845E-02	6.55067718096E-02	-1.36328078066E-02	6.59667798371E-02	2.36820791769E-01	1.01631908451E-01
1.74600000000E+09	8.12429846185E-02	-1.78521246008E-01	-1.31433790260E-02	6.57402747262E-02	-1.22488978831E-02	6.62020035284E-02	2.38101170526E-01	9.62982074472E-02
1.74650000000E+09	8.01773040261E-02	-1.81103116393E-01	-1.17500402530E-02	6.59613159891E-02	-1.08575336645E-02	6.63898336148E-02	2.39159405117E-01	9.09022396254E-02
1.74700000000E+09	7.90226582772E-02	-1.83644627465E-01	-1.03705918682E-02	6.61373139136E-02	-9.46922387324E-03	6.65369273987E-02	2.40079507675E-01	8.54882548528E-02
1.74750000000E+09	7.77821268317E-02	-1.86120350851E-01	-8.99508043386E-03	6.62853337684E-02	-8.08719039516E-03	6.66865131710E-02	2.40866171678E-01	8.00681793336E-02
1.74800000000E+09	7.64600205798E-02	-1.88563537386E-01	-7.61634205977E-03	6.63934000101E-02	-6.68904781152E-03	6.67699135514E-02	2.41434860361E-01	7.45768740047E-02
1.74850000000E+09	7.50228097300E-02	-1.90945919723E-01	-6.24692972684E-03	6.64933717582E-02	-5.32202389092E-03	6.68432006362E-02	2.41871679794E-01	6.91259191356E-02
1.74900000000E+09	7.34732691989E-02	-1.93265541465E-01	-4.84815593660E-03	6.65552837112E-02	-3.93684783936E-03	6.68907315221E-02	2.42105499031E-01	6.36153794839E-02
1.74950000000E+09	7.18566882910E-02	-1.95525343148E-01	-3.48090859170E-03	6.65737250691E-02	-2.55058679185E-03	6.69004575859E-02	2.42191176967E-01	5.81268082711E-02
1.75000000000E+09	7.01349764864E-02	-1.97722770680E-01	-2.10330185210E-03	6.65919673441E-02	-1.17110615699E-03	6.68994876438E-02	2.42121869078E-01	5.26236168253E-02
1.75050000000E+09	6.83601157657E-02	-1.99843169778E-01	-7.36608502352E-04	6.65611631973E-02	2.15458204232E-04	6.68577835706E-02	2.41831627248E-01	4.71409246865E-02
1.75100000000E+09	6.64875457712E-02	-2.01901949998E-01	6.37388308845E-04	6.65191425161E-02	1.58436800170E-03	6.67861516313E-02	2.41392641309E-01	4.16312875316E-02
1.75150000000E+09	6.44803695205E-02	-2.03882868162E-01	2.00387225942E-03	6.64485108486E-02	2.94247569782E-03	6.66837880852E-02	2.40788116805E-01	3.62186950867E-02
1.75200000000E+09	6.24253396664E-02	-2.05725314347E-01	3.33823210779E-03	6.63523278740E-02	4.31001507027E-03	6.65686025757E-02	2.40020139997E-01	3.07193473710E-02
1.75250000000E+09	6.03007270380E-02	-2.07529566984E-01	4.69195433592E-03	6.62154986006E-02	5.67135333705E-03	6.64185527799E-02	2.39076120070E-01	2.53234837340E-02
1.75300000000E+09	5.80889333746E-02	-2.09195625111E-01	6.04307770081E-03	6.60621301526E-02	7.01308404673E-03	6.62639396536E-02	2.37956875428E-01	1.99470026601E-02
1.75350000000E+09	5.58234340940E-02	-2.10827319793E-01	7.39425304193E-03	6.58847063223E-02	8.34534717917E-03	6.60533187485E-02	2.36645722292E-01	1.45933444699E-02
1.75400000000E+09	5.34690704472E-02	-2.12297631811E-01	8.71956850985E-03	6.56752440264E-02	9.68970733759E-03	6.58354542521E-02	2.35185788175E-01	9.28260135904E-03
1.75450000000E+09	5.10613222562E-02	-2.13675224214E-01	1.00446159051E-02	6.54434294430E-02	1.10221043949E-02	6.55821242536E-02	2.33581970197E-01	4.01245225365E-03
1.75500000000E+09	4.85632337447E-02	-2.14958497811E-01	1.13679705418E-02	6.51778628079E-02	1.23350547040E-02	6.53061278799E-02	2.31824090503E-01	-1.20806525786E-03
1.75550000000E+09	4.60293722462E-02	-2.16090239445E-01	1.26803574256E-02	6.48980133898E-02	1.36585099743E-02	6.50003557175E-02	2.29826324633E-01	-6.37303467060E-03
1.75600000000E+09	4.34727099098E-02	-2.17156592353E-01	1.39777886312E-02	6.46072850586E-02	1.49736254649E-02	6.46909173427E-02	2.27731967003E-01	-1.14596275852E-02
1.75650000000E+09	4.08411167230E-02	-2.18046021575E-01	1.52650694688E-02	6.42565977388E-02	1.62579921833E-02	6.43175790796E-02	2.25451314195E-01	-1.64957862537E-02
1.75700000000E+09	3.81658118766E-02	-2.18830413945E-01	1.65555371367E-02	6.39146105110E-02	1.75405048243E-02	6.39594851120E-02	2.23027845329E-01	-2.14245164194E-02
1.75750000000E+09	3.55034786209E-02	-2.19490367824E-01	1.78406091321E-02	6.35411797178E-02	1.88254206463E-02	6.35556396869E-02	2.20430263708E-01	-2.62817200147E-02
1.75800000000E+09	3.27590642780E-02	-2.20007059271E-01	1.91032696322E-02	6.31315785989E-02	2.00824674664E-02	6.31403783187E-02	2.17676212969E-01	-3.10750697596E-02
1.75850000000E+09	3.00068528886E-02	-2.20411249806E-01	2.03468802545E-02	6.27133338491E-02	2.13434932835E-02	6.26972904040E-02	2.14772823615E-01	-3.57898191557E-02
