# Hz S RI R 50
! CMT, CMT808U, 21440046, 21.4.3/4
! Date: 11/20/2025 11:31:19 PM
! Data: Format (Calibration Info)
! Freq	S11:Re/Im(F2)	S41:Re/Im(F2)	S14:Re/Im(F2)	S44:Re/Im(F2)
1.70000000000E+09	-7.47550041757E-02	-1.19886250860E-01	-5.65145646084E-02	-3.91382984686E-02	-5.73892748964E-02	-3.84861376989E-02	-1.04039749300E-01	5.57950840575E-02
1.70050000000E+09	-7.46077366898E-02	-1.17128249680E-01	-5.73570239968E-02	-3.79972145729E-02	-5.82340476040E-02	-3.73063078696E-02	-1.03665965874E-01	6.14770645489E-02
1.70100000000E+09	-7.42777377174E-02	-1.14349722269E-01	-5.82051726958E-02	-3.68343522995E-02	-5.90516043593E-02	-3.61213240841E-02	-1.03072863966E-01	6.70841785695E-02
1.70150000000E+09	-7.37701445505E-02	-1.11567531545E-01	-5.90063592739E-02	-3.56337749352E-02	-5.98530753873E-02	-3.49252334023E-02	-1.02321711527E-01	7.26572493264E-02
1.70200000000E+09	-7.31143958105E-02	-1.08831706028E-01	-5.98120441853E-02	-3.44499072027E-02	-6.06200211445E-02	-3.36851652726E-02	-1.01365375991E-01	7.82554024807E-02
1.70250000000E+09	-7.22794585395E-02	-1.06060033583E-01	-6.05819063094E-02	-3.32002885454E-02	-6.13899507504E-02	-3.24417237226E-02	-1.00218501688E-01	8.37873548444E-02
1.70300000000E+09	-7.12901047126E-02	-1.03320476847E-01	-6.13257936553E-02	-3.19563657358E-02	-6.21235229433E-02	-3.11769082133E-02	-9.89273315354E-02	8.92570960947E-02
1.70350000000E+09	-7.01554794312E-02	-1.00655741988E-01	-6.20504815149E-02	-3.06793648698E-02	-6.28240507702E-02	-2.98869910488E-02	-9.74566535194E-02	9.46824890411E-02
1.70400000000E+09	-6.88464407547E-02	-9.80080624595E-02	-6.27523553292E-02	-2.93865589591E-02	-6.35073350072E-02	-2.85840143002E-02	-9.57391951274E-02	1.00026194603E-01
1.70450000000E+09	-6.74316066818E-02	-9.54231359221E-02	-6.34168163476E-02	-2.80842414645E-02	-6.41767627493E-02	-2.72610210107E-02	-9.39287903064E-02	1.05348918710E-01
1.70500000000E+09	-6.58476568609E-02	-9.28941446461E-02	-6.40831759890E-02	-2.67479554473E-02	-6.48077589161E-02	-2.59012738805E-02	-9.18942087926E-02	1.10562107671E-01
1.70550000000E+09	-6.41338815319E-02	-9.04485031258E-02	-6.47074219928E-02	-2.54032167327E-02	-6.54277819737E-02	-2.45421946888E-02	-8.97000246344E-02	1.15711951050E-01
1.70600000000E+09	-6.22894846736E-02	-8.80601066268E-02	-6.53019602882E-02	-2.40350892686E-02	-6.59890656536E-02	-2.31441303369E-02	-8.73780894449E-02	1.20778514142E-01
1.70650000000E+09	-6.03204714901E-02	-8.57435538390E-02	-6.58521708638E-02	-2.26672337862E-02	-6.65310362143E-02	-2.17460312001E-02	-8.48384448597E-02	1.25756217046E-01
1.70700000000E+09	-5.82639894314E-02	-8.35218752691E-02	-6.63930281643E-02	-2.12502776138E-02	-6.70575868114E-02	-2.03214125958E-02	-8.21514873252E-02	1.30658766945E-01
1.70750000000E+09	-5.60570712120E-02	-8.14147269120E-02	-6.69010157951E-02	-1.98238897224E-02	-6.75369276289E-02	-1.88953625735E-02	-7.93591288586E-02	1.35451971445E-01
1.70800000000E+09	-5.37759946239E-02	-7.93860462197E-02	-6.73892137435E-02	-1.83851225440E-02	-6.80078739609E-02	-1.74474113587E-02	-7.63683340775E-02	1.40142013474E-01
1.70850000000E+09	-5.13681314003E-02	-7.74652572557E-02	-6.78333025139E-02	-1.69440732998E-02	-6.84334631581E-02	-1.59683415397E-02	-7.32211700982E-02	1.44710702110E-01
1.70900000000E+09	-4.88593131879E-02	-7.56273519328E-02	-6.82288187002E-02	-1.54699126331E-02	-6.88098164459E-02	-1.45174585847E-02	-6.99805415498E-02	1.49200341468E-01
1.70950000000E+09	-4.63166657288E-02	-7.39244197667E-02	-6.86143831209E-02	-1.39841646134E-02	-6.91684477431E-02	-1.30085445467E-02	-6.65597510299E-02	1.53548994277E-01
1.71000000000E+09	-4.36602612468E-02	-7.23350304376E-02	-6.89575704066E-02	-1.25096257793E-02	-6.94878012801E-02	-1.15173161858E-02	-6.29987928654E-02	1.57791449135E-01
1.71050000000E+09	-4.09598435406E-02	-7.08407056510E-02	-6.92912831265E-02	-1.10100280637E-02	-6.97828522889E-02	-1.00086947688E-02	-5.93601957743E-02	1.61881378643E-01
1.71100000000E+09	-3.81865505061E-02	-6.94615013468E-02	-6.95540282998E-02	-9.50952317948E-03	-7.00337985395E-02	-8.47203867880E-03	-5.55176803508E-02	1.65866103119E-01
1.71150000000E+09	-3.53444383939E-02	-6.82132653989E-02	-6.97998058087E-02	-7.97732178820E-03	-7.02433632160E-02	-6.95790646982E-03	-5.16024680844E-02	1.69738589183E-01
1.71200000000E+09	-3.24598133924E-02	-6.70686169629E-02	-6.99882588228E-02	-6.44134997573E-03	-7.04281084045E-02	-5.40340145644E-03	-4.75529735540E-02	1.73456465301E-01
1.71250000000E+09	-2.95375964160E-02	-6.60628213094E-02	-7.01602553080E-02	-4.90696659443E-03	-7.05866007894E-02	-3.85253067241E-03	-4.33892931490E-02	1.77017051902E-01
1.71300000000E+09	-2.65840818758E-02	-6.51645480865E-02	-7.02800570307E-02	-3.37013842219E-03	-7.06952245058E-02	-2.30037068420E-03	-3.91248373038E-02	1.80475102257E-01
1.71350000000E+09	-2.35820211943E-02	-6.43836648914E-02	-7.03943501755E-02	-1.83006467482E-03	-7.07629288783E-02	-7.64371347743E-04	-3.47793156964E-02	1.83745723804E-01
1.71400000000E+09	-2.05511604320E-02	-6.37098210921E-02	-7.04445326572E-02	-2.81744883258E-04	-7.07896596537E-02	7.98228547813E-04	-3.03291553488E-02	1.86883365338E-01
1.71450000000E+09	-1.75162023104E-02	-6.31655707854E-02	-7.04564018254E-02	1.28419865744E-03	-7.07827895083E-02	2.37592978813E-03	-2.57239230232E-02	1.89881964214E-01
1.71500000000E+09	-1.44593904952E-02	-6.27334812547E-02	-7.04504552663E-02	2.83174588952E-03	-7.07628085527E-02	3.94398599845E-03	-2.11070094886E-02	1.92756474517E-01
1.71550000000E+09	-1.13937636408E-02	-6.23959050659E-02	-7.03975358082E-02	4.39926814993E-03	-7.06844381488E-02	5.48207122042E-03	-1.63260947068E-02	1.95429774453E-01
1.71600000000E+09	-8.34644275901E-03	-6.22120202351E-02	-7.03011389215E-02	5.92642339296E-03	-7.05457521893E-02	7.05952317609E-03	-1.15305519160E-02	1.97966217357E-01
1.71650000000E+09	-5.26761039252E-03	-6.21181317615E-02	-7.01780224330E-02	7.49905350155E-03	-7.04012771521E-02	8.62953725363E-03	-6.63897309844E-03	2.00333357214E-01
1.71700000000E+09	-2.19317653627E-03	-6.21258884757E-02	-7.00196260831E-02	9.03627162856E-03	-7.02147395553E-02	1.01761562801E-02	-1.69903292039E-03	2.02536868357E-01
1.71750000000E+09	8.52722055750E-04	-6.22428278876E-02	-6.98074223124E-02	1.05912430131E-02	-6.99871488637E-02	1.17460670250E-02	3.35076995761E-03	2.04597121532E-01
1.71800000000E+09	3.91299356411E-03	-6.25015838254E-02	-6.95669638100E-02	1.21433020403E-02	-6.97223233721E-02	1.32901162257E-02	8.41038543152E-03	2.06455186351E-01
1.71850000000E+09	6.92168700657E-03	-6.28476602371E-02	-6.93003892490E-02	1.36626010573E-02	-6.94161154987E-02	1.48089746423E-02	1.35186599603E-02	2.08192955354E-01
1.71900000000E+09	9.89036804085E-03	-6.32904556302E-02	-6.89788457031E-02	1.51953082901E-02	-6.90696285277E-02	1.63585420442E-02	1.87498946274E-02	2.09739316797E-01
1.71950000000E+09	1.28791263569E-02	-6.38350422172E-02	-6.86260711537E-02	1.67231586788E-02	-6.86959144648E-02	1.78746014175E-02	2.39364967984E-02	2.11111709433E-01
1.72000000000E+09	1.58331479556E-02	-6.44741318312E-02	-6.82411761736E-02	1.82333937238E-02	-6.82800538873E-02	1.93783214746E-02	2.91873825417E-02	2.12327276161E-01
1.72050000000E+09	1.87432819478E-02	-6.52206688038E-02	-6.78095858507E-02	1.97346853392E-02	-6.78220655339E-02	2.08938027494E-02	3.44646772440E-02	2.13367372480E-01
1.72100000000E+09	2.16132110128E-02	-6.60765410260E-02	-6.73457165397E-02	2.12146419218E-02	-6.73499488802E-02	2.23760748428E-02	3.97706743804E-02	2.14243484434E-01
1.72150000000E+09	2.44656255010E-02	-6.69839425294E-02	-6.68694492240E-02	2.27029878067E-02	-6.68159534383E-02	2.38652746178E-02	4.51214270170E-02	2.14945164378E-01
1.72200000000E+09	2.72481336679E-02	-6.80035090040E-02	-6.63362910358E-02	2.41800428742E-02	-6.62800029811E-02	2.53251109856E-02	5.04807923222E-02	2.15495781983E-01
1.72250000000E+09	3.00108902357E-02	-6.91088919533E-02	-6.57846974522E-02	2.56254752746E-02	-6.56676331446E-02	2.67753361965E-02	5.58172884207E-02	2.15854846040E-01
1.72300000000E+09	3.26976043454E-02	-7.03111254411E-02	-6.51803297989E-02	2.70696520967E-02	-6.50682859009E-02	2.81990696479E-02	6.11556576301E-02	2.16038730015E-01
1.72350000000E+09	3.53704076310E-02	-7.15667330214E-02	-6.45502191938E-02	2.84759778658E-02	-6.44095259780E-02	2.96171615461E-02	6.65314624803E-02	2.16056990054E-01
1.72400000000E+09	3.79620581920E-02	-7.29332338814E-02	-6.38914383775E-02	2.98742876125E-02	-6.37154660299E-02	3.10364971678E-02	7.18931755138E-02	2.15907818448E-01
1.72450000000E+09	4.05316990262E-02	-7.43685884666E-02	-6.31977504596E-02	3.12877933201E-02	-6.30073134188E-02	3.24205920454E-02	7.72543142386E-02	2.15627684940E-01
1.72500000000E+09	4.30253651942E-02	-7.58631545106E-02	-6.24731168743E-02	3.26333575423E-02	-6.22422527348E-02	3.37835798057E-02	8.25487837689E-02	2.15115619671E-01
1.72550000000E+09	4.54703072084E-02	-7.74345107974E-02	-6.17089404376E-02	3.39837202276E-02	-6.14668303483E-02	3.51115579778E-02	8.78753008775E-02	2.14421479041E-01
1.72600000000E+09	4.78690020277E-02	-7.90776244239E-02	-6.09250293335E-02	3.53279680671E-02	-6.06559694517E-02	3.64390161393E-02	9.31414501414E-02	2.13613668122E-01
1.72650000000E+09	5.01870373328E-02	-8.08109252970E-02	-6.01091106401E-02	3.66342705342E-02	-5.98137442126E-02	3.77606428961E-02	9.84034441965E-02	2.12614647011E-01
1.72700000000E+09	5.24637915508E-02	-8.25874920909E-02	-5.92777945051E-02	3.79172083903E-02	-5.89417047150E-02	3.90311008218E-02	1.03618467450E-01	2.11454008854E-01
1.72750000000E+09	5.46506322486E-02	-8.44320129780E-02	-5.83926809681E-02	3.92076368638E-02	-5.80492882358E-02	4.02830171625E-02	1.08778003104E-01	2.10159841335E-01
1.72800000000E+09	5.68037295794E-02	-8.63295183422E-02	-5.74998306349E-02	4.04395663492E-02	-5.71293573865E-02	4.15192362242E-02	1.13909104909E-01	2.08690198722E-01
1.72850000000E+09	5.88753873785E-02	-8.83073582243E-02	-5.65751327743E-02	4.16670898377E-02	-5.61721180422E-02	4.27422908487E-02	1.18988864774E-01	2.07028476236E-01
1.72900000000E+09	6.08971673213E-02	-9.03349080498E-02	-5.56258888077E-02	4.28633197990E-02	-5.52029691433E-02	4.39408097456E-02	1.24033284947E-01	2.05271584301E-01
1.72950000000E+09	6.28446638211E-02	-9.23973513464E-02	-5.46437770784E-02	4.40392709179E-02	-5.41922834674E-02	4.50959900516E-02	1.28993497255E-01	2.03318530920E-01
1.73000000000E+09	6.47165281531E-02	-9.45548575409E-02	-5.36333228863E-02	4.51779391121E-02	-5.31624274081E-02	4.62261734099E-02	1.33839512476E-01	2.01197724191E-01
1.73050000000E+09	6.65316880596E-02	-9.67188457667E-02	-5.26012606019E-02	4.63086353669E-02	-5.21115239393E-02	4.73499288404E-02	1.38692227817E-01	1.98929209629E-01
1.73100000000E+09	6.82507089908E-02	-9.89469604078E-02	-5.15560641809E-02	4.74204484107E-02	-5.10475851885E-02	4.84391093469E-02	1.43451080271E-01	1.96538510712E-01
1.73150000000E+09	6.99125718236E-02	-1.01231567764E-01	-5.04932196614E-02	4.84938992451E-02	-4.99302503852E-02	4.94986616814E-02	1.48134191085E-01	1.93968260634E-01
1.73200000000E+09	7.15189246890E-02	-1.03555595533E-01	-4.93945380673E-02	4.95428930113E-02	-4.88241268141E-02	5.05294993509E-02	1.52713836384E-01	1.91273680221E-01
1.73250000000E+09	7.30337875880E-02	-1.05917927127E-01	-4.82702281045E-02	5.05619244318E-02	-4.76821697777E-02	5.15547008367E-02	1.57192082996E-01	1.88432694235E-01
1.73300000000E+09	7.44693511343E-02	-1.08346256491E-01	-4.71249523220E-02	5.15684020997E-02	-4.65303073221E-02	5.25129881607E-02	1.61636880136E-01	1.85478528244E-01
1.73350000000E+09	7.58312588293E-02	-1.10819883988E-01	-4.59668411989E-02	5.25245102138E-02	-4.53437530506E-02	5.34793131161E-02	1.65958972461E-01	1.82356542195E-01
1.73400000000E+09	7.71051845063E-02	-1.13304595658E-01	-4.47944773340E-02	5.34544479377E-02	-4.41498943163E-02	5.44001744466E-02	1.70184040051E-01	1.79077721288E-01
1.73450000000E+09	7.83204888755E-02	-1.15817401798E-01	-4.35967252442E-02	5.43726438783E-02	-4.29333007951E-02	5.52975183047E-02	1.74315060428E-01	1.75725479842E-01
1.73500000000E+09	7.94196839798E-02	-1.18410381265E-01	-4.23805630178E-02	5.52427453920E-02	-4.16943564545E-02	5.61559161675E-02	1.78295205548E-01	1.72198024493E-01
1.73550000000E+09	8.04636380421E-02	-1.20989378956E-01	-4.11469546666E-02	5.61282470365E-02	-4.04687132099E-02	5.70066285908E-02	1.82218804051E-01	1.68578555272E-01
1.73600000000E+09	8.13947615078E-02	-1.23599610077E-01	-3.99126048963E-02	5.69302392303E-02	-3.91783237438E-02	5.78038140549E-02	1.85994044140E-01	1.64827257847E-01
1.73650000000E+09	8.22807113458E-02	-1.26257164301E-01	-3.86506033739E-02	5.77152787320E-02	-3.79096539349E-02	5.85718467107E-02	1.89662476485E-01	1.60988304338E-01
1.73700000000E+09	8.30625392042E-02	-1.28940912650E-01	-3.73681244063E-02	5.84832423272E-02	-3.66044149109E-02	5.93215954518E-02	1.93179092955E-01	1.56977440095E-01
1.73750000000E+09	8.37358436716E-02	-1.31624571169E-01	-3.60848937576E-02	5.92444851771E-02	-3.53098887042E-02	6.00474511985E-02	1.96615827973E-01	1.52906907418E-01
1.73800000000E+09	8.43421043120E-02	-1.34336140983E-01	-3.47758954162E-02	5.99231294076E-02	-3.39969566846E-02	6.07352273108E-02	1.99908500129E-01	1.48676728565E-01
1.73850000000E+09	8.48693326066E-02	-1.37059010041E-01	-3.34757365771E-02	6.06128139116E-02	-3.26659111484E-02	6.13875189782E-02	2.03041373864E-01	1.44406332861E-01
1.73900000000E+09	8.52839290531E-02	-1.39816278625E-01	-3.21533386063E-02	6.12589083523E-02	-3.13203718725E-02	6.20144853303E-02	2.06085920644E-01	1.40005234793E-01
1.73950000000E+09	8.56336229606E-02	-1.42559088733E-01	-3.08016642631E-02	6.18692841778E-02	-2.99693334784E-02	6.26234039629E-02	2.08996803306E-01	1.35516421295E-01
1.74000000000E+09	8.58717220816E-02	-1.45365658156E-01	-2.94715583941E-02	6.24672995760E-02	-2.86174301959E-02	6.31729831971E-02	2.11734317002E-01	1.30963834585E-01
1.74050000000E+09	8.59907984293E-02	-1.48117674658E-01	-2.80969727963E-02	6.30050669524E-02	-2.72501356272E-02	6.37119515920E-02	2.14328993721E-01	1.26309072273E-01
1.74100000000E+09	8.60471755786E-02	-1.50903016976E-01	-2.67447433420E-02	6.35409002879E-02	-2.58658253350E-02	6.42299090878E-02	2.16794288997E-01	1.21557033336E-01
1.74150000000E+09	8.60010745902E-02	-1.53649686988E-01	-2.53751701400E-02	6.40446788640E-02	-2.44813193404E-02	6.47057040169E-02	2.19114721654E-01	1.16701382185E-01
1.74200000000E+09	8.58732518827E-02	-1.56445768341E-01	-2.39834018619E-02	6.44979352988E-02	-2.30983361184E-02	6.51484103607E-02	2.21269789788E-01	1.11837999980E-01
1.74250000000E+09	8.56212064866E-02	-1.59196984937E-01	-2.26195175319E-02	6.49252239627E-02	-2.16993930764E-02	6.55518035021E-02	2.23290885736E-01	1.06890039308E-01
1.74300000000E+09	8.52947470205E-02	-1.61973785212E-01	-2.12020004099E-02	6.53352935682E-02	-2.03042360390E-02	6.59426952173E-02	2.25160027836E-01	1.01851095699E-01
1.74350000000E+09	8.48294236048E-02	-1.64709205266E-01	-1.98114336101E-02	6.57118830088E-02	-1.88924283358E-02	6.62951654461E-02	2.26854619157E-01	9.67746666051E-02
1.74400000000E+09	8.43054921095E-02	-1.67415003608E-01	-1.84253024312E-02	6.60502824466E-02	-1.74739161392E-02	6.66121226999E-02	2.28401170691E-01	9.16427687143E-02
1.74450000000E+09	8.36563831291E-02	-1.70134085415E-01	-1.70112166584E-02	6.63848073269E-02	-1.60557142212E-02	6.69081913787E-02	2.29788502440E-01	8.64789995055E-02
1.74500000000E+09	8.29468249656E-02	-1.72785762346E-01	-1.55966820976E-02	6.66392463568E-02	-1.46442636260E-02	6.71789804631E-02	2.31025635816E-01	8.12593212830E-02
1.74550000000E+09	8.20993997742E-02	-1.75423053259E-01	-1.41939927126E-02	6.68920303670E-02	-1.32183334497E-02	6.74121440146E-02	2.32078249785E-01	7.60009574572E-02
1.74600000000E+09	8.11747655550E-02	-1.78053857665E-01	-1.27825700702E-02	6.71265013322E-02	-1.17966281711E-02	6.76089835143E-02	2.32995362198E-01	7.06673167973E-02
1.74650000000E+09	8.01206291009E-02	-1.80631268834E-01	-1.13544217795E-02	6.73114868899E-02	-1.03781571180E-02	6.77696141571E-02	2.33707346970E-01	6.53767920449E-02
1.74700000000E+09	7.90078816449E-02	-1.83164241543E-01	-9.95686151299E-03	6.74702484148E-02	-8.94651071847E-03	6.79169685796E-02	2.34257605806E-01	6.00073488851E-02
1.74750000000E+09	7.77779498306E-02	-1.85644127279E-01	-8.53881871533E-03	6.76017888836E-02	-7.53761574376E-03	6.80336537870E-02	2.34661996653E-01	5.46649706352E-02
1.74800000000E+09	7.64723956361E-02	-1.88121006988E-01	-7.13570743419E-03	6.77187671448E-02	-6.11586573359E-03	6.81075510522E-02	2.34924637330E-01	4.92800543456E-02
1.74850000000E+09	7.50556022012E-02	-1.90457745714E-01	-5.72126972539E-03	6.77866599304E-02	-4.69729757690E-03	6.81770882130E-02	2.34978935832E-01	4.38964883001E-02
1.74900000000E+09	7.35329898406E-02	-1.92802146518E-01	-4.31953462367E-03	6.78280618050E-02	-3.28214526478E-03	6.81943930341E-02	2.34870727644E-01	3.85089039712E-02
1.74950000000E+09	7.19275292968E-02	-1.95049023794E-01	-2.90019938944E-03	6.78541403582E-02	-1.87085489085E-03	6.81844736051E-02	2.34597080483E-01	3.31312746846E-02
1.75000000000E+09	7.02235951771E-02	-1.97246669329E-01	-1.50581127738E-03	6.78466946908E-02	-4.68392435676E-04	6.81389024089E-02	2.34158752204E-01	2.77317830038E-02
1.75050000000E+09	6.84516859985E-02	-1.99372067885E-01	-1.04708040602E-04	6.78012196973E-02	9.39687348577E-04	6.80875143584E-02	2.33539229625E-01	2.23938705907E-02
1.75100000000E+09	6.66026303727E-02	-2.01439140460E-01	1.28398252224E-03	6.77331403121E-02	2.34779677644E-03	6.80129781281E-02	2.32783791368E-01	1.70139786314E-02
1.75150000000E+09	6.46273827700E-02	-2.03432957525E-01	2.66958853476E-03	6.76326570961E-02	3.74789734279E-03	6.78956161937E-02	2.31842675479E-01	1.17222367249E-02
1.75200000000E+09	6.25889280531E-02	-2.05281959565E-01	4.06813302584E-03	6.75132781254E-02	5.11229207095E-03	6.77451617620E-02	2.30721047728E-01	6.37568987141E-03
1.75250000000E+09	6.04935316885E-02	-2.07089924636E-01	5.43284148103E-03	6.73597177433E-02	6.50253193405E-03	6.75762257388E-02	2.29453295880E-01	1.17185970939E-03
1.75300000000E+09	5.82928916281E-02	-2.08770767548E-01	6.81005646110E-03	6.71963834093E-02	7.86804537143E-03	6.73797347777E-02	2.28012109054E-01	-4.02805949818E-03
1.75350000000E+09	5.60445082757E-02	-2.10407914664E-01	8.18024432425E-03	6.69829985700E-02	9.24495095163E-03	6.71625140279E-02	2.26378045372E-01	-9.23773795904E-03
1.75400000000E+09	5.36879628509E-02	-2.11911489386E-01	9.52847212195E-03	6.67448520993E-02	1.06084799214E-02	6.69032281480E-02	2.24595607806E-01	-1.43773081906E-02
1.75450000000E+09	5.12821959822E-02	-2.13270481871E-01	1.08953373135E-02	6.64892901057E-02	1.19600296688E-02	6.66220184929E-02	2.22667359545E-01	-1.94395089116E-02
1.75500000000E+09	4.88303778517E-02	-2.14554343758E-01	1.22327280540E-02	6.62181790410E-02	1.33122714219E-02	6.63316816014E-02	2.20573564511E-01	-2.44720006047E-02
1.75550000000E+09	4.63213810452E-02	-2.15742466538E-01	1.35469838472E-02	6.59107753567E-02	1.46449522657E-02	6.59925802436E-02	2.18298371544E-01	-2.94087833779E-02
1.75600000000E+09	4.37549593135E-02	-2.16788849607E-01	1.48765104352E-02	6.55793294383E-02	1.59718682855E-02	6.56434320324E-02	2.15900721599E-01	-3.42737893441E-02
1.75650000000E+09	4.11369704235E-02	-2.17706151539E-01	1.61954771549E-02	6.52257084002E-02	1.72782884917E-02	6.52696484084E-02	2.13336322807E-01	-3.90814067256E-02
1.75700000000E+09	3.84949363844E-02	-2.18500889927E-01	1.74950896232E-02	6.48388641722E-02	1.85745300725E-02	6.48727677213E-02	2.10609160801E-01	-4.37727505897E-02
1.75750000000E+09	3.58292368635E-02	-2.19175770226E-01	1.87915482733E-02	6.44227767026E-02	1.98669815096E-02	6.44510255642E-02	2.07729151397E-01	-4.83963819731E-02
1.75800000000E+09	3.31031571606E-02	-2.19711402768E-01	2.00798332036E-02	6.40027623227E-02	2.11585180513E-02	6.39974526882E-02	2.04685949106E-01	-5.29523264698E-02
1.75850000000E+09	3.03685001391E-02	-2.20129631274E-01	2.13483083170E-02	6.35455163273E-02	2.24240314212E-02	6.35261538066E-02	2.01545029302E-01	-5.73887096057E-02
