# Hz S RI R 50
! CMT, CMT808U, 21440046, 21.4.3/4
! Date: 11/20/2025 11:40:39 PM
! Data: Format (Calibration Info)
! Freq	S11:Re/Im(F2)	S41:Re/Im(F2)	S14:Re/Im(F2)	S44:Re/Im(F2)
1.70000000000E+09	-7.39981773414E-02	-1.19286476490E-01	-5.50952703843E-02	-3.81815192749E-02	-5.56125754876E-02	-3.78349015767E-02	-1.22136782606E-01	4.11627935567E-02
1.70050000000E+09	-7.38275678690E-02	-1.16522386723E-01	-5.59029127879E-02	-3.70084378625E-02	-5.64117425037E-02	-3.66605705527E-02	-1.22461805809E-01	4.69166583960E-02
1.70100000000E+09	-7.34938676600E-02	-1.13730593655E-01	-5.66833244399E-02	-3.58304044171E-02	-5.71927940474E-02	-3.54638146176E-02	-1.22557204320E-01	5.26592939161E-02
1.70150000000E+09	-7.30120021303E-02	-1.10944532913E-01	-5.74518647710E-02	-3.46238274219E-02	-5.79318133051E-02	-3.42570852529E-02	-1.22520310208E-01	5.83962647962E-02
1.70200000000E+09	-7.23452790952E-02	-1.08184271398E-01	-5.81729972588E-02	-3.34132067905E-02	-5.86537582650E-02	-3.30138333583E-02	-1.22250856908E-01	6.41323623932E-02
1.70250000000E+09	-7.15150470375E-02	-1.05404683971E-01	-5.88738839614E-02	-3.21835370364E-02	-5.93561033467E-02	-3.17956981533E-02	-1.21792871363E-01	6.98552909623E-02
1.70300000000E+09	-7.05268386909E-02	-1.02649732144E-01	-5.95609691094E-02	-3.09205783992E-02	-6.00413549284E-02	-3.05173983085E-02	-1.21162417521E-01	7.55622352984E-02
1.70350000000E+09	-6.93815277199E-02	-9.99382761316E-02	-6.02265010009E-02	-2.96686422107E-02	-6.06923812032E-02	-2.92506587625E-02	-1.20364136073E-01	8.12236943432E-02
1.70400000000E+09	-6.80823538162E-02	-9.72992590635E-02	-6.08572449991E-02	-2.83754123740E-02	-6.13009039408E-02	-2.79657659566E-02	-1.19339061688E-01	8.68447353394E-02
1.70450000000E+09	-6.66579981437E-02	-9.47013002016E-02	-6.14676654330E-02	-2.70886933157E-02	-6.19112450172E-02	-2.66545772829E-02	-1.18152165748E-01	9.24746679243E-02
1.70500000000E+09	-6.50706382202E-02	-9.21471317687E-02	-6.20542428466E-02	-2.57720249350E-02	-6.24811763781E-02	-2.53205545135E-02	-1.16767469605E-01	9.80478299727E-02
1.70550000000E+09	-6.33534069413E-02	-8.96644601716E-02	-6.25974931574E-02	-2.44355136287E-02	-6.30125111857E-02	-2.39932222892E-02	-1.15215100646E-01	1.03540414690E-01
1.70600000000E+09	-6.15170449028E-02	-8.72562324063E-02	-6.31143812115E-02	-2.30971573708E-02	-6.35318507401E-02	-2.26383654506E-02	-1.13478262720E-01	1.08986863968E-01
1.70650000000E+09	-5.95269573559E-02	-8.49435150331E-02	-6.36055245493E-02	-2.17513305967E-02	-6.40214262642E-02	-2.12907839973E-02	-1.11582411405E-01	1.14391214536E-01
1.70700000000E+09	-5.74479413743E-02	-8.27168207926E-02	-6.40765305227E-02	-2.03913838525E-02	-6.44708449559E-02	-1.98985249343E-02	-1.09476781291E-01	1.19703975988E-01
1.70750000000E+09	-5.52233799588E-02	-8.05614274726E-02	-6.45021503591E-02	-1.89989220114E-02	-6.48779455214E-02	-1.85189170978E-02	-1.07245230406E-01	1.24943260289E-01
1.70800000000E+09	-5.29240414782E-02	-7.85053839644E-02	-6.49247393934E-02	-1.76189795573E-02	-6.52689177658E-02	-1.71388453997E-02	-1.04808668570E-01	1.30097758515E-01
1.70850000000E+09	-5.04793495887E-02	-7.65731196576E-02	-6.52855724064E-02	-1.62149784594E-02	-6.56439118824E-02	-1.57146214867E-02	-1.02210343234E-01	1.35172917880E-01
1.70900000000E+09	-4.79673449068E-02	-7.47176109852E-02	-6.56220221009E-02	-1.48162067601E-02	-6.59795087174E-02	-1.43031176281E-02	-9.94731435573E-02	1.40197056856E-01
1.70950000000E+09	-4.53795260837E-02	-7.29814731408E-02	-6.59453958508E-02	-1.34031853335E-02	-6.62707968629E-02	-1.28815690205E-02	-9.65741821612E-02	1.45074393474E-01
1.71000000000E+09	-4.26975931195E-02	-7.13658841233E-02	-6.61975197587E-02	-1.19782770346E-02	-6.65371733762E-02	-1.14575752998E-02	-9.34857244128E-02	1.49868925241E-01
1.71050000000E+09	-3.99375437592E-02	-6.98439132681E-02	-6.64488447221E-02	-1.05624739487E-02	-6.67674793137E-02	-1.00178849952E-02	-9.02968858513E-02	1.54558601289E-01
1.71100000000E+09	-3.71496014044E-02	-6.84577915712E-02	-6.66523538493E-02	-9.11509051244E-03	-6.69507479068E-02	-8.56140176599E-03	-8.69322294854E-02	1.59161715449E-01
1.71150000000E+09	-3.42661816086E-02	-6.71745315972E-02	-6.68286466955E-02	-7.65810370449E-03	-6.71291190705E-02	-7.14228888133E-03	-8.34146840100E-02	1.63637618753E-01
1.71200000000E+09	-3.13386995013E-02	-6.60146250014E-02	-6.69904705234E-02	-6.23741730348E-03	-6.72574930758E-02	-5.67679034992E-03	-7.97730330741E-02	1.67954819256E-01
1.71250000000E+09	-2.83719475237E-02	-6.50086037699E-02	-6.71082046106E-02	-4.79183095321E-03	-6.73498468496E-02	-4.22464108981E-03	-7.59682667239E-02	1.72182811587E-01
1.71300000000E+09	-2.53577660523E-02	-6.40784587833E-02	-6.71628643785E-02	-3.33667144459E-03	-6.74321735823E-02	-2.78678431216E-03	-7.20840969340E-02	1.76275736389E-01
1.71350000000E+09	-2.23228357124E-02	-6.32904137322E-02	-6.72130015798E-02	-1.89636925132E-03	-6.74668429571E-02	-1.31971152581E-03	-6.80350068862E-02	1.80236531563E-01
1.71400000000E+09	-1.92319494662E-02	-6.26281538721E-02	-6.72391952759E-02	-4.50598947824E-04	-6.74625513475E-02	1.29576122519E-04	-6.38757786550E-02	1.84071635854E-01
1.71450000000E+09	-1.61364307371E-02	-6.20673958229E-02	-6.72173345711E-02	9.93503163269E-04	-6.74438735499E-02	1.57563256079E-03	-5.95785738568E-02	1.87781748162E-01
1.71500000000E+09	-1.30363046572E-02	-6.16226149107E-02	-6.71596199666E-02	2.43781737324E-03	-6.73577833988E-02	3.01885008295E-03	-5.52299762671E-02	1.91321794864E-01
1.71550000000E+09	-9.91618537282E-03	-6.13050093139E-02	-6.70884449033E-02	3.87717524417E-03	-6.72739446023E-02	4.47406894305E-03	-5.06738049971E-02	1.94738676783E-01
1.71600000000E+09	-6.78755301515E-03	-6.10894845207E-02	-6.69636403977E-02	5.31964395113E-03	-6.71401821336E-02	5.92683665460E-03	-4.60935785558E-02	1.98027732424E-01
1.71650000000E+09	-3.65567180941E-03	-6.10127388570E-02	-6.68159687237E-02	6.75486496695E-03	-6.69875570226E-02	7.35684270520E-03	-4.13589413363E-02	2.01116598707E-01
1.71700000000E+09	-5.21996472388E-04	-6.10313348416E-02	-6.66366312646E-02	8.18121369678E-03	-6.67884984457E-02	8.78722459604E-03	-3.65751839079E-02	2.04063773966E-01
1.71750000000E+09	2.59708567128E-03	-6.11731254286E-02	-6.64264483042E-02	9.58499356618E-03	-6.65660931336E-02	1.02178822700E-02	-3.16717854006E-02	2.06870266837E-01
1.71800000000E+09	5.72884955459E-03	-6.14332375687E-02	-6.61730129748E-02	1.10146799839E-02	-6.63118795294E-02	1.16157420893E-02	-2.67016064908E-02	2.09507497025E-01
1.71850000000E+09	8.79440032082E-03	-6.17974942879E-02	-6.59080673756E-02	1.24307112327E-02	-6.60125406301E-02	1.30542934140E-02	-2.16738606906E-02	2.11988739427E-01
1.71900000000E+09	1.18674551443E-02	-6.22660845747E-02	-6.56191414768E-02	1.38209902230E-02	-6.56985732872E-02	1.44401212512E-02	-1.65296721068E-02	2.14309432072E-01
1.71950000000E+09	1.49152747187E-02	-6.28314786149E-02	-6.52713817237E-02	1.52160575517E-02	-6.53514037794E-02	1.58256636362E-02	-1.13611581423E-02	2.16448490145E-01
1.72000000000E+09	1.79339856134E-02	-6.35092307493E-02	-6.49117300826E-02	1.65876087086E-02	-6.49577091844E-02	1.72082178643E-02	-6.09720804997E-03	2.18425456137E-01
1.72050000000E+09	2.09182972214E-02	-6.42743991733E-02	-6.45116277521E-02	1.79786118702E-02	-6.45642136322E-02	1.85808914401E-02	-7.76142519878E-04	2.20233464994E-01
1.72100000000E+09	2.38694668568E-02	-6.51678747519E-02	-6.40864632208E-02	1.93404348100E-02	-6.41376065521E-02	1.99404985597E-02	4.57280082285E-03	2.21860873242E-01
1.72150000000E+09	2.67704146828E-02	-6.61245673388E-02	-6.36295220223E-02	2.06827761299E-02	-6.36677546375E-02	2.12953075542E-02	1.00136936313E-02	2.23359307289E-01
1.72200000000E+09	2.96530396777E-02	-6.71829298719E-02	-6.31754590085E-02	2.20039556570E-02	-6.31688721644E-02	2.26224625520E-02	1.54782310953E-02	2.24649780926E-01
1.72250000000E+09	3.24846208887E-02	-6.83255554046E-02	-6.26660149816E-02	2.33270814734E-02	-6.26591283232E-02	2.39575654181E-02	2.09359380571E-02	2.25796808927E-01
1.72300000000E+09	3.52476279779E-02	-6.95759530763E-02	-6.21233864895E-02	2.46467363604E-02	-6.20988828464E-02	2.52641901911E-02	2.64350447306E-02	2.26735943994E-01
1.72350000000E+09	3.79787320668E-02	-7.08994512514E-02	-6.15643891554E-02	2.59406686003E-02	-6.15355698270E-02	2.65718970933E-02	3.19621604578E-02	2.27490138765E-01
1.72400000000E+09	4.06598671825E-02	-7.23153412304E-02	-6.09825793958E-02	2.72215658067E-02	-6.09379006544E-02	2.78402940015E-02	3.75283372785E-02	2.28093829205E-01
1.72450000000E+09	4.32657933598E-02	-7.38020567599E-02	-6.03553916337E-02	2.84826710526E-02	-6.03117264976E-02	2.91116004821E-02	4.31175847488E-02	2.28527083531E-01
1.72500000000E+09	4.58411370671E-02	-7.53742479332E-02	-5.97370441629E-02	2.97496585334E-02	-5.96623632071E-02	3.03654758266E-02	4.86846893496E-02	2.28762734890E-01
1.72550000000E+09	4.83540392054E-02	-7.70032698468E-02	-5.90801826405E-02	3.09858942832E-02	-5.89847041055E-02	3.16079988855E-02	5.42758219948E-02	2.28835865193E-01
1.72600000000E+09	5.08188388553E-02	-7.87493604921E-02	-5.83814343717E-02	3.22129714774E-02	-5.82920784307E-02	3.28375085658E-02	5.98379734979E-02	2.28726320025E-01
1.72650000000E+09	5.31856097011E-02	-8.05368860267E-02	-5.76690681441E-02	3.34134018625E-02	-5.75650092059E-02	3.40355089180E-02	6.54052394341E-02	2.28447433590E-01
1.72700000000E+09	5.55226960826E-02	-8.23918877477E-02	-5.69593179161E-02	3.46128223426E-02	-5.68067166677E-02	3.52300428143E-02	7.09708467845E-02	2.27968466321E-01
1.72750000000E+09	5.77698159449E-02	-8.43359845040E-02	-5.61750898491E-02	3.57970478443E-02	-5.60507003348E-02	3.63943990837E-02	7.65089828575E-02	2.27348272194E-01
1.72800000000E+09	5.99700326272E-02	-8.63170195855E-02	-5.54181425537E-02	3.69529487455E-02	-5.52593766875E-02	3.75593105308E-02	8.19940793027E-02	2.26552538738E-01
1.72850000000E+09	6.20877456237E-02	-8.83829607948E-02	-5.46183275377E-02	3.80843693582E-02	-5.44453384561E-02	3.86942999321E-02	8.74901985740E-02	2.25568844210E-01
1.72900000000E+09	6.41513234592E-02	-9.05075791623E-02	-5.37938026033E-02	3.92164926232E-02	-5.35960723427E-02	3.98092608179E-02	9.29479786712E-02	2.24438610180E-01
1.72950000000E+09	6.61282599562E-02	-9.26633120734E-02	-5.29346085532E-02	4.03249199036E-02	-5.27447229873E-02	4.09079559416E-02	9.83481052074E-02	2.23125009244E-01
1.73000000000E+09	6.80262250681E-02	-9.49139656646E-02	-5.20637820444E-02	4.14247673631E-02	-5.18594821761E-02	4.20102107577E-02	1.03691266993E-01	2.21613803164E-01
1.73050000000E+09	6.98826575566E-02	-9.71794035857E-02	-5.11834852619E-02	4.24848505106E-02	-5.09593797074E-02	4.30773495763E-02	1.09005939727E-01	2.19974706459E-01
1.73100000000E+09	7.16394681557E-02	-9.95132382181E-02	-5.02696732844E-02	4.35446807170E-02	-5.00339942624E-02	4.41168915257E-02	1.14293920352E-01	2.18149979317E-01
1.73150000000E+09	7.33328398711E-02	-1.01877747569E-01	-4.93519893217E-02	4.45750491465E-02	-4.90889565245E-02	4.51478082254E-02	1.19467541378E-01	2.16181522374E-01
1.73200000000E+09	7.49522088353E-02	-1.04304745444E-01	-4.83890036075E-02	4.55940366209E-02	-4.81178939169E-02	4.61542791646E-02	1.24597070266E-01	2.14019583665E-01
1.73250000000E+09	7.64893687292E-02	-1.06786907856E-01	-4.74190205916E-02	4.65908488078E-02	-4.71401545505E-02	4.71393066584E-02	1.29647491150E-01	2.11746755884E-01
1.73300000000E+09	7.79262063675E-02	-1.09306514300E-01	-4.64084909257E-02	4.75663544451E-02	-4.61374741195E-02	4.81159038532E-02	1.34595563069E-01	2.09308641113E-01
1.73350000000E+09	7.92893471197E-02	-1.11867169323E-01	-4.53886236634E-02	4.85250483589E-02	-4.51092139293E-02	4.90680384910E-02	1.39523962744E-01	2.06702427883E-01
1.73400000000E+09	8.05916168239E-02	-1.14467276752E-01	-4.43816928209E-02	4.94577811109E-02	-4.40643422971E-02	4.99935048501E-02	1.44374999145E-01	2.03918216744E-01
1.73450000000E+09	8.17814081795E-02	-1.17111593744E-01	-4.33187091694E-02	5.03749115735E-02	-4.29991893257E-02	5.09001854897E-02	1.49107682739E-01	2.01041271727E-01
1.73500000000E+09	8.28915420309E-02	-1.19775095820E-01	-4.22519114994E-02	5.12653566705E-02	-4.19148775697E-02	5.17739216539E-02	1.53717258247E-01	1.97980624251E-01
1.73550000000E+09	8.39379515735E-02	-1.22470125009E-01	-4.11682896896E-02	5.21248505692E-02	-4.08217824800E-02	5.26454421258E-02	1.58279147280E-01	1.94765029486E-01
1.73600000000E+09	8.48478386621E-02	-1.25182144395E-01	-4.00641955794E-02	5.29728455326E-02	-3.97069747886E-02	5.34659493764E-02	1.62682316675E-01	1.91473774398E-01
1.73650000000E+09	8.57129814631E-02	-1.27939435533E-01	-3.89350392984E-02	5.38089765342E-02	-3.85774467462E-02	5.42874594334E-02	1.67021045530E-01	1.87997250722E-01
1.73700000000E+09	8.64950478374E-02	-1.30703372959E-01	-3.77939080176E-02	5.46087579059E-02	-3.74201304107E-02	5.50872915353E-02	1.71234843796E-01	1.84370086110E-01
1.73750000000E+09	8.71417893729E-02	-1.33493970820E-01	-3.66351976958E-02	5.53829891581E-02	-3.62516300642E-02	5.58586927329E-02	1.75362759686E-01	1.80685240162E-01
1.73800000000E+09	8.77136179599E-02	-1.36313142109E-01	-3.54454525978E-02	5.61181496391E-02	-3.50696104492E-02	5.65966996194E-02	1.79316512238E-01	1.76785753167E-01
1.73850000000E+09	8.82117771658E-02	-1.39130493528E-01	-3.42539164494E-02	5.68569369914E-02	-3.38694248717E-02	5.73259890707E-02	1.83227957544E-01	1.72845935375E-01
1.73900000000E+09	8.85978789473E-02	-1.41988072082E-01	-3.30596282733E-02	5.75673993834E-02	-3.26485969374E-02	5.80148376633E-02	1.86970224010E-01	1.68735295612E-01
1.73950000000E+09	8.89409053604E-02	-1.44828104699E-01	-3.18458415077E-02	5.82473487748E-02	-3.14401649550E-02	5.86855278827E-02	1.90578162044E-01	1.64535838465E-01
1.74000000000E+09	8.91245427638E-02	-1.47714378754E-01	-3.06104057699E-02	5.88983313789E-02	-3.01842545542E-02	5.93273490407E-02	1.94081283001E-01	1.60198206392E-01
1.74050000000E+09	8.91967843606E-02	-1.50548749740E-01	-2.93531591504E-02	5.95161885754E-02	-2.89243882129E-02	5.99580190925E-02	1.97418684899E-01	1.55778762320E-01
1.74100000000E+09	8.92077321332E-02	-1.53429934551E-01	-2.80879304638E-02	6.01287689962E-02	-2.76538490942E-02	6.05317712718E-02	2.00611332201E-01	1.51241582367E-01
1.74150000000E+09	8.91074044498E-02	-1.56278191385E-01	-2.68170262160E-02	6.06922681299E-02	-2.63497498653E-02	6.10968453378E-02	2.03701668394E-01	1.46598207891E-01
1.74200000000E+09	8.89173542253E-02	-1.59146580893E-01	-2.55203763922E-02	6.12277601643E-02	-2.50780235671E-02	6.16405188179E-02	2.06618468185E-01	1.41913114761E-01
1.74250000000E+09	8.86010029738E-02	-1.62007414994E-01	-2.42403032174E-02	6.17613228196E-02	-2.37667170852E-02	6.21387153326E-02	2.09390212538E-01	1.37081094465E-01
1.74300000000E+09	8.82342844930E-02	-1.64831674809E-01	-2.29223451170E-02	6.22523478786E-02	-2.24499716224E-02	6.26174662491E-02	2.12043484348E-01	1.32169390170E-01
1.74350000000E+09	8.77217833927E-02	-1.67649882468E-01	-2.16004482542E-02	6.27090845767E-02	-2.11289437013E-02	6.30752415197E-02	2.14526266197E-01	1.27178418001E-01
1.74400000000E+09	8.71264172228E-02	-1.70444859797E-01	-2.02619300779E-02	6.31497609858E-02	-1.97798799183E-02	6.34919173410E-02	2.16832056267E-01	1.22108458734E-01
1.74450000000E+09	8.64223056614E-02	-1.73241241567E-01	-1.89232760597E-02	6.35401045981E-02	-1.84453653358E-02	6.38932146109E-02	2.19015359703E-01	1.16978673664E-01
1.74500000000E+09	8.56181456963E-02	-1.75968899934E-01	-1.75931398824E-02	6.39360010635E-02	-1.70805006095E-02	6.42607415715E-02	2.21033508407E-01	1.11807192771E-01
1.74550000000E+09	8.47133737169E-02	-1.78694781391E-01	-1.62410039250E-02	6.42653026584E-02	-1.57244632430E-02	6.45824607678E-02	2.22862521407E-01	1.06566501913E-01
1.74600000000E+09	8.37205777455E-02	-1.81381956324E-01	-1.48674677875E-02	6.45986468760E-02	-1.43462264991E-02	6.48931959005E-02	2.24565900025E-01	1.01225586027E-01
1.74650000000E+09	8.25844226942E-02	-1.84010683786E-01	-1.34957246278E-02	6.48871326538E-02	-1.29876922432E-02	6.51665721863E-02	2.26060941628E-01	9.58758669956E-02
1.74700000000E+09	8.13912421867E-02	-1.86598294222E-01	-1.21250321216E-02	6.51200295146E-02	-1.16029034403E-02	6.54230519893E-02	2.27408635969E-01	9.04603619787E-02
1.74750000000E+09	8.00789024526E-02	-1.89133053287E-01	-1.07472391505E-02	6.53641730334E-02	-1.02230035299E-02	6.56432977538E-02	2.28600179799E-01	8.49877838811E-02
1.74800000000E+09	7.86924529082E-02	-1.91624246257E-01	-9.35963184060E-03	6.55547959505E-02	-8.84012724782E-03	6.58347852276E-02	2.29606680386E-01	7.95021904832E-02
1.74850000000E+09	7.71851326389E-02	-1.94034106899E-01	-7.97309104973E-03	6.57304144323E-02	-7.44462278512E-03	6.59796796595E-02	2.30453450120E-01	7.39883433972E-02
1.74900000000E+09	7.55689642684E-02	-1.96427606011E-01	-6.58764032507E-03	6.58549864174E-02	-6.04957986149E-03	6.61042443668E-02	2.31113597005E-01	6.84213622446E-02
1.74950000000E+09	7.38789742174E-02	-1.98708228896E-01	-5.19102733550E-03	6.59707494071E-02	-4.66708311119E-03	6.62099712998E-02	2.31631769879E-01	6.28508117832E-02
1.75000000000E+09	7.20909300032E-02	-2.00952290197E-01	-3.79554840747E-03	6.60394067559E-02	-3.25682476999E-03	6.62803174705E-02	2.31938150530E-01	5.72581753503E-02
1.75050000000E+09	7.02300404808E-02	-2.03102999815E-01	-2.41739032509E-03	6.61060290545E-02	-1.85901324730E-03	6.63085386880E-02	2.32087033254E-01	5.16517452981E-02
1.75100000000E+09	6.82878549512E-02	-2.05192985235E-01	-1.03641670219E-03	6.61148755661E-02	-4.66204896067E-04	6.63248410322E-02	2.32085943308E-01	4.60308298330E-02
1.75150000000E+09	6.62284177122E-02	-2.07183465413E-01	3.66241795140E-04	6.61128837171E-02	9.09299903138E-04	6.62915693278E-02	2.31876766955E-01	4.04543051136E-02
1.75200000000E+09	6.40998644942E-02	-2.09076248278E-01	1.74620686737E-03	6.60640644570E-02	2.30869156944E-03	6.62458566942E-02	2.31516794464E-01	3.48250563186E-02
1.75250000000E+09	6.19139978784E-02	-2.10885716744E-01	3.12708700101E-03	6.59908561447E-02	3.70595436247E-03	6.61632883571E-02	2.30964817529E-01	2.92422021046E-02
1.75300000000E+09	5.96135841278E-02	-2.12597191798E-01	4.53718546441E-03	6.59033116621E-02	5.08724943423E-03	6.60373465070E-02	2.30212314964E-01	2.36702808923E-02
1.75350000000E+09	5.72489993115E-02	-2.14237270991E-01	5.89700270930E-03	6.57641089636E-02	6.46640161229E-03	6.59144530224E-02	2.29303054901E-01	1.81077133576E-02
1.75400000000E+09	5.48066792246E-02	-2.15701189879E-01	7.26583508177E-03	6.56024926015E-02	7.84858248846E-03	6.57460745162E-02	2.28221123193E-01	1.26051870364E-02
1.75450000000E+09	5.23188847208E-02	-2.17102222554E-01	8.64339385068E-03	6.54151212113E-02	9.21863454484E-03	6.55410186381E-02	2.26978084393E-01	7.08610514610E-03
1.75500000000E+09	4.97792966353E-02	-2.18366723265E-01	1.00045570085E-02	6.52013583324E-02	1.05884211966E-02	6.53184967138E-02	2.25559246993E-01	1.61017382116E-03
1.75550000000E+09	4.71739489929E-02	-2.19516725585E-01	1.13530086928E-02	6.49573389187E-02	1.19322382366E-02	6.50586890918E-02	2.23917559777E-01	-3.79273856833E-03
1.75600000000E+09	4.45096699043E-02	-2.20573769432E-01	1.27021049683E-02	6.46819015637E-02	1.32923916336E-02	6.47870884782E-02	2.22168458630E-01	-9.14981637953E-03
1.75650000000E+09	4.18102670891E-02	-2.21463276642E-01	1.40706029648E-02	6.43774510793E-02	1.46419521029E-02	6.44699149276E-02	2.20223839139E-01	-1.44594991364E-02
1.75700000000E+09	3.90840484224E-02	-2.22233528018E-01	1.53888555247E-02	6.40555163969E-02	1.59784503376E-02	6.41360977747E-02	2.18111547239E-01	-1.96822289098E-02
1.75750000000E+09	3.63020207519E-02	-2.22889520808E-01	1.67120798769E-02	6.37043752162E-02	1.73090030622E-02	6.37478137719E-02	2.15832203967E-01	-2.48594813828E-02
1.75800000000E+09	3.35076941114E-02	-2.23370055066E-01	1.80343522051E-02	6.33237828320E-02	1.86239466749E-02	6.33635419757E-02	2.13392243565E-01	-2.99927658003E-02
1.75850000000E+09	3.06689439569E-02	-2.23768405359E-01	1.93454187671E-02	6.29124621332E-02	1.99421051851E-02	6.29659610179E-02	2.10775529618E-01	-3.50232182742E-02
