# Hz S RI R 50
! CMT, CMT808U, 21440046, 21.4.3/4
! Date: 11/20/2025 11:44:27 PM
! Data: Format (Calibration Info)
! Freq	S11:Re/Im(F2)	S41:Re/Im(F2)	S14:Re/Im(F2)	S44:Re/Im(F2)
1.70000000000E+09	-7.33141047423E-02	-1.19845014163E-01	-5.54261886424E-02	-3.62610501470E-02	-5.58545381681E-02	-3.59747432942E-02	-1.14587912923E-01	4.15282030650E-02
1.70050000000E+09	-7.31939046063E-02	-1.17101160935E-01	-5.62091800133E-02	-3.51416008550E-02	-5.66270946722E-02	-3.48519553438E-02	-1.14687396078E-01	4.75451622282E-02
1.70100000000E+09	-7.28941217852E-02	-1.14306105004E-01	-5.69680327913E-02	-3.39882525239E-02	-5.73846418156E-02	-3.37044056882E-02	-1.14545166637E-01	5.35314999006E-02
1.70150000000E+09	-7.24304248840E-02	-1.11534900703E-01	-5.77170555154E-02	-3.28149972092E-02	-5.81374408432E-02	-3.25241887980E-02	-1.14261937433E-01	5.95225651167E-02
1.70200000000E+09	-7.18021350802E-02	-1.08765445512E-01	-5.84432496534E-02	-3.16573114677E-02	-5.88380017667E-02	-3.13335205023E-02	-1.13719975441E-01	6.55166111516E-02
1.70250000000E+09	-7.09823803484E-02	-1.05976546977E-01	-5.91267175834E-02	-3.04462283849E-02	-5.95318591832E-02	-3.01293924674E-02	-1.13009146012E-01	7.14492811673E-02
1.70300000000E+09	-7.00503452985E-02	-1.03236557063E-01	-5.98139381677E-02	-2.92227471656E-02	-6.02112216409E-02	-2.88874960528E-02	-1.12108080593E-01	7.73552217353E-02
1.70350000000E+09	-6.89462225936E-02	-1.00522738122E-01	-6.04623463586E-02	-2.79960856172E-02	-6.08615961835E-02	-2.76506250693E-02	-1.11033955012E-01	8.32209713776E-02
1.70400000000E+09	-6.76492337520E-02	-9.78988148893E-02	-6.11112950267E-02	-2.67359902749E-02	-6.14760132534E-02	-2.63864041881E-02	-1.09705158492E-01	8.90470867230E-02
1.70450000000E+09	-6.62312976154E-02	-9.52801969071E-02	-6.17048923646E-02	-2.54746208077E-02	-6.20940941255E-02	-2.51145830140E-02	-1.08239150141E-01	9.48394536348E-02
1.70500000000E+09	-6.46868594235E-02	-9.27168005316E-02	-6.22895750432E-02	-2.41715681643E-02	-6.26564042420E-02	-2.38187079790E-02	-1.06552438789E-01	1.00591411858E-01
1.70550000000E+09	-6.29836991730E-02	-9.02542819172E-02	-6.28418253041E-02	-2.28787391340E-02	-6.31947071980E-02	-2.25006712778E-02	-1.04683623460E-01	1.06228161515E-01
1.70600000000E+09	-6.11636937752E-02	-8.78419800823E-02	-6.33820835112E-02	-2.15565859749E-02	-6.37284684552E-02	-2.11823138756E-02	-1.02644285394E-01	1.11795645783E-01
1.70650000000E+09	-5.92147234577E-02	-8.55025309040E-02	-6.38740396866E-02	-2.02252277024E-02	-6.42332345690E-02	-1.98254095851E-02	-1.00398663409E-01	1.17329446181E-01
1.70700000000E+09	-5.71505834045E-02	-8.32680567183E-02	-6.43396818697E-02	-1.88749759148E-02	-6.46954966125E-02	-1.84575661499E-02	-9.79957623364E-02	1.22770729550E-01
1.70750000000E+09	-5.49437391426E-02	-8.11144329014E-02	-6.47875667285E-02	-1.75044230521E-02	-6.51251039929E-02	-1.70984054192E-02	-9.54307341838E-02	1.28099553813E-01
1.70800000000E+09	-5.26459020926E-02	-7.90545777743E-02	-6.52154907051E-02	-1.61329813880E-02	-6.55341057112E-02	-1.57130436186E-02	-9.26596855429E-02	1.33364122646E-01
1.70850000000E+09	-5.02519485568E-02	-7.71045216566E-02	-6.56009018171E-02	-1.47336242340E-02	-6.58975424727E-02	-1.43207441751E-02	-8.97305432554E-02	1.38488661084E-01
1.70900000000E+09	-4.77455236205E-02	-7.52428391393E-02	-6.59412010046E-02	-1.33308860258E-02	-6.62473817661E-02	-1.29058110507E-02	-8.66608230998E-02	1.43545057505E-01
1.70950000000E+09	-4.51805283658E-02	-7.35152997085E-02	-6.62789665726E-02	-1.19217595035E-02	-6.65633861829E-02	-1.14899400453E-02	-8.34227929049E-02	1.48475727529E-01
1.71000000000E+09	-4.25139078572E-02	-7.18777495941E-02	-6.65643794355E-02	-1.05013531386E-02	-6.68468594827E-02	-1.00471209028E-02	-8.00112838969E-02	1.53302791947E-01
1.71050000000E+09	-3.97849063859E-02	-7.03640821449E-02	-6.68247960541E-02	-9.05618080500E-03	-6.70941737321E-02	-8.61778309137E-03	-7.64741659502E-02	1.57988312871E-01
1.71100000000E+09	-3.69894183451E-02	-6.89669149548E-02	-6.70629203243E-02	-7.63087547779E-03	-6.73099476584E-02	-7.15876005915E-03	-7.27587939869E-02	1.62578627427E-01
1.71150000000E+09	-3.41311623488E-02	-6.76936403589E-02	-6.72464502495E-02	-6.15558447969E-03	-6.75097886376E-02	-5.69957615384E-03	-6.89083396363E-02	1.67059273263E-01
1.71200000000E+09	-3.12081827709E-02	-6.65178282526E-02	-6.74025899928E-02	-4.70763525513E-03	-6.76453988416E-02	-4.24064329991E-03	-6.49318685428E-02	1.71364308429E-01
1.71250000000E+09	-2.82680840933E-02	-6.55028232161E-02	-6.75305332173E-02	-3.26536544565E-03	-6.77580242816E-02	-2.77094084945E-03	-6.07860053704E-02	1.75517008637E-01
1.71300000000E+09	-2.52697660133E-02	-6.45730764800E-02	-6.76223860133E-02	-1.78999843997E-03	-6.78345155783E-02	-1.29549604929E-03	-5.65589707670E-02	1.79581222615E-01
1.71350000000E+09	-2.22326909985E-02	-6.37778028854E-02	-6.76828061959E-02	-3.17404697379E-04	-6.78900281529E-02	1.81615085629E-04	-5.22126948289E-02	1.83474307063E-01
1.71400000000E+09	-1.91637689026E-02	-6.31070352374E-02	-6.77069790617E-02	1.17077636860E-03	-6.78969509407E-02	1.65164813428E-03	-4.77104872012E-02	1.87213105294E-01
1.71450000000E+09	-1.60887088349E-02	-6.25400459771E-02	-6.76940933312E-02	2.64303526423E-03	-6.78889193078E-02	3.13028755623E-03	-4.31087626902E-02	1.90807239220E-01
1.71500000000E+09	-1.29869834725E-02	-6.20950147553E-02	-6.76414499750E-02	4.12102951780E-03	-6.78338842811E-02	4.60455472857E-03	-3.84296831667E-02	1.94259652431E-01
1.71550000000E+09	-9.88945403241E-03	-6.17605638683E-02	-6.75730835354E-02	5.59634264250E-03	-6.77349679894E-02	6.10444360918E-03	-3.35793715560E-02	1.97542934672E-01
1.71600000000E+09	-6.77524156260E-03	-6.15707352446E-02	-6.74512541390E-02	7.05727443306E-03	-6.76079770911E-02	7.57786036757E-03	-2.87050250690E-02	2.00667026361E-01
1.71650000000E+09	-3.64994251953E-03	-6.14737720416E-02	-6.73119663968E-02	8.53485549037E-03	-6.74556517905E-02	9.06945073856E-03	-2.36707094516E-02	2.03623295110E-01
1.71700000000E+09	-5.33040862632E-04	-6.15012464847E-02	-6.71177402899E-02	1.00066063813E-02	-6.72565769493E-02	1.05267909604E-02	-1.85839472082E-02	2.06433940879E-01
1.71750000000E+09	2.55337336079E-03	-6.16132508540E-02	-6.68983800588E-02	1.14845979857E-02	-6.70304648039E-02	1.19935321155E-02	-1.33837080830E-02	2.09062171731E-01
1.71800000000E+09	5.67507186117E-03	-6.18662724930E-02	-6.66556570422E-02	1.29476288615E-02	-6.67697223835E-02	1.34489681640E-02	-8.16033442757E-03	2.11502399489E-01
1.71850000000E+09	8.73363443445E-03	-6.22371163503E-02	-6.63649065044E-02	1.43977927818E-02	-6.64619205938E-02	1.49129798728E-02	-2.85603094969E-03	2.13806287767E-01
1.71900000000E+09	1.17670068690E-02	-6.26976494178E-02	-6.60537576273E-02	1.58585864015E-02	-6.61257382883E-02	1.63888894724E-02	2.57692885844E-03	2.15903555797E-01
1.71950000000E+09	1.48044337254E-02	-6.32671275257E-02	-6.56961676779E-02	1.72928244459E-02	-6.57785826264E-02	1.78184561679E-02	7.99661742447E-03	2.17836056938E-01
1.72000000000E+09	1.77942679200E-02	-6.39469278476E-02	-6.53062762443E-02	1.87270782114E-02	-6.53630977727E-02	1.92502747379E-02	1.34735603476E-02	2.19611515342E-01
1.72050000000E+09	2.07608568661E-02	-6.46847119955E-02	-6.48842959732E-02	2.01462277684E-02	-6.49415833571E-02	2.06694582086E-02	1.90131043752E-02	2.21169623768E-01
1.72100000000E+09	2.36889837949E-02	-6.55801585112E-02	-6.44137943099E-02	2.15605589687E-02	-6.44621989568E-02	2.20928428292E-02	2.46069999907E-02	2.22581000403E-01
1.72150000000E+09	2.65936862411E-02	-6.65173539602E-02	-6.39366810930E-02	2.29647984173E-02	-6.39735890188E-02	2.34927307266E-02	3.02561639760E-02	2.23830957308E-01
1.72200000000E+09	2.94380574691E-02	-6.75722011817E-02	-6.34434189118E-02	2.43649047595E-02	-6.34433418495E-02	2.48861194337E-02	3.59070295062E-02	2.24869011572E-01
1.72250000000E+09	3.22315055068E-02	-6.87107416205E-02	-6.28941115182E-02	2.57429179178E-02	-6.28750879021E-02	2.62680258580E-02	4.15837222496E-02	2.25727248506E-01
1.72300000000E+09	3.49790722767E-02	-6.99528095443E-02	-6.23062689489E-02	2.70944293347E-02	-6.22871601913E-02	2.76385861246E-02	4.72494029225E-02	2.26387689039E-01
1.72350000000E+09	3.76931338716E-02	-7.12448522283E-02	-6.16951572675E-02	2.84504646144E-02	-6.16643387655E-02	2.89811698442E-02	5.29625380684E-02	2.26888902365E-01
1.72400000000E+09	4.03303073311E-02	-7.26509885806E-02	-6.10344267032E-02	2.97895942673E-02	-6.10046534171E-02	3.03095729277E-02	5.86985597017E-02	2.27247639070E-01
1.72450000000E+09	4.29354087600E-02	-7.41273381133E-02	-6.03651795502E-02	3.11128617288E-02	-6.03232404061E-02	3.16244940027E-02	6.44335538280E-02	2.27378556883E-01
1.72500000000E+09	4.54838226345E-02	-7.56747286491E-02	-5.96632950279E-02	3.24140650490E-02	-5.96001290026E-02	3.29347471547E-02	7.01239759616E-02	2.27301178734E-01
1.72550000000E+09	4.79750029487E-02	-7.72789544975E-02	-5.89342621354E-02	3.37055441832E-02	-5.88461956686E-02	3.42233703282E-02	7.58861033309E-02	2.27076764584E-01
1.72600000000E+09	5.04068364440E-02	-7.89916163126E-02	-5.81690527665E-02	3.49681739885E-02	-5.80751400943E-02	3.54763547730E-02	8.15338421574E-02	2.26684871653E-01
1.72650000000E+09	5.27741282956E-02	-8.07600801275E-02	-5.73830393421E-02	3.61975243511E-02	-5.72820277838E-02	3.67388070206E-02	8.72327057567E-02	2.26087827098E-01
1.72700000000E+09	5.50750664049E-02	-8.25946536636E-02	-5.65596510149E-02	3.74342171637E-02	-5.64484081165E-02	3.79492477459E-02	9.28827900415E-02	2.25332280531E-01
1.72750000000E+09	5.73040979092E-02	-8.44917929397E-02	-5.57183419935E-02	3.86409268299E-02	-5.55929057269E-02	3.91664092776E-02	9.85121476397E-02	2.24386575999E-01
1.72800000000E+09	5.94801940077E-02	-8.64461403310E-02	-5.48472170283E-02	3.98394209116E-02	-5.47109136047E-02	4.03513243047E-02	1.04076895506E-01	2.23294688282E-01
1.72850000000E+09	6.15902558125E-02	-8.84694546233E-02	-5.39595230559E-02	4.10085501799E-02	-5.38021989851E-02	4.15164964379E-02	1.09623791315E-01	2.21997590466E-01
1.72900000000E+09	6.36497409062E-02	-9.05659450442E-02	-5.30388586835E-02	4.21456286006E-02	-5.28852222215E-02	4.26475343524E-02	1.15135546798E-01	2.20547161069E-01
1.72950000000E+09	6.56274688329E-02	-9.26915192892E-02	-5.20947894821E-02	4.32728990541E-02	-5.19030354771E-02	4.37769577529E-02	1.20592571794E-01	2.18915382355E-01
1.73000000000E+09	6.75056176373E-02	-9.49034436646E-02	-5.11172705283E-02	4.43640259248E-02	-5.09273817655E-02	4.48605469865E-02	1.25951365925E-01	2.17085877927E-01
1.73050000000E+09	6.93667005931E-02	-9.71301906859E-02	-5.01162528770E-02	4.54413803552E-02	-4.99245462889E-02	4.59361516869E-02	1.31289246555E-01	2.15164663912E-01
1.73100000000E+09	7.10973671224E-02	-9.94227969553E-02	-4.91018987016E-02	4.65113089589E-02	-4.88939092291E-02	4.69986395167E-02	1.36577347350E-01	2.13036837825E-01
1.73150000000E+09	7.28031620275E-02	-1.01760107556E-01	-4.80642677118E-02	4.75344958221E-02	-4.78347640613E-02	4.80298908066E-02	1.41761196513E-01	2.10707160605E-01
1.73200000000E+09	7.44250608927E-02	-1.04148039086E-01	-4.69888182159E-02	4.85378816426E-02	-4.67640360232E-02	4.90110042366E-02	1.46891653384E-01	2.08258822956E-01
1.73250000000E+09	7.59730024969E-02	-1.06581861081E-01	-4.59163668504E-02	4.95075523669E-02	-4.56695613851E-02	4.99778944858E-02	1.51927714179E-01	2.05628153941E-01
1.73300000000E+09	7.74047990551E-02	-1.09062183021E-01	-4.47961367764E-02	5.04799611157E-02	-4.45608789564E-02	5.09256030947E-02	1.56864920755E-01	2.02908111417E-01
1.73350000000E+09	7.87927865567E-02	-1.11610990401E-01	-4.36873053022E-02	5.13918355001E-02	-4.34224424979E-02	5.18687464633E-02	1.61721025814E-01	1.99992037127E-01
1.73400000000E+09	8.00880596488E-02	-1.14160360916E-01	-4.25370534381E-02	5.23008098614E-02	-4.22806428148E-02	5.27315213738E-02	1.66482835231E-01	1.96905603161E-01
1.73450000000E+09	8.13042775038E-02	-1.16750563017E-01	-4.13603064804E-02	5.31574390183E-02	-4.10879424880E-02	5.36263321924E-02	1.71208159267E-01	1.93695211797E-01
1.73500000000E+09	8.24193082601E-02	-1.19385108860E-01	-4.02058340229E-02	5.40075102163E-02	-3.99269914934E-02	5.44462708182E-02	1.75716085786E-01	1.90331119665E-01
1.73550000000E+09	8.34817768374E-02	-1.22044638904E-01	-3.90035712182E-02	5.48370511720E-02	-3.87166687188E-02	5.52649887281E-02	1.80208762546E-01	1.86813952603E-01
1.73600000000E+09	8.44291122186E-02	-1.24730031742E-01	-3.78076665359E-02	5.56076156835E-02	-3.74892822757E-02	5.60309351747E-02	1.84553430561E-01	1.83186737599E-01
1.73650000000E+09	8.53119440414E-02	-1.27450833008E-01	-3.65899265349E-02	5.63790347801E-02	-3.62592007005E-02	5.68067831917E-02	1.88784625684E-01	1.79470210228E-01
1.73700000000E+09	8.61098848257E-02	-1.30196526709E-01	-3.53291339684E-02	5.71212786642E-02	-3.50094826019E-02	5.75232573333E-02	1.92895472542E-01	1.75526997511E-01
1.73750000000E+09	8.67944795825E-02	-1.32964252862E-01	-3.40692192742E-02	5.78211907541E-02	-3.37468953788E-02	5.82108606977E-02	1.96873905734E-01	1.71551873127E-01
1.73800000000E+09	8.73880866525E-02	-1.35746957860E-01	-3.27939973562E-02	5.84964134194E-02	-3.24725333174E-02	5.88750798814E-02	2.00724374257E-01	1.67365342169E-01
1.73850000000E+09	8.78974022702E-02	-1.38546725315E-01	-3.15264093311E-02	5.91363635319E-02	-3.11775068324E-02	5.95348408838E-02	2.04481901595E-01	1.63123030523E-01
1.73900000000E+09	8.83220583994E-02	-1.41355333261E-01	-3.02326047893E-02	5.97611157581E-02	-2.98772335880E-02	6.01270106118E-02	2.08072638417E-01	1.58745536102E-01
1.73950000000E+09	8.86789790419E-02	-1.44169517421E-01	-2.89262930808E-02	6.03421708296E-02	-2.85754222380E-02	6.07086329665E-02	2.11541873639E-01	1.54255719297E-01
1.74000000000E+09	8.89054909211E-02	-1.47043653636E-01	-2.76115085159E-02	6.08904719089E-02	-2.72538091277E-02	6.12507921154E-02	2.14858410977E-01	1.49659270375E-01
1.74050000000E+09	8.90328820313E-02	-1.49872113881E-01	-2.62850599653E-02	6.14191054255E-02	-2.59209198435E-02	6.17775013742E-02	2.18037331989E-01	1.44955258716E-01
1.74100000000E+09	8.90677420263E-02	-1.52736919169E-01	-2.49701629185E-02	6.19268291140E-02	-2.45776394648E-02	6.22546444120E-02	2.21075699932E-01	1.40175504797E-01
1.74150000000E+09	8.90103148357E-02	-1.55567457595E-01	-2.36137107148E-02	6.23774474681E-02	-2.32437641591E-02	6.27212462353E-02	2.23967738987E-01	1.35282371727E-01
1.74200000000E+09	8.88541646183E-02	-1.58426053978E-01	-2.22828646600E-02	6.28258990831E-02	-2.18988228789E-02	6.31353684765E-02	2.26700455935E-01	1.30337999820E-01
1.74250000000E+09	8.85667659017E-02	-1.61261227211E-01	-2.09270767510E-02	6.32256048319E-02	-2.05227269335E-02	6.35379602237E-02	2.29323053152E-01	1.25234148816E-01
1.74300000000E+09	8.82378289639E-02	-1.64079848653E-01	-1.95808024689E-02	6.35954274247E-02	-1.91646047179E-02	6.39020323418E-02	2.31737064536E-01	1.20091817014E-01
1.74350000000E+09	8.77717071804E-02	-1.66905709679E-01	-1.82036678698E-02	6.39618119256E-02	-1.77930044132E-02	6.42384398823E-02	2.34000247088E-01	1.14914068135E-01
1.74400000000E+09	8.72057548141E-02	-1.69688218413E-01	-1.68229899306E-02	6.42564603141E-02	-1.64269899150E-02	6.45479919223E-02	2.36077794147E-01	1.09615710852E-01
1.74450000000E+09	8.65375392998E-02	-1.72474580522E-01	-1.54527465227E-02	6.45532965217E-02	-1.50523989726E-02	6.48216518725E-02	2.38050364635E-01	1.04246203040E-01
1.74500000000E+09	8.57948390899E-02	-1.75208216427E-01	-1.40859354828E-02	6.48070858544E-02	-1.36654585471E-02	6.50561086045E-02	2.39816903318E-01	9.88573374926E-02
1.74550000000E+09	8.49155752457E-02	-1.77925627208E-01	-1.27079058627E-02	6.50153481361E-02	-1.22840342583E-02	6.52744521800E-02	2.41399769811E-01	9.33894541304E-02
1.74600000000E+09	8.39474121663E-02	-1.80617531560E-01	-1.13328333006E-02	6.52242341506E-02	-1.09068404557E-02	6.54637205022E-02	2.42877836094E-01	8.78645717647E-02
1.74650000000E+09	8.28671422322E-02	-1.83261831287E-01	-9.96415181374E-03	6.53810224924E-02	-9.51806019016E-03	6.56283939563E-02	2.44138405836E-01	8.22993119437E-02
1.74700000000E+09	8.16905697330E-02	-1.85863308773E-01	-8.57741774773E-03	6.55145801291E-02	-8.14349046199E-03	6.57553053287E-02	2.45199181905E-01	7.66929994718E-02
1.74750000000E+09	8.04471483244E-02	-1.88405912427E-01	-7.20572839927E-03	6.56186128231E-02	-6.75675508429E-03	6.58610130951E-02	2.46141104608E-01	7.10794624713E-02
1.74800000000E+09	7.90687456028E-02	-1.90924527458E-01	-5.81990119573E-03	6.57020734328E-02	-5.37405539912E-03	6.59213130016E-02	2.46887594406E-01	6.54034403434E-02
1.74850000000E+09	7.75963353792E-02	-1.93364854721E-01	-4.44960350040E-03	6.57526863380E-02	-4.01010669411E-03	6.59568736269E-02	2.47456613450E-01	5.96848159959E-02
1.74900000000E+09	7.60177542384E-02	-1.95743818999E-01	-3.07452923132E-03	6.57737341883E-02	-2.62976200456E-03	6.59577655188E-02	2.47819618942E-01	5.39903130807E-02
1.74950000000E+09	7.43698626113E-02	-1.98063824113E-01	-1.71410217708E-03	6.57556417580E-02	-1.26267900862E-03	6.59475414501E-02	2.48062695672E-01	4.82711410776E-02
1.75000000000E+09	7.26024511589E-02	-2.00323570935E-01	-3.45946345792E-04	6.57210985673E-02	9.66943739828E-05	6.59013372942E-02	2.48107876603E-01	4.25299083786E-02
1.75050000000E+09	7.07558061652E-02	-2.02489656704E-01	1.01576918265E-03	6.56477083180E-02	1.46034169255E-03	6.58103815761E-02	2.47938283553E-01	3.68101497491E-02
1.75100000000E+09	6.88685164538E-02	-2.04612345270E-01	2.36135426121E-03	6.55684855161E-02	2.83086985560E-03	6.57282475574E-02	2.47636566449E-01	3.10485308327E-02
1.75150000000E+09	6.68105700843E-02	-2.06650192328E-01	3.70417257543E-03	6.54319938277E-02	4.17798268565E-03	6.55924567710E-02	2.47149364122E-01	2.53692541257E-02
1.75200000000E+09	6.47021861070E-02	-2.08560543254E-01	5.04856025969E-03	6.52929946980E-02	5.51774551458E-03	6.54308702878E-02	2.46459829107E-01	1.96032168260E-02
1.75250000000E+09	6.25165298631E-02	-2.10403273139E-01	6.40192801599E-03	6.51259153291E-02	6.86826996647E-03	6.52477392434E-02	2.45616406476E-01	1.39400456963E-02
1.75300000000E+09	6.02699216298E-02	-2.12129093342E-01	7.69483221063E-03	6.49195374297E-02	8.19308260132E-03	6.50373255268E-02	2.44551905113E-01	8.28649278036E-03
1.75350000000E+09	5.79506397187E-02	-2.13787979323E-01	9.03730512853E-03	6.46873939800E-02	9.50450545875E-03	6.48182559473E-02	2.43360564592E-01	2.65023272725E-03
1.75400000000E+09	5.55012262293E-02	-2.15299153522E-01	1.03415822333E-02	6.44221883126E-02	1.08256580229E-02	6.45380876999E-02	2.41964082552E-01	-2.95884731629E-03
1.75450000000E+09	5.30418277854E-02	-2.16716113242E-01	1.16393352442E-02	6.41561265251E-02	1.21345625015E-02	6.42525367740E-02	2.40393649283E-01	-8.54267471016E-03
1.75500000000E+09	5.04861042447E-02	-2.18029419472E-01	1.29408056678E-02	6.38305454093E-02	1.34207671220E-02	6.39310825827E-02	2.38676468859E-01	-1.40464653255E-02
1.75550000000E+09	4.78987628514E-02	-2.19200723249E-01	1.42091374413E-02	6.35025311926E-02	1.47001425073E-02	6.35799459935E-02	2.36705808037E-01	-1.95198817464E-02
1.75600000000E+09	4.52514745790E-02	-2.20277762757E-01	1.54924847887E-02	6.31665922900E-02	1.59877533047E-02	6.32241922031E-02	2.34653351157E-01	-2.49168863624E-02
1.75650000000E+09	4.25684326705E-02	-2.21187812055E-01	1.67553449873E-02	6.27817596216E-02	1.72423581116E-02	6.28494372304E-02	2.32411965358E-01	-3.02619257660E-02
1.75700000000E+09	3.98180950645E-02	-2.22014092162E-01	1.80068680826E-02	6.23786774897E-02	1.85016062123E-02	6.24331803885E-02	2.29977005320E-01	-3.55277185790E-02
1.75750000000E+09	3.70674426782E-02	-2.22688584242E-01	1.92383388795E-02	6.19692349179E-02	1.97335751331E-02	6.20044259137E-02	2.27384493108E-01	-4.07127372187E-02
1.75800000000E+09	3.42670752286E-02	-2.23216871022E-01	2.04910319573E-02	6.15205724530E-02	2.09581865994E-02	6.15468753347E-02	2.24612680848E-01	-4.58535077560E-02
1.75850000000E+09	3.14680144690E-02	-2.23629119478E-01	2.16940302867E-02	6.10471580225E-02	2.21817061183E-02	6.10812732022E-02	2.21670680879E-01	-5.08625960339E-02
