# Hz S RI R 50
! CMT, CMT808U, 21440046, 21.4.3/4
! Date: 11/20/2025 11:38:49 PM
! Data: Format (Calibration Info)
! Freq	S11:Re/Im(F2)	S41:Re/Im(F2)	S14:Re/Im(F2)	S44:Re/Im(F2)
1.70000000000E+09	-7.38863604531E-02	-1.19232943804E-01	-5.71207879970E-02	-3.94873128783E-02	-5.77223521937E-02	-3.90942704052E-02	-8.94600091482E-02	5.35366848978E-02
1.70050000000E+09	-7.37273275171E-02	-1.16464423105E-01	-5.79828940969E-02	-3.82552829266E-02	-5.85520883555E-02	-3.78566416363E-02	-8.91887050222E-02	5.90507525562E-02
1.70100000000E+09	-7.33926234620E-02	-1.13688215763E-01	-5.88129816405E-02	-3.70149458370E-02	-5.93646059986E-02	-3.65854561773E-02	-8.87167906989E-02	6.45287458530E-02
1.70150000000E+09	-7.29018777933E-02	-1.10883316030E-01	-5.96076738048E-02	-3.57555422551E-02	-6.01579615519E-02	-3.53272026426E-02	-8.80741175383E-02	6.99865388011E-02
1.70200000000E+09	-7.22559388543E-02	-1.08139109346E-01	-6.03912471769E-02	-3.44655682880E-02	-6.09309333688E-02	-3.40127722927E-02	-8.72333035339E-02	7.54502359191E-02
1.70250000000E+09	-7.14274172503E-02	-1.05355325772E-01	-6.11350195141E-02	-3.31744095840E-02	-6.16596698368E-02	-3.27138783903E-02	-8.62162903403E-02	8.08508921073E-02
1.70300000000E+09	-7.04304280193E-02	-1.02608400339E-01	-6.18531797679E-02	-3.18522366335E-02	-6.23655677590E-02	-3.13691743167E-02	-8.50472499316E-02	8.62135791266E-02
1.70350000000E+09	-6.93193735398E-02	-9.99219806548E-02	-6.25365205289E-02	-3.05131556071E-02	-6.30587065468E-02	-3.00293888294E-02	-8.36966579262E-02	9.15214373760E-02
1.70400000000E+09	-6.80068935881E-02	-9.72833427828E-02	-6.31961186888E-02	-2.91470816509E-02	-6.37046366519E-02	-2.86529390207E-02	-8.21534196481E-02	9.67775397807E-02
1.70450000000E+09	-6.65724478794E-02	-9.46740367601E-02	-6.38265396080E-02	-2.77811245055E-02	-6.43283626836E-02	-2.72656423104E-02	-8.04436551156E-02	1.02002486327E-01
1.70500000000E+09	-6.50066755898E-02	-9.21316357313E-02	-6.44428742204E-02	-2.63810552933E-02	-6.49107075458E-02	-2.58770243880E-02	-7.85375443293E-02	1.07130992569E-01
1.70550000000E+09	-6.32776020165E-02	-8.96620335426E-02	-6.50088741780E-02	-2.49881953629E-02	-6.54565700069E-02	-2.44653604051E-02	-7.64963745873E-02	1.12198402584E-01
1.70600000000E+09	-6.14472501049E-02	-8.72523996558E-02	-6.55466306635E-02	-2.35847496371E-02	-6.60054944437E-02	-2.30312262104E-02	-7.42781832460E-02	1.17199683110E-01
1.70650000000E+09	-5.94543293243E-02	-8.49376447317E-02	-6.60481455243E-02	-2.21354815390E-02	-6.64918964789E-02	-2.15894120537E-02	-7.19053923209E-02	1.22103199275E-01
1.70700000000E+09	-5.73913302381E-02	-8.27062858086E-02	-6.65213813901E-02	-2.07051105438E-02	-6.69548190419E-02	-2.01380440570E-02	-6.93563227295E-02	1.26947862165E-01
1.70750000000E+09	-5.51874991568E-02	-8.05594600897E-02	-6.69437672666E-02	-1.92382773692E-02	-6.73706440475E-02	-1.86753637076E-02	-6.66913826645E-02	1.31683769821E-01
1.70800000000E+09	-5.28569422929E-02	-7.85121394727E-02	-6.73618126717E-02	-1.77910321472E-02	-6.77686851761E-02	-1.72007300367E-02	-6.38473793957E-02	1.36294706784E-01
1.70850000000E+09	-5.04471945255E-02	-7.65605742225E-02	-6.77348209093E-02	-1.63033315591E-02	-6.81291794416E-02	-1.57123575744E-02	-6.08471417919E-02	1.40843164008E-01
1.70900000000E+09	-4.79410158856E-02	-7.47114120668E-02	-6.80665542530E-02	-1.48251698460E-02	-6.84539820576E-02	-1.42362468763E-02	-5.77167982200E-02	1.45284086788E-01
1.70950000000E+09	-4.53612201559E-02	-7.29981697275E-02	-6.83715425191E-02	-1.33414711621E-02	-6.87388495599E-02	-1.27375510874E-02	-5.44570578759E-02	1.49602721230E-01
1.71000000000E+09	-4.26762932240E-02	-7.13604431669E-02	-6.86471677303E-02	-1.18364313085E-02	-6.90014124277E-02	-1.12373859030E-02	-5.10143991840E-02	1.53791557200E-01
1.71050000000E+09	-3.99311524705E-02	-6.98634544740E-02	-6.88866768939E-02	-1.03359471658E-02	-6.92214457956E-02	-9.71029301521E-03	-4.75070887398E-02	1.57887311888E-01
1.71100000000E+09	-3.71382914812E-02	-6.84724127442E-02	-6.90749116226E-02	-8.84021134413E-03	-6.94034061220E-02	-8.21127894921E-03	-4.37898663781E-02	1.61857065098E-01
1.71150000000E+09	-3.42652886834E-02	-6.72008646988E-02	-6.92379501121E-02	-7.32110982418E-03	-6.95404548333E-02	-6.68198647622E-03	-4.00129121859E-02	1.65714948359E-01
1.71200000000E+09	-3.13367184024E-02	-6.60317353090E-02	-6.93655161623E-02	-5.81891763247E-03	-6.96626191860E-02	-5.17390101323E-03	-3.61080211547E-02	1.69416379028E-01
1.71250000000E+09	-2.83649973021E-02	-6.50010135792E-02	-6.94504838169E-02	-4.30715783606E-03	-6.97410299361E-02	-3.65751426805E-03	-3.20732139834E-02	1.72969027776E-01
1.71300000000E+09	-2.53853180620E-02	-6.41009698711E-02	-6.95140345713E-02	-2.79474215698E-03	-6.97817636434E-02	-2.12447200465E-03	-2.79294513188E-02	1.76420940859E-01
1.71350000000E+09	-2.23304772968E-02	-6.32939701618E-02	-6.95508072137E-02	-1.27174231528E-03	-6.97768805024E-02	-6.07550944034E-04	-2.37134392881E-02	1.79698109589E-01
1.71400000000E+09	-1.92406444885E-02	-6.26250280874E-02	-6.95084451253E-02	2.44388916289E-04	-6.97679060432E-02	9.01624122275E-04	-1.93666070431E-02	1.82858409244E-01
1.71450000000E+09	-1.61688127645E-02	-6.20770761503E-02	-6.94760587562E-02	1.73854729703E-03	-6.97075213960E-02	2.41837724723E-03	-1.49162158904E-02	1.85893079862E-01
1.71500000000E+09	-1.30429850811E-02	-6.16375688734E-02	-6.93819935103E-02	3.23598954461E-03	-6.95940759735E-02	3.91888459242E-03	-1.03837555830E-02	1.88759880186E-01
1.71550000000E+09	-9.92078009813E-03	-6.13003663154E-02	-6.92611000010E-02	4.75741110058E-03	-6.94660127625E-02	5.44723322138E-03	-5.74112158596E-03	1.91446507661E-01
1.71600000000E+09	-6.80263469238E-03	-6.11042838652E-02	-6.91129049405E-02	6.23248858671E-03	-6.92831205227E-02	6.92855453491E-03	-1.07924045954E-03	1.94003466433E-01
1.71650000000E+09	-3.67477555153E-03	-6.10116452562E-02	-6.89420909965E-02	7.73252617583E-03	-6.91013926524E-02	8.43719395454E-03	3.73169234564E-03	1.96413944656E-01
1.71700000000E+09	-5.41828688397E-04	-6.10344091023E-02	-6.87262082752E-02	9.21604568626E-03	-6.88633245200E-02	9.90706939002E-03	8.51654143056E-03	1.98653807244E-01
1.71750000000E+09	2.57481144778E-03	-6.11601310527E-02	-6.84504389922E-02	1.06888524906E-02	-6.85897986472E-02	1.13938912744E-02	1.34693550955E-02	2.00721545029E-01
1.71800000000E+09	5.69171687407E-03	-6.14382889154E-02	-6.81881538527E-02	1.21488953727E-02	-6.83019469406E-02	1.28296941717E-02	1.84308187664E-02	2.02638253717E-01
1.71850000000E+09	8.77359620700E-03	-6.17913965907E-02	-6.78500548183E-02	1.35959043189E-02	-6.79666501660E-02	1.43143206105E-02	2.34268559476E-02	2.04405487241E-01
1.71900000000E+09	1.18161712765E-02	-6.22589735217E-02	-6.75277632922E-02	1.50400432208E-02	-6.76027929207E-02	1.57560342579E-02	2.85125160784E-02	2.05965048872E-01
1.71950000000E+09	1.48737738969E-02	-6.28294735294E-02	-6.71511669326E-02	1.64948327071E-02	-6.72108361277E-02	1.71848852556E-02	3.36104888802E-02	2.07417024302E-01
1.72000000000E+09	1.78816057937E-02	-6.35129239125E-02	-6.67406141528E-02	1.79126766595E-02	-6.67755380524E-02	1.86232995704E-02	3.87612874231E-02	2.08672504352E-01
1.72050000000E+09	2.08653858939E-02	-6.42735100344E-02	-6.63033918012E-02	1.93144308047E-02	-6.63220186161E-02	2.00169592435E-02	4.39338310419E-02	2.09753047803E-01
1.72100000000E+09	2.38081306580E-02	-6.51632983624E-02	-6.58315614439E-02	2.07236544066E-02	-6.58555696291E-02	2.14179627935E-02	4.91691502659E-02	2.10692311273E-01
1.72150000000E+09	2.67333340405E-02	-6.61181205848E-02	-6.53498281026E-02	2.21008784203E-02	-6.53312793702E-02	2.28018631511E-02	5.44180527924E-02	2.11461436215E-01
1.72200000000E+09	2.96017592117E-02	-6.71760185583E-02	-6.48119394304E-02	2.34541570971E-02	-6.48033033765E-02	2.41728133362E-02	5.96811632909E-02	2.12044777997E-01
1.72250000000E+09	3.24356039909E-02	-6.83377522199E-02	-6.42549377192E-02	2.48223160206E-02	-6.42411354619E-02	2.55299733202E-02	6.49125586803E-02	2.12485681953E-01
1.72300000000E+09	3.51852311666E-02	-6.95801683724E-02	-6.36839587855E-02	2.61640824918E-02	-6.36333682880E-02	2.68508958327E-02	7.01484610744E-02	2.12703652232E-01
1.72350000000E+09	3.79061665190E-02	-7.08946823825E-02	-6.30876843970E-02	2.74899124795E-02	-6.30298250046E-02	2.81818489490E-02	7.54380319213E-02	2.12799700139E-01
1.72400000000E+09	4.05740385547E-02	-7.23030194467E-02	-6.24582483351E-02	2.88012806012E-02	-6.23770686459E-02	2.95012921516E-02	8.06959928383E-02	2.12733989570E-01
1.72450000000E+09	4.32049444128E-02	-7.38098652731E-02	-6.17884655072E-02	3.00947202406E-02	-6.16961322862E-02	3.07873152998E-02	8.59919884819E-02	2.12478919688E-01
1.72500000000E+09	4.57719285131E-02	-7.53651519735E-02	-6.11130859426E-02	3.13787317449E-02	-6.09976794790E-02	3.20669951970E-02	9.11913295202E-02	2.12051396452E-01
1.72550000000E+09	4.82776502669E-02	-7.70214213145E-02	-6.04190193323E-02	3.26299414933E-02	-6.02801018602E-02	3.33203111328E-02	9.64196007084E-02	2.11458183559E-01
1.72600000000E+09	5.07225971065E-02	-7.87343847262E-02	-5.96680389015E-02	3.38787123385E-02	-5.95397874536E-02	3.45754672973E-02	1.01594910350E-01	2.10712952750E-01
1.72650000000E+09	5.31049734479E-02	-8.05324079948E-02	-5.89159010405E-02	3.51087276192E-02	-5.87579479089E-02	3.57972718170E-02	1.06773931301E-01	2.09769546652E-01
1.72700000000E+09	5.54335356081E-02	-8.23913065037E-02	-5.81443606052E-02	3.63217633195E-02	-5.79795296690E-02	3.69975186844E-02	1.11887972914E-01	2.08696687109E-01
1.72750000000E+09	5.76682079411E-02	-8.42921626076E-02	-5.73290057707E-02	3.75064532806E-02	-5.71501557189E-02	3.81926267569E-02	1.16991115875E-01	2.07476163610E-01
1.72800000000E+09	5.98810036820E-02	-8.62932933173E-02	-5.65144953456E-02	3.86759271583E-02	-5.63239188964E-02	3.93600584396E-02	1.22037856238E-01	2.06071696792E-01
1.72850000000E+09	6.19758330819E-02	-8.83655624338E-02	-5.56643387702E-02	3.98475839768E-02	-5.54605011387E-02	4.05118369840E-02	1.27015709756E-01	2.04494345541E-01
1.72900000000E+09	6.40501629384E-02	-9.04543547571E-02	-5.47913431185E-02	4.09763088741E-02	-5.45764117595E-02	4.16598813975E-02	1.31956616219E-01	2.02814747160E-01
1.72950000000E+09	6.60299957612E-02	-9.26029177141E-02	-5.39133501134E-02	4.21138040258E-02	-5.36729710769E-02	4.27624471146E-02	1.36844099397E-01	2.00927731276E-01
1.73000000000E+09	6.79419975442E-02	-9.48651464763E-02	-5.29920836778E-02	4.31973627665E-02	-5.27452073434E-02	4.38633926380E-02	1.41635488504E-01	1.98919709473E-01
1.73050000000E+09	6.97892599887E-02	-9.71148739684E-02	-5.20717057555E-02	4.42878348441E-02	-5.17787455048E-02	4.49275377029E-02	1.46380564836E-01	1.96756172003E-01
1.73100000000E+09	7.15329389164E-02	-9.94646918406E-02	-5.11090368599E-02	4.53533661772E-02	-5.08143493459E-02	4.59782072297E-02	1.51069445913E-01	1.94459013493E-01
1.73150000000E+09	7.32461066277E-02	-1.01814502083E-01	-5.01357507321E-02	4.63814835700E-02	-4.98419003495E-02	4.70056143791E-02	1.55637621512E-01	1.91978104170E-01
1.73200000000E+09	7.48641662028E-02	-1.04244233572E-01	-4.91314639589E-02	4.74288100590E-02	-4.88312212840E-02	4.80476601857E-02	1.60153201290E-01	1.89364317650E-01
1.73250000000E+09	7.63900028003E-02	-1.06713889536E-01	-4.81280683951E-02	4.84135098057E-02	-4.78089278363E-02	4.90285150177E-02	1.64601956491E-01	1.86600586122E-01
1.73300000000E+09	7.78297232051E-02	-1.09226298427E-01	-4.70892743335E-02	4.94045734194E-02	-4.67618446132E-02	5.00115900354E-02	1.68905139539E-01	1.83783432081E-01
1.73350000000E+09	7.91967456982E-02	-1.11792191483E-01	-4.60421398709E-02	5.03392896357E-02	-4.57086565966E-02	5.09604858760E-02	1.73175353715E-01	1.80777448614E-01
1.73400000000E+09	8.04944588133E-02	-1.14378717601E-01	-4.49587547772E-02	5.12862446766E-02	-4.46065947131E-02	5.18889122224E-02	1.77324734858E-01	1.77603983162E-01
1.73450000000E+09	8.16995388560E-02	-1.17018615672E-01	-4.38794807778E-02	5.22145583753E-02	-4.35030130659E-02	5.27982061677E-02	1.81392383530E-01	1.74330762155E-01
1.73500000000E+09	8.28217473164E-02	-1.19677819487E-01	-4.27865162004E-02	5.31054864825E-02	-4.23822478407E-02	5.36775886568E-02	1.85280696335E-01	1.70948858898E-01
1.73550000000E+09	8.38465242841E-02	-1.22364119841E-01	-4.16473340773E-02	5.39676683378E-02	-4.12539608503E-02	5.45498904229E-02	1.89144455923E-01	1.67443321517E-01
1.73600000000E+09	8.47799122267E-02	-1.25072163899E-01	-4.05018610026E-02	5.48384731990E-02	-4.00926702562E-02	5.53861933014E-02	1.92870448361E-01	1.63825192044E-01
1.73650000000E+09	8.56355609806E-02	-1.27820713877E-01	-3.93472795480E-02	5.56455668498E-02	-3.89228784162E-02	5.62116830738E-02	1.96423195893E-01	1.60070758787E-01
1.73700000000E+09	8.64048401138E-02	-1.30590374456E-01	-3.81641012474E-02	5.64480133353E-02	-3.77224599807E-02	5.69848605255E-02	1.99900428076E-01	1.56220740042E-01
1.73750000000E+09	8.70773598727E-02	-1.33385260431E-01	-3.69872659138E-02	5.72246319392E-02	-3.65209091204E-02	5.77455524507E-02	2.03268597975E-01	1.52304975321E-01
1.73800000000E+09	8.76616143836E-02	-1.36180091265E-01	-3.57648851418E-02	5.79736873069E-02	-3.53023574631E-02	5.84930617410E-02	2.06477008248E-01	1.48196470810E-01
1.73850000000E+09	8.81531468783E-02	-1.39005035915E-01	-3.45407492091E-02	5.87031469765E-02	-3.40774821176E-02	5.92235120411E-02	2.09598787229E-01	1.44092107339E-01
1.73900000000E+09	8.85425744723E-02	-1.41855498552E-01	-3.32911358413E-02	5.93951053672E-02	-3.28133448995E-02	5.99026704210E-02	2.12567167335E-01	1.39834550201E-01
1.73950000000E+09	8.88762108319E-02	-1.44692501169E-01	-3.20386390535E-02	6.00760545324E-02	-3.15609928270E-02	6.05521543138E-02	2.15392203120E-01	1.35500034838E-01
1.74000000000E+09	8.90388688553E-02	-1.47586974259E-01	-3.07591906110E-02	6.07401834894E-02	-3.02953682787E-02	6.11998983394E-02	2.18070268468E-01	1.31071259195E-01
1.74050000000E+09	8.91648452185E-02	-1.50411143275E-01	-2.94920053303E-02	6.13359651418E-02	-2.89951896085E-02	6.18249059861E-02	2.20651408091E-01	1.26555919460E-01
1.74100000000E+09	8.91601061502E-02	-1.53305938394E-01	-2.82213499996E-02	6.19651307961E-02	-2.76973262491E-02	6.24144624752E-02	2.23048710118E-01	1.21956438149E-01
1.74150000000E+09	8.90509431193E-02	-1.56137795702E-01	-2.68828746806E-02	6.25120143263E-02	-2.63893094084E-02	6.29711992763E-02	2.25330210714E-01	1.17334755840E-01
1.74200000000E+09	8.88989739658E-02	-1.58978990390E-01	-2.55743448770E-02	6.30540150596E-02	-2.50461985321E-02	6.34996235733E-02	2.27486720643E-01	1.12607190023E-01
1.74250000000E+09	8.85660910935E-02	-1.61842268554E-01	-2.42526359748E-02	6.35754496356E-02	-2.37009406213E-02	6.40015843746E-02	2.29470837847E-01	1.07809217618E-01
1.74300000000E+09	8.81941607653E-02	-1.64677666759E-01	-2.28929853338E-02	6.40608409931E-02	-2.23561805548E-02	6.44757093851E-02	2.31300021409E-01	1.02946213642E-01
1.74350000000E+09	8.76973660906E-02	-1.67480752470E-01	-2.15607537500E-02	6.45260324112E-02	-2.10082163245E-02	6.49202670876E-02	2.32970880351E-01	9.80489701480E-02
1.74400000000E+09	8.71082589468E-02	-1.70262960220E-01	-2.01821587990E-02	6.49443831252E-02	-1.96377055088E-02	6.53261527190E-02	2.34512991379E-01	9.30819332336E-02
1.74450000000E+09	8.64068334668E-02	-1.73056327032E-01	-1.88180668770E-02	6.53594916678E-02	-1.82591020052E-02	6.57295849558E-02	2.35881848960E-01	8.80885809812E-02
1.74500000000E+09	8.56102852047E-02	-1.75764930542E-01	-1.74583975673E-02	6.57269096935E-02	-1.68727298452E-02	6.60776542552E-02	2.37104952267E-01	8.30562756675E-02
1.74550000000E+09	8.47006753197E-02	-1.78498427302E-01	-1.60691851037E-02	6.60698515041E-02	-1.54865293982E-02	6.64186357029E-02	2.38167626098E-01	7.79886940968E-02
1.74600000000E+09	8.37127822129E-02	-1.81167757611E-01	-1.46876077801E-02	6.63885013128E-02	-1.40923625684E-02	6.67094474481E-02	2.39034299196E-01	7.28568358155E-02
1.74650000000E+09	8.26028396929E-02	-1.83799634846E-01	-1.32886522244E-02	6.66585733607E-02	-1.26885998344E-02	6.69873109797E-02	2.39779423939E-01	6.77292612957E-02
1.74700000000E+09	8.13933178725E-02	-1.86416439836E-01	-1.18886266969E-02	6.69045316522E-02	-1.12843704864E-02	6.72295722136E-02	2.40339644381E-01	6.25597510322E-02
1.74750000000E+09	8.01129095684E-02	-1.88920027397E-01	-1.04812107151E-02	6.71340950190E-02	-9.87192134494E-03	6.74469020281E-02	2.40792884848E-01	5.73961470262E-02
1.74800000000E+09	7.87270944745E-02	-1.91407149177E-01	-9.09141024490E-03	6.73423108573E-02	-8.46440477644E-03	6.76235491071E-02	2.41043174478E-01	5.22151117746E-02
1.74850000000E+09	7.72241583990E-02	-1.93828284576E-01	-7.65599128461E-03	6.75119979160E-02	-7.04732650478E-03	6.77780385197E-02	2.41139974670E-01	4.70036334041E-02
1.74900000000E+09	7.56416011840E-02	-1.96202267455E-01	-6.26030451880E-03	6.76421851192E-02	-5.62202514662E-03	6.78981199706E-02	2.41076372239E-01	4.18145870769E-02
1.74950000000E+09	7.39659049839E-02	-1.98492741182E-01	-4.82205146813E-03	6.77384290252E-02	-4.20524502723E-03	6.80030681574E-02	2.40840518356E-01	3.66119744133E-02
1.75000000000E+09	7.21771041505E-02	-2.00710711172E-01	-3.41451418618E-03	6.78292755482E-02	-2.77995387036E-03	6.80604875246E-02	2.40460855097E-01	3.14112605117E-02
1.75050000000E+09	7.03299991751E-02	-2.02879046234E-01	-2.00433967220E-03	6.78645846688E-02	-1.36049712964E-03	6.80956585960E-02	2.39880925802E-01	2.62647240372E-02
1.75100000000E+09	6.83970903754E-02	-2.04961826627E-01	-5.72092934742E-04	6.78822668095E-02	5.71000190897E-05	6.80776314264E-02	2.39185397296E-01	2.10844320615E-02
1.75150000000E+09	6.63471035728E-02	-2.06957888364E-01	8.38696873288E-04	6.78588838265E-02	1.48825585616E-03	6.80709390627E-02	2.38320591589E-01	1.59825461263E-02
1.75200000000E+09	6.42238730953E-02	-2.08849110460E-01	2.26914566550E-03	6.78187603158E-02	2.90998956758E-03	6.80146705543E-02	2.37282582668E-01	1.08178099122E-02
1.75250000000E+09	6.20293533089E-02	-2.10676314675E-01	3.66796490579E-03	6.77524307140E-02	4.33790231970E-03	6.79198297285E-02	2.36080495467E-01	5.77667026697E-03
1.75300000000E+09	5.97535091095E-02	-2.12375898874E-01	5.09244859174E-03	6.76600152436E-02	5.73952675153E-03	6.78129338088E-02	2.34734799274E-01	7.48127494938E-04
1.75350000000E+09	5.74283301305E-02	-2.13993265376E-01	6.49168539432E-03	6.75127853851E-02	7.15151954533E-03	6.76822614268E-02	2.33209523270E-01	-4.26510467238E-03
1.75400000000E+09	5.49960130816E-02	-2.15490080102E-01	7.89727200640E-03	6.73541714912E-02	8.55106091040E-03	6.74950160225E-02	2.31523114130E-01	-9.18115667900E-03
1.75450000000E+09	5.25114072452E-02	-2.16871175696E-01	9.31052025769E-03	6.71627457736E-02	9.96063519809E-03	6.72839685554E-02	2.29688920248E-01	-1.41084036136E-02
1.75500000000E+09	4.99760796493E-02	-2.18154380797E-01	1.07024550996E-02	6.69560488181E-02	1.13701116472E-02	6.70691082181E-02	2.27725137269E-01	-1.89400579877E-02
1.75550000000E+09	4.73789954587E-02	-2.19286444454E-01	1.20822601194E-02	6.66893699551E-02	1.27500392203E-02	6.67945010244E-02	2.25561393120E-01	-2.37152857061E-02
1.75600000000E+09	4.47516580755E-02	-2.20362571357E-01	1.34678406171E-02	6.64281365957E-02	1.41447450077E-02	6.65146084216E-02	2.23278445643E-01	-2.84320987165E-02
1.75650000000E+09	4.20549452014E-02	-2.21250313888E-01	1.48458393368E-02	6.61132222159E-02	1.55131006727E-02	6.61966006760E-02	2.20858360380E-01	-3.30653700756E-02
1.75700000000E+09	3.93270535377E-02	-2.22033132251E-01	1.62114200958E-02	6.57855143257E-02	1.68812645298E-02	6.58508487977E-02	2.18274254358E-01	-3.76119252670E-02
1.75750000000E+09	3.65687030219E-02	-2.22710437426E-01	1.75657627701E-02	6.54314145697E-02	1.82488233490E-02	6.54770444793E-02	2.15527889903E-01	-4.20795789968E-02
1.75800000000E+09	3.37854498465E-02	-2.23206754211E-01	1.89177625181E-02	6.50543605646E-02	1.95880857525E-02	6.50871841112E-02	2.12658832518E-01	-4.64755860890E-02
1.75850000000E+09	3.09908708594E-02	-2.23583661398E-01	2.02681531308E-02	6.46253566416E-02	2.09342347420E-02	6.46579192456E-02	2.09636247689E-01	-5.07707465443E-02
