# Hz S RI R 50
! CMT, CMT808U, 21440046, 21.4.3/4
! Date: 11/20/2025 11:26:55 PM
! Data: Format (Calibration Info)
! Freq	S11:Re/Im(F2)	S41:Re/Im(F2)	S14:Re/Im(F2)	S44:Re/Im(F2)
1.70000000000E+09	-7.39061584022E-02	-1.23033308954E-01	-6.26889669634E-02	-2.82902518096E-02	-6.36514840314E-02	-2.71815219745E-02	-1.01820061879E-01	9.40320990058E-02
1.70050000000E+09	-7.39199991901E-02	-1.20288453588E-01	-6.32888115536E-02	-2.69645512629E-02	-6.42468959390E-02	-2.58486235256E-02	-1.00510731472E-01	1.00285955027E-01
1.70100000000E+09	-7.37638362495E-02	-1.17521006993E-01	-6.38648454465E-02	-2.56240487863E-02	-6.47952555016E-02	-2.44806739230E-02	-9.89700001918E-02	1.06489555757E-01
1.70150000000E+09	-7.34572910158E-02	-1.14714899164E-01	-6.44223932622E-02	-2.42614912878E-02	-6.53154107843E-02	-2.31050806249E-02	-9.72636641865E-02	1.12611117698E-01
1.70200000000E+09	-7.29706848044E-02	-1.11942853036E-01	-6.49518289583E-02	-2.28933731940E-02	-6.58139961371E-02	-2.17126727423E-02	-9.53331845967E-02	1.18695424157E-01
1.70250000000E+09	-7.23031757175E-02	-1.09141918780E-01	-6.54204643317E-02	-2.15118039511E-02	-6.62717488341E-02	-2.03217971365E-02	-9.31947756607E-02	1.24673717352E-01
1.70300000000E+09	-7.14956231560E-02	-1.06362449560E-01	-6.58858837978E-02	-2.01113833259E-02	-6.67185870876E-02	-1.89012666997E-02	-9.08935555981E-02	1.30597710757E-01
1.70350000000E+09	-7.05425354441E-02	-1.03631720083E-01	-6.63301555793E-02	-1.87072510651E-02	-6.71092662365E-02	-1.75019070326E-02	-8.83972714510E-02	1.36426241396E-01
1.70400000000E+09	-6.93897324579E-02	-1.00930992869E-01	-6.67284992901E-02	-1.73051231056E-02	-6.74972699942E-02	-1.60512998479E-02	-8.57004416413E-02	1.42143428104E-01
1.70450000000E+09	-6.81173940963E-02	-9.82610348340E-02	-6.71038111919E-02	-1.58801888747E-02	-6.78305736071E-02	-1.46220901257E-02	-8.28475807007E-02	1.47796347817E-01
1.70500000000E+09	-6.66983390472E-02	-9.56529965236E-02	-6.74317202664E-02	-1.44446888199E-02	-6.81449491314E-02	-1.31555303826E-02	-7.97793235908E-02	1.53332601342E-01
1.70550000000E+09	-6.51361779146E-02	-9.31229889973E-02	-6.77500627328E-02	-1.30074316094E-02	-6.84186476879E-02	-1.17083595661E-02	-7.65621616702E-02	1.58745056990E-01
1.70600000000E+09	-6.34331883312E-02	-9.06349173171E-02	-6.80201307841E-02	-1.15522173719E-02	-6.86625925564E-02	-1.02518243397E-02	-7.31863363535E-02	1.64051712212E-01
1.70650000000E+09	-6.15953266866E-02	-8.82148258847E-02	-6.82585668634E-02	-1.01022713820E-02	-6.88999668605E-02	-8.78946450895E-03	-6.96075899385E-02	1.69235916059E-01
1.70700000000E+09	-5.96575389742E-02	-8.58958372753E-02	-6.84730308932E-02	-8.64534517171E-03	-6.90612889772E-02	-7.30716139201E-03	-6.58870712747E-02	1.74311529947E-01
1.70750000000E+09	-5.75673757406E-02	-8.36623525846E-02	-6.86459934137E-02	-7.17835552394E-03	-6.92090534595E-02	-5.84277686428E-03	-6.20391160208E-02	1.79215871193E-01
1.70800000000E+09	-5.53780268266E-02	-8.15049260363E-02	-6.87894981408E-02	-5.72296873392E-03	-6.93219635026E-02	-4.35208323057E-03	-5.79714491969E-02	1.84015553606E-01
1.70850000000E+09	-5.30758191374E-02	-7.94676898619E-02	-6.89053990854E-02	-4.24053180752E-03	-6.94067111634E-02	-2.87760985212E-03	-5.38157114606E-02	1.88665870627E-01
1.70900000000E+09	-5.06839930579E-02	-7.75044693345E-02	-6.89760716949E-02	-2.75874985565E-03	-6.94680807448E-02	-1.35633196474E-03	-4.95199291563E-02	1.93197132277E-01
1.70950000000E+09	-4.82233538212E-02	-7.56725134440E-02	-6.90351128891E-02	-1.28195325289E-03	-6.94856446178E-02	1.03842686799E-04	-4.50660330740E-02	1.97518272211E-01
1.71000000000E+09	-4.56471816270E-02	-7.39455532230E-02	-6.90446086296E-02	1.82558254721E-04	-6.94587328266E-02	1.59429900575E-03	-4.04557761377E-02	2.01717980589E-01
1.71050000000E+09	-4.29984490945E-02	-7.23314096158E-02	-6.90312068089E-02	1.65120341465E-03	-6.94139037944E-02	3.07414319159E-03	-3.58013371280E-02	2.05793742349E-01
1.71100000000E+09	-4.03034798912E-02	-7.08096174368E-02	-6.89694695858E-02	3.13890035275E-03	-6.93161389452E-02	4.56112097492E-03	-3.09378404136E-02	2.09684094345E-01
1.71150000000E+09	-3.75087180978E-02	-6.94192734979E-02	-6.88876098058E-02	4.62612294082E-03	-6.92163377452E-02	6.03679054364E-03	-2.59966873769E-02	2.13403746314E-01
1.71200000000E+09	-3.46731153382E-02	-6.81302486663E-02	-6.87657335094E-02	6.07966869427E-03	-6.90661414916E-02	7.52402493290E-03	-2.09631992129E-02	2.16961848160E-01
1.71250000000E+09	-3.17910018073E-02	-6.69979725492E-02	-6.86213491594E-02	7.55622653286E-03	-6.88935371950E-02	9.00735608851E-03	-1.57841856887E-02	2.20352266867E-01
1.71300000000E+09	-2.88679803127E-02	-6.59575360950E-02	-6.84464131751E-02	9.02776562311E-03	-6.86820241857E-02	1.04716347222E-02	-1.05562684064E-02	2.23582328910E-01
1.71350000000E+09	-2.59203334917E-02	-6.50263002660E-02	-6.82270752621E-02	1.04957520487E-02	-6.84191615965E-02	1.19400816813E-02	-5.22571001703E-03	2.26610615278E-01
1.71400000000E+09	-2.28986466806E-02	-6.42280068122E-02	-6.79806900058E-02	1.19395437090E-02	-6.81356733948E-02	1.33767121240E-02	1.79584936362E-04	2.29458754208E-01
1.71450000000E+09	-1.98706737462E-02	-6.35488191426E-02	-6.77180943725E-02	1.33913370569E-02	-6.78430344522E-02	1.48473986712E-02	5.73616228332E-03	2.32157880773E-01
1.71500000000E+09	-1.68252554605E-02	-6.29790999462E-02	-6.73979464166E-02	1.48250664871E-02	-6.74902923622E-02	1.62841965160E-02	1.12814839348E-02	2.34694487030E-01
1.71550000000E+09	-1.37690740606E-02	-6.25159441070E-02	-6.70430459226E-02	1.62582120956E-02	-6.71235408832E-02	1.77325705235E-02	1.69928009369E-02	2.36993402108E-01
1.71600000000E+09	-1.07079072359E-02	-6.21867679512E-02	-6.66770021760E-02	1.76879606219E-02	-6.67019692133E-02	1.91433167282E-02	2.26447698964E-02	2.39146037537E-01
1.71650000000E+09	-7.61907266405E-03	-6.19829336198E-02	-6.62623229820E-02	1.90858858130E-02	-6.62750293028E-02	2.05736828009E-02	2.84399515026E-02	2.41106321525E-01
1.71700000000E+09	-4.54012861768E-03	-6.18606840690E-02	-6.58369791582E-02	2.05160114120E-02	-6.57948381760E-02	2.19840181680E-02	3.42185603456E-02	2.42845120589E-01
1.71750000000E+09	-1.46793059582E-03	-6.18511773745E-02	-6.53711339259E-02	2.18980803985E-02	-6.53090505155E-02	2.33717715111E-02	4.01245952115E-02	2.44455089361E-01
1.71800000000E+09	1.60892955437E-03	-6.19885750992E-02	-6.48714532051E-02	2.32902105537E-02	-6.47821914680E-02	2.47456733314E-02	4.60024012361E-02	2.45862596997E-01
1.71850000000E+09	4.64917687703E-03	-6.22303988958E-02	-6.43450912496E-02	2.46494534060E-02	-6.42187072214E-02	2.61211308640E-02	5.19113309795E-02	2.47086172984E-01
1.71900000000E+09	7.67627961091E-03	-6.25459746619E-02	-6.37824555435E-02	2.60040239259E-02	-6.36171007987E-02	2.74678451528E-02	5.78895002837E-02	2.48079567161E-01
1.71950000000E+09	1.06876433338E-02	-6.29811361705E-02	-6.31958069073E-02	2.73444716499E-02	-6.30080203971E-02	2.88128699025E-02	6.38277874650E-02	2.48912226939E-01
1.72000000000E+09	1.36626882981E-02	-6.35377530663E-02	-6.25925342872E-02	2.86681263384E-02	-6.23776576679E-02	3.01270621333E-02	6.98034551578E-02	2.49573032809E-01
1.72050000000E+09	1.66104221305E-02	-6.41633437618E-02	-6.19450465935E-02	2.99914905413E-02	-6.16874779949E-02	3.14366874851E-02	7.57903031520E-02	2.49995351536E-01
1.72100000000E+09	1.95425702954E-02	-6.49191486123E-02	-6.12772050564E-02	3.12788391575E-02	-6.09845694189E-02	3.27250180396E-02	8.18012415424E-02	2.50261895543E-01
1.72150000000E+09	2.24538547726E-02	-6.57368438267E-02	-6.05810091335E-02	3.25786622301E-02	-6.02682730687E-02	3.39879393842E-02	8.78049059453E-02	2.50352918384E-01
1.72200000000E+09	2.52987857174E-02	-6.66553217789E-02	-5.98541242242E-02	3.38276500775E-02	-5.95113631707E-02	3.52701571812E-02	9.37873961337E-02	2.50266497871E-01
1.72250000000E+09	2.81170989065E-02	-6.76750489928E-02	-5.90854938225E-02	3.50731519093E-02	-5.87345875909E-02	3.64882092323E-02	9.97236842622E-02	2.49961777819E-01
1.72300000000E+09	3.08692976112E-02	-6.87981305631E-02	-5.83305695920E-02	3.62897786827E-02	-5.79179927221E-02	3.77287345173E-02	1.05671272720E-01	2.49474409298E-01
1.72350000000E+09	3.35737516080E-02	-6.99822955338E-02	-5.75201577750E-02	3.75198277490E-02	-5.70871263444E-02	3.89277959979E-02	1.11590845126E-01	2.48810170885E-01
1.72400000000E+09	3.62621467837E-02	-7.12586678119E-02	-5.67056620902E-02	3.87149459091E-02	-5.62321781858E-02	4.00992791438E-02	1.17487624253E-01	2.47988501000E-01
1.72450000000E+09	3.88817891189E-02	-7.26301569446E-02	-5.58588943051E-02	3.98890978617E-02	-5.53574051061E-02	4.12631002655E-02	1.23372394294E-01	2.46958363830E-01
1.72500000000E+09	4.14544335700E-02	-7.40526112775E-02	-5.49803320711E-02	4.10441054006E-02	-5.44418593588E-02	4.24235365141E-02	1.29153843340E-01	2.45758423947E-01
1.72550000000E+09	4.39638193729E-02	-7.55578214633E-02	-5.40774401507E-02	4.21635637927E-02	-5.35126739235E-02	4.35369878328E-02	1.34937270713E-01	2.44385091190E-01
1.72600000000E+09	4.64394706012E-02	-7.71515433204E-02	-5.31578882660E-02	4.32969833875E-02	-5.25647613505E-02	4.46316186956E-02	1.40609191705E-01	2.42829779794E-01
1.72650000000E+09	4.88206594269E-02	-7.88082176847E-02	-5.22029766726E-02	4.43725830779E-02	-5.15932196022E-02	4.57303538471E-02	1.46283583431E-01	2.41097213519E-01
1.72700000000E+09	5.11638924906E-02	-8.05458957739E-02	-5.12522651539E-02	4.54529994539E-02	-5.06051456094E-02	4.67748499713E-02	1.51880132306E-01	2.39211814170E-01
1.72750000000E+09	5.34407693191E-02	-8.23410767950E-02	-5.02612736644E-02	4.65086171911E-02	-4.95775354770E-02	4.78018413107E-02	1.57382404297E-01	2.37139547307E-01
1.72800000000E+09	5.56643745691E-02	-8.41822473946E-02	-4.92303118992E-02	4.75388166917E-02	-4.85531618581E-02	4.88125712480E-02	1.62856524840E-01	2.34927688492E-01
1.72850000000E+09	5.78212311746E-02	-8.61237417318E-02	-4.82188849265E-02	4.85203333195E-02	-4.75025546752E-02	4.97941082594E-02	1.68200877339E-01	2.32525344984E-01
1.72900000000E+09	5.99184847749E-02	-8.81057798572E-02	-4.71823849879E-02	4.95080844188E-02	-4.64219472012E-02	5.07790537476E-02	1.73511347258E-01	2.29987994662E-01
1.72950000000E+09	6.19313175079E-02	-9.01401108953E-02	-4.61103608517E-02	5.04713915899E-02	-4.53121157875E-02	5.17088200138E-02	1.78720886497E-01	2.27280198259E-01
1.73000000000E+09	6.38654354561E-02	-9.22643310649E-02	-4.50152547580E-02	5.14085866096E-02	-4.42020516000E-02	5.26140210597E-02	1.83795340512E-01	2.24392512781E-01
1.73050000000E+09	6.57599606323E-02	-9.43948312969E-02	-4.39048608950E-02	5.23144085915E-02	-4.30706878037E-02	5.35153970760E-02	1.88844545734E-01	2.21392039726E-01
1.73100000000E+09	6.75730583875E-02	-9.66035031989E-02	-4.27994067712E-02	5.31989009665E-02	-4.19273470986E-02	5.43818600870E-02	1.93770924371E-01	2.18240072535E-01
1.73150000000E+09	6.93214913024E-02	-9.88648115093E-02	-4.16562410109E-02	5.40664893208E-02	-4.07671949713E-02	5.52140101005E-02	1.98566090901E-01	2.14921065181E-01
1.73200000000E+09	7.09994377346E-02	-1.01166212348E-01	-4.04898714738E-02	5.49011842670E-02	-3.95826029795E-02	5.60342351906E-02	2.03294802473E-01	2.11464616380E-01
1.73250000000E+09	7.25838783002E-02	-1.03511762945E-01	-3.93154153248E-02	5.57044617484E-02	-3.83884805329E-02	5.68239455600E-02	2.07871904852E-01	2.07910326810E-01
1.73300000000E+09	7.41076026534E-02	-1.05936897555E-01	-3.81477816097E-02	5.64948124337E-02	-3.71770341238E-02	5.75755078831E-02	2.12357599718E-01	2.04201521154E-01
1.73350000000E+09	7.55375828418E-02	-1.08376579149E-01	-3.69495573952E-02	5.72428856212E-02	-3.59463915910E-02	5.83191869143E-02	2.16746207124E-01	2.00347050197E-01
1.73400000000E+09	7.68959246362E-02	-1.10872320664E-01	-3.57241624841E-02	5.79894901256E-02	-3.47118622882E-02	5.90369014066E-02	2.20992301720E-01	1.96369410646E-01
1.73450000000E+09	7.81733353738E-02	-1.13393432727E-01	-3.45028118988E-02	5.86836821096E-02	-3.34595073400E-02	5.97100788441E-02	2.25109701485E-01	1.92260902140E-01
1.73500000000E+09	7.93584305237E-02	-1.15957008084E-01	-3.32617923288E-02	5.93679534633E-02	-3.21989808386E-02	6.03712056659E-02	2.29073839088E-01	1.88057391633E-01
1.73550000000E+09	8.04729346966E-02	-1.18579397095E-01	-3.19988509527E-02	6.00236466485E-02	-3.09247116812E-02	6.10033644139E-02	2.32951132083E-01	1.83717275182E-01
1.73600000000E+09	8.14947886233E-02	-1.21193589636E-01	-3.07320746453E-02	6.06474921201E-02	-2.96379504428E-02	6.16074362258E-02	2.36655651618E-01	1.79281406091E-01
1.73650000000E+09	8.24162007339E-02	-1.23849864156E-01	-2.94456327455E-02	6.12576804113E-02	-2.83344113025E-02	6.21859805056E-02	2.40232501318E-01	1.74731762942E-01
1.73700000000E+09	8.33030774378E-02	-1.26538427939E-01	-2.81768849902E-02	6.18126334663E-02	-2.70323708126E-02	6.27302802349E-02	2.43665670749E-01	1.70092058209E-01
1.73750000000E+09	8.40592543272E-02	-1.29237010168E-01	-2.68644676804E-02	6.23656189656E-02	-2.57178384911E-02	6.32445960125E-02	2.46975250835E-01	1.65351689568E-01
1.73800000000E+09	8.47132363852E-02	-1.31980893381E-01	-2.55620262237E-02	6.28827339313E-02	-2.44005412601E-02	6.37359336269E-02	2.50085958526E-01	1.60467961736E-01
1.73850000000E+09	8.53158919994E-02	-1.34713487841E-01	-2.42444846211E-02	6.33747040103E-02	-2.30541174462E-02	6.41976556677E-02	2.53105424854E-01	1.55562460577E-01
1.73900000000E+09	8.58018098601E-02	-1.37495439350E-01	-2.29325090728E-02	6.38191600862E-02	-2.17270872108E-02	6.46416371703E-02	2.55963120277E-01	1.50566106883E-01
1.73950000000E+09	8.62226438195E-02	-1.40258250023E-01	-2.15888630761E-02	6.42691360066E-02	-2.03726255767E-02	6.50425977774E-02	2.58648951396E-01	1.45467254040E-01
1.74000000000E+09	8.65380258340E-02	-1.43095398982E-01	-2.02411841044E-02	6.46711128247E-02	-1.90224489411E-02	6.54290329833E-02	2.61176993352E-01	1.40307329372E-01
1.74050000000E+09	8.67251742915E-02	-1.45875615474E-01	-1.88991660427E-02	6.50559847374E-02	-1.76656459697E-02	6.57836560212E-02	2.63530084106E-01	1.35057215760E-01
1.74100000000E+09	8.68479374994E-02	-1.48704524376E-01	-1.75515183731E-02	6.54055846385E-02	-1.62835917840E-02	6.61116348380E-02	2.65762025724E-01	1.29750253628E-01
1.74150000000E+09	8.68433161160E-02	-1.51502482168E-01	-1.61785503673E-02	6.57292555533E-02	-1.49260119509E-02	6.64031043434E-02	2.67797841558E-01	1.24374191809E-01
1.74200000000E+09	8.67750213411E-02	-1.54317368767E-01	-1.48215499847E-02	6.60141086149E-02	-1.35671072687E-02	6.66709173106E-02	2.69699366078E-01	1.19004488611E-01
1.74250000000E+09	8.65842835425E-02	-1.57113014521E-01	-1.34762671290E-02	6.63008175155E-02	-1.21737345028E-02	6.69016614279E-02	2.71433183778E-01	1.13498319749E-01
1.74300000000E+09	8.63180136791E-02	-1.59931554011E-01	-1.20961701666E-02	6.65276520441E-02	-1.07941671068E-02	6.71277710566E-02	2.72963966726E-01	1.07972675390E-01
1.74350000000E+09	8.59272636406E-02	-1.62726431570E-01	-1.07173864504E-02	6.67302922088E-02	-9.40681971117E-03	6.73062994089E-02	2.74363531277E-01	1.02417460357E-01
1.74400000000E+09	8.54574721055E-02	-1.65467597609E-01	-9.34782529835E-03	6.69090599311E-02	-8.03184796850E-03	6.74584950952E-02	2.75580754669E-01	9.68205446594E-02
1.74450000000E+09	8.48785208462E-02	-1.68228283112E-01	-7.96659463167E-03	6.70719218558E-02	-6.64701425724E-03	6.75890751916E-02	2.76632895113E-01	9.11723584754E-02
1.74500000000E+09	8.41886293897E-02	-1.70954270129E-01	-6.59528674909E-03	6.72033400901E-02	-5.24916808921E-03	6.76939873627E-02	2.77521967687E-01	8.55443644580E-02
1.74550000000E+09	8.33981599584E-02	-1.73665064160E-01	-5.22491647469E-03	6.73027910814E-02	-3.86032563636E-03	6.77656735084E-02	2.78218442235E-01	7.98990783620E-02
1.74600000000E+09	8.25410351196E-02	-1.76340666687E-01	-3.82645516292E-03	6.73709564611E-02	-2.47106941520E-03	6.77876905135E-02	2.78751265264E-01	7.41921431250E-02
1.74650000000E+09	8.15381704499E-02	-1.78984703287E-01	-2.44889476813E-03	6.74092870594E-02	-1.09627008879E-03	6.78238016243E-02	2.79085716432E-01	6.84990478477E-02
1.74700000000E+09	8.04572369957E-02	-1.81557268027E-01	-1.06954611451E-03	6.74339533376E-02	3.02553692244E-04	6.78094860589E-02	2.79265868202E-01	6.27875456305E-02
1.74750000000E+09	7.92748039974E-02	-1.84118242393E-01	3.16277980840E-04	6.74144385453E-02	1.67239939442E-03	6.77680930984E-02	2.79297783593E-01	5.71268816660E-02
1.74800000000E+09	7.80145400442E-02	-1.86638568893E-01	1.67364924570E-03	6.73796374086E-02	3.04948606554E-03	6.77026973944E-02	2.79120670980E-01	5.13993523897E-02
1.74850000000E+09	7.66244868112E-02	-1.89074311168E-01	3.03857366207E-03	6.73137264728E-02	4.42642931839E-03	6.76068064193E-02	2.78777429941E-01	4.57138210830E-02
1.74900000000E+09	7.51564286343E-02	-1.91470391322E-01	4.41642805524E-03	6.72107369792E-02	5.81356073511E-03	6.74828688511E-02	2.78244158285E-01	4.00522407181E-02
1.74950000000E+09	7.35975627795E-02	-1.93806040194E-01	5.77417766402E-03	6.71051880474E-02	7.18809258874E-03	6.73354554912E-02	2.77573399288E-01	3.44061954960E-02
1.75000000000E+09	7.19094974426E-02	-1.96085628363E-01	7.14734926441E-03	6.69545583955E-02	8.55091705016E-03	6.71779650418E-02	2.76739058763E-01	2.87865891656E-02
1.75050000000E+09	7.01703126738E-02	-1.98297281312E-01	8.49011062160E-03	6.67710346824E-02	9.89779685256E-03	6.69583257511E-02	2.75687069536E-01	2.32268844768E-02
1.75100000000E+09	6.83442630887E-02	-2.00430384691E-01	9.83686268646E-03	6.65943974524E-02	1.12446016049E-02	6.67367279471E-02	2.74469876251E-01	1.76517042773E-02
1.75150000000E+09	6.64090823100E-02	-2.02478207439E-01	1.11932548041E-02	6.63569210558E-02	1.26122017056E-02	6.64763521054E-02	2.73123456896E-01	1.21706435240E-02
1.75200000000E+09	6.44095526652E-02	-2.04424695304E-01	1.25258161932E-02	6.61103612015E-02	1.39494095851E-02	6.62065004203E-02	2.71610553312E-01	6.69709054155E-03
1.75250000000E+09	6.23039123909E-02	-2.06326318593E-01	1.38626793628E-02	6.58355609522E-02	1.52674958136E-02	6.58930380767E-02	2.69873025037E-01	1.33532622614E-03
1.75300000000E+09	6.01370605350E-02	-2.08118119096E-01	1.51917760448E-02	6.55387788577E-02	1.66041398325E-02	6.55763901907E-02	2.67983786232E-01	-4.02115206005E-03
1.75350000000E+09	5.79108224543E-02	-2.09807915031E-01	1.65163447533E-02	6.51926867599E-02	1.79189493342E-02	6.52276168217E-02	2.65964383333E-01	-9.30553238262E-03
1.75400000000E+09	5.55670935014E-02	-2.11394104154E-01	1.78196530504E-02	6.48444958727E-02	1.92285168254E-02	6.48354763649E-02	2.63736121651E-01	-1.44959832539E-02
1.75450000000E+09	5.31952200036E-02	-2.12865106833E-01	1.91198113526E-02	6.44656470822E-02	2.05400634246E-02	6.44356091853E-02	2.61382525693E-01	-1.96609846707E-02
1.75500000000E+09	5.07173201798E-02	-2.14247211716E-01	2.04159955961E-02	6.40594899004E-02	2.18245846191E-02	6.40205530775E-02	2.58906486242E-01	-2.47032060347E-02
1.75550000000E+09	4.82356375710E-02	-2.15511895831E-01	2.16994691718E-02	6.36402090246E-02	2.31251296115E-02	6.35455198665E-02	2.56195255259E-01	-2.96745237202E-02
1.75600000000E+09	4.56830329184E-02	-2.16679208603E-01	2.29790611809E-02	6.32042484501E-02	2.43755805961E-02	6.30703869258E-02	2.53374000651E-01	-3.45421790019E-02
1.75650000000E+09	4.30493562506E-02	-2.17682553718E-01	2.42463287463E-02	6.27164258980E-02	2.56524170845E-02	6.25793229867E-02	2.50424147965E-01	-3.93166567071E-02
1.75700000000E+09	4.03883501602E-02	-2.18583671370E-01	2.54943230026E-02	6.22204517287E-02	2.69070412412E-02	6.20628358429E-02	2.47302985608E-01	-4.39910304601E-02
1.75750000000E+09	3.77157870545E-02	-2.19374516826E-01	2.67404161302E-02	6.17211752237E-02	2.81551092653E-02	6.15182062291E-02	2.43998500482E-01	-4.85503073707E-02
1.75800000000E+09	3.49881854152E-02	-2.20005852678E-01	2.79811622723E-02	6.11701353307E-02	2.93833882093E-02	6.09371913647E-02	2.40565468071E-01	-5.30379494063E-02
1.75850000000E+09	3.22242850163E-02	-2.20546730062E-01	2.92069014410E-02	6.06020529309E-02	3.06114761171E-02	6.03633585646E-02	2.37035661863E-01	-5.73985277412E-02
