# Hz S RI R 50
! CMT, CMT808U, 21440046, 21.4.3/4
! Date: 11/20/2025 11:25:47 PM
! Data: Format (Calibration Info)
! Freq	S11:Re/Im(F2)	S41:Re/Im(F2)	S14:Re/Im(F2)	S44:Re/Im(F2)
1.70000000000E+09	-7.44069410404E-02	-1.19023748333E-01	-5.99028384613E-02	-4.98029151383E-02	-6.13547012938E-02	-4.88259097109E-02	4.09936411445E-02	1.15106519569E-01
1.70050000000E+09	-7.42094428150E-02	-1.16238437151E-01	-6.09903554392E-02	-4.85342220672E-02	-6.24223866848E-02	-4.75536366246E-02	4.26386087061E-02	1.17185280194E-01
1.70100000000E+09	-7.38458072633E-02	-1.13431884229E-01	-6.20563163892E-02	-4.72476841765E-02	-6.34665328930E-02	-4.62405650234E-02	4.43404845116E-02	1.19200232880E-01
1.70150000000E+09	-7.33143955323E-02	-1.10624726490E-01	-6.30871938085E-02	-4.59312318689E-02	-6.44595268655E-02	-4.48859389766E-02	4.61172434882E-02	1.21168246119E-01
1.70200000000E+09	-7.26022532346E-02	-1.07850260121E-01	-6.40856861942E-02	-4.45986648908E-02	-6.54340224928E-02	-4.35289538481E-02	4.79644953420E-02	1.23098500165E-01
1.70250000000E+09	-7.17268843971E-02	-1.05069849320E-01	-6.50707131557E-02	-4.32241680992E-02	-6.63951064113E-02	-4.21231445761E-02	4.98705477976E-02	1.24941346288E-01
1.70300000000E+09	-7.07085798102E-02	-1.02306320221E-01	-6.60182967457E-02	-4.18368833679E-02	-6.73275553837E-02	-4.07210576039E-02	5.17995809823E-02	1.26743101353E-01
1.70350000000E+09	-6.95314716521E-02	-9.96285206308E-02	-6.69355723301E-02	-4.04296346622E-02	-6.82392904144E-02	-3.92652006803E-02	5.38197997418E-02	1.28485006691E-01
1.70400000000E+09	-6.81775804611E-02	-9.69854373873E-02	-6.78186044767E-02	-3.89955239814E-02	-6.90870985616E-02	-3.78065902140E-02	5.58735051806E-02	1.30132325085E-01
1.70450000000E+09	-6.66933084553E-02	-9.43864167369E-02	-6.86760223420E-02	-3.75416071967E-02	-6.99162818362E-02	-3.63268542228E-02	5.80183429311E-02	1.31761393272E-01
1.70500000000E+09	-6.50766066829E-02	-9.18420481795E-02	-6.95066969044E-02	-3.60615629412E-02	-7.07142542960E-02	-3.48160140640E-02	6.01898151810E-02	1.33313110189E-01
1.70550000000E+09	-6.33119194111E-02	-8.93913691527E-02	-7.03042070178E-02	-3.45592104760E-02	-7.14893452051E-02	-3.32942373949E-02	6.24158431069E-02	1.34799049121E-01
1.70600000000E+09	-6.14496442619E-02	-8.70091096160E-02	-7.10560102857E-02	-3.30439750932E-02	-7.22060815076E-02	-3.17584557100E-02	6.46769919137E-02	1.36186082263E-01
1.70650000000E+09	-5.94333091914E-02	-8.47148752788E-02	-7.17896447653E-02	-3.14982771035E-02	-7.28914903984E-02	-3.01944236233E-02	6.69681580322E-02	1.37517614198E-01
1.70700000000E+09	-5.73100615399E-02	-8.24992487004E-02	-7.24537433289E-02	-2.99334350685E-02	-7.35526864210E-02	-2.85984956531E-02	6.93372837180E-02	1.38790402834E-01
1.70750000000E+09	-5.50623976775E-02	-8.03841296534E-02	-7.31147475473E-02	-2.83860403644E-02	-7.41765990579E-02	-2.70176131127E-02	7.17175066137E-02	1.39970070881E-01
1.70800000000E+09	-5.27251681583E-02	-7.83626540082E-02	-7.37286035716E-02	-2.67716412671E-02	-7.47619180151E-02	-2.53847645141E-02	7.41534297039E-02	1.41100471449E-01
1.70850000000E+09	-5.02687465361E-02	-7.64718005095E-02	-7.43061255457E-02	-2.51758201296E-02	-7.53184421312E-02	-2.37649482035E-02	7.66422453062E-02	1.42122214115E-01
1.70900000000E+09	-4.77297535803E-02	-7.46511304982E-02	-7.48512859564E-02	-2.35641069780E-02	-7.58159312270E-02	-2.21330676039E-02	7.91053492393E-02	1.43109401388E-01
1.70950000000E+09	-4.51433239100E-02	-7.29803866321E-02	-7.53481402205E-02	-2.19330728094E-02	-7.62885066210E-02	-2.04771770506E-02	8.16413479931E-02	1.43980680052E-01
1.71000000000E+09	-4.24452057875E-02	-7.14122954844E-02	-7.58174096228E-02	-2.02841039545E-02	-7.67325271206E-02	-1.88065929310E-02	8.42292485074E-02	1.44764321899E-01
1.71050000000E+09	-3.97002099528E-02	-6.99483794131E-02	-7.62272820232E-02	-1.86301229362E-02	-7.71231535671E-02	-1.71629638862E-02	8.67580659025E-02	1.45515460932E-01
1.71100000000E+09	-3.68838688890E-02	-6.86102134834E-02	-7.66453915466E-02	-1.69844770508E-02	-7.74720732356E-02	-1.54643498280E-02	8.93884714236E-02	1.46155513715E-01
1.71150000000E+09	-3.40265798388E-02	-6.73853194508E-02	-7.69839470968E-02	-1.52987425688E-02	-7.77861778898E-02	-1.37631766780E-02	9.20522335767E-02	1.46756876711E-01
1.71200000000E+09	-3.10998294761E-02	-6.62671083987E-02	-7.72877513398E-02	-1.36275342177E-02	-7.80773986967E-02	-1.20898190828E-02	9.46856592866E-02	1.47241340038E-01
1.71250000000E+09	-2.81511907145E-02	-6.53113077464E-02	-7.75740903790E-02	-1.19314775084E-02	-7.83151954832E-02	-1.03655357818E-02	9.73454898744E-02	1.47628751384E-01
1.71300000000E+09	-2.51859411378E-02	-6.44585158657E-02	-7.77974288727E-02	-1.02490471267E-02	-7.85059271785E-02	-8.66563890334E-03	1.00022068237E-01	1.47954071521E-01
1.71350000000E+09	-2.21464312157E-02	-6.37089157589E-02	-7.79942379343E-02	-8.56233403053E-03	-7.86479479747E-02	-6.96469628880E-03	1.02691244259E-01	1.48201263915E-01
1.71400000000E+09	-1.91053229885E-02	-6.30999949784E-02	-7.81518606878E-02	-6.85502692317E-03	-7.87749091221E-02	-5.27292068519E-03	1.05373562810E-01	1.48349998644E-01
1.71450000000E+09	-1.60623375724E-02	-6.25989778080E-02	-7.82570157664E-02	-5.15871515447E-03	-7.88661355168E-02	-3.53935591648E-03	1.08135181704E-01	1.48405351984E-01
1.71500000000E+09	-1.29959947597E-02	-6.21993260575E-02	-7.83412443241E-02	-3.46441349024E-03	-7.89003061503E-02	-1.82961557780E-03	1.10802627028E-01	1.48438516092E-01
1.71550000000E+09	-9.92089810172E-03	-6.19260136162E-02	-7.83766370400E-02	-1.75016003327E-03	-7.89086738756E-02	-1.15882723648E-04	1.13532476223E-01	1.48311193190E-01
1.71600000000E+09	-6.86737580238E-03	-6.17858467777E-02	-7.83710902115E-02	-5.57190846185E-05	-7.88778374306E-02	1.60749862624E-03	1.16226431616E-01	1.48158618937E-01
1.71650000000E+09	-3.77281206219E-03	-6.17463782618E-02	-7.83422311809E-02	1.65264972075E-03	-7.87828498802E-02	3.32600856772E-03	1.18942637325E-01	1.47929649025E-01
1.71700000000E+09	-7.21473231791E-04	-6.18084009559E-02	-7.82545029027E-02	3.32933017376E-03	-7.86830667991E-02	5.02417734633E-03	1.21628801048E-01	1.47589066312E-01
1.71750000000E+09	2.31121708435E-03	-6.19793820911E-02	-7.81405960751E-02	5.04353772723E-03	-7.85349579607E-02	6.73305672659E-03	1.24329517508E-01	1.47145397322E-01
1.71800000000E+09	5.36983621184E-03	-6.22839685376E-02	-7.79889311170E-02	6.72147058443E-03	-7.83264543308E-02	8.41650433682E-03	1.26986119264E-01	1.46626941119E-01
1.71850000000E+09	8.35691044674E-03	-6.26875544165E-02	-7.78039146874E-02	8.40507692918E-03	-7.81067648368E-02	1.01015869395E-02	1.29650246271E-01	1.46088876178E-01
1.71900000000E+09	1.13341994342E-02	-6.31861462057E-02	-7.75638896288E-02	1.00749189280E-02	-7.78467021004E-02	1.17877676386E-02	1.32327686443E-01	1.45400886064E-01
1.71950000000E+09	1.42892486189E-02	-6.37862949545E-02	-7.72788603079E-02	1.17483084457E-02	-7.75178694924E-02	1.34477767681E-02	1.34927615439E-01	1.44659732457E-01
1.72000000000E+09	1.72134549366E-02	-6.44901499437E-02	-7.69905324109E-02	1.34035856533E-02	-7.71869912406E-02	1.51344094512E-02	1.37540734707E-01	1.43850737695E-01
1.72050000000E+09	2.00895860741E-02	-6.52685122659E-02	-7.66442662888E-02	1.50579761141E-02	-7.68114535817E-02	1.67768863569E-02	1.40143060161E-01	1.42920427079E-01
1.72100000000E+09	2.29337416827E-02	-6.61744785564E-02	-7.62698539878E-02	1.66993946230E-02	-7.63901109145E-02	1.84305722938E-02	1.42728722504E-01	1.41941508710E-01
1.72150000000E+09	2.57528784290E-02	-6.71386377859E-02	-7.58535612710E-02	1.83339374808E-02	-7.59198218795E-02	2.00564258252E-02	1.45259142428E-01	1.40888354082E-01
1.72200000000E+09	2.85163588389E-02	-6.82079449631E-02	-7.53961178324E-02	1.99412746804E-02	-7.54460436753E-02	2.16757602908E-02	1.47787347095E-01	1.39752784505E-01
1.72250000000E+09	3.12293170160E-02	-6.93603883310E-02	-7.49365791302E-02	2.15531652706E-02	-7.49407116016E-02	2.32776007023E-02	1.50234287228E-01	1.38553962649E-01
1.72300000000E+09	3.38868637161E-02	-7.05959284159E-02	-7.44055489965E-02	2.31431061904E-02	-7.43543739325E-02	2.48751054559E-02	1.52661478007E-01	1.37258634975E-01
1.72350000000E+09	3.64892535781E-02	-7.19095902489E-02	-7.38508885743E-02	2.47150484674E-02	-7.37754703536E-02	2.64644373033E-02	1.55087942893E-01	1.35869993297E-01
1.72400000000E+09	3.90556360791E-02	-7.32900877094E-02	-7.32512826109E-02	2.62911276619E-02	-7.31396390272E-02	2.80225670779E-02	1.57444073363E-01	1.34495028287E-01
1.72450000000E+09	4.15510786805E-02	-7.47787353099E-02	-7.26378585593E-02	2.78273452189E-02	-7.24922727030E-02	2.95667911460E-02	1.59786604715E-01	1.32951373680E-01
1.72500000000E+09	4.40068786535E-02	-7.62958861541E-02	-7.19854617899E-02	2.93489219470E-02	-7.18012111889E-02	3.10916906473E-02	1.62058761395E-01	1.31372412831E-01
1.72550000000E+09	4.63914425486E-02	-7.79168556412E-02	-7.12928480217E-02	3.08828511830E-02	-7.10747840949E-02	3.25974443841E-02	1.64325241256E-01	1.29711041095E-01
1.72600000000E+09	4.87315952625E-02	-7.95938630015E-02	-7.05564499791E-02	3.23587594786E-02	-7.03012540741E-02	3.41044378479E-02	1.66492715438E-01	1.28008184949E-01
1.72650000000E+09	5.09857791335E-02	-8.13481982614E-02	-6.98206214488E-02	3.38588916428E-02	-6.95223157853E-02	3.55642900803E-02	1.68650033476E-01	1.26223635813E-01
1.72700000000E+09	5.31934278408E-02	-8.31588269906E-02	-6.90452559962E-02	3.53173137993E-02	-6.86990280785E-02	3.70264485902E-02	1.70742896948E-01	1.24345510768E-01
1.72750000000E+09	5.53296598033E-02	-8.50158257887E-02	-6.82346196890E-02	3.67536263422E-02	-6.78406776050E-02	3.84512139877E-02	1.72790073428E-01	1.22476619967E-01
1.72800000000E+09	5.74057937011E-02	-8.69353408308E-02	-6.73724716934E-02	3.81735425441E-02	-6.69487753815E-02	3.98579583488E-02	1.74787407920E-01	1.20483460607E-01
1.72850000000E+09	5.94025520240E-02	-8.89491901906E-02	-6.65214736052E-02	3.95700594874E-02	-6.60563731694E-02	4.12544270664E-02	1.76725779990E-01	1.18441318274E-01
1.72900000000E+09	6.13551843254E-02	-9.09612115652E-02	-6.56029446339E-02	4.09439548044E-02	-6.51187739441E-02	4.26234406957E-02	1.78613797528E-01	1.16348589089E-01
1.72950000000E+09	6.32250452439E-02	-9.30376123829E-02	-6.46727480770E-02	4.23001760259E-02	-6.41499573826E-02	4.39759745321E-02	1.80435578098E-01	1.14221573439E-01
1.73000000000E+09	6.50364677437E-02	-9.52097889498E-02	-6.37262117387E-02	4.36593100622E-02	-6.31583870860E-02	4.52937436753E-02	1.82174742973E-01	1.11984699344E-01
1.73050000000E+09	6.67808123652E-02	-9.73649288568E-02	-6.27394046032E-02	4.49538119916E-02	-6.21342221625E-02	4.65952390056E-02	1.83885767429E-01	1.09757398662E-01
1.73100000000E+09	6.84337890090E-02	-9.96239502519E-02	-6.17365333220E-02	4.62572611944E-02	-6.11069334164E-02	4.78502306175E-02	1.85526255099E-01	1.07428900275E-01
1.73150000000E+09	7.00274044793E-02	-1.01900318524E-01	-6.06807031031E-02	4.75197669357E-02	-6.00229375033E-02	4.90947446208E-02	1.87078039168E-01	1.05054220603E-01
1.73200000000E+09	7.15700236075E-02	-1.04211236704E-01	-5.96394215030E-02	4.87737670275E-02	-5.89245638056E-02	5.03320641738E-02	1.88579098701E-01	1.02653804467E-01
1.73250000000E+09	7.30158127745E-02	-1.06566289710E-01	-5.85519179749E-02	4.99768633793E-02	-5.78042514285E-02	5.15350202407E-02	1.90011224231E-01	1.00186165702E-01
1.73300000000E+09	7.43520257592E-02	-1.08971249198E-01	-5.74322091327E-02	5.11644150582E-02	-5.66547869682E-02	5.26952563391E-02	1.91366910572E-01	9.77036112945E-02
1.73350000000E+09	7.56635226313E-02	-1.11410188376E-01	-5.62932346126E-02	5.23233623729E-02	-5.54996908289E-02	5.38451745416E-02	1.92657412951E-01	9.51859364807E-02
1.73400000000E+09	7.68740435518E-02	-1.13902313632E-01	-5.51429976097E-02	5.34593661726E-02	-5.43134661754E-02	5.49564621707E-02	1.93890535522E-01	9.25696486721E-02
1.73450000000E+09	7.79977831095E-02	-1.16407487993E-01	-5.39654099798E-02	5.45695950005E-02	-5.30849409803E-02	5.60452013135E-02	1.95038896969E-01	8.99427475221E-02
1.73500000000E+09	7.90560580384E-02	-1.18967777161E-01	-5.27649234495E-02	5.56596841275E-02	-5.18613514499E-02	5.71218844805E-02	1.96097055439E-01	8.72850105458E-02
1.73550000000E+09	8.00311088323E-02	-1.21521063788E-01	-5.15286718051E-02	5.67001036507E-02	-5.06143645735E-02	5.81520179248E-02	1.97093700039E-01	8.45940113777E-02
1.73600000000E+09	8.09005488005E-02	-1.24105232075E-01	-5.03058845856E-02	5.77392405327E-02	-4.93337706264E-02	5.91578169408E-02	1.98016865921E-01	8.19129354694E-02
1.73650000000E+09	8.17085021250E-02	-1.26716833833E-01	-4.90354127340E-02	5.87228457132E-02	-4.80590738391E-02	6.01405260077E-02	1.98837248386E-01	7.91612951041E-02
1.73700000000E+09	8.24296380413E-02	-1.29365198590E-01	-4.77576202490E-02	5.97056399701E-02	-4.67431688785E-02	6.10819654105E-02	1.99598195920E-01	7.63706321308E-02
1.73750000000E+09	8.30529404988E-02	-1.32011264239E-01	-4.64730627738E-02	6.06547301708E-02	-4.54282905868E-02	6.20075740013E-02	2.00297872865E-01	7.35997372068E-02
1.73800000000E+09	8.35901078120E-02	-1.34701522059E-01	-4.51462436289E-02	6.15653902848E-02	-4.40857138124E-02	6.28887419647E-02	2.00875454475E-01	7.07468272452E-02
1.73850000000E+09	8.40650515431E-02	-1.37386903827E-01	-4.38291817032E-02	6.24534705648E-02	-4.27394283374E-02	6.37597538396E-02	2.01428542186E-01	6.79566920576E-02
1.73900000000E+09	8.44298575207E-02	-1.40095279589E-01	-4.24841966032E-02	6.33127235055E-02	-4.13620335820E-02	6.45914036261E-02	2.01848647937E-01	6.50471184631E-02
1.73950000000E+09	8.47327438486E-02	-1.42785512430E-01	-4.11079521923E-02	6.41276375627E-02	-3.99677235483E-02	6.53855229542E-02	2.02216074113E-01	6.21941371911E-02
1.74000000000E+09	8.49138808174E-02	-1.45540822524E-01	-3.97355918355E-02	6.49242997400E-02	-3.85584210519E-02	6.61492945541E-02	2.02476401432E-01	5.93039493176E-02
1.74050000000E+09	8.50061269331E-02	-1.48243131017E-01	-3.83452266692E-02	6.56884275129E-02	-3.71388951778E-02	6.68993411177E-02	2.02694833285E-01	5.64073026729E-02
1.74100000000E+09	8.50009230088E-02	-1.50993168823E-01	-3.69434468304E-02	6.64323339650E-02	-3.57122840860E-02	6.76027347095E-02	2.02770459965E-01	5.35005941174E-02
1.74150000000E+09	8.49171931962E-02	-1.53715008108E-01	-3.55164258224E-02	6.71300974641E-02	-3.42866363281E-02	6.82754995221E-02	2.02797995738E-01	5.06193272880E-02
1.74200000000E+09	8.47484579194E-02	-1.56430098103E-01	-3.40834320072E-02	6.78020946435E-02	-3.28279473031E-02	6.89191276853E-02	2.02737692430E-01	4.76983933872E-02
1.74250000000E+09	8.44349845082E-02	-1.59135495615E-01	-3.26467669438E-02	6.84511546093E-02	-3.13630388301E-02	6.95249779209E-02	2.02593963978E-01	4.47831899834E-02
1.74300000000E+09	8.40981517487E-02	-1.61849231945E-01	-3.11977744603E-02	6.90529406957E-02	-2.98861836812E-02	7.01176998303E-02	2.02367813630E-01	4.18634597303E-02
1.74350000000E+09	8.35938110245E-02	-1.64533228099E-01	-2.97393296774E-02	6.96377269347E-02	-2.84104763286E-02	7.06737643631E-02	2.02057112683E-01	3.89839666138E-02
1.74400000000E+09	8.30359963258E-02	-1.67180624738E-01	-2.82610309241E-02	7.01748269242E-02	-2.69329387079E-02	7.11810101101E-02	2.01648247740E-01	3.60851955608E-02
1.74450000000E+09	8.24016835578E-02	-1.69854448046E-01	-2.67961928658E-02	7.07235097328E-02	-2.54305136460E-02	7.16757642935E-02	2.01180844176E-01	3.31917902802E-02
1.74500000000E+09	8.16260693274E-02	-1.72454950051E-01	-2.53084022982E-02	7.11903100444E-02	-2.39248516347E-02	7.21221278364E-02	2.00626825959E-01	3.03611820893E-02
1.74550000000E+09	8.07735467670E-02	-1.75032550294E-01	-2.38202546228E-02	7.16447432905E-02	-2.24401924936E-02	7.25592366476E-02	1.99977932648E-01	2.75191499509E-02
1.74600000000E+09	7.98434223469E-02	-1.77603151096E-01	-2.23280740817E-02	7.20892603675E-02	-2.09124208562E-02	7.29540418820E-02	1.99255492695E-01	2.46541127263E-02
1.74650000000E+09	7.87793410578E-02	-1.80113934061E-01	-2.08150508542E-02	7.24692826211E-02	-1.93901211878E-02	7.33122619942E-02	1.98417660544E-01	2.18590362395E-02
1.74700000000E+09	7.76398997284E-02	-1.82605064413E-01	-1.93080456767E-02	7.28178385709E-02	-1.78689470347E-02	7.36393425126E-02	1.97503492149E-01	1.90628333874E-02
1.74750000000E+09	7.64167850623E-02	-1.85022293141E-01	-1.78086296807E-02	7.31475990749E-02	-1.63309406206E-02	7.39517175420E-02	1.96559037387E-01	1.63166171815E-02
1.74800000000E+09	7.51018887851E-02	-1.87421946258E-01	-1.62860896788E-02	7.34505022398E-02	-1.48090085058E-02	7.42013382020E-02	1.95481159989E-01	1.35652556362E-02
1.74850000000E+09	7.36709332275E-02	-1.89728313563E-01	-1.47639670625E-02	7.37193703075E-02	-1.32832337157E-02	7.44457175004E-02	1.94345159354E-01	1.08500013859E-02
1.74900000000E+09	7.21515221244E-02	-1.92017284508E-01	-1.32443839880E-02	7.39548783183E-02	-1.17282206812E-02	7.46387933884E-02	1.93110128807E-01	8.18683006576E-03
1.74950000000E+09	7.05703473363E-02	-1.94202795820E-01	-1.17293377206E-02	7.41565740997E-02	-1.02072544649E-02	7.48255263033E-02	1.91840149171E-01	5.54199447448E-03
1.75000000000E+09	6.88612869863E-02	-1.96346595038E-01	-1.02062588751E-02	7.43408181386E-02	-8.67588272012E-03	7.49699408031E-02	1.90439439296E-01	2.95656782218E-03
1.75050000000E+09	6.71088081221E-02	-1.98428939036E-01	-8.68294726520E-03	7.44901389112E-02	-7.14993789898E-03	7.50829452586E-02	1.88988691294E-01	4.17542534605E-04
1.75100000000E+09	6.52631207926E-02	-2.00441445211E-01	-7.15942569500E-03	7.45881577792E-02	-5.58934990117E-03	7.51776090363E-02	1.87488636079E-01	-2.11589877401E-03
1.75150000000E+09	6.33172874962E-02	-2.02364978342E-01	-5.65226233592E-03	7.46811354584E-02	-4.07643199795E-03	7.52371501303E-02	1.85889480244E-01	-4.54626115912E-03
1.75200000000E+09	6.12825055891E-02	-2.04186151049E-01	-4.11919458100E-03	7.47365118022E-02	-2.54761566341E-03	7.52614089308E-02	1.84215379684E-01	-6.99215863552E-03
1.75250000000E+09	5.91942141934E-02	-2.05954572689E-01	-2.60265727614E-03	7.47662004530E-02	-1.01102470786E-03	7.52415508612E-02	1.82478668470E-01	-9.33643140237E-03
1.75300000000E+09	5.70330608012E-02	-2.07593562715E-01	-1.08103844176E-03	7.47806552489E-02	5.09151043968E-04	7.52247831647E-02	1.80647897603E-01	-1.16261854117E-02
1.75350000000E+09	5.47947170875E-02	-2.09169249691E-01	4.14368236795E-04	7.47251195650E-02	2.02349257441E-03	7.51637136987E-02	1.78764737996E-01	-1.38986752891E-02
1.75400000000E+09	5.24759012990E-02	-2.10632223522E-01	1.93629588799E-03	7.46617766306E-02	3.53937249854E-03	7.50700533398E-02	1.76785084558E-01	-1.60779062124E-02
1.75450000000E+09	5.01191228481E-02	-2.11976798472E-01	3.44715876236E-03	7.45805322733E-02	5.05887641916E-03	7.49330398817E-02	1.74780847608E-01	-1.82238004176E-02
1.75500000000E+09	4.76911896913E-02	-2.13246165984E-01	4.94845783562E-03	7.44666778893E-02	6.56108021636E-03	7.47978645360E-02	1.72736383350E-01	-2.03076771808E-02
1.75550000000E+09	4.52138524075E-02	-2.14359616149E-01	6.45025385401E-03	7.43165192503E-02	8.06915626269E-03	7.46243443998E-02	1.70555574943E-01	-2.23246765264E-02
1.75600000000E+09	4.27102920944E-02	-2.15402639543E-01	7.92637405668E-03	7.41322897985E-02	9.55854133580E-03	7.44148196664E-02	1.68356105267E-01	-2.42461892076E-02
1.75650000000E+09	4.01054325595E-02	-2.16280684190E-01	9.41573516375E-03	7.39507709201E-02	1.10566197350E-02	7.41830507551E-02	1.66108726060E-01	-2.61273060008E-02
1.75700000000E+09	3.74921210115E-02	-2.17058157153E-01	1.08941493197E-02	7.37100121385E-02	1.25217501828E-02	7.39179039594E-02	1.63792868078E-01	-2.79114724430E-02
1.75750000000E+09	3.48536333657E-02	-2.17705767868E-01	1.23643453967E-02	7.34559737421E-02	1.40017289429E-02	7.36268683618E-02	1.61439401125E-01	-2.96284983620E-02
1.75800000000E+09	3.21758529087E-02	-2.18227921240E-01	1.38358712887E-02	7.31828933134E-02	1.54671595595E-02	7.33171128852E-02	1.59002997892E-01	-3.12802170848E-02
1.75850000000E+09	2.94898442869E-02	-2.18630939796E-01	1.52856241975E-02	7.28733121832E-02	1.69372575931E-02	7.29930802518E-02	1.56546354782E-01	-3.28601989862E-02
