# Hz S RI R 50
! CMT, CMT808U, 21440046, 21.4.3/4
! Date: 11/20/2025 11:30:20 PM
! Data: Format (Calibration Info)
! Freq	S11:Re/Im(F2)	S41:Re/Im(F2)	S14:Re/Im(F2)	S44:Re/Im(F2)
1.70000000000E+09	-7.42878850676E-02	-1.19811414086E-01	-5.76261782087E-02	-4.22119428544E-02	-5.86053998988E-02	-4.14918741728E-02	-9.59973034661E-02	3.43852872361E-02
1.70050000000E+09	-7.41193991381E-02	-1.17077070950E-01	-5.85322413743E-02	-4.10538739885E-02	-5.95291302785E-02	-4.03096532605E-02	-9.64695701596E-02	3.98209863628E-02
1.70100000000E+09	-7.37869048107E-02	-1.14330341495E-01	-5.94395015411E-02	-3.98577134911E-02	-6.04032563410E-02	-3.90960920566E-02	-9.67577433870E-02	4.52466551521E-02
1.70150000000E+09	-7.32897708034E-02	-1.11557216066E-01	-6.03239212980E-02	-3.86398629995E-02	-6.12696883323E-02	-3.78701228419E-02	-9.68576438923E-02	5.06661832063E-02
1.70200000000E+09	-7.26138162729E-02	-1.08829972297E-01	-6.11902165937E-02	-3.74200149025E-02	-6.21052359700E-02	-3.66024641221E-02	-9.67937909692E-02	5.61149312943E-02
1.70250000000E+09	-7.17832518696E-02	-1.06108202067E-01	-6.20249611257E-02	-3.61607916461E-02	-6.29274272041E-02	-3.53381036287E-02	-9.65241974375E-02	6.15362142125E-02
1.70300000000E+09	-7.07720013687E-02	-1.03387354642E-01	-6.28403037504E-02	-3.48759484026E-02	-6.37475673754E-02	-3.40295723074E-02	-9.60843226813E-02	6.69230044929E-02
1.70350000000E+09	-6.96529953588E-02	-1.00726236336E-01	-6.36441990845E-02	-3.35731594690E-02	-6.45094986795E-02	-3.27077957547E-02	-9.55218936754E-02	7.22982870863E-02
1.70400000000E+09	-6.83409987723E-02	-9.81275650331E-02	-6.44007035998E-02	-3.22581494951E-02	-6.52761485157E-02	-3.13591884118E-02	-9.47297582620E-02	7.76375306450E-02
1.70450000000E+09	-6.69220420182E-02	-9.55544962599E-02	-6.51404556830E-02	-3.08983018374E-02	-6.59923790585E-02	-2.99977767186E-02	-9.37880636533E-02	8.29723316630E-02
1.70500000000E+09	-6.53321205272E-02	-9.30447030162E-02	-6.58598487110E-02	-2.95335273506E-02	-6.66863692299E-02	-2.85995435199E-02	-9.26462956402E-02	8.82586486943E-02
1.70550000000E+09	-6.36384128312E-02	-9.06252220878E-02	-6.65216392983E-02	-2.81387767710E-02	-6.73599607948E-02	-2.71860768308E-02	-9.13756858127E-02	9.34834722495E-02
1.70600000000E+09	-6.18282365437E-02	-8.82634427020E-02	-6.71953568242E-02	-2.67356536862E-02	-6.79921378087E-02	-2.57634671777E-02	-8.98945503396E-02	9.86472574367E-02
1.70650000000E+09	-5.98702660520E-02	-8.59708458654E-02	-6.78311801969E-02	-2.53022000026E-02	-6.85829670216E-02	-2.43118862823E-02	-8.82603761104E-02	1.03783096907E-01
1.70700000000E+09	-5.78204092660E-02	-8.37788298044E-02	-6.84152739338E-02	-2.38354313306E-02	-6.91637753738E-02	-2.28408958813E-02	-8.64602598896E-02	1.08851056126E-01
1.70750000000E+09	-5.56143760359E-02	-8.16760089189E-02	-6.89792533434E-02	-2.23785458467E-02	-6.97198643140E-02	-2.13669717799E-02	-8.45325314077E-02	1.13837061977E-01
1.70800000000E+09	-5.33174419886E-02	-7.96596393142E-02	-6.95068272832E-02	-2.08974504521E-02	-7.02164385291E-02	-1.98508743706E-02	-8.24113337344E-02	1.18782138928E-01
1.70850000000E+09	-5.09382821535E-02	-7.77709972612E-02	-7.00108128187E-02	-1.93992003289E-02	-7.06942170703E-02	-1.83500831927E-02	-8.01209621259E-02	1.23606133239E-01
1.70900000000E+09	-4.84797448490E-02	-7.59609289706E-02	-7.04662504753E-02	-1.78879950344E-02	-7.11205331219E-02	-1.68214505887E-02	-7.77216506689E-02	1.28374156724E-01
1.70950000000E+09	-4.59275121344E-02	-7.42751966732E-02	-7.09007441340E-02	-1.63439469018E-02	-7.15275791407E-02	-1.52749766002E-02	-7.51506358146E-02	1.33053256895E-01
1.71000000000E+09	-4.33111170659E-02	-7.26985660866E-02	-7.12897353759E-02	-1.48109958445E-02	-7.19094970610E-02	-1.37156166627E-02	-7.24161491172E-02	1.37636417249E-01
1.71050000000E+09	-4.06197274976E-02	-7.12318017502E-02	-7.16467781853E-02	-1.32412802987E-02	-7.22322607512E-02	-1.21376042488E-02	-6.95896631768E-02	1.42138126855E-01
1.71100000000E+09	-3.78576475497E-02	-6.98453324191E-02	-7.19674842709E-02	-1.16836096647E-02	-7.25342542504E-02	-1.05537060521E-02	-6.65852296789E-02	1.46554387731E-01
1.71150000000E+09	-3.50496974705E-02	-6.86094767328E-02	-7.22376733487E-02	-1.00984735625E-02	-7.27767532969E-02	-8.98542155822E-03	-6.34309509868E-02	1.50842971031E-01
1.71200000000E+09	-3.21846120398E-02	-6.74733979666E-02	-7.24879974516E-02	-8.52514893850E-03	-7.30147552510E-02	-7.36403177903E-03	-6.01658762037E-02	1.55001802956E-01
1.71250000000E+09	-2.92813558995E-02	-6.64850649183E-02	-7.26945563225E-02	-6.92699052169E-03	-7.31780709423E-02	-5.77359236023E-03	-5.67564559011E-02	1.59079323015E-01
1.71300000000E+09	-2.63456057011E-02	-6.55909000620E-02	-7.28590469754E-02	-5.31756483817E-03	-7.33485002245E-02	-4.15618021198E-03	-5.32425565603E-02	1.63037362085E-01
1.71350000000E+09	-2.33799181883E-02	-6.48073130767E-02	-7.29786159780E-02	-3.71671653533E-03	-7.34313718315E-02	-2.52622310522E-03	-4.95991187218E-02	1.66875584531E-01
1.71400000000E+09	-2.03714391133E-02	-6.41563911088E-02	-7.30879550014E-02	-2.09842584194E-03	-7.34937482084E-02	-9.17814872446E-04	-4.58653550825E-02	1.70579687086E-01
1.71450000000E+09	-1.73602080104E-02	-6.36092803585E-02	-7.31312920114E-02	-4.88384539334E-04	-7.35248792381E-02	7.20374539648E-04	-4.19622254732E-02	1.74169149503E-01
1.71500000000E+09	-1.43380335384E-02	-6.31644839294E-02	-7.31472290441E-02	1.12875926439E-03	-7.34877337169E-02	2.34711346668E-03	-3.79914872134E-02	1.77631082118E-01
1.71550000000E+09	-1.12881121864E-02	-6.28500607208E-02	-7.31312828159E-02	2.73457413756E-03	-7.34558921781E-02	3.96441246800E-03	-3.38799232609E-02	1.80930040200E-01
1.71600000000E+09	-8.25594827791E-03	-6.26488659059E-02	-7.30594403587E-02	4.35717641711E-03	-7.33568673051E-02	5.58773710147E-03	-2.96944066709E-02	1.84147165450E-01
1.71650000000E+09	-5.20659824838E-03	-6.25587669868E-02	-7.29525934448E-02	5.96402121847E-03	-7.32264523150E-02	7.22147313771E-03	-2.54202479984E-02	1.87202411249E-01
1.71700000000E+09	-2.17817183455E-03	-6.25589507307E-02	-7.27990694542E-02	7.57962929417E-03	-7.30532348875E-02	8.82666861930E-03	-2.10504018416E-02	1.90107468071E-01
1.71750000000E+09	8.58934000189E-04	-6.26801153881E-02	-7.26228438423E-02	9.19768531678E-03	-7.28341573308E-02	1.04674736000E-02	-1.65724073389E-02	1.92871272583E-01
1.71800000000E+09	3.88191358691E-03	-6.29162961548E-02	-7.23912029038E-02	1.07923347861E-02	-7.25872572444E-02	1.20471476605E-02	-1.20543164418E-02	1.95499730876E-01
1.71850000000E+09	6.87212761188E-03	-6.32667260710E-02	-7.21293473925E-02	1.24000241178E-02	-7.22970105978E-02	1.36584235722E-02	-7.42755995693E-03	1.97974451791E-01
1.71900000000E+09	9.84371558814E-03	-6.37064766525E-02	-7.18490197215E-02	1.39869616973E-02	-7.19666119582E-02	1.52579352004E-02	-2.70861336376E-03	2.00295190988E-01
1.71950000000E+09	1.28145103110E-02	-6.42353880667E-02	-7.14954089574E-02	1.55645856623E-02	-7.16003703326E-02	1.68417366622E-02	2.01562917438E-03	2.02477930341E-01
1.72000000000E+09	1.57151340569E-02	-6.48864032125E-02	-7.11262187771E-02	1.71416676857E-02	-7.11947524524E-02	1.84151450867E-02	6.81861361742E-03	2.04478859136E-01
1.72050000000E+09	1.86067103818E-02	-6.55946764647E-02	-7.07077695462E-02	1.86836610683E-02	-7.07574555874E-02	1.99713681756E-02	1.16934350189E-02	2.06324096662E-01
1.72100000000E+09	2.14625554116E-02	-6.64413910861E-02	-7.02622686844E-02	2.02450543794E-02	-7.02873603456E-02	2.15299573364E-02	1.66366460121E-02	2.08067458232E-01
1.72150000000E+09	2.42833133700E-02	-6.73402944901E-02	-6.97909082934E-02	2.17831737554E-02	-6.97673777409E-02	2.30617043898E-02	2.16400417871E-02	2.09614245479E-01
1.72200000000E+09	2.70578180587E-02	-6.83379006059E-02	-6.92612772384E-02	2.33154986607E-02	-6.92293885226E-02	2.45819573922E-02	2.66614346603E-02	2.11033334500E-01
1.72250000000E+09	2.97939397785E-02	-6.94328840530E-02	-6.86939543158E-02	2.48297737697E-02	-6.86363053609E-02	2.60896536299E-02	3.17118620111E-02	2.12245730380E-01
1.72300000000E+09	3.24887865333E-02	-7.06119299547E-02	-6.81118499868E-02	2.63001186719E-02	-6.80161948153E-02	2.75891844911E-02	3.67737219365E-02	2.13316876426E-01
1.72350000000E+09	3.51175996127E-02	-7.18559299793E-02	-6.74819031349E-02	2.78004564101E-02	-6.73605621883E-02	2.90512687822E-02	4.18895706997E-02	2.14215414110E-01
1.72400000000E+09	3.77002008735E-02	-7.31953426049E-02	-6.68361769898E-02	2.92510034433E-02	-6.66659644804E-02	3.05081217311E-02	4.70423552652E-02	2.15001950396E-01
1.72450000000E+09	4.02522796588E-02	-7.46190258263E-02	-6.61339876086E-02	3.07014968464E-02	-6.59535138142E-02	3.19628364370E-02	5.22387145902E-02	2.15579889451E-01
1.72500000000E+09	4.27451846409E-02	-7.60822902163E-02	-6.54184341241E-02	3.21162959137E-02	-6.51926481513E-02	3.33792655559E-02	5.73540141622E-02	2.15968863993E-01
1.72550000000E+09	4.51600866832E-02	-7.76372230079E-02	-6.46360023336E-02	3.35417686714E-02	-6.43993606730E-02	3.47828063601E-02	6.25753277555E-02	2.16252618590E-01
1.72600000000E+09	4.75608866359E-02	-7.92648553601E-02	-6.38654504217E-02	3.49201701848E-02	-6.35954363225E-02	3.61692289590E-02	6.77310233742E-02	2.16343252035E-01
1.72650000000E+09	4.98660494457E-02	-8.09589081808E-02	-6.30458054859E-02	3.62739019686E-02	-6.27351532368E-02	3.75228569726E-02	7.29309497326E-02	2.16260176754E-01
1.72700000000E+09	5.21248719822E-02	-8.27262153072E-02	-6.22143194180E-02	3.76193494108E-02	-6.18708104220E-02	3.88455542918E-02	7.80993152890E-02	2.16025373117E-01
1.72750000000E+09	5.43178270945E-02	-8.45477540278E-02	-6.13227432740E-02	3.89469577545E-02	-6.09716269174E-02	4.01638955636E-02	8.32688796509E-02	2.15684719200E-01
1.72800000000E+09	5.64731739690E-02	-8.64210826860E-02	-6.04154202784E-02	4.02466016047E-02	-6.00199092165E-02	4.14616053626E-02	8.84224609833E-02	2.15123148171E-01
1.72850000000E+09	5.85244825017E-02	-8.83741356878E-02	-5.94947094978E-02	4.15204809021E-02	-5.90640998894E-02	4.27212195906E-02	9.35440594944E-02	2.14393168562E-01
1.72900000000E+09	6.05477892379E-02	-9.03775411126E-02	-5.85088196625E-02	4.27749845425E-02	-5.80854549686E-02	4.39722864603E-02	9.86473942429E-02	2.13541131877E-01
1.72950000000E+09	6.24839488403E-02	-9.24214764276E-02	-5.75406426241E-02	4.39853733668E-02	-5.70700111457E-02	4.51803244772E-02	1.03724263950E-01	2.12537534473E-01
1.73000000000E+09	6.43615400539E-02	-9.45511610614E-02	-5.65140803743E-02	4.51955597958E-02	-5.60158597468E-02	4.63654852355E-02	1.08737441537E-01	2.11335476533E-01
1.73050000000E+09	6.61704962824E-02	-9.66837819835E-02	-5.54690996128E-02	4.63540657713E-02	-5.49491719048E-02	4.75233188687E-02	1.13742956144E-01	2.10003814843E-01
1.73100000000E+09	6.78945221623E-02	-9.89083069248E-02	-5.44338652761E-02	4.75061657177E-02	-5.38798269208E-02	4.86499079754E-02	1.18703092709E-01	2.08508165514E-01
1.73150000000E+09	6.95709279814E-02	-1.01172096087E-01	-5.33345553113E-02	4.86381875978E-02	-5.27615999573E-02	4.97673437440E-02	1.23600670842E-01	2.06870015225E-01
1.73200000000E+09	7.11793394717E-02	-1.03487066768E-01	-5.22118747583E-02	4.97309262187E-02	-5.16112166788E-02	5.08541898115E-02	1.28434345964E-01	2.05057690575E-01
1.73250000000E+09	7.27019192679E-02	-1.05836901083E-01	-5.11100596233E-02	5.07944916006E-02	-5.04802600963E-02	5.18976477914E-02	1.33229243488E-01	2.03113538395E-01
1.73300000000E+09	7.41304368321E-02	-1.08219444947E-01	-4.99540100872E-02	5.18418066524E-02	-4.92926622003E-02	5.29284393683E-02	1.37946115078E-01	2.01053682629E-01
1.73350000000E+09	7.55034438505E-02	-1.10678554191E-01	-4.87753806246E-02	5.28604727754E-02	-4.80989171140E-02	5.39153512460E-02	1.42611192831E-01	1.98816751355E-01
1.73400000000E+09	7.67873164748E-02	-1.13141499753E-01	-4.75733082165E-02	5.38265649976E-02	-4.68968848033E-02	5.48901655984E-02	1.47204960927E-01	1.96409155662E-01
1.73450000000E+09	7.80076724245E-02	-1.15656431740E-01	-4.63751404144E-02	5.47956803295E-02	-4.56459636310E-02	5.58266664592E-02	1.51735582217E-01	1.93910501826E-01
1.73500000000E+09	7.91084073854E-02	-1.18206855394E-01	-4.51447764264E-02	5.57130095253E-02	-4.44099167097E-02	5.67212008082E-02	1.56132246282E-01	1.91238545667E-01
1.73550000000E+09	8.01759888005E-02	-1.20784927349E-01	-4.38898848205E-02	5.66127807435E-02	-4.31312936151E-02	5.75893498304E-02	1.60511146931E-01	1.88438478170E-01
1.73600000000E+09	8.11199588048E-02	-1.23383296577E-01	-4.26378751690E-02	5.74752160874E-02	-4.18565913948E-02	5.84388924344E-02	1.64739691348E-01	1.85534199934E-01
1.73650000000E+09	8.20086447694E-02	-1.26017198068E-01	-4.13658218620E-02	5.83116504138E-02	-4.05774002891E-02	5.92628725542E-02	1.68908320133E-01	1.82472543942E-01
1.73700000000E+09	8.27918008797E-02	-1.28680634684E-01	-4.00693219749E-02	5.91219177131E-02	-3.92458727718E-02	6.00370529404E-02	1.72988516383E-01	1.79287771188E-01
1.73750000000E+09	8.35007471416E-02	-1.31349524454E-01	-3.87525999142E-02	5.98904710706E-02	-3.79253395134E-02	6.08026263027E-02	1.76980962335E-01	1.75989942879E-01
1.73800000000E+09	8.40977941980E-02	-1.34042953858E-01	-3.74367207040E-02	6.06254574035E-02	-3.65839499520E-02	6.15237278855E-02	1.80832985483E-01	1.72531254290E-01
1.73850000000E+09	8.46469445483E-02	-1.36784648074E-01	-3.61042416513E-02	6.13452759924E-02	-3.52547835723E-02	6.22290531028E-02	1.84597328824E-01	1.69000652728E-01
1.73900000000E+09	8.50700989144E-02	-1.39507602348E-01	-3.47669460152E-02	6.20134733458E-02	-3.38778795207E-02	6.28909400310E-02	1.88256004079E-01	1.65346086904E-01
1.73950000000E+09	8.54438770132E-02	-1.42257990475E-01	-3.34173057758E-02	6.26823583516E-02	-3.25201134894E-02	6.35235450011E-02	1.91784369677E-01	1.61571879290E-01
1.74000000000E+09	8.56993246895E-02	-1.45041855062E-01	-3.20654787490E-02	6.32916983623E-02	-3.11308456801E-02	6.41315508961E-02	1.95219766123E-01	1.57693507005E-01
1.74050000000E+09	8.58334135196E-02	-1.47797625154E-01	-3.06759601535E-02	6.38884778764E-02	-2.97399264675E-02	6.46917664114E-02	1.98512096661E-01	1.53703844718E-01
1.74100000000E+09	8.59080204288E-02	-1.50576570159E-01	-2.93037164095E-02	6.44585991293E-02	-2.83433229055E-02	6.52222505479E-02	2.01683191540E-01	1.49604853199E-01
1.74150000000E+09	8.58625737941E-02	-1.53322532079E-01	-2.79023979452E-02	6.49750294882E-02	-2.69455743962E-02	6.57180856036E-02	2.04737183499E-01	1.45415184293E-01
1.74200000000E+09	8.57487180580E-02	-1.56107025647E-01	-2.65181057166E-02	6.54766461267E-02	-2.55468013196E-02	6.62079283433E-02	2.07663543432E-01	1.41158190427E-01
1.74250000000E+09	8.54855172945E-02	-1.58876338366E-01	-2.51318591096E-02	6.59279666494E-02	-2.41222771488E-02	6.66640783497E-02	2.10468658529E-01	1.36779878876E-01
1.74300000000E+09	8.51902793277E-02	-1.61635952266E-01	-2.37026705602E-02	6.63759495371E-02	-2.26984081958E-02	6.70698706898E-02	2.13096812719E-01	1.32308878045E-01
1.74350000000E+09	8.47561441666E-02	-1.64373323877E-01	-2.22858260873E-02	6.67807757227E-02	-2.12807207385E-02	6.74445429925E-02	2.15633546434E-01	1.27790853924E-01
1.74400000000E+09	8.42349051654E-02	-1.67081122691E-01	-2.08649270715E-02	6.71675964695E-02	-1.98534420149E-02	6.77879327941E-02	2.17994950848E-01	1.23147438442E-01
1.74450000000E+09	8.36148376842E-02	-1.69797997946E-01	-1.94444285461E-02	6.74974969879E-02	-1.84202098361E-02	6.81274433499E-02	2.20267118148E-01	1.18463676984E-01
1.74500000000E+09	8.28783753622E-02	-1.72441430166E-01	-1.80235966297E-02	6.78243083675E-02	-1.69901341085E-02	6.84167366191E-02	2.22396208218E-01	1.13734737772E-01
1.74550000000E+09	8.20560639509E-02	-1.75102745193E-01	-1.66019445063E-02	6.80933126521E-02	-1.55422798523E-02	6.86875761072E-02	2.24297840989E-01	1.08911700192E-01
1.74600000000E+09	8.11564966260E-02	-1.77731286742E-01	-1.51729380403E-02	6.83464578057E-02	-1.40949019791E-02	6.89109327008E-02	2.26105749017E-01	1.04014529570E-01
1.74650000000E+09	8.01251790824E-02	-1.80305591365E-01	-1.37481257625E-02	6.85918207147E-02	-1.26650930048E-02	6.91069058025E-02	2.27737677768E-01	9.90908458159E-02
1.74700000000E+09	7.89925043931E-02	-1.82845020459E-01	-1.23106912019E-02	6.87647437911E-02	-1.12424206147E-02	6.92918796888E-02	2.29217138259E-01	9.40919144585E-02
1.74750000000E+09	7.77887170820E-02	-1.85342691073E-01	-1.08947470314E-02	6.89285219658E-02	-9.80104388614E-03	6.94327375947E-02	2.30574225463E-01	8.90670730430E-02
1.74800000000E+09	7.64769981551E-02	-1.87788582077E-01	-9.45027086904E-03	6.90717746199E-02	-8.36739832489E-03	6.95368192037E-02	2.31741240297E-01	8.40101803894E-02
1.74850000000E+09	7.50733806341E-02	-1.90164570128E-01	-8.03786292299E-03	6.91848196364E-02	-6.93261367672E-03	6.96195068381E-02	2.32766437498E-01	7.88906656847E-02
1.74900000000E+09	7.35562961610E-02	-1.92499006399E-01	-6.61289301896E-03	6.92616395442E-02	-5.49150590776E-03	6.96815304902E-02	2.33654968193E-01	7.37377609315E-02
1.74950000000E+09	7.19624763319E-02	-1.94767531704E-01	-5.18192815675E-03	6.93007542601E-02	-4.07047845532E-03	6.97056485396E-02	2.34369632644E-01	6.85845328427E-02
1.75000000000E+09	7.02689346955E-02	-1.96954547322E-01	-3.77036902743E-03	6.93275955201E-02	-2.64383260604E-03	6.97061191224E-02	2.34920687412E-01	6.33625862541E-02
1.75050000000E+09	6.84916725928E-02	-1.99084634917E-01	-2.35088748278E-03	6.93271539240E-02	-1.21871133793E-03	6.96820368982E-02	2.35324796761E-01	5.81884886578E-02
1.75100000000E+09	6.66666862799E-02	-2.01160781989E-01	-9.49363530705E-04	6.92839333676E-02	1.90275398994E-04	6.96094872987E-02	2.35562321224E-01	5.29482087555E-02
1.75150000000E+09	6.46899776145E-02	-2.03142893257E-01	4.52241394244E-04	6.92248571755E-02	1.59382903098E-03	6.95272712828E-02	2.35601978329E-01	4.77522125594E-02
1.75200000000E+09	6.26558416434E-02	-2.05020374125E-01	1.87088469804E-03	6.91311948775E-02	3.01052000110E-03	6.94161826456E-02	2.35527240061E-01	4.24713629971E-02
1.75250000000E+09	6.05496237727E-02	-2.06832878206E-01	3.25272289882E-03	6.89961795978E-02	4.39535956524E-03	6.92807743546E-02	2.35259615270E-01	3.72814424594E-02
1.75300000000E+09	5.83723146958E-02	-2.08512092552E-01	4.63552253240E-03	6.88700894476E-02	5.79520167753E-03	6.91055660919E-02	2.34821973447E-01	3.20741872636E-02
1.75350000000E+09	5.61165433201E-02	-2.10163969259E-01	6.01828944567E-03	6.87144784455E-02	7.18422300032E-03	6.89177574572E-02	2.34241032951E-01	2.68388539218E-02
1.75400000000E+09	5.37589075685E-02	-2.11654027575E-01	7.39670200690E-03	6.84845114788E-02	8.56462790989E-03	6.86997373821E-02	2.33474282383E-01	2.16748564022E-02
1.75450000000E+09	5.13716573509E-02	-2.13050086780E-01	8.75472759708E-03	6.82824661591E-02	9.91287886072E-03	6.84607133342E-02	2.32568824355E-01	1.65077356844E-02
1.75500000000E+09	4.89011387964E-02	-2.14336884840E-01	1.01099110328E-02	6.80484473455E-02	1.12868830846E-02	6.81827600704E-02	2.31502133325E-01	1.13609047408E-02
1.75550000000E+09	4.63913075500E-02	-2.15495817966E-01	1.14535717666E-02	6.77639641183E-02	1.26392929563E-02	6.78882335263E-02	2.30239068386E-01	6.26375030395E-03
1.75600000000E+09	4.38475447556E-02	-2.16568462235E-01	1.27937298003E-02	6.74710062874E-02	1.39738613062E-02	6.75924454787E-02	2.28852389455E-01	1.20814940812E-03
1.75650000000E+09	4.12362309379E-02	-2.17490649603E-01	1.41394632810E-02	6.71349307367E-02	1.53123450955E-02	6.72357133469E-02	2.27327090330E-01	-3.82422928892E-03
1.75700000000E+09	3.85786025452E-02	-2.18290858148E-01	1.54549433187E-02	6.67989433652E-02	1.66199229595E-02	6.68624569831E-02	2.25583805160E-01	-8.78408038697E-03
1.75750000000E+09	3.58870322743E-02	-2.18974359983E-01	1.67611042254E-02	6.64496115696E-02	1.79447559847E-02	6.64874524709E-02	2.23707488040E-01	-1.36915007681E-02
1.75800000000E+09	3.31813920759E-02	-2.19517550531E-01	1.80720923612E-02	6.60495332471E-02	1.92245739298E-02	6.60695483807E-02	2.21677733652E-01	-1.85523088525E-02
1.75850000000E+09	3.04285489299E-02	-2.19929115014E-01	1.93620655728E-02	6.56399847984E-02	2.05329697415E-02	6.56372395596E-02	2.19514732574E-01	-2.33429479501E-02
