# Hz S RI R 50
! CMT, CMT808U, 21440046, 21.4.3/4
! Date: 11/20/2025 11:39:44 PM
! Data: Format (Calibration Info)
! Freq	S11:Re/Im(F2)	S41:Re/Im(F2)	S14:Re/Im(F2)	S44:Re/Im(F2)
1.70000000000E+09	-7.43031463480E-02	-1.19029353789E-01	-5.45552891670E-02	-3.86636341487E-02	-5.50942261565E-02	-3.83079630638E-02	-1.15652564761E-01	3.63391380185E-02
1.70050000000E+09	-7.41235623643E-02	-1.16240636777E-01	-5.53702208647E-02	-3.75137633091E-02	-5.59115498046E-02	-3.71487548994E-02	-1.15486284543E-01	4.20172825112E-02
1.70100000000E+09	-7.37757863518E-02	-1.13435204941E-01	-5.61810986134E-02	-3.63569121350E-02	-5.66844518221E-02	-3.59755677797E-02	-1.15136575904E-01	4.76452765512E-02
1.70150000000E+09	-7.32874587675E-02	-1.10626621527E-01	-5.69421819301E-02	-3.51527472392E-02	-5.74460512029E-02	-3.47667664860E-02	-1.14606239146E-01	5.32649594507E-02
1.70200000000E+09	-7.25975598161E-02	-1.07864387386E-01	-5.77031884427E-02	-3.39537733731E-02	-5.81905488157E-02	-3.35628812687E-02	-1.13874818188E-01	5.88785914022E-02
1.70250000000E+09	-7.17567315425E-02	-1.05069380596E-01	-5.84156913093E-02	-3.27346233515E-02	-5.89220576204E-02	-3.23207824838E-02	-1.12948528890E-01	6.44545212260E-02
1.70300000000E+09	-7.07415534036E-02	-1.02305666483E-01	-5.91284217454E-02	-3.14903880537E-02	-5.96189332707E-02	-3.10805490714E-02	-1.11889311704E-01	6.99872204712E-02
1.70350000000E+09	-6.95972178577E-02	-9.95903796206E-02	-5.97959136756E-02	-3.02324429109E-02	-6.02877700962E-02	-2.98082552482E-02	-1.10622258435E-01	7.54624843371E-02
1.70400000000E+09	-6.82682175856E-02	-9.69442815718E-02	-6.04582171264E-02	-2.89641903162E-02	-6.09365719912E-02	-2.85166959810E-02	-1.09176756010E-01	8.08888180586E-02
1.70450000000E+09	-6.67898258006E-02	-9.43216513505E-02	-6.10834662110E-02	-2.76793832775E-02	-6.15466665548E-02	-2.72227633476E-02	-1.07546357542E-01	8.62707436949E-02
1.70500000000E+09	-6.52096729726E-02	-9.17661197289E-02	-6.16908513190E-02	-2.63830670765E-02	-6.21236394097E-02	-2.59153925300E-02	-1.05756284982E-01	9.16123292381E-02
1.70550000000E+09	-6.34751595021E-02	-8.93023177821E-02	-6.22485083586E-02	-2.50626436192E-02	-6.26803531380E-02	-2.45824489100E-02	-1.03791801844E-01	9.68512375215E-02
1.70600000000E+09	-6.16105209152E-02	-8.68762264922E-02	-6.27873382735E-02	-2.37234146589E-02	-6.32224878865E-02	-2.32455028398E-02	-1.01644378232E-01	1.02034254899E-01
1.70650000000E+09	-5.96002632638E-02	-8.45606712550E-02	-6.32996534264E-02	-2.23788752787E-02	-6.37295904871E-02	-2.18891483661E-02	-9.93307365788E-02	1.07134995174E-01
1.70700000000E+09	-5.75075778150E-02	-8.23234859567E-02	-6.37831935965E-02	-2.10138436883E-02	-6.41953210971E-02	-2.05231168031E-02	-9.68456085729E-02	1.12160971119E-01
1.70750000000E+09	-5.52665295756E-02	-8.01623516093E-02	-6.42353601904E-02	-1.96483603894E-02	-6.46333349372E-02	-1.91430760459E-02	-9.42315291172E-02	1.17075118780E-01
1.70800000000E+09	-5.29107120669E-02	-7.81127977099E-02	-6.46545057801E-02	-1.82555396756E-02	-6.50508747048E-02	-1.77459664704E-02	-9.14411115298E-02	1.21920396405E-01
1.70850000000E+09	-5.04699952094E-02	-7.61751593710E-02	-6.50371204185E-02	-1.68741083736E-02	-6.54277319500E-02	-1.63368699809E-02	-8.84851346132E-02	1.26663251762E-01
1.70900000000E+09	-4.79560186250E-02	-7.43357726416E-02	-6.54008993968E-02	-1.54524772512E-02	-6.57725565630E-02	-1.49359600790E-02	-8.54260022902E-02	1.31294972638E-01
1.70950000000E+09	-4.53326751954E-02	-7.26128357049E-02	-6.57494834960E-02	-1.40579141204E-02	-6.60944938189E-02	-1.35128179449E-02	-8.21822040872E-02	1.35827340161E-01
1.71000000000E+09	-4.26407231159E-02	-7.10014003130E-02	-6.60421810770E-02	-1.26212420743E-02	-6.63631794357E-02	-1.20813609438E-02	-7.87757268726E-02	1.40234291669E-01
1.71050000000E+09	-3.98781315557E-02	-6.94908645608E-02	-6.63011074940E-02	-1.12037000344E-02	-6.66374920852E-02	-1.06600490024E-02	-7.52903279173E-02	1.44549642621E-01
1.71100000000E+09	-3.70493853425E-02	-6.80977338992E-02	-6.65220378160E-02	-9.77447505877E-03	-6.68372908167E-02	-9.19235403644E-03	-7.16156852113E-02	1.48693271162E-01
1.71150000000E+09	-3.41559098899E-02	-6.68385261228E-02	-6.67357224876E-02	-8.32842239351E-03	-6.70346165613E-02	-7.76076981194E-03	-6.78326268764E-02	1.52791972796E-01
1.71200000000E+09	-3.12091454375E-02	-6.56797365512E-02	-6.68916446817E-02	-6.90685584744E-03	-6.72020525677E-02	-6.32172298299E-03	-6.39633687218E-02	1.56705763333E-01
1.71250000000E+09	-2.82231248596E-02	-6.46871338487E-02	-6.70277295826E-02	-5.43517942043E-03	-6.73111120466E-02	-4.86479010710E-03	-5.98878115282E-02	1.60490747431E-01
1.71300000000E+09	-2.51901754961E-02	-6.37749072903E-02	-6.71284908490E-02	-4.00324241246E-03	-6.73923334810E-02	-3.41057062618E-03	-5.57675127625E-02	1.64150678820E-01
1.71350000000E+09	-2.21458396927E-02	-6.29930595040E-02	-6.72157092463E-02	-2.55485208960E-03	-6.74513991713E-02	-1.95160522996E-03	-5.15183104703E-02	1.67671481517E-01
1.71400000000E+09	-1.90442640791E-02	-6.23320587584E-02	-6.72343892584E-02	-1.09938170276E-03	-6.74725320885E-02	-5.00849259962E-04	-4.71590166834E-02	1.71043335681E-01
1.71450000000E+09	-1.59481641104E-02	-6.17765640001E-02	-6.72302457612E-02	3.52863678271E-04	-6.74654376280E-02	9.62821815964E-04	-4.26585227195E-02	1.74264051997E-01
1.71500000000E+09	-1.28085654299E-02	-6.13621522683E-02	-6.72063167253E-02	1.79813259033E-03	-6.74115506336E-02	2.40874207544E-03	-3.81279297579E-02	1.77345082878E-01
1.71550000000E+09	-9.68151157839E-03	-6.10547530865E-02	-6.71415651037E-02	3.26046533527E-03	-6.73367841220E-02	3.86095043420E-03	-3.34384209586E-02	1.80251662961E-01
1.71600000000E+09	-6.55926672994E-03	-6.08553779370E-02	-6.70569984916E-02	4.68854770100E-03	-6.72257499612E-02	5.31448943556E-03	-2.87220156085E-02	1.83043628176E-01
1.71650000000E+09	-3.39000458572E-03	-6.07956645851E-02	-6.69144459806E-02	6.12297861049E-03	-6.70883109787E-02	6.75463673906E-03	-2.38812024018E-02	1.85682295010E-01
1.71700000000E+09	-2.57356793244E-04	-6.08334939601E-02	-6.67468486981E-02	7.56106441434E-03	-6.69202700939E-02	8.18742627178E-03	-1.89851688471E-02	1.88113529083E-01
1.71750000000E+09	2.86740210923E-03	-6.09752040171E-02	-6.65540871854E-02	9.00560663044E-03	-6.67056032970E-02	9.64315912406E-03	-1.39984607559E-02	1.90430975999E-01
1.71800000000E+09	6.00940991439E-03	-6.12569783871E-02	-6.63361054069E-02	1.04134588286E-02	-6.64725700171E-02	1.10604500238E-02	-8.97005374782E-03	1.92538184930E-01
1.71850000000E+09	9.08737766102E-03	-6.16447903569E-02	-6.60846614396E-02	1.18349656302E-02	-6.61968815581E-02	1.24826388135E-02	-3.86144974487E-03	1.94539770181E-01
1.71900000000E+09	1.21542855702E-02	-6.21169908380E-02	-6.58014361309E-02	1.32356755297E-02	-6.58948047534E-02	1.39003121791E-02	1.34524172621E-03	1.96329045691E-01
1.71950000000E+09	1.52089788629E-02	-6.26829105229E-02	-6.54878025063E-02	1.46431112762E-02	-6.55662505576E-02	1.52972566106E-02	6.50926681377E-03	1.97948138735E-01
1.72000000000E+09	1.82298164995E-02	-6.34099876533E-02	-6.51411967150E-02	1.60424913296E-02	-6.52035199865E-02	1.66862342648E-02	1.17704926226E-02	1.99399960817E-01
1.72050000000E+09	2.12135340481E-02	-6.41879363968E-02	-6.47690417652E-02	1.74247204580E-02	-6.48131458153E-02	1.80810887636E-02	1.70667443193E-02	2.00700696429E-01
1.72100000000E+09	2.41575984347E-02	-6.50919860362E-02	-6.43601228208E-02	1.88094647762E-02	-6.43938909107E-02	1.94453597963E-02	2.23979399848E-02	2.01842940185E-01
1.72150000000E+09	2.70776408928E-02	-6.60696278574E-02	-6.39283604728E-02	2.01608748139E-02	-6.39560144338E-02	2.08037108948E-02	2.77783604404E-02	2.02797822430E-01
1.72200000000E+09	2.99461411344E-02	-6.71492098381E-02	-6.34636929789E-02	2.14938948695E-02	-6.34660275398E-02	2.21601774137E-02	3.31713112485E-02	2.03593510071E-01
1.72250000000E+09	3.27721993807E-02	-6.83090970740E-02	-6.29687363978E-02	2.28485290061E-02	-6.29611094849E-02	2.34955730117E-02	3.85690998654E-02	2.04197437596E-01
1.72300000000E+09	3.55558849221E-02	-6.95742998744E-02	-6.24641014831E-02	2.41719576964E-02	-6.24361941835E-02	2.48319795353E-02	4.39757814471E-02	2.04624448191E-01
1.72350000000E+09	3.82651168175E-02	-7.09104354310E-02	-6.19032553471E-02	2.54880480786E-02	-6.18764300814E-02	2.61405761010E-02	4.94053787158E-02	2.04890042925E-01
1.72400000000E+09	4.09367795346E-02	-7.23436643296E-02	-6.13483496548E-02	2.67931071634E-02	-6.12920462303E-02	2.74379735190E-02	5.48300606909E-02	2.04996793138E-01
1.72450000000E+09	4.35551710963E-02	-7.38583240567E-02	-6.07419546109E-02	2.80704863505E-02	-6.06975661880E-02	2.87275878817E-02	6.02810412410E-02	2.04924652841E-01
1.72500000000E+09	4.61194419017E-02	-7.54505796121E-02	-6.01247093603E-02	2.93418252050E-02	-6.00420359907E-02	2.99875677403E-02	6.56675547514E-02	2.04662984758E-01
1.72550000000E+09	4.86230020572E-02	-7.70928393715E-02	-5.94586638790E-02	3.06039990221E-02	-5.93619659625E-02	3.12568050655E-02	7.10956732523E-02	2.04246571332E-01
1.72600000000E+09	5.10817091345E-02	-7.88420592068E-02	-5.87912525637E-02	3.18539534471E-02	-5.86971845392E-02	3.24940345167E-02	7.64665085952E-02	2.03638404424E-01
1.72650000000E+09	5.34523971524E-02	-8.06318330411E-02	-5.80877581865E-02	3.30796163902E-02	-5.79756300055E-02	3.37188431062E-02	8.18380813307E-02	2.02886646666E-01
1.72700000000E+09	5.57916265537E-02	-8.25010309369E-02	-5.73794116823E-02	3.42804552650E-02	-5.72225855389E-02	3.49150456428E-02	8.71569488623E-02	2.01930814622E-01
1.72750000000E+09	5.80275372544E-02	-8.44494236302E-02	-5.66221886922E-02	3.54724330263E-02	-5.64638051801E-02	3.61174094298E-02	9.24663729315E-02	2.00826636093E-01
1.72800000000E+09	6.02150349240E-02	-8.64371558765E-02	-5.58490638617E-02	3.66679219198E-02	-5.56791527613E-02	3.72872574493E-02	9.76903778559E-02	1.99566430963E-01
1.72850000000E+09	6.23161702234E-02	-8.85330530577E-02	-5.50458951877E-02	3.78216587043E-02	-5.48733252980E-02	3.84438243981E-02	1.02902928013E-01	1.98127623694E-01
1.72900000000E+09	6.43573518940E-02	-9.06507397038E-02	-5.42310390282E-02	3.89727697091E-02	-5.40263812812E-02	3.95962078476E-02	1.08096127865E-01	1.96526358700E-01
1.72950000000E+09	6.63406331451E-02	-9.28204093445E-02	-5.33666273377E-02	4.01115220498E-02	-5.31717531384E-02	4.07246156687E-02	1.13212032993E-01	1.94810562302E-01
1.73000000000E+09	6.82482503280E-02	-9.50783925738E-02	-5.25247865900E-02	4.12053810438E-02	-5.22953870965E-02	4.18138474044E-02	1.18209986892E-01	1.92841448235E-01
1.73050000000E+09	7.00749738655E-02	-9.73489752139E-02	-5.16380606401E-02	4.23028198469E-02	-5.13958778487E-02	4.29168728064E-02	1.23234748748E-01	1.90774681692E-01
1.73100000000E+09	7.18242681895E-02	-9.96974135238E-02	-5.07329162069E-02	4.33778867663E-02	-5.04771490624E-02	4.39903310489E-02	1.28151677525E-01	1.88565046456E-01
1.73150000000E+09	7.35185580786E-02	-1.02088157951E-01	-4.98105182332E-02	4.44277299365E-02	-4.95388462755E-02	4.50318880598E-02	1.32983295226E-01	1.86172689812E-01
1.73200000000E+09	7.51267464520E-02	-1.04510136450E-01	-4.88187639906E-02	4.54751668077E-02	-4.85625511972E-02	4.60466075741E-02	1.37766186203E-01	1.83614704285E-01
1.73250000000E+09	7.66512776288E-02	-1.06986948792E-01	-4.78745858667E-02	4.64788662810E-02	-4.75753876759E-02	4.70619660141E-02	1.42416656027E-01	1.80949742953E-01
1.73300000000E+09	7.80765715840E-02	-1.09510974964E-01	-4.68769654246E-02	4.74796788901E-02	-4.65726430414E-02	4.80435779421E-02	1.47004240853E-01	1.78156636237E-01
1.73350000000E+09	7.94279813355E-02	-1.12089849540E-01	-4.58483797462E-02	4.84465684464E-02	-4.55538034856E-02	4.90111692695E-02	1.51488937714E-01	1.75177177536E-01
1.73400000000E+09	8.07156961245E-02	-1.14682407327E-01	-4.48326789585E-02	4.94121651431E-02	-4.45058746566E-02	4.99545646474E-02	1.55931544349E-01	1.72044238004E-01
1.73450000000E+09	8.19169798279E-02	-1.17320263595E-01	-4.37576631609E-02	5.03370476865E-02	-4.34167988609E-02	5.08964462269E-02	1.60262678307E-01	1.68815559454E-01
1.73500000000E+09	8.30040948373E-02	-1.20001688349E-01	-4.26797917248E-02	5.12373913926E-02	-4.23341096127E-02	5.17918342863E-02	1.64444248635E-01	1.65417107130E-01
1.73550000000E+09	8.40294938909E-02	-1.22686065878E-01	-4.15795370245E-02	5.21340581678E-02	-4.12443523031E-02	5.26660081472E-02	1.68541519939E-01	1.61912939724E-01
1.73600000000E+09	8.49568032084E-02	-1.25425634919E-01	-4.04821774268E-02	5.30015932301E-02	-4.01093224091E-02	5.35114108227E-02	1.72528258112E-01	1.58273426660E-01
1.73650000000E+09	8.57946843449E-02	-1.28165393753E-01	-3.93366994997E-02	5.38420564783E-02	-3.89423179234E-02	5.43660653187E-02	1.76386239849E-01	1.54529459487E-01
1.73700000000E+09	8.65530109507E-02	-1.30964951237E-01	-3.81898834694E-02	5.46414796116E-02	-3.77991638389E-02	5.51678882418E-02	1.80133916430E-01	1.50647740832E-01
1.73750000000E+09	8.71958618048E-02	-1.33740138154E-01	-3.70393344743E-02	5.54437105167E-02	-3.66248543620E-02	5.59447009682E-02	1.83770740963E-01	1.46669076157E-01
1.73800000000E+09	8.77763346383E-02	-1.36550747293E-01	-3.58533016159E-02	5.62017337064E-02	-3.54475055478E-02	5.67054357224E-02	1.87230579589E-01	1.42526883823E-01
1.73850000000E+09	8.82410770388E-02	-1.39376261027E-01	-3.46450787747E-02	5.69552816521E-02	-3.42278892339E-02	5.74464636235E-02	1.90646344990E-01	1.38335305018E-01
1.73900000000E+09	8.86322308297E-02	-1.42240269714E-01	-3.34364423690E-02	5.76765658210E-02	-3.29967875532E-02	5.81372747152E-02	1.93864632810E-01	1.34015167143E-01
1.73950000000E+09	8.89329335484E-02	-1.45062821638E-01	-3.21967327657E-02	5.83622371042E-02	-3.17629645490E-02	5.88222088928E-02	1.96990298975E-01	1.29596714462E-01
1.74000000000E+09	8.91223880292E-02	-1.47960417301E-01	-3.09562466104E-02	5.90207111037E-02	-3.05185496071E-02	5.94749475088E-02	1.99940226752E-01	1.25102672861E-01
1.74050000000E+09	8.92014738512E-02	-1.50799427619E-01	-2.96921182603E-02	5.96536817419E-02	-2.92306245727E-02	6.01177986315E-02	2.02735213891E-01	1.20476343435E-01
1.74100000000E+09	8.91924578310E-02	-1.53679023623E-01	-2.84095195570E-02	6.02774504876E-02	-2.79416148943E-02	6.06919327233E-02	2.05416148982E-01	1.15797489002E-01
1.74150000000E+09	8.90812842038E-02	-1.56532292050E-01	-2.71274970980E-02	6.08616342551E-02	-2.66633004036E-02	6.12928105861E-02	2.07961536841E-01	1.11010401145E-01
1.74200000000E+09	8.88851121457E-02	-1.59374867671E-01	-2.58299140120E-02	6.14148608979E-02	-2.53536702396E-02	6.18312507759E-02	2.10340244679E-01	1.06158922907E-01
1.74250000000E+09	8.85727726652E-02	-1.62225797895E-01	-2.45109537077E-02	6.19395959092E-02	-2.40186458456E-02	6.23358715679E-02	2.12591577307E-01	1.01203648122E-01
1.74300000000E+09	8.81848607989E-02	-1.65069979145E-01	-2.32071078931E-02	6.24378616507E-02	-2.27088158131E-02	6.28353206365E-02	2.14677094698E-01	9.61769342167E-02
1.74350000000E+09	8.76572115701E-02	-1.67876860138E-01	-2.18699168951E-02	6.29302559988E-02	-2.13659697407E-02	6.32944830125E-02	2.16594934139E-01	9.11407314783E-02
1.74400000000E+09	8.70568259499E-02	-1.70645456352E-01	-2.05181488669E-02	6.33534245764E-02	-2.00263865332E-02	6.37164310208E-02	2.18355598821E-01	8.60098002942E-02
1.74450000000E+09	8.63609780963E-02	-1.73447670492E-01	-1.91759532718E-02	6.37655564367E-02	-1.86436093081E-02	6.41138728047E-02	2.19960823394E-01	8.08246869418E-02
1.74500000000E+09	8.55204530496E-02	-1.76172197020E-01	-1.78133849026E-02	6.41411979286E-02	-1.72928459782E-02	6.44886860021E-02	2.21389178840E-01	7.56295554348E-02
1.74550000000E+09	8.46144675615E-02	-1.78876981323E-01	-1.64438729118E-02	6.44855258239E-02	-1.59140174329E-02	6.48340295978E-02	2.22687126042E-01	7.03583672717E-02
1.74600000000E+09	8.36193387095E-02	-1.81566146293E-01	-1.50656556714E-02	6.48179006767E-02	-1.45273326380E-02	6.51530096333E-02	2.23818780973E-01	6.50021889080E-02
1.74650000000E+09	8.24755027836E-02	-1.84205052321E-01	-1.36864994105E-02	6.51221072305E-02	-1.31443636430E-02	6.54161673132E-02	2.24730712051E-01	5.96653117563E-02
1.74700000000E+09	8.12720201103E-02	-1.86774852226E-01	-1.23011880511E-02	6.53742591460E-02	-1.17407367834E-02	6.56732911523E-02	2.25512137949E-01	5.42791427254E-02
1.74750000000E+09	7.99568656170E-02	-1.89303794186E-01	-1.09179272262E-02	6.56073769061E-02	-1.03628542683E-02	6.58890891758E-02	2.26148080882E-01	4.88677326954E-02
1.74800000000E+09	7.85680133605E-02	-1.91811246200E-01	-9.52158895282E-03	6.58022436287E-02	-8.96214038992E-03	6.60865141587E-02	2.26557133296E-01	4.34522383684E-02
1.74850000000E+09	7.70434521501E-02	-1.94199251389E-01	-8.11810165672E-03	6.59717218373E-02	-7.55010310120E-03	6.62506892083E-02	2.26842844943E-01	3.79925043808E-02
1.74900000000E+09	7.54528551862E-02	-1.96567643559E-01	-6.72913135612E-03	6.61159152099E-02	-6.14965860034E-03	6.63618075952E-02	2.26944958180E-01	3.25233796460E-02
1.74950000000E+09	7.37393275197E-02	-1.98844336229E-01	-5.32591054140E-03	6.62238155901E-02	-4.75629439126E-03	6.64672816523E-02	2.26866762061E-01	2.70747348010E-02
1.75000000000E+09	7.19468324684E-02	-2.01069531333E-01	-3.92474553682E-03	6.63000530945E-02	-3.34372730752E-03	6.65311976649E-02	2.26638592135E-01	2.16234871966E-02
1.75050000000E+09	7.00540089067E-02	-2.03216508804E-01	-2.51591686516E-03	6.63472995169E-02	-1.93369862576E-03	6.65714208647E-02	2.26221999655E-01	1.61542353999E-02
1.75100000000E+09	6.81179742384E-02	-2.05300923399E-01	-1.11003900733E-03	6.63761158722E-02	-5.23892863731E-04	6.65922568248E-02	2.25621928078E-01	1.07066588721E-02
1.75150000000E+09	6.60434872054E-02	-2.07301041266E-01	2.88605987805E-04	6.63560876540E-02	8.70127857143E-04	6.65574768763E-02	2.24889371041E-01	5.33661375745E-03
1.75200000000E+09	6.39064192842E-02	-2.09172360473E-01	1.68512025779E-03	6.63274270723E-02	2.27697228385E-03	6.64989315181E-02	2.23943717313E-01	-9.93858008939E-05
1.75250000000E+09	6.16942354095E-02	-2.10971552496E-01	3.08372677388E-03	6.62327744878E-02	3.68824610136E-03	6.64162050595E-02	2.22876337011E-01	-5.46299676982E-03
1.75300000000E+09	5.94387311853E-02	-2.12688885259E-01	4.46927536123E-03	6.61555025910E-02	5.06959295602E-03	6.63011284791E-02	2.21582159540E-01	-1.08057006048E-02
1.75350000000E+09	5.70897738533E-02	-2.14292148324E-01	5.85205637489E-03	6.60079865642E-02	6.46854758045E-03	6.61657789106E-02	2.20149112934E-01	-1.60839016950E-02
1.75400000000E+09	5.46174530989E-02	-2.15778112320E-01	7.24884851475E-03	6.58509271245E-02	7.86102657694E-03	6.59970687533E-02	2.18529684103E-01	-2.13555069260E-02
1.75450000000E+09	5.21323733628E-02	-2.17153072898E-01	8.62628455756E-03	6.56665627349E-02	9.24622207707E-03	6.57984333662E-02	2.16758759749E-01	-2.65760906010E-02
1.75500000000E+09	4.95741527054E-02	-2.18437349842E-01	1.00035066790E-02	6.54521347703E-02	1.06208454589E-02	6.55537044513E-02	2.14838988107E-01	-3.17322467560E-02
1.75550000000E+09	4.69809561492E-02	-2.19569217391E-01	1.13655252321E-02	6.52040942322E-02	1.19883340899E-02	6.52939619430E-02	2.12696871411E-01	-3.68248279037E-02
1.75600000000E+09	4.43013101050E-02	-2.20606766335E-01	1.27318519268E-02	6.49302216264E-02	1.33499543709E-02	6.50258950002E-02	2.10474887098E-01	-4.18486238488E-02
1.75650000000E+09	4.16221075362E-02	-2.21486029190E-01	1.40994711898E-02	6.46244253406E-02	1.46997235384E-02	6.47137162200E-02	2.08051639571E-01	-4.68173466039E-02
1.75700000000E+09	3.88698045822E-02	-2.22256682488E-01	1.54194504022E-02	6.42966547631E-02	1.60428047897E-02	6.43653013288E-02	2.05461504916E-01	-5.16727566465E-02
1.75750000000E+09	3.61037463711E-02	-2.22863439343E-01	1.67449625618E-02	6.39403714412E-02	1.73826409372E-02	6.39825783562E-02	2.02735318929E-01	-5.64836393846E-02
1.75800000000E+09	3.33210961377E-02	-2.23368638029E-01	1.80910724557E-02	6.35507514709E-02	1.87134888789E-02	6.36020859526E-02	1.99813739934E-01	-6.12205773747E-02
1.75850000000E+09	3.04901134989E-02	-2.23731641180E-01	1.93964530092E-02	6.31346358197E-02	2.00424463927E-02	6.31685067507E-02	1.96768739962E-01	-6.58210024383E-02
