# Hz S RI R 50
! CMT, CMT808U, 21440046, 21.4.3/4
! Date: 12/1/2025 10:43:35 AM
! Data: Format (Calibration Info)
! Freq	S11:Re/Im(F2)
1.70000000000E+09	-8.41358596406E-01	3.64257963312E-01
1.70050000000E+09	-8.40213668298E-01	3.66820486872E-01
1.70100000000E+09	-8.39093579444E-01	3.69481646557E-01
1.70150000000E+09	-8.37905655067E-01	3.72015528189E-01
1.70200000000E+09	-8.36803999732E-01	3.74550310047E-01
1.70250000000E+09	-8.35639160181E-01	3.77084331529E-01
1.70300000000E+09	-8.34454255304E-01	3.79768794923E-01
1.70350000000E+09	-8.33264355605E-01	3.82324762062E-01
1.70400000000E+09	-8.32108968364E-01	3.84825208733E-01
1.70450000000E+09	-8.31053280278E-01	3.87323814159E-01
1.70500000000E+09	-8.29801383483E-01	3.89976789215E-01
1.70550000000E+09	-8.28646172992E-01	3.92462565664E-01
1.70600000000E+09	-8.27462852023E-01	3.94950230689E-01
1.70650000000E+09	-8.26213336644E-01	3.97565327263E-01
1.70700000000E+09	-8.25014518484E-01	4.00059910696E-01
1.70750000000E+09	-8.23781962300E-01	4.02514734329E-01
1.70800000000E+09	-8.22586376114E-01	4.05005211560E-01
1.70850000000E+09	-8.21260529060E-01	4.07542538572E-01
1.70900000000E+09	-8.20089426405E-01	4.10011176932E-01
1.70950000000E+09	-8.18797709576E-01	4.12490741835E-01
1.71000000000E+09	-8.17611089317E-01	4.14900692232E-01
1.71050000000E+09	-8.16283019220E-01	4.17424044343E-01
1.71100000000E+09	-8.15029415475E-01	4.19952239650E-01
1.71150000000E+09	-8.13597874784E-01	4.22430594432E-01
1.71200000000E+09	-8.12459293946E-01	4.24804342247E-01
1.71250000000E+09	-8.11130225449E-01	4.27282447405E-01
1.71300000000E+09	-8.09801042144E-01	4.29722102004E-01
1.71350000000E+09	-8.08498155964E-01	4.32228000310E-01
1.71400000000E+09	-8.07226301575E-01	4.34545817572E-01
1.71450000000E+09	-8.05834489246E-01	4.36929431630E-01
1.71500000000E+09	-8.04630576237E-01	4.39283406836E-01
1.71550000000E+09	-8.03235244880E-01	4.41697800950E-01
1.71600000000E+09	-8.01936409240E-01	4.44071657889E-01
1.71650000000E+09	-8.00551404975E-01	4.46510305671E-01
1.71700000000E+09	-7.99175750270E-01	4.48848200524E-01
1.71750000000E+09	-7.97892026281E-01	4.51208947861E-01
1.71800000000E+09	-7.96518386136E-01	4.53490243141E-01
1.71850000000E+09	-7.95215702891E-01	4.55825367840E-01
1.71900000000E+09	-7.93740782468E-01	4.58188475258E-01
1.71950000000E+09	-7.92410754599E-01	4.60542047895E-01
1.72000000000E+09	-7.91098500915E-01	4.62869287190E-01
1.72050000000E+09	-7.89697245621E-01	4.65086603150E-01
1.72100000000E+09	-7.88330465338E-01	4.67449031813E-01
1.72150000000E+09	-7.86941060950E-01	4.69769984812E-01
1.72200000000E+09	-7.85561916330E-01	4.72030507367E-01
1.72250000000E+09	-7.84133854678E-01	4.74297834951E-01
1.72300000000E+09	-7.82747247885E-01	4.76621604728E-01
1.72350000000E+09	-7.81371747490E-01	4.78858866173E-01
1.72400000000E+09	-7.79965459168E-01	4.81104019478E-01
1.72450000000E+09	-7.78632801555E-01	4.83412161974E-01
1.72500000000E+09	-7.77164837184E-01	4.85663274083E-01
1.72550000000E+09	-7.75766422114E-01	4.87907894601E-01
1.72600000000E+09	-7.74292584712E-01	4.90106035556E-01
1.72650000000E+09	-7.72853853741E-01	4.92427480903E-01
1.72700000000E+09	-7.71431911599E-01	4.94572848287E-01
1.72750000000E+09	-7.69931961923E-01	4.96870467194E-01
1.72800000000E+09	-7.68454970671E-01	4.99026890055E-01
1.72850000000E+09	-7.67037836689E-01	5.01216384424E-01
1.72900000000E+09	-7.65678144690E-01	5.03356845083E-01
1.72950000000E+09	-7.64086792392E-01	5.05552114464E-01
1.73000000000E+09	-7.62605327817E-01	5.07741471972E-01
1.73050000000E+09	-7.61217888114E-01	5.09812647759E-01
1.73100000000E+09	-7.59704244598E-01	5.12006954789E-01
1.73150000000E+09	-7.58196651482E-01	5.14172960445E-01
1.73200000000E+09	-7.56716348324E-01	5.16317907501E-01
1.73250000000E+09	-7.55262735236E-01	5.18378595803E-01
1.73300000000E+09	-7.53790607516E-01	5.20524526908E-01
1.73350000000E+09	-7.52247282223E-01	5.22601118351E-01
1.73400000000E+09	-7.50840334402E-01	5.24668180759E-01
1.73450000000E+09	-7.49294216870E-01	5.26784253536E-01
1.73500000000E+09	-7.47807718265E-01	5.28898879510E-01
1.73550000000E+09	-7.46369645903E-01	5.31003981955E-01
1.73600000000E+09	-7.44737638403E-01	5.33000672139E-01
1.73650000000E+09	-7.43302523041E-01	5.35161204374E-01
1.73700000000E+09	-7.41826826589E-01	5.37251267928E-01
1.73750000000E+09	-7.40321598912E-01	5.39202322755E-01
1.73800000000E+09	-7.38784727730E-01	5.41258491291E-01
1.73850000000E+09	-7.37252026885E-01	5.43306066044E-01
1.73900000000E+09	-7.35757386143E-01	5.45303383521E-01
1.73950000000E+09	-7.34232020716E-01	5.47341868100E-01
1.74000000000E+09	-7.32764369174E-01	5.49396844742E-01
1.74050000000E+09	-7.31155431518E-01	5.51349327131E-01
1.74100000000E+09	-7.29601560185E-01	5.53417072432E-01
1.74150000000E+09	-7.27999323127E-01	5.55355746151E-01
1.74200000000E+09	-7.26545125674E-01	5.57319430856E-01
1.74250000000E+09	-7.24991107967E-01	5.59266582892E-01
1.74300000000E+09	-7.23413249372E-01	5.61217039908E-01
1.74350000000E+09	-7.21921712950E-01	5.63211033834E-01
1.74400000000E+09	-7.20387863475E-01	5.65167491451E-01
1.74450000000E+09	-7.18912666745E-01	5.67103957437E-01
1.74500000000E+09	-7.17285363482E-01	5.69073515325E-01
1.74550000000E+09	-7.15735433230E-01	5.70988203991E-01
1.74600000000E+09	-7.14224409099E-01	5.72899722760E-01
1.74650000000E+09	-7.12677447268E-01	5.74859827367E-01
1.74700000000E+09	-7.11036582258E-01	5.76759344902E-01
1.74750000000E+09	-7.09536185500E-01	5.78597851376E-01
1.74800000000E+09	-7.08023039148E-01	5.80643866900E-01
1.74850000000E+09	-7.06439257296E-01	5.82466159086E-01
1.74900000000E+09	-7.04908762382E-01	5.84354415452E-01
1.74950000000E+09	-7.03241263805E-01	5.86230206558E-01
1.75000000000E+09	-7.01801741527E-01	5.88108686105E-01
1.75050000000E+09	-7.00250251636E-01	5.89988968245E-01
1.75100000000E+09	-6.98615507091E-01	5.92002467706E-01
1.75150000000E+09	-6.97025173138E-01	5.93753868766E-01
1.75200000000E+09	-6.95436239988E-01	5.95690969055E-01
1.75250000000E+09	-6.93905358927E-01	5.97546229775E-01
1.75300000000E+09	-6.92269880397E-01	5.99425388200E-01
1.75350000000E+09	-6.90667920289E-01	6.01288769541E-01
1.75400000000E+09	-6.89098231985E-01	6.03059270497E-01
1.75450000000E+09	-6.87504435423E-01	6.04909977765E-01
1.75500000000E+09	-6.85896893231E-01	6.06804708147E-01
1.75550000000E+09	-6.84231721517E-01	6.08591141145E-01
1.75600000000E+09	-6.82694037188E-01	6.10352098534E-01
1.75650000000E+09	-6.81068541276E-01	6.12191842634E-01
1.75700000000E+09	-6.79436345821E-01	6.14014646555E-01
1.75750000000E+09	-6.77846801164E-01	6.15757611553E-01
1.75800000000E+09	-6.76157378271E-01	6.17601551923E-01
1.75850000000E+09	-6.74602426282E-01	6.19446663610E-01
1.75900000000E+09	-6.72988659960E-01	6.21132889395E-01
1.75950000000E+09	-6.71322617954E-01	6.23054364521E-01
1.76000000000E+09	-6.69688853239E-01	6.24759115530E-01
1.76050000000E+09	-6.68090357817E-01	6.26539648336E-01
1.76100000000E+09	-6.66429005038E-01	6.28306451932E-01
1.76150000000E+09	-6.64844908964E-01	6.30090594949E-01
1.76200000000E+09	-6.63083214209E-01	6.31828591638E-01
1.76250000000E+09	-6.61517544752E-01	6.33567024890E-01
1.76300000000E+09	-6.59783934257E-01	6.35313543388E-01
1.76350000000E+09	-6.58230837060E-01	6.37143003484E-01
1.76400000000E+09	-6.56551853571E-01	6.38871525911E-01
1.76450000000E+09	-6.54836542368E-01	6.40596849211E-01
1.76500000000E+09	-6.53132852776E-01	6.42315130555E-01
1.76550000000E+09	-6.51524811247E-01	6.44063861961E-01
1.76600000000E+09	-6.49799893485E-01	6.45777589147E-01
1.76650000000E+09	-6.48069343982E-01	6.47563230618E-01
1.76700000000E+09	-6.46433902431E-01	6.49229545973E-01
1.76750000000E+09	-6.44736935721E-01	6.50941973330E-01
1.76800000000E+09	-6.43034129285E-01	6.52701878391E-01
1.76850000000E+09	-6.41286510096E-01	6.54405195963E-01
1.76900000000E+09	-6.39690559573E-01	6.56086782167E-01
1.76950000000E+09	-6.37921527770E-01	6.57821939978E-01
1.77000000000E+09	-6.36225313872E-01	6.59455225717E-01
1.77050000000E+09	-6.34475619444E-01	6.61207747097E-01
1.77100000000E+09	-6.32765604457E-01	6.62915757811E-01
1.77150000000E+09	-6.31029355630E-01	6.64587321648E-01
1.77200000000E+09	-6.29350864895E-01	6.66336416695E-01
1.77250000000E+09	-6.27557093647E-01	6.67932022499E-01
1.77300000000E+09	-6.25815101467E-01	6.69654462050E-01
1.77350000000E+09	-6.24110725248E-01	6.71294187703E-01
1.77400000000E+09	-6.22214345197E-01	6.72980772467E-01
1.77450000000E+09	-6.20479546145E-01	6.74706839128E-01
1.77500000000E+09	-6.18637442240E-01	6.76309078829E-01
1.77550000000E+09	-6.16948308012E-01	6.77926551594E-01
1.77600000000E+09	-6.15128151681E-01	6.79576124681E-01
1.77650000000E+09	-6.13420717267E-01	6.81227336431E-01
1.77700000000E+09	-6.11601022788E-01	6.82943806221E-01
1.77750000000E+09	-6.09813385389E-01	6.84536365066E-01
1.77800000000E+09	-6.07887421353E-01	6.86159578537E-01
1.77850000000E+09	-6.06150086774E-01	6.87813259463E-01
1.77900000000E+09	-6.04338526522E-01	6.89527587083E-01
1.77950000000E+09	-6.02501556445E-01	6.91103596206E-01
1.78000000000E+09	-6.00717844237E-01	6.92730928087E-01
1.78050000000E+09	-5.98835020861E-01	6.94299934132E-01
1.78100000000E+09	-5.96945574908E-01	6.95946074678E-01
1.78150000000E+09	-5.95091538172E-01	6.97570852674E-01
1.78200000000E+09	-5.93267810562E-01	6.99132819953E-01
1.78250000000E+09	-5.91296648405E-01	7.00729219570E-01
1.78300000000E+09	-5.89448968614E-01	7.02333704915E-01
1.78350000000E+09	-5.87579536586E-01	7.03917572649E-01
1.78400000000E+09	-5.85621150171E-01	7.05533537408E-01
1.78450000000E+09	-5.83742216401E-01	7.07133983814E-01
1.78500000000E+09	-5.81825178532E-01	7.08666854000E-01
1.78550000000E+09	-5.79914701859E-01	7.10225910542E-01
1.78600000000E+09	-5.77958750108E-01	7.11790675174E-01
1.78650000000E+09	-5.76013313649E-01	7.13339968666E-01
1.78700000000E+09	-5.74129383105E-01	7.14918509100E-01
1.78750000000E+09	-5.72174703638E-01	7.16439981162E-01
1.78800000000E+09	-5.70215999311E-01	7.18027414614E-01
1.78850000000E+09	-5.68274601754E-01	7.19620777329E-01
1.78900000000E+09	-5.66309928345E-01	7.21100662380E-01
1.78950000000E+09	-5.64412483474E-01	7.22636026250E-01
1.79000000000E+09	-5.62385744543E-01	7.24170241280E-01
1.79050000000E+09	-5.60443038596E-01	7.25687467112E-01
1.79100000000E+09	-5.58527399542E-01	7.27228529658E-01
1.79150000000E+09	-5.56464600737E-01	7.28764683073E-01
1.79200000000E+09	-5.54516197619E-01	7.30264314124E-01
1.79250000000E+09	-5.52478191543E-01	7.31774846348E-01
1.79300000000E+09	-5.50436240981E-01	7.33278247987E-01
1.79350000000E+09	-5.48359785502E-01	7.34820449805E-01
1.79400000000E+09	-5.46396895879E-01	7.36361528925E-01
1.79450000000E+09	-5.44347260428E-01	7.37773474697E-01
1.79500000000E+09	-5.42280197300E-01	7.39322872258E-01
1.79550000000E+09	-5.40179450869E-01	7.40786450068E-01
1.79600000000E+09	-5.38119888677E-01	7.42306366846E-01
1.79650000000E+09	-5.36042034779E-01	7.43867089766E-01
1.79700000000E+09	-5.33939506472E-01	7.45307560474E-01
1.79750000000E+09	-5.31894709646E-01	7.46760548827E-01
1.79800000000E+09	-5.29771017826E-01	7.48189954275E-01
1.79850000000E+09	-5.27566180134E-01	7.49688169313E-01
1.79900000000E+09	-5.25633149680E-01	7.51126441031E-01
1.79950000000E+09	-5.23448593564E-01	7.52564689539E-01
1.80000000000E+09	-5.21242420896E-01	7.54043752233E-01
1.80050000000E+09	-5.19146484347E-01	7.55477468848E-01
1.80100000000E+09	-5.16976333346E-01	7.56874631946E-01
1.80150000000E+09	-5.14835810801E-01	7.58405777718E-01
1.80200000000E+09	-5.12654231557E-01	7.59778829374E-01
1.80250000000E+09	-5.10426838084E-01	7.61220978253E-01
1.80300000000E+09	-5.08321628372E-01	7.62620660855E-01
1.80350000000E+09	-5.06096423193E-01	7.64029352587E-01
1.80400000000E+09	-5.03823591977E-01	7.65508883338E-01
1.80450000000E+09	-5.01698035953E-01	7.66864411548E-01
1.80500000000E+09	-4.99364425052E-01	7.68326986294E-01
1.80550000000E+09	-4.97210647325E-01	7.69674736606E-01
1.80600000000E+09	-4.94924721706E-01	7.71079110310E-01
1.80650000000E+09	-4.92683517541E-01	7.72422888820E-01
1.80700000000E+09	-4.90435480102E-01	7.73823793490E-01
1.80750000000E+09	-4.88140895934E-01	7.75252513185E-01
1.80800000000E+09	-4.85865788334E-01	7.76584469450E-01
1.80850000000E+09	-4.83647338353E-01	7.77978709859E-01
1.80900000000E+09	-4.81329630572E-01	7.79384877612E-01
1.80950000000E+09	-4.78965674643E-01	7.80679526173E-01
1.81000000000E+09	-4.76644293800E-01	7.82034051291E-01
1.81050000000E+09	-4.74305214907E-01	7.83380220819E-01
1.81100000000E+09	-4.71934950121E-01	7.84766995747E-01
1.81150000000E+09	-4.69632483503E-01	7.86028524202E-01
1.81200000000E+09	-4.67249565651E-01	7.87375460498E-01
1.81250000000E+09	-4.64943081341E-01	7.88668113559E-01
1.81300000000E+09	-4.62547871561E-01	7.89916242927E-01
1.81350000000E+09	-4.60057010410E-01	7.91270026940E-01
1.81400000000E+09	-4.57759768645E-01	7.92557502005E-01
1.81450000000E+09	-4.55324894105E-01	7.93885354829E-01
1.81500000000E+09	-4.52869922502E-01	7.95112412491E-01
1.81550000000E+09	-4.50509387599E-01	7.96348348329E-01
1.81600000000E+09	-4.48084575429E-01	7.97684163855E-01
1.81650000000E+09	-4.45657539841E-01	7.98885343228E-01
1.81700000000E+09	-4.43190120018E-01	8.00154222567E-01
1.81750000000E+09	-4.40796245813E-01	8.01266612857E-01
1.81800000000E+09	-4.38336449785E-01	8.02594627313E-01
1.81850000000E+09	-4.35710499426E-01	8.03865594960E-01
1.81900000000E+09	-4.33291341740E-01	8.05012575699E-01
1.81950000000E+09	-4.30781519272E-01	8.06279256646E-01
1.82000000000E+09	-4.28296139961E-01	8.07439929009E-01
1.82050000000E+09	-4.25816237601E-01	8.08629636692E-01
1.82100000000E+09	-4.23226384879E-01	8.09786259143E-01
1.82150000000E+09	-4.20741904034E-01	8.10951835768E-01
1.82200000000E+09	-4.18268399848E-01	8.12129524788E-01
1.82250000000E+09	-4.15716235712E-01	8.13173633226E-01
1.82300000000E+09	-4.13243887763E-01	8.14342337538E-01
1.82350000000E+09	-4.10609361404E-01	8.15543001289E-01
1.82400000000E+09	-4.08072678971E-01	8.16625792499E-01
1.82450000000E+09	-4.05521874653E-01	8.17784127364E-01
1.82500000000E+09	-4.03043739737E-01	8.18933874930E-01
1.82550000000E+09	-4.00386767365E-01	8.20015966956E-01
1.82600000000E+09	-3.97829084685E-01	8.21105151395E-01
1.82650000000E+09	-3.95244694958E-01	8.22183267525E-01
1.82700000000E+09	-3.92650329474E-01	8.23311506104E-01
1.82750000000E+09	-3.89994623165E-01	8.24304852877E-01
1.82800000000E+09	-3.87410848573E-01	8.25408781355E-01
1.82850000000E+09	-3.84769961631E-01	8.26411277807E-01
1.82900000000E+09	-3.82167061943E-01	8.27483554297E-01
1.82950000000E+09	-3.79598218583E-01	8.28473024195E-01
1.83000000000E+09	-3.76928359410E-01	8.29550704456E-01
1.83050000000E+09	-3.74264553614E-01	8.30509834024E-01
1.83100000000E+09	-3.71664216787E-01	8.31542130730E-01
1.83150000000E+09	-3.69088336393E-01	8.32511790701E-01
1.83200000000E+09	-3.66233647908E-01	8.33426771930E-01
1.83250000000E+09	-3.63587989623E-01	8.34448324487E-01
1.83300000000E+09	-3.61018951010E-01	8.35416375054E-01
1.83350000000E+09	-3.58274797651E-01	8.36330137863E-01
1.83400000000E+09	-3.55605667547E-01	8.37310095241E-01
1.83450000000E+09	-3.52933764762E-01	8.38213683043E-01
1.83500000000E+09	-3.50280275319E-01	8.39187835725E-01
1.83550000000E+09	-3.47595720045E-01	8.40098875046E-01
1.83600000000E+09	-3.44902066773E-01	8.40966751424E-01
1.83650000000E+09	-3.42210252422E-01	8.41933056162E-01
1.83700000000E+09	-3.39522660621E-01	8.42757090368E-01
1.83750000000E+09	-3.36776330033E-01	8.43599613523E-01
1.83800000000E+09	-3.34120738717E-01	8.44512874392E-01
1.83850000000E+09	-3.31395543738E-01	8.45393268844E-01
1.83900000000E+09	-3.28725804479E-01	8.46275188307E-01
1.83950000000E+09	-3.26010980425E-01	8.47050166122E-01
1.84000000000E+09	-3.23171072204E-01	8.47940942203E-01
1.84050000000E+09	-3.20518522739E-01	8.48816152193E-01
1.84100000000E+09	-3.17773320528E-01	8.49599570957E-01
1.84150000000E+09	-3.14999386436E-01	8.50450020823E-01
1.84200000000E+09	-3.12319871591E-01	8.51281283992E-01
1.84250000000E+09	-3.09499270842E-01	8.52059712126E-01
1.84300000000E+09	-3.06765815529E-01	8.52895180218E-01
1.84350000000E+09	-3.04015657639E-01	8.53544313198E-01
1.84400000000E+09	-3.01280671525E-01	8.54428913217E-01
1.84450000000E+09	-2.98462479782E-01	8.55146774313E-01
1.84500000000E+09	-2.95651605032E-01	8.56046917505E-01
1.84550000000E+09	-2.92870257657E-01	8.56674391607E-01
1.84600000000E+09	-2.90180153991E-01	8.57396631434E-01
1.84650000000E+09	-2.87416679676E-01	8.58213960175E-01
1.84700000000E+09	-2.84532150173E-01	8.58871803805E-01
1.84750000000E+09	-2.81813755974E-01	8.59568421575E-01
1.84800000000E+09	-2.79013809037E-01	8.60288582774E-01
1.84850000000E+09	-2.76160157188E-01	8.60943540543E-01
1.84900000000E+09	-2.73431919248E-01	8.61594106093E-01
1.84950000000E+09	-2.70585827201E-01	8.62359238065E-01
1.85000000000E+09	-2.67841788201E-01	8.62843929723E-01
1.85050000000E+09	-2.65008130302E-01	8.63603688256E-01
1.85100000000E+09	-2.62217715963E-01	8.64277691491E-01
1.85150000000E+09	-2.59454105215E-01	8.64920295029E-01
1.85200000000E+09	-2.56588882091E-01	8.65565280627E-01
1.85250000000E+09	-2.53773947019E-01	8.66128753295E-01
1.85300000000E+09	-2.51035762880E-01	8.66802752119E-01
1.85350000000E+09	-2.48116264047E-01	8.67412571821E-01
1.85400000000E+09	-2.45322887955E-01	8.68050169311E-01
1.85450000000E+09	-2.42533495430E-01	8.68637173701E-01
1.85500000000E+09	-2.39649437995E-01	8.69192424524E-01
1.85550000000E+09	-2.36859325290E-01	8.69833122672E-01
1.85600000000E+09	-2.34013121781E-01	8.70367512479E-01
1.85650000000E+09	-2.31126259383E-01	8.70982549731E-01
1.85700000000E+09	-2.28422549443E-01	8.71548744759E-01
1.85750000000E+09	-2.25443519483E-01	8.72085403474E-01
1.85800000000E+09	-2.22588124669E-01	8.72598146357E-01
1.85850000000E+09	-2.19736747389E-01	8.73178607165E-01
1.85900000000E+09	-2.16851708695E-01	8.73626659323E-01
1.85950000000E+09	-2.14017578311E-01	8.74243349151E-01
1.86000000000E+09	-2.11089515547E-01	8.74695860174E-01
1.86050000000E+09	-2.08197540016E-01	8.75247425492E-01
1.86100000000E+09	-2.05346777384E-01	8.75741219696E-01
1.86150000000E+09	-2.02361052914E-01	8.76140991931E-01
1.86200000000E+09	-1.99550101990E-01	8.76620869930E-01
1.86250000000E+09	-1.96509311480E-01	8.76992447005E-01
1.86300000000E+09	-1.93744425073E-01	8.77486219891E-01
1.86350000000E+09	-1.90856238829E-01	8.77923455393E-01
1.86400000000E+09	-1.87930108816E-01	8.78338700631E-01
1.86450000000E+09	-1.85103907146E-01	8.78811098417E-01
1.86500000000E+09	-1.82208913041E-01	8.79181924103E-01
1.86550000000E+09	-1.79263652409E-01	8.79479452510E-01
1.86600000000E+09	-1.76349261494E-01	8.79908380688E-01
1.86650000000E+09	-1.73464806212E-01	8.80295937966E-01
1.86700000000E+09	-1.70531625720E-01	8.80651842734E-01
1.86750000000E+09	-1.67633786086E-01	8.80964179250E-01
1.86800000000E+09	-1.64654963462E-01	8.81355860845E-01
1.86850000000E+09	-1.61821514522E-01	8.81648148106E-01
1.86900000000E+09	-1.58849699309E-01	8.81922881204E-01
1.86950000000E+09	-1.55993481886E-01	8.82252925241E-01
1.87000000000E+09	-1.53048054098E-01	8.82586448929E-01
1.87050000000E+09	-1.50161910377E-01	8.82841163865E-01
1.87100000000E+09	-1.47195832076E-01	8.83253965426E-01
1.87150000000E+09	-1.44334076384E-01	8.83415761874E-01
1.87200000000E+09	-1.41358017926E-01	8.83756248750E-01
1.87250000000E+09	-1.38476707692E-01	8.83974040869E-01
1.87300000000E+09	-1.35610966165E-01	8.84265788338E-01
1.87350000000E+09	-1.32652479955E-01	8.84505407092E-01
1.87400000000E+09	-1.29739117186E-01	8.84586312382E-01
1.87450000000E+09	-1.26753564298E-01	8.84883830994E-01
1.87500000000E+09	-1.23862583783E-01	8.85146062817E-01
1.87550000000E+09	-1.20922842423E-01	8.85325491264E-01
1.87600000000E+09	-1.17963723737E-01	8.85473218161E-01
1.87650000000E+09	-1.15120746002E-01	8.85624339882E-01
