# Hz S RI R 50
! CMT, CMT808U, 21440046, 21.4.3/4
! Date: 6/12/2026 9:38:52 AM
! Data: Format (Calibration Info)
! Freq	S11:Re/Im(F2)	S41:Re/Im(F2)	S14:Re/Im(F2)	S44:Re/Im(F2)
1.70000000000E+09	-1.10405623833E-01	1.03614275751E-01	-6.54910690082E-02	2.62744740147E-02	-6.55738303315E-02	2.52177162476E-02	-8.66633869879E-02	1.65419254028E-01
1.70050000000E+09	-1.07556537564E-01	1.03276309816E-01	-6.49483414192E-02	2.76692707836E-02	-6.50407286706E-02	2.66070752155E-02	-8.31117787229E-02	1.69669861213E-01
1.70100000000E+09	-1.04756870411E-01	1.02772902317E-01	-6.43633285516E-02	2.90507874790E-02	-6.44743183195E-02	2.79925713400E-02	-7.94422541772E-02	1.73809096668E-01
1.70150000000E+09	-1.02001100255E-01	1.02120704638E-01	-6.37390026274E-02	3.04137462850E-02	-6.38923589724E-02	2.93568111351E-02	-7.56428905486E-02	1.77841045060E-01
1.70200000000E+09	-9.92925573894E-02	1.01332261387E-01	-6.31000534682E-02	3.17729400107E-02	-6.32689347870E-02	3.07079008377E-02	-7.16867708600E-02	1.81725890265E-01
1.70250000000E+09	-9.66497038576E-02	1.00410988099E-01	-6.24307116691E-02	3.31215105686E-02	-6.26253462538E-02	3.20588807595E-02	-6.76359868463E-02	1.85525928499E-01
1.70300000000E+09	-9.40808091690E-02	9.93351140572E-02	-6.17333693424E-02	3.44573048479E-02	-6.19409788802E-02	3.34052778505E-02	-6.34761412346E-02	1.89177892283E-01
1.70350000000E+09	-9.15831082758E-02	9.81629683641E-02	-6.09927732361E-02	3.57748687890E-02	-6.12356931288E-02	3.47258978641E-02	-5.92114184084E-02	1.92699061075E-01
1.70400000000E+09	-8.91666233146E-02	9.68468571334E-02	-6.02533024958E-02	3.70842442247E-02	-6.05070993859E-02	3.60383534059E-02	-5.48385470751E-02	1.96109141486E-01
1.70450000000E+09	-8.68109560925E-02	9.54129263038E-02	-5.94485644326E-02	3.83646215116E-02	-5.97332193430E-02	3.73217635016E-02	-5.03568493324E-02	1.99358239026E-01
1.70500000000E+09	-8.45798867443E-02	9.38869189009E-02	-5.86275886246E-02	3.96464798234E-02	-5.89332276411E-02	3.86144936810E-02	-4.57744388802E-02	2.02472661985E-01
1.70550000000E+09	-8.24155999958E-02	9.22292186226E-02	-5.77877853894E-02	4.09044661754E-02	-5.81132727679E-02	3.98786805987E-02	-4.11001890691E-02	2.05456893834E-01
1.70600000000E+09	-8.03613316325E-02	9.05167633054E-02	-5.69135398108E-02	4.21525460422E-02	-5.72609732953E-02	4.11255053739E-02	-3.63488547715E-02	2.08287730771E-01
1.70650000000E+09	-7.83811890774E-02	8.86957286649E-02	-5.60116611996E-02	4.33871881088E-02	-5.63743861743E-02	4.23510655899E-02	-3.14933649797E-02	2.10986364737E-01
1.70700000000E+09	-7.65186750121E-02	8.67787230524E-02	-5.50765992789E-02	4.45877532102E-02	-5.54659135434E-02	4.35703988974E-02	-2.65587349202E-02	2.13507418637E-01
1.70750000000E+09	-7.47551637467E-02	8.47843685720E-02	-5.41133278930E-02	4.57699119875E-02	-5.45270599217E-02	4.47760889735E-02	-2.15914283297E-02	2.15887778481E-01
1.70800000000E+09	-7.31067156036E-02	8.27161618972E-02	-5.31275975479E-02	4.69323798945E-02	-5.35652638601E-02	4.59477506868E-02	-1.64974749226E-02	2.18113232844E-01
1.70850000000E+09	-7.15529668098E-02	8.05847554446E-02	-5.21166180414E-02	4.80858395538E-02	-5.25805343160E-02	4.71015344760E-02	-1.13726833699E-02	2.20204501523E-01
1.70900000000E+09	-7.00966407613E-02	7.83975457033E-02	-5.10842147196E-02	4.92200085163E-02	-5.15610496475E-02	4.82397729980E-02	-6.16892980309E-03	2.22125305190E-01
1.70950000000E+09	-6.87670200229E-02	7.61496983377E-02	-5.00120867557E-02	5.03145660809E-02	-5.05235299186E-02	4.93478718925E-02	-9.43418383765E-04	2.23871544197E-01
1.71000000000E+09	-6.75436748465E-02	7.38442664307E-02	-4.89247837532E-02	5.13968322522E-02	-4.94529221115E-02	5.04362819488E-02	4.36197778873E-03	2.25496068416E-01
1.71050000000E+09	-6.64263441525E-02	7.15033467958E-02	-4.78096801146E-02	5.24456520328E-02	-4.83586701358E-02	5.15016277426E-02	9.70741627441E-03	2.26906153722E-01
1.71100000000E+09	-6.54164996100E-02	6.90979478836E-02	-4.66618071149E-02	5.34738648587E-02	-4.72437939032E-02	5.25491792988E-02	1.51022732203E-02	2.28192300059E-01
1.71150000000E+09	-6.45304125530E-02	6.66818968301E-02	-4.54989418103E-02	5.44814740326E-02	-4.61066044771E-02	5.35711137956E-02	2.05154959016E-02	2.29289598221E-01
1.71200000000E+09	-6.37509522100E-02	6.42353608286E-02	-4.43116543423E-02	5.54707404292E-02	-4.49237595374E-02	5.45613321186E-02	2.59785387677E-02	2.30237428317E-01
1.71250000000E+09	-6.31020482453E-02	6.17376666737E-02	-4.31085808982E-02	5.64197694531E-02	-4.37429302582E-02	5.55251137952E-02	3.14375192968E-02	2.31029744243E-01
1.71300000000E+09	-6.25515963742E-02	5.92415148427E-02	-4.18768852405E-02	5.73510003094E-02	-4.25286758370E-02	5.64695223838E-02	3.69576205258E-02	2.31639672114E-01
1.71350000000E+09	-6.21029335056E-02	5.67219368685E-02	-4.06215538620E-02	5.82524952993E-02	-4.13041635759E-02	5.73857861154E-02	4.24515155029E-02	2.32103512785E-01
1.71400000000E+09	-6.17751206848E-02	5.41984296285E-02	-3.93564040738E-02	5.91186824614E-02	-4.00466453842E-02	5.82673882545E-02	4.79876294079E-02	2.32372476987E-01
1.71450000000E+09	-6.15688307192E-02	5.16645224345E-02	-3.80666757396E-02	5.99684918810E-02	-3.87703071290E-02	5.91377070993E-02	5.35154741883E-02	2.32474074045E-01
1.71500000000E+09	-6.14601456244E-02	4.91330865126E-02	-3.67497284931E-02	6.07802200604E-02	-3.74858692233E-02	5.99621670261E-02	5.90417613896E-02	2.32431987366E-01
1.71550000000E+09	-6.14462640677E-02	4.66049627592E-02	-3.54258781533E-02	6.15681592554E-02	-3.61735883823E-02	6.07669833520E-02	6.45543960894E-02	2.32210651333E-01
1.71600000000E+09	-6.15445158798E-02	4.40691024192E-02	-3.40700390009E-02	6.23179255008E-02	-3.48393758134E-02	6.15320867887E-02	7.00735400117E-02	2.31844264977E-01
1.71650000000E+09	-6.17620630971E-02	4.15702437790E-02	-3.27087108410E-02	6.30406455844E-02	-3.34886127967E-02	6.22849077632E-02	7.55931291336E-02	2.31282470808E-01
1.71700000000E+09	-6.20636569949E-02	3.90634039883E-02	-3.13231218235E-02	6.37350016653E-02	-3.21307870806E-02	6.29860114565E-02	8.10716732611E-02	2.30564701818E-01
1.71750000000E+09	-6.24665924211E-02	3.65787128939E-02	-2.99321456738E-02	6.44025536774E-02	-3.07464957369E-02	6.36715361827E-02	8.65037784958E-02	2.29683697110E-01
1.71800000000E+09	-6.29790959514E-02	3.41303834056E-02	-2.85179850277E-02	6.50266544713E-02	-2.93559866072E-02	6.43153249865E-02	9.19418755479E-02	2.28632367885E-01
1.71850000000E+09	-6.35920454429E-02	3.16760912191E-02	-2.70960291814E-02	6.56285870447E-02	-2.79387671093E-02	6.49329526710E-02	9.73449454506E-02	2.27418739642E-01
1.71900000000E+09	-6.42890451077E-02	2.92783533001E-02	-2.56499659528E-02	6.62024507863E-02	-2.65215990474E-02	6.55264323750E-02	1.02692279266E-01	2.26058387919E-01
1.71950000000E+09	-6.50775284759E-02	2.68943862903E-02	-2.41987256555E-02	6.67283788934E-02	-2.50738612239E-02	6.60690924028E-02	1.08010865212E-01	2.24514722119E-01
1.72000000000E+09	-6.59691392368E-02	2.45208739155E-02	-2.27384778573E-02	6.72437063907E-02	-2.36368974623E-02	6.65964656308E-02	1.13270756031E-01	2.22820378234E-01
1.72050000000E+09	-6.69654706880E-02	2.22188427615E-02	-2.12703992189E-02	6.77075205620E-02	-2.21785587543E-02	6.70860235600E-02	1.18461790435E-01	2.20977473391E-01
1.72100000000E+09	-6.80137921783E-02	1.99347726243E-02	-1.97841782979E-02	6.81329849469E-02	-2.07072495567E-02	6.75435463720E-02	1.23617806155E-01	2.18967337580E-01
1.72150000000E+09	-6.91766216573E-02	1.77036661237E-02	-1.82940873870E-02	6.85464970250E-02	-1.92234119321E-02	6.79613713089E-02	1.28703641030E-01	2.16801784861E-01
1.72200000000E+09	-7.04058518190E-02	1.55026021508E-02	-1.67870634204E-02	6.89064464496E-02	-1.77360203502E-02	6.83505333773E-02	1.33734678389E-01	2.14490085799E-01
1.72250000000E+09	-7.17285412641E-02	1.33430943601E-02	-1.52805152976E-02	6.92405107208E-02	-1.62374072211E-02	6.87059050298E-02	1.38665697376E-01	2.12028145403E-01
1.72300000000E+09	-7.31344494842E-02	1.12273072521E-02	-1.37813714680E-02	6.95370081863E-02	-1.47412662203E-02	6.90266808907E-02	1.43549652591E-01	2.09413427779E-01
1.72350000000E+09	-7.46290468519E-02	9.18288041961E-03	-1.22416280512E-02	6.98116862413E-02	-1.32355126614E-02	6.93242026637E-02	1.48334489950E-01	2.06667253135E-01
1.72400000000E+09	-7.62062083572E-02	7.16995799718E-03	-1.07168629179E-02	7.00312811805E-02	-1.17165886326E-02	6.95785010023E-02	1.53039273084E-01	2.03731302161E-01
1.72450000000E+09	-7.78554623362E-02	5.19817283095E-03	-9.19912460365E-03	7.02262638218E-02	-1.01915066318E-02	6.97853525877E-02	1.57644691409E-01	2.00709381367E-01
1.72500000000E+09	-7.95716786747E-02	3.30201324834E-03	-7.66813486116E-03	7.03885000951E-02	-8.67352015384E-03	6.99717029322E-02	1.62160024886E-01	1.97532746729E-01
1.72550000000E+09	-8.13684098785E-02	1.45316005174E-03	-6.12216082967E-03	7.05179426180E-02	-7.13692688212E-03	7.01222630283E-02	1.66578074440E-01	1.94199762915E-01
1.72600000000E+09	-8.32314690805E-02	-3.30314747442E-04	-4.59267360764E-03	7.06162040995E-02	-5.61487816672E-03	7.02404671540E-02	1.70908528687E-01	1.90747073138E-01
1.72650000000E+09	-8.51813521426E-02	-2.05753813706E-03	-3.05493353185E-03	7.06702684543E-02	-4.09239538817E-03	7.03135861796E-02	1.75118015392E-01	1.87161917053E-01
1.72700000000E+09	-8.72046061308E-02	-3.73330749323E-03	-1.51364408465E-03	7.06981297046E-02	-2.57066325157E-03	7.03592309304E-02	1.79225324499E-01	1.83457814101E-01
1.72750000000E+09	-8.92787485558E-02	-5.31797067864E-03	1.49092512437E-05	7.06820645011E-02	-1.03000880422E-03	7.03745000882E-02	1.83233135946E-01	1.79606872767E-01
1.72800000000E+09	-9.14488665135E-02	-6.85469541328E-03	1.55463137057E-03	7.06419004455E-02	4.97208595727E-04	7.03492156477E-02	1.87100669546E-01	1.75661141639E-01
1.72850000000E+09	-9.36554720500E-02	-8.30733964891E-03	3.09046025703E-03	7.05667973947E-02	2.03318729134E-03	7.02919853260E-02	1.90841464926E-01	1.71571135937E-01
1.72900000000E+09	-9.59548331419E-02	-9.69193682743E-03	4.62327240750E-03	7.04383851980E-02	3.55714274594E-03	7.02033293695E-02	1.94502283999E-01	1.67380653857E-01
1.72950000000E+09	-9.83002655861E-02	-1.09959069335E-02	6.13199626095E-03	7.02945245864E-02	5.07892852261E-03	7.00781439309E-02	1.97966264345E-01	1.63082010544E-01
1.73000000000E+09	-1.00707029691E-01	-1.22358190159E-02	7.66514663388E-03	7.01149810542E-02	6.59717082308E-03	6.99142010522E-02	2.01334497939E-01	1.58672678487E-01
1.73050000000E+09	-1.03181134864E-01	-1.33962298821E-02	9.17268589326E-03	6.98961268908E-02	8.11016046977E-03	6.97288184461E-02	2.04586565521E-01	1.54170829078E-01
1.73100000000E+09	-1.05703704082E-01	-1.44522440483E-02	1.06908126987E-02	6.96445332897E-02	9.60807586276E-03	6.95108749305E-02	2.07675879642E-01	1.49547676114E-01
1.73150000000E+09	-1.08298113818E-01	-1.54416030490E-02	1.21917688440E-02	6.93607021904E-02	1.11173017166E-02	6.92373073882E-02	2.10621958456E-01	1.44851385464E-01
1.73200000000E+09	-1.10946638444E-01	-1.63188803677E-02	1.36744104986E-02	6.90521793892E-02	1.25953254998E-02	6.89524215981E-02	2.13441426400E-01	1.40076370560E-01
1.73250000000E+09	-1.13625889381E-01	-1.71245534361E-02	1.51644547791E-02	6.86995764892E-02	1.40898091654E-02	6.86128265239E-02	2.16093832600E-01	1.35170806084E-01
1.73300000000E+09	-1.16367969264E-01	-1.78355669959E-02	1.66302143379E-02	6.83279202876E-02	1.55566364858E-02	6.82554761175E-02	2.18603167651E-01	1.30238339669E-01
1.73350000000E+09	-1.19132202032E-01	-1.84473297717E-02	1.81071841689E-02	6.79001324410E-02	1.70137308149E-02	6.78683194628E-02	2.20968021186E-01	1.25171969046E-01
1.73400000000E+09	-1.21974254931E-01	-1.89622803932E-02	1.95454203431E-02	6.74605084418E-02	1.84766757729E-02	6.74379639116E-02	2.23178418737E-01	1.20076909345E-01
1.73450000000E+09	-1.24822010154E-01	-1.93693677404E-02	2.09956925190E-02	6.69684968496E-02	1.99191677035E-02	6.69829396307E-02	2.25212947820E-01	1.14878327501E-01
1.73500000000E+09	-1.27730209585E-01	-1.96698538426E-02	2.24227772366E-02	6.64773243368E-02	2.13421853506E-02	6.64968625012E-02	2.27112621077E-01	1.09609521004E-01
1.73550000000E+09	-1.30652188553E-01	-1.98709366876E-02	2.38337613360E-02	6.59323167511E-02	2.27594293789E-02	6.59699661624E-02	2.28851590580E-01	1.04309003092E-01
1.73600000000E+09	-1.33634810747E-01	-1.99719189856E-02	2.52400555794E-02	6.53541765758E-02	2.41544541298E-02	6.54208541653E-02	2.30382436361E-01	9.89529500084E-02
1.73650000000E+09	-1.36614941169E-01	-1.99401599656E-02	2.66264505345E-02	6.47533147105E-02	2.55436097862E-02	6.48503592428E-02	2.31794881095E-01	9.35227708310E-02
1.73700000000E+09	-1.39627273892E-01	-1.97895001826E-02	2.79896113657E-02	6.41216907026E-02	2.69147974823E-02	6.42404639915E-02	2.33006297253E-01	8.80907540232E-02
1.73750000000E+09	-1.42648951234E-01	-1.95535097175E-02	2.93469902463E-02	6.34577200260E-02	2.82714837750E-02	6.36001856373E-02	2.34080928995E-01	8.25860398992E-02
1.73800000000E+09	-1.45683338897E-01	-1.91917364937E-02	3.06723667433E-02	6.27726403694E-02	2.96014227345E-02	6.29324476303E-02	2.34929670082E-01	7.70547496936E-02
1.73850000000E+09	-1.48728925461E-01	-1.87048912224E-02	3.19974828053E-02	6.20551143268E-02	3.09353297128E-02	6.22274472096E-02	2.35677445980E-01	7.14705575806E-02
1.73900000000E+09	-1.51777029948E-01	-1.81051670499E-02	3.32967626270E-02	6.13124491385E-02	3.22320879985E-02	6.15049478344E-02	2.36213351388E-01	6.58681461308E-02
1.73950000000E+09	-1.54828783357E-01	-1.73823541605E-02	3.45857437910E-02	6.05400360191E-02	3.35096962507E-02	6.07484689350E-02	2.36584179525E-01	6.02671536027E-02
1.74000000000E+09	-1.57881225500E-01	-1.65257902168E-02	3.58421093527E-02	5.97333119737E-02	3.47830732123E-02	5.99745109991E-02	2.36768888315E-01	5.46492633864E-02
1.74050000000E+09	-1.60912178434E-01	-1.55444317765E-02	3.70836669128E-02	5.89074976412E-02	3.60288636613E-02	5.91671592994E-02	2.36791856137E-01	4.90164180194E-02
1.74100000000E+09	-1.63942067427E-01	-1.44515747779E-02	3.83070252169E-02	5.80623693221E-02	3.72630854217E-02	5.83344561032E-02	2.36623792200E-01	4.33661178432E-02
1.74150000000E+09	-1.66938459059E-01	-1.32354931348E-02	3.94975157539E-02	5.71810899358E-02	3.84645816016E-02	5.74858738104E-02	2.36299076016E-01	3.77351057547E-02
1.74200000000E+09	-1.69913750553E-01	-1.18795721349E-02	4.06760200014E-02	5.62762521281E-02	3.96479201898E-02	5.66101428842E-02	2.35786143085E-01	3.21105773411E-02
1.74250000000E+09	-1.72854171052E-01	-1.04194955949E-02	4.18291705854E-02	5.53607383904E-02	4.08104510126E-02	5.56977459802E-02	2.35093131421E-01	2.64945091589E-02
1.74300000000E+09	-1.75759197819E-01	-8.81882435967E-03	4.29688949489E-02	5.44057057156E-02	4.19456450410E-02	5.47731970645E-02	2.34197127476E-01	2.08859571475E-02
1.74350000000E+09	-1.78631400557E-01	-7.09071566760E-03	4.40720169555E-02	5.34244432055E-02	4.30635946796E-02	5.38293342228E-02	2.33192309466E-01	1.53225839178E-02
1.74400000000E+09	-1.81436995536E-01	-5.23516281680E-03	4.51690314452E-02	5.24499736363E-02	4.41502164188E-02	5.28506771971E-02	2.31935823839E-01	9.77197212693E-03
1.74450000000E+09	-1.84205106318E-01	-3.25891821373E-03	4.62238626877E-02	5.14233079614E-02	4.52321765656E-02	5.18594604380E-02	2.30537780172E-01	4.23465720286E-03
1.74500000000E+09	-1.86928608231E-01	-1.15520826071E-03	4.72594390008E-02	5.03977863076E-02	4.62745572806E-02	5.08512138269E-02	2.28959344232E-01	-1.21471038953E-03
1.74550000000E+09	-1.89560730104E-01	1.07272112741E-03	4.82760456858E-02	4.93472553539E-02	4.72879827877E-02	4.98136141868E-02	2.27198872222E-01	-6.66441738449E-03
1.74600000000E+09	-1.92134585984E-01	3.42492287948E-03	4.92620859909E-02	4.82751087903E-02	4.82870547499E-02	4.87656628246E-02	2.25294282568E-01	-1.20282486021E-02
1.74650000000E+09	-1.94647190804E-01	5.90671769395E-03	5.02241857101E-02	4.71804616822E-02	4.92608225831E-02	4.76985224413E-02	2.23174210570E-01	-1.73481795588E-02
1.74700000000E+09	-1.97042726350E-01	8.48325445439E-03	5.11676441998E-02	4.60786465593E-02	5.02087580767E-02	4.66045208436E-02	2.20920545701E-01	-2.26113949582E-02
1.74750000000E+09	-1.99359190615E-01	1.12001805985E-02	5.20753992231E-02	4.49440823468E-02	5.11298888049E-02	4.55072973312E-02	2.18477599857E-01	-2.78153339172E-02
1.74800000000E+09	-2.01586621307E-01	1.40077576438E-02	5.29640712370E-02	4.38158651241E-02	5.20284058027E-02	4.43846480208E-02	2.15890124460E-01	-3.29303385763E-02
1.74850000000E+09	-2.03713086229E-01	1.69722144326E-02	5.38272781512E-02	4.26544263724E-02	5.28944712816E-02	4.32536173674E-02	2.13113670127E-01	-3.79679906259E-02
1.74900000000E+09	-2.05717838184E-01	1.99897290959E-02	5.46511454718E-02	4.14894691350E-02	5.37401317047E-02	4.21033510387E-02	2.10174306395E-01	-4.29495488023E-02
1.74950000000E+09	-2.07624120321E-01	2.31422825694E-02	5.54624203745E-02	4.02974732841E-02	5.45652267752E-02	4.09411147271E-02	2.07073559788E-01	-4.78017857156E-02
1.75000000000E+09	-2.09377774432E-01	2.63906698829E-02	5.62398715345E-02	3.91075997080E-02	5.53553109593E-02	3.97636518613E-02	2.03805054266E-01	-5.25858879132E-02
1.75050000000E+09	-2.11005361993E-01	2.97447075953E-02	5.70037518070E-02	3.78977200704E-02	5.61215476817E-02	3.85753228763E-02	2.00404059466E-01	-5.72549991656E-02
1.75100000000E+09	-2.12505322367E-01	3.31825676920E-02	5.77167943609E-02	3.66808949946E-02	5.68610610534E-02	3.73670521411E-02	1.96821472900E-01	-6.18314494795E-02
1.75150000000E+09	-2.13864459745E-01	3.66817221839E-02	5.84273639532E-02	3.54601652655E-02	5.75679880097E-02	3.61657877629E-02	1.93129499120E-01	-6.62982272360E-02
1.75200000000E+09	-2.15082728151E-01	4.02745948585E-02	5.90953194877E-02	3.42080160685E-02	5.82547223930E-02	3.49398872765E-02	1.89249016145E-01	-7.06432353786E-02
1.75250000000E+09	-2.16131004678E-01	4.39301737068E-02	5.97438270444E-02	3.29565238496E-02	5.89212254193E-02	3.36968837805E-02	1.85254016372E-01	-7.48728428922E-02
1.75300000000E+09	-2.17022303997E-01	4.76482332768E-02	6.03641237072E-02	3.16941246432E-02	5.95550730071E-02	3.24586385655E-02	1.81088620675E-01	-7.89778188985E-02
1.75350000000E+09	-2.17747211481E-01	5.14211316202E-02	6.09568453923E-02	3.04273409653E-02	6.01680273358E-02	3.12097135783E-02	1.76829232517E-01	-8.29552670354E-02
1.75400000000E+09	-2.18330595692E-01	5.52331552789E-02	6.15348672964E-02	2.91509242915E-02	6.07481347681E-02	2.99458268731E-02	1.72416267443E-01	-8.68000355852E-02
1.75450000000E+09	-2.18727272501E-01	5.90920175387E-02	6.20775473927E-02	2.78702147952E-02	6.13130858814E-02	2.86826146269E-02	1.67858602583E-01	-9.05091108601E-02
1.75500000000E+09	-2.18936395259E-01	6.29723343045E-02	6.25949186239E-02	2.65730971216E-02	6.18486498845E-02	2.74088139430E-02	1.63182819245E-01	-9.40637030671E-02
1.75550000000E+09	-2.19008290375E-01	6.68964001882E-02	6.30858717591E-02	2.52743332311E-02	6.23463158027E-02	2.61357103145E-02	1.58406097910E-01	-9.74780474630E-02
1.75600000000E+09	-2.18868976218E-01	7.08167646085E-02	6.35612388270E-02	2.39763980042E-02	6.28405758372E-02	2.48499598389E-02	1.53499864477E-01	-1.00747450520E-01
1.75650000000E+09	-2.18554474913E-01	7.47454741731E-02	6.39941836433E-02	2.26635907024E-02	6.33035165421E-02	2.35576096587E-02	1.48473049932E-01	-1.03855188262E-01
1.75700000000E+09	-2.18048895788E-01	7.86593245710E-02	6.44179650259E-02	2.13560184671E-02	6.37390129304E-02	2.22643162997E-02	1.43349002475E-01	-1.06810837466E-01
1.75750000000E+09	-2.17352541081E-01	8.25690457719E-02	6.48108558963E-02	2.00358371347E-02	6.41427948375E-02	2.09589555613E-02	1.38123257447E-01	-1.09608404981E-01
1.75800000000E+09	-2.16465063293E-01	8.64402509436E-02	6.51733493340E-02	1.87088138397E-02	6.45365329868E-02	1.96554756900E-02	1.32817234473E-01	-1.12225603940E-01
1.75850000000E+09	-2.15380213894E-01	9.02705299565E-02	6.55278953253E-02	1.73841689571E-02	6.49075064229E-02	1.83429138129E-02	1.27398297596E-01	-1.14684785119E-01
1.75900000000E+09	-2.14127382061E-01	9.40484857871E-02	6.58473857789E-02	1.60530662191E-02	6.52484208014E-02	1.70211871167E-02	1.21920647006E-01	-1.16965798261E-01
