# Hz S RI R 50
! CMT, CMT808U, 21440046, 21.4.3/4
! Date: 6/12/2026 9:37:08 AM
! Data: Format (Calibration Info)
! Freq	S11:Re/Im(F2)	S41:Re/Im(F2)	S14:Re/Im(F2)	S44:Re/Im(F2)
1.70000000000E+09	-1.09117592760E-01	1.03057014153E-01	-7.00439521499E-02	2.33088857598E-02	-7.00555677140E-02	2.22044529419E-02	-5.39757566187E-02	1.40232128411E-01
1.70050000000E+09	-1.06318507571E-01	1.02663800191E-01	-6.95432567073E-02	2.48074148773E-02	-6.95851639286E-02	2.37023245604E-02	-5.09039421897E-02	1.44110386725E-01
1.70100000000E+09	-1.03547296584E-01	1.02117605077E-01	-6.90220129258E-02	2.63025950761E-02	-6.90790683984E-02	2.52002117648E-02	-4.77168965511E-02	1.47888344775E-01
1.70150000000E+09	-1.00830495952E-01	1.01423425074E-01	-6.84623564034E-02	2.77795575253E-02	-6.85482595579E-02	2.66720939233E-02	-4.44000921649E-02	1.51564745883E-01
1.70200000000E+09	-9.81771997080E-02	1.00607853085E-01	-6.78725609690E-02	2.92518794009E-02	-6.79800821013E-02	2.81488630585E-02	-4.09718845183E-02	1.55121272951E-01
1.70250000000E+09	-9.55766541468E-02	9.96353587084E-02	-6.72463602793E-02	3.07114534424E-02	-6.73753017159E-02	2.96157687818E-02	-3.74197400155E-02	1.58604465112E-01
1.70300000000E+09	-9.30523984759E-02	9.85334185575E-02	-6.65844261418E-02	3.21597029220E-02	-6.67347199775E-02	3.10678068258E-02	-3.37730457268E-02	1.61971900496E-01
1.70350000000E+09	-9.06005977199E-02	9.73189098638E-02	-6.58936167819E-02	3.35955339797E-02	-6.60716874773E-02	3.24989327422E-02	-3.00163774692E-02	1.65217371283E-01
1.70400000000E+09	-8.82344914678E-02	9.59778196445E-02	-6.51587226577E-02	3.50178803389E-02	-6.53645569506E-02	3.39279549213E-02	-2.61657890743E-02	1.68354037226E-01
1.70450000000E+09	-8.59319302073E-02	9.45335653707E-02	-6.44131123547E-02	3.64271888134E-02	-6.46426767713E-02	3.53351627952E-02	-2.21928115368E-02	1.71371233481E-01
1.70500000000E+09	-8.37332383554E-02	9.29764158591E-02	-6.36212479952E-02	3.78129757103E-02	-6.38683956830E-02	3.67299867504E-02	-1.81351886968E-02	1.74282515414E-01
1.70550000000E+09	-8.16357340683E-02	9.13141360505E-02	-6.28053710305E-02	3.91907496904E-02	-6.30747856156E-02	3.81129253372E-02	-1.39888446651E-02	1.77044137376E-01
1.70600000000E+09	-7.96249443836E-02	8.95668372156E-02	-6.19533824143E-02	4.05589204261E-02	-6.22424016577E-02	3.94724164611E-02	-9.74808526780E-03	1.79692278185E-01
1.70650000000E+09	-7.77000942502E-02	8.77342281064E-02	-6.10601205967E-02	4.18907493746E-02	-6.13881256191E-02	4.08083519529E-02	-5.41872967276E-03	1.82237259748E-01
1.70700000000E+09	-7.58961124743E-02	8.58094955551E-02	-6.01497874983E-02	4.32081552731E-02	-6.04807137403E-02	4.21378904526E-02	-1.00736012415E-03	1.84599319388E-01
1.70750000000E+09	-7.41859803760E-02	8.38110488145E-02	-5.92040009860E-02	4.45095963802E-02	-5.95646264833E-02	4.34422447165E-02	3.44296519417E-03	1.86860034843E-01
1.70800000000E+09	-7.25795363938E-02	8.17552043412E-02	-5.82267100691E-02	4.57876606603E-02	-5.86139405205E-02	4.47360132782E-02	8.01928485345E-03	1.88969499220E-01
1.70850000000E+09	-7.10652953734E-02	7.96089491283E-02	-5.72137087350E-02	4.70456734828E-02	-5.76370740659E-02	4.59941581638E-02	1.26450819822E-02	1.90941035432E-01
1.70900000000E+09	-6.96772323949E-02	7.74124895775E-02	-5.61901019843E-02	4.82795233230E-02	-5.66168387809E-02	4.72414817178E-02	1.73288789959E-02	1.92805896517E-01
1.70950000000E+09	-6.84000307317E-02	7.51796430132E-02	-5.51203579447E-02	4.94839971438E-02	-5.55840473164E-02	4.84576283025E-02	2.20696278323E-02	1.94479907618E-01
1.71000000000E+09	-6.72260470714E-02	7.28791324243E-02	-5.40346142471E-02	5.06825368138E-02	-5.45111640675E-02	4.96614469147E-02	2.68608745600E-02	1.96053240990E-01
1.71050000000E+09	-6.61546466577E-02	7.05322425556E-02	-5.29072620697E-02	5.18448968161E-02	-5.34113822893E-02	5.08385591319E-02	3.16994742838E-02	1.97435134328E-01
1.71100000000E+09	-6.51959681260E-02	6.81621144967E-02	-5.17619591011E-02	5.29931269947E-02	-5.22935713606E-02	5.19949735612E-02	3.66011380651E-02	1.98707272823E-01
1.71150000000E+09	-6.43494513139E-02	6.57651464982E-02	-5.06036706528E-02	5.40962648139E-02	-5.11424312837E-02	5.31084643932E-02	4.15294138017E-02	1.99807177812E-01
1.71200000000E+09	-6.36195889511E-02	6.33159633358E-02	-4.93912767721E-02	5.51785914588E-02	-4.99691850955E-02	5.42111720522E-02	4.65062510934E-02	2.00759986662E-01
1.71250000000E+09	-6.29983383437E-02	6.08487090262E-02	-4.81766840816E-02	5.62356372278E-02	-4.87714905707E-02	5.52775533182E-02	5.15050876778E-02	2.01583482997E-01
1.71300000000E+09	-6.24926014101E-02	5.83756030974E-02	-4.69221664014E-02	5.72676755506E-02	-4.75431645508E-02	5.63171811170E-02	5.65423949604E-02	2.02211623702E-01
1.71350000000E+09	-6.20952833747E-02	5.58634262008E-02	-4.56475276550E-02	5.82583337154E-02	-4.62948139467E-02	5.73335190331E-02	6.15791923174E-02	2.02749469126E-01
1.71400000000E+09	-6.18157047308E-02	5.33635215440E-02	-4.43655378812E-02	5.92296155871E-02	-4.50187844127E-02	5.83198641654E-02	6.66777808094E-02	2.03081094608E-01
1.71450000000E+09	-6.16319488282E-02	5.08472324799E-02	-4.30481431664E-02	6.01722630147E-02	-4.37313086651E-02	5.92780067829E-02	7.17655775595E-02	2.03276696281E-01
1.71500000000E+09	-6.15588837988E-02	4.83481274412E-02	-4.17121150624E-02	6.10902135549E-02	-4.24137271492E-02	6.02049325477E-02	7.68368270051E-02	2.03308279981E-01
1.71550000000E+09	-6.15840988390E-02	4.58312226658E-02	-4.03555684870E-02	6.19699502640E-02	-4.10747873321E-02	6.10898705231E-02	8.19297834863E-02	2.03208409667E-01
1.71600000000E+09	-6.17265755721E-02	4.33292360177E-02	-3.89831062611E-02	6.28105321898E-02	-3.97152404293E-02	6.19525204323E-02	8.70255266806E-02	2.02930991894E-01
1.71650000000E+09	-6.19769794950E-02	4.08518031971E-02	-3.75969970898E-02	6.36322155795E-02	-3.83518732734E-02	6.27948454285E-02	9.21281953955E-02	2.02512603696E-01
1.71700000000E+09	-6.22995283657E-02	3.83725778245E-02	-3.61791497336E-02	6.44096443232E-02	-3.69566978493E-02	6.35906450922E-02	9.72106873961E-02	2.01934676141E-01
1.71750000000E+09	-6.27383371857E-02	3.59142638724E-02	-3.47611597174E-02	6.51609681129E-02	-3.55541673146E-02	6.43544571016E-02	1.02258039076E-01	2.01205307345E-01
1.71800000000E+09	-6.32789835167E-02	3.34790958542E-02	-3.33058226629E-02	6.58822190604E-02	-3.41154138264E-02	6.50875701906E-02	1.07309573729E-01	2.00306545967E-01
1.71850000000E+09	-6.39207325444E-02	3.10705178237E-02	-3.18567759815E-02	6.65533659460E-02	-3.26825164316E-02	6.57984538195E-02	1.12348379709E-01	1.99276312097E-01
1.71900000000E+09	-6.46484433172E-02	2.86984467480E-02	-3.03796245645E-02	6.72056830311E-02	-3.12197996051E-02	6.64566711600E-02	1.17349736260E-01	1.98080661054E-01
1.71950000000E+09	-6.54685250868E-02	2.63423484386E-02	-2.88997149238E-02	6.78272325318E-02	-2.97576122702E-02	6.70928044171E-02	1.22288009576E-01	1.96742315666E-01
1.72000000000E+09	-6.63810809771E-02	2.40094773584E-02	-2.73953399897E-02	6.83963205118E-02	-2.82729674887E-02	6.76974231778E-02	1.27225670160E-01	1.95234163502E-01
1.72050000000E+09	-6.74016470393E-02	2.17352189750E-02	-2.58872235862E-02	6.89440430489E-02	-2.67882819942E-02	6.82555202237E-02	1.32087642033E-01	1.93605743960E-01
1.72100000000E+09	-6.84646504147E-02	1.94819525485E-02	-2.43689494670E-02	6.94544708749E-02	-2.52734092511E-02	6.87860021161E-02	1.36923828527E-01	1.91788121205E-01
1.72150000000E+09	-6.96572536698E-02	1.72817347646E-02	-2.28337678492E-02	6.99287410016E-02	-2.37600942488E-02	6.92893044963E-02	1.41708558360E-01	1.89863986998E-01
1.72200000000E+09	-7.09126426407E-02	1.51105381062E-02	-2.12965802070E-02	7.03748504246E-02	-2.22347421204E-02	6.97474022818E-02	1.46442395230E-01	1.87767975591E-01
1.72250000000E+09	-7.22558184677E-02	1.29847830550E-02	-1.97521448596E-02	7.07831443039E-02	-2.07008781335E-02	7.01727724022E-02	1.51104658828E-01	1.85525094711E-01
1.72300000000E+09	-7.36797592598E-02	1.09204908433E-02	-1.81994232031E-02	7.11534710735E-02	-1.91594641856E-02	7.05693286504E-02	1.55718735377E-01	1.83143602363E-01
1.72350000000E+09	-7.51840725353E-02	8.89907400142E-03	-1.66428024008E-02	7.14797469305E-02	-1.76082405218E-02	7.09256519411E-02	1.60237694789E-01	1.80630691457E-01
1.72400000000E+09	-7.67774136073E-02	6.92483228857E-03	-1.50696669930E-02	7.17830417326E-02	-1.60497136674E-02	7.12350842644E-02	1.64685285126E-01	1.77967463197E-01
1.72450000000E+09	-7.84341295864E-02	4.99304371924E-03	-1.34993774625E-02	7.20468087750E-02	-1.44908983151E-02	7.15272927858E-02	1.69058096209E-01	1.75207602353E-01
1.72500000000E+09	-8.01579443837E-02	3.13522015054E-03	-1.19392255452E-02	7.22647595993E-02	-1.29273446376E-02	7.17772501604E-02	1.73351713092E-01	1.72272163014E-01
1.72550000000E+09	-8.19628802019E-02	1.33541663845E-03	-1.03458270074E-02	7.24539544592E-02	-1.13614613687E-02	7.19759939503E-02	1.77546106474E-01	1.69206964360E-01
1.72600000000E+09	-8.38416672535E-02	-4.19333272594E-04	-8.77572342578E-03	7.26056682167E-02	-9.78921645693E-03	7.21588730078E-02	1.81687466739E-01	1.66015746994E-01
1.72650000000E+09	-8.57861368425E-02	-2.09717621760E-03	-7.19091850796E-03	7.27191876702E-02	-8.23284107981E-03	7.22989248598E-02	1.85711150682E-01	1.62702681070E-01
1.72700000000E+09	-8.78069943909E-02	-3.72439340464E-03	-5.60595542809E-03	7.28124834385E-02	-6.65774580450E-03	7.24078215047E-02	1.89650585436E-01	1.59273668885E-01
1.72750000000E+09	-8.98849980086E-02	-5.27881462135E-03	-4.02708684452E-03	7.28598683639E-02	-5.07998856386E-03	7.24816419970E-02	1.93486822376E-01	1.55695307359E-01
1.72800000000E+09	-9.20447084859E-02	-6.76771316850E-03	-2.45855911518E-03	7.28720087957E-02	-3.51471470510E-03	7.25119909413E-02	1.97203420781E-01	1.52019084632E-01
1.72850000000E+09	-9.42537800090E-02	-8.18297691770E-03	-8.80996048333E-04	7.28574025371E-02	-1.94544769031E-03	7.25149862014E-02	2.00807484255E-01	1.48209518346E-01
1.72900000000E+09	-9.65504782436E-02	-9.52934238176E-03	6.90014896134E-04	7.27829225280E-02	-3.78317534311E-04	7.24754591657E-02	2.04319213644E-01	1.44291127698E-01
1.72950000000E+09	-9.88918639053E-02	-1.08024747303E-02	2.25405667418E-03	7.27065163859E-02	1.18766715850E-03	7.24003497607E-02	2.07675355994E-01	1.40275957081E-01
1.73000000000E+09	-1.01294756632E-01	-1.19998401841E-02	3.82289903696E-03	7.25730668749E-02	2.74025600316E-03	7.22910532405E-02	2.10957988388E-01	1.36151669727E-01
1.73050000000E+09	-1.03757433043E-01	-1.31207014696E-02	5.37917759258E-03	7.24052751370E-02	4.29406273945E-03	7.21634626794E-02	2.14103756400E-01	1.31926579110E-01
1.73100000000E+09	-1.06283912888E-01	-1.41387336597E-02	6.92707349232E-03	7.22121555043E-02	5.83964588048E-03	7.19892101863E-02	2.17113239102E-01	1.27582043145E-01
1.73150000000E+09	-1.08868265291E-01	-1.50882237548E-02	8.47149563521E-03	7.19748321012E-02	7.37657887719E-03	7.17785225580E-02	2.20012887148E-01	1.23178627769E-01
1.73200000000E+09	-1.11490105258E-01	-1.59348440521E-02	1.00028651784E-02	7.17184969561E-02	8.90773523206E-03	7.15407292335E-02	2.22767343624E-01	1.18660940729E-01
1.73250000000E+09	-1.14166243024E-01	-1.67048055951E-02	1.15247139259E-02	7.14139708269E-02	1.04254483518E-02	7.12638955594E-02	2.25369751988E-01	1.14039398092E-01
1.73300000000E+09	-1.16890041807E-01	-1.73805455415E-02	1.30413465521E-02	7.10806155866E-02	1.19506809742E-02	7.09519266006E-02	2.27851932350E-01	1.09355040696E-01
1.73350000000E+09	-1.19646587561E-01	-1.79607439670E-02	1.45400345153E-02	7.07123223471E-02	1.34502042022E-02	7.06134721217E-02	2.30207065904E-01	1.04574080134E-01
1.73400000000E+09	-1.22472579996E-01	-1.84436412735E-02	1.60369040483E-02	7.03274375666E-02	1.49445807461E-02	7.02317334366E-02	2.32392032218E-01	9.97581319198E-02
1.73450000000E+09	-1.25316558681E-01	-1.88158219165E-02	1.75239362321E-02	6.98949375415E-02	1.64194889570E-02	6.98313137935E-02	2.34446695256E-01	9.48143672011E-02
1.73500000000E+09	-1.28197680384E-01	-1.90938692271E-02	1.89929080543E-02	6.94337015859E-02	1.78765365071E-02	6.93922534589E-02	2.36342148691E-01	8.98230015002E-02
1.73550000000E+09	-1.31097234232E-01	-1.92638142327E-02	2.04460545275E-02	6.89412836620E-02	1.93389450219E-02	6.89248986152E-02	2.38095439139E-01	8.47726892938E-02
1.73600000000E+09	-1.34055832871E-01	-1.93228336177E-02	2.18819028484E-02	6.84175809944E-02	2.07845584872E-02	6.84235866694E-02	2.39688069014E-01	7.96682857789E-02
1.73650000000E+09	-1.37032096544E-01	-1.92647039291E-02	2.32981549962E-02	6.78663848540E-02	2.22067819018E-02	6.78971232527E-02	2.41125785414E-01	7.44898413917E-02
1.73700000000E+09	-1.40029275555E-01	-1.91035435733E-02	2.47216179852E-02	6.72893481715E-02	2.36174137746E-02	6.73332048996E-02	2.42397757887E-01	6.92990194303E-02
1.73750000000E+09	-1.43018998802E-01	-1.88275974503E-02	2.61150764783E-02	6.66719448354E-02	2.50124717483E-02	6.67438908114E-02	2.43541488692E-01	6.40173924746E-02
1.73800000000E+09	-1.46038334559E-01	-1.84367596533E-02	2.74903175481E-02	6.60382553664E-02	2.63915574978E-02	6.61231258649E-02	2.44485622151E-01	5.87221973806E-02
1.73850000000E+09	-1.49071023852E-01	-1.79288447444E-02	2.88448053253E-02	6.53716839492E-02	2.77571246785E-02	6.54800256620E-02	2.45307107345E-01	5.33804687142E-02
1.73900000000E+09	-1.52095436837E-01	-1.72923683488E-02	3.01728996555E-02	6.46788386519E-02	2.90995162413E-02	6.47974705058E-02	2.45937977828E-01	4.80085686026E-02
1.73950000000E+09	-1.55119716820E-01	-1.65464036172E-02	3.15041228506E-02	6.39532645862E-02	3.04195678547E-02	6.41073452991E-02	2.46409956673E-01	4.26234562433E-02
1.74000000000E+09	-1.58150919655E-01	-1.56685207304E-02	3.28068728846E-02	6.32042851652E-02	3.17226462127E-02	6.33765587907E-02	2.46713167417E-01	3.72055257051E-02
1.74050000000E+09	-1.61155548854E-01	-1.46746082504E-02	3.40825718710E-02	6.24265264748E-02	3.30095776501E-02	6.26243183934E-02	2.46859197435E-01	3.17661982782E-02
1.74100000000E+09	-1.64167643373E-01	-1.35396216449E-02	3.53526910217E-02	6.16363606617E-02	3.42720059481E-02	6.18489787181E-02	2.46820006764E-01	2.63391296830E-02
1.74150000000E+09	-1.67132608837E-01	-1.22893145270E-02	3.65986842648E-02	6.08094253785E-02	3.55206347757E-02	6.10504873865E-02	2.46655656051E-01	2.08660658731E-02
1.74200000000E+09	-1.70068203994E-01	-1.09190518173E-02	3.78211816025E-02	5.99581309917E-02	3.67534574770E-02	6.02301007942E-02	2.46272755821E-01	1.54105155165E-02
1.74250000000E+09	-1.72979280585E-01	-9.41914591206E-03	3.90146803707E-02	5.90925908160E-02	3.79542357808E-02	5.93765158839E-02	2.45745213278E-01	9.97370569766E-03
1.74300000000E+09	-1.75866861422E-01	-7.80086721037E-03	4.01923981965E-02	5.81948730100E-02	3.91418533999E-02	5.84991100812E-02	2.45027716719E-01	4.51916594383E-03
1.74350000000E+09	-1.78694273332E-01	-6.04724041970E-03	4.13492444007E-02	5.72774147780E-02	4.02955151209E-02	5.76073856405E-02	2.44173358957E-01	-8.93863271052E-04
1.74400000000E+09	-1.81469640842E-01	-4.17596953367E-03	4.24832626513E-02	5.63447855205E-02	4.14344578214E-02	5.66840106562E-02	2.43102354773E-01	-6.30722145348E-03
1.74450000000E+09	-1.84201757440E-01	-2.16146043441E-03	4.35902986607E-02	5.53827555579E-02	4.25487495977E-02	5.57540887720E-02	2.41911181595E-01	-1.17013316615E-02
1.74500000000E+09	-1.86893375502E-01	-5.19345831765E-05	4.46764591276E-02	5.44139103141E-02	4.36469727239E-02	5.47962801812E-02	2.40528419215E-01	-1.70664857135E-02
1.74550000000E+09	-1.89477441498E-01	2.18597940859E-03	4.57395589673E-02	5.34234585387E-02	4.47133952249E-02	5.38230355201E-02	2.38966445842E-01	-2.23675631654E-02
1.74600000000E+09	-1.92008482593E-01	4.57616587398E-03	4.67796682380E-02	5.24084508669E-02	4.57594414849E-02	5.28408952070E-02	2.37259953155E-01	-2.76690287264E-02
1.74650000000E+09	-1.94471469558E-01	7.05917706935E-03	4.77871529449E-02	5.13755028387E-02	4.67809281415E-02	5.18281732898E-02	2.35354410759E-01	-3.28858356429E-02
1.74700000000E+09	-1.96847572325E-01	9.66423469161E-03	4.87757375290E-02	5.03306818870E-02	4.77659000371E-02	5.08024354204E-02	2.33313811104E-01	-3.80641162351E-02
1.74750000000E+09	-1.99102964629E-01	1.23825258745E-02	4.97475582013E-02	4.92631877305E-02	4.87505958543E-02	4.97565271858E-02	2.31092672344E-01	-4.32006794022E-02
1.74800000000E+09	-2.01286180897E-01	1.52313021062E-02	5.06943126204E-02	4.81806985708E-02	4.97030504311E-02	4.87082530775E-02	2.28735215403E-01	-4.82633640884E-02
1.74850000000E+09	-2.03361686371E-01	1.81831891904E-02	5.16016556714E-02	4.71001198717E-02	5.06302795261E-02	4.76284734804E-02	2.26177242598E-01	-5.32598848576E-02
1.74900000000E+09	-2.05316329666E-01	2.12373359947E-02	5.24928803690E-02	4.59889203328E-02	5.15317490185E-02	4.65405982748E-02	2.23474488533E-01	-5.82125281016E-02
1.74950000000E+09	-2.07158677131E-01	2.43915030873E-02	5.33687593147E-02	4.48747244864E-02	5.24090416676E-02	4.54376332800E-02	2.20610889584E-01	-6.30294030476E-02
1.75000000000E+09	-2.08862112959E-01	2.76511178608E-02	5.42128208404E-02	4.37314577211E-02	5.32722968843E-02	4.43312880677E-02	2.17563716805E-01	-6.78168673465E-02
1.75050000000E+09	-2.10444636214E-01	3.09974366436E-02	5.50381139049E-02	4.25897524692E-02	5.40976451614E-02	4.31960244839E-02	2.14414397997E-01	-7.24803807353E-02
1.75100000000E+09	-2.11888089951E-01	3.44353827459E-02	5.58339242504E-02	4.14273788258E-02	5.49078144312E-02	4.20605564103E-02	2.11091431647E-01	-7.70815303939E-02
1.75150000000E+09	-2.13185688059E-01	3.79450788725E-02	5.66079466919E-02	4.02641828165E-02	5.56875706362E-02	4.09153608487E-02	2.07608286082E-01	-8.15740310381E-02
1.75200000000E+09	-2.14334340462E-01	4.15276128299E-02	5.73548267681E-02	3.90871396523E-02	5.64481138911E-02	3.97672717400E-02	2.03988926490E-01	-8.59670198695E-02
1.75250000000E+09	-2.15329024124E-01	4.51642911573E-02	5.80727819854E-02	3.79067168145E-02	5.71848231891E-02	3.85925010931E-02	2.00225420776E-01	-9.02535723810E-02
1.75300000000E+09	-2.16159235917E-01	4.88705477278E-02	5.87855886987E-02	3.67068229065E-02	5.78966902027E-02	3.74090022186E-02	1.96300979691E-01	-9.44337969651E-02
1.75350000000E+09	-2.16828106775E-01	5.26276987158E-02	5.94593060170E-02	3.54997575161E-02	5.85955453512E-02	3.62193509224E-02	1.92292116225E-01	-9.84915825503E-02
1.75400000000E+09	-2.17331139942E-01	5.64266211057E-02	6.01102830339E-02	3.42836006141E-02	5.92645643466E-02	3.50226651106E-02	1.88103021962E-01	-1.02424585290E-01
1.75450000000E+09	-2.17653929304E-01	6.02737994081E-02	6.07521185675E-02	3.30551783883E-02	5.99076955133E-02	3.38195568534E-02	1.83781052963E-01	-1.06242271853E-01
1.75500000000E+09	-2.17814997439E-01	6.41201067242E-02	6.13469704654E-02	3.18257856790E-02	6.05294543557E-02	3.26028829843E-02	1.79347398030E-01	-1.09938398442E-01
1.75550000000E+09	-2.17809480522E-01	6.79969897282E-02	6.19430064731E-02	3.05888850879E-02	6.11351573942E-02	3.13819164482E-02	1.74792345589E-01	-1.13465620665E-01
1.75600000000E+09	-2.17622178206E-01	7.19031620333E-02	6.25015423916E-02	2.93386588516E-02	6.17204906802E-02	3.01561462094E-02	1.70107887636E-01	-1.16890424325E-01
1.75650000000E+09	-2.17227831185E-01	7.57896107506E-02	6.30489752526E-02	2.80918367782E-02	6.22733780170E-02	2.89199417492E-02	1.65328879382E-01	-1.20147875457E-01
1.75700000000E+09	-2.16678015177E-01	7.96732169588E-02	6.35798306011E-02	2.68136964003E-02	6.28188099235E-02	2.76781334130E-02	1.60421900810E-01	-1.23283073814E-01
1.75750000000E+09	-2.15925762667E-01	8.35336371911E-02	6.40786725081E-02	2.55585677985E-02	6.33323926624E-02	2.64307319333E-02	1.55412117135E-01	-1.26248291351E-01
1.75800000000E+09	-2.14967545799E-01	8.73452880159E-02	6.45568988206E-02	2.42749612114E-02	6.38318930524E-02	2.51805668618E-02	1.50308831229E-01	-1.29074191964E-01
1.75850000000E+09	-2.13841699780E-01	9.11367679539E-02	6.50198406024E-02	2.30035795692E-02	6.43064005976E-02	2.39105663303E-02	1.45087824451E-01	-1.31729469814E-01
1.75900000000E+09	-2.12518503821E-01	9.48418111945E-02	6.54585975994E-02	2.17118032792E-02	6.47635625882E-02	2.26431612637E-02	1.39804175970E-01	-1.34237346926E-01
