# Hz S RI R 50
! CMT, CMT808U, 21440046, 21.4.3/4
! Date: 6/12/2026 9:33:09 AM
! Data: Format (Calibration Info)
! Freq	S11:Re/Im(F2)	S41:Re/Im(F2)	S14:Re/Im(F2)	S44:Re/Im(F2)
1.70000000000E+09	-1.15802335703E-01	1.09776387114E-01	-7.06423536589E-02	1.36219590688E-02	-7.05179300229E-02	1.25696780349E-02	-7.19445574429E-02	1.22119672754E-01
1.70050000000E+09	-1.12644681903E-01	1.09678266254E-01	-7.03776648321E-02	1.51116504120E-02	-7.02653740463E-02	1.40637054343E-02	-6.96056105679E-02	1.26131180929E-01
1.70100000000E+09	-1.09526144813E-01	1.09402225631E-01	-7.00644263111E-02	1.66143519043E-02	-6.99815973959E-02	1.55575842381E-02	-6.71386575256E-02	1.30084116756E-01
1.70150000000E+09	-1.06431733346E-01	1.08963445249E-01	-6.97183991238E-02	1.81007448115E-02	-6.96677347807E-02	1.70566837547E-02	-6.45383367923E-02	1.33954580846E-01
1.70200000000E+09	-1.03375068055E-01	1.08393629014E-01	-6.93484351610E-02	1.96021306632E-02	-6.93056161151E-02	1.85289796892E-02	-6.18028256271E-02	1.37709376002E-01
1.70250000000E+09	-1.00361482761E-01	1.07645554313E-01	-6.89363763451E-02	2.10824801301E-02	-6.89278711674E-02	2.00061015410E-02	-5.89533644060E-02	1.41433493476E-01
1.70300000000E+09	-9.74139755002E-02	1.06736688204E-01	-6.85010891346E-02	2.25531537194E-02	-6.85090142976E-02	2.14844337962E-02	-5.59982343189E-02	1.45064644124E-01
1.70350000000E+09	-9.45288334315E-02	1.05711376050E-01	-6.80310244916E-02	2.40278241653E-02	-6.80589310492E-02	2.29513421464E-02	-5.29137631051E-02	1.48606776086E-01
1.70400000000E+09	-9.17110076431E-02	1.04508617633E-01	-6.75227019780E-02	2.54794788806E-02	-6.75788403218E-02	2.44158564049E-02	-4.97210650913E-02	1.52040958989E-01
1.70450000000E+09	-8.89513431225E-02	1.03197769784E-01	-6.69912128268E-02	2.69438248098E-02	-6.70651364947E-02	2.58660925255E-02	-4.64136498763E-02	1.55409771912E-01
1.70500000000E+09	-8.62973439831E-02	1.01753193823E-01	-6.64124092628E-02	2.83690383889E-02	-6.65160775285E-02	2.73144910784E-02	-4.29882351747E-02	1.58660369979E-01
1.70550000000E+09	-8.37031347674E-02	1.00158525955E-01	-6.58118653056E-02	2.98075662230E-02	-6.59307375830E-02	2.87390793717E-02	-3.94619804206E-02	1.61811393567E-01
1.70600000000E+09	-8.12163920292E-02	9.84619850681E-02	-6.51779753171E-02	3.12309529801E-02	-6.53151692857E-02	3.01610153133E-02	-3.58435461581E-02	1.64840639147E-01
1.70650000000E+09	-7.88075631821E-02	9.66605363286E-02	-6.45077172161E-02	3.26392858862E-02	-6.46741198745E-02	3.15706565343E-02	-3.21102756093E-02	1.67778827907E-01
1.70700000000E+09	-7.65064876024E-02	9.47393609545E-02	-6.38019406956E-02	3.40283709512E-02	-6.39939876913E-02	3.29772577816E-02	-2.82950228069E-02	1.70603378979E-01
1.70750000000E+09	-7.43018908045E-02	9.27168238711E-02	-6.30652229751E-02	3.54146973216E-02	-6.32784504007E-02	3.43505300281E-02	-2.43916782226E-02	1.73306118905E-01
1.70800000000E+09	-7.22026172957E-02	9.05934083547E-02	-6.22992054293E-02	3.67726821988E-02	-6.25375205022E-02	3.57149832543E-02	-2.03707561930E-02	1.75896243915E-01
1.70850000000E+09	-7.02090400929E-02	8.83764899128E-02	-6.14996457137E-02	3.81290877803E-02	-6.17604515788E-02	3.70673278915E-02	-1.62750348164E-02	1.78379379639E-01
1.70900000000E+09	-6.83301868208E-02	8.60721992662E-02	-6.06752423001E-02	3.94538656873E-02	-6.09591489970E-02	3.84045438876E-02	-1.21170111428E-02	1.80737693056E-01
1.70950000000E+09	-6.65677418186E-02	8.36921657015E-02	-5.98140366682E-02	4.07716640351E-02	-6.01222930577E-02	3.97286262542E-02	-7.87931475125E-03	1.82946160694E-01
1.71000000000E+09	-6.49174937488E-02	8.12234284736E-02	-5.89234950984E-02	4.20660762609E-02	-5.92581705513E-02	4.10349014510E-02	-3.55429861459E-03	1.85058577218E-01
1.71050000000E+09	-6.33963606164E-02	7.86875045553E-02	-5.79993784082E-02	4.33414598814E-02	-5.83487889797E-02	4.23124843154E-02	8.36173961861E-04	1.87019186888E-01
1.71100000000E+09	-6.19829253809E-02	7.60877021520E-02	-5.70461971580E-02	4.45973733615E-02	-5.74231627253E-02	4.35646854100E-02	5.27356151591E-03	1.88846869679E-01
1.71150000000E+09	-6.07031478852E-02	7.34424258839E-02	-5.60588515631E-02	4.58250408710E-02	-5.64629175221E-02	4.48161492732E-02	9.81088377852E-03	1.90547520327E-01
1.71200000000E+09	-5.95387212894E-02	7.07261645312E-02	-5.50536869298E-02	4.70383746952E-02	-5.54714341348E-02	4.60369376886E-02	1.43857260582E-02	1.92121788099E-01
1.71250000000E+09	-5.85124384421E-02	6.79572234363E-02	-5.40138373579E-02	4.82217913182E-02	-5.44658587924E-02	4.72259776437E-02	1.90017230118E-02	1.93541006485E-01
1.71300000000E+09	-5.76020063499E-02	6.51655583067E-02	-5.29588728971E-02	4.93951530400E-02	-5.34240104787E-02	4.84043259776E-02	2.36876754933E-02	1.94817864230E-01
1.71350000000E+09	-5.68237858621E-02	6.23209093412E-02	-5.18560607002E-02	5.05320120952E-02	-5.23462173862E-02	4.95549391780E-02	2.83990334259E-02	1.95975549199E-01
1.71400000000E+09	-5.61759326438E-02	5.94575252565E-02	-5.07371600304E-02	5.16546250797E-02	-5.12507836381E-02	5.06784134479E-02	3.31707758865E-02	1.96961447735E-01
1.71450000000E+09	-5.56663718659E-02	5.65653353818E-02	-4.95909128846E-02	5.27361290206E-02	-5.01346839262E-02	5.17848582437E-02	3.79730236776E-02	1.97836101298E-01
1.71500000000E+09	-5.52741736137E-02	5.36523817448E-02	-4.84155846373E-02	5.38056350262E-02	-4.89858963808E-02	5.28634328309E-02	4.28040234462E-02	1.98540986068E-01
1.71550000000E+09	-5.50079657737E-02	5.07277162108E-02	-4.72294939690E-02	5.48368126350E-02	-4.78046559141E-02	5.39042712582E-02	4.76570103951E-02	1.99097215297E-01
1.71600000000E+09	-5.48780365755E-02	4.77933061732E-02	-4.60123042236E-02	5.58395350299E-02	-4.66159503313E-02	5.49261396570E-02	5.25416419695E-02	1.99539356925E-01
1.71650000000E+09	-5.48852545773E-02	4.48768252967E-02	-4.47757934311E-02	5.68186821977E-02	-4.54032451866E-02	5.59050390239E-02	5.74297050177E-02	1.99790557897E-01
1.71700000000E+09	-5.50058346882E-02	4.19370033866E-02	-4.35125297446E-02	5.77767218290E-02	-4.41485732262E-02	5.68822695558E-02	6.23521875785E-02	1.99915582166E-01
1.71750000000E+09	-5.52442972317E-02	3.90091518191E-02	-4.22302265750E-02	5.86936620880E-02	-4.28914701789E-02	5.78165784401E-02	6.72385147399E-02	1.99884897461E-01
1.71800000000E+09	-5.56286836732E-02	3.60960313271E-02	-4.09294170666E-02	5.95857862369E-02	-4.16105409578E-02	5.87107501906E-02	7.21860445265E-02	1.99716635815E-01
1.71850000000E+09	-5.61273463824E-02	3.31925350556E-02	-3.96030225017E-02	6.04348371962E-02	-4.03016113342E-02	5.95923403307E-02	7.71225617265E-02	1.99390773982E-01
1.71900000000E+09	-5.67485260950E-02	3.03278993227E-02	-3.82637714782E-02	6.12656075833E-02	-3.89699092312E-02	6.04375083884E-02	8.20484350726E-02	1.98902616239E-01
1.71950000000E+09	-5.74896859818E-02	2.74728916648E-02	-3.69058713607E-02	6.20565032759E-02	-3.76416262273E-02	6.12416364169E-02	8.69612545294E-02	1.98274886077E-01
1.72000000000E+09	-5.83631740310E-02	2.46481877779E-02	-3.55278762412E-02	6.28358507507E-02	-3.62752213616E-02	6.20307686659E-02	9.18530494634E-02	1.97504444270E-01
1.72050000000E+09	-5.93461250454E-02	2.18667103926E-02	-3.41315030167E-02	6.35548653053E-02	-3.49111398823E-02	6.27709383162E-02	9.67192340517E-02	1.96583247737E-01
1.72100000000E+09	-6.04431072338E-02	1.91283038279E-02	-3.27264179745E-02	6.42650118638E-02	-3.35204985129E-02	6.34944929818E-02	1.01571618460E-01	1.95522335970E-01
1.72150000000E+09	-6.16409146432E-02	1.64266183287E-02	-3.13045480624E-02	6.49293775578E-02	-3.21100726603E-02	6.41785510314E-02	1.06414328006E-01	1.94287829911E-01
1.72200000000E+09	-6.29718440201E-02	1.37687472744E-02	-2.98612025886E-02	6.55591107615E-02	-3.06961464163E-02	6.48435436761E-02	1.11233524199E-01	1.92905764303E-01
1.72250000000E+09	-6.44030053809E-02	1.11634161605E-02	-2.84190805206E-02	6.61594356168E-02	-2.92589894681E-02	6.54497456609E-02	1.15996627153E-01	1.91386214339E-01
1.72300000000E+09	-6.59289051704E-02	8.60946168784E-03	-2.69623728851E-02	6.67220993681E-02	-2.78127297985E-02	6.60445334612E-02	1.20729001565E-01	1.89721100186E-01
1.72350000000E+09	-6.75807868374E-02	6.12845214626E-03	-2.54881880028E-02	6.72514006348E-02	-2.63470189374E-02	6.65925299271E-02	1.25412366102E-01	1.87919544068E-01
1.72400000000E+09	-6.93436581641E-02	3.70562647958E-03	-2.40007856736E-02	6.77559917894E-02	-2.48851035069E-02	6.71080950546E-02	1.30035360324E-01	1.85954810974E-01
1.72450000000E+09	-7.12095922985E-02	1.33397304292E-03	-2.25227181492E-02	6.82126495434E-02	-2.34070072766E-02	6.75906514116E-02	1.34602821368E-01	1.83893451317E-01
1.72500000000E+09	-7.31460976847E-02	-9.50622294615E-04	-2.10264712171E-02	6.86458300319E-02	-2.19265518148E-02	6.80507617944E-02	1.39114738526E-01	1.81641227006E-01
1.72550000000E+09	-7.51907377934E-02	-3.17208234530E-03	-1.95203801484E-02	6.90462473413E-02	-2.04290357947E-02	6.84610202103E-02	1.43565156848E-01	1.79254995007E-01
1.72600000000E+09	-7.73306804085E-02	-5.31072246145E-03	-1.79935920331E-02	6.93998200686E-02	-1.89199126329E-02	6.88394895412E-02	1.47964218650E-01	1.76738406490E-01
1.72650000000E+09	-7.95628589972E-02	-7.37843272054E-03	-1.64716703101E-02	6.97264952797E-02	-1.74185948034E-02	6.91787292935E-02	1.52259337808E-01	1.74088796521E-01
1.72700000000E+09	-8.18845067067E-02	-9.36013103664E-03	-1.49483167493E-02	7.00285909068E-02	-1.59033611616E-02	6.94995643413E-02	1.56520678309E-01	1.71322237046E-01
1.72750000000E+09	-8.42822682939E-02	-1.12488033823E-02	-1.34289390210E-02	7.02860594851E-02	-1.43806284418E-02	6.97752757380E-02	1.60689713687E-01	1.68396032495E-01
1.72800000000E+09	-8.67741564263E-02	-1.30564761351E-02	-1.18887425279E-02	7.04963559107E-02	-1.28741691595E-02	7.00213179963E-02	1.64766455248E-01	1.65354989956E-01
1.72850000000E+09	-8.93314315342E-02	-1.47714554415E-02	-1.03623424361E-02	7.06861766973E-02	-1.13483640289E-02	7.02194715667E-02	1.68745971497E-01	1.62175940034E-01
1.72900000000E+09	-9.19731693369E-02	-1.63805500549E-02	-8.83304758602E-03	7.08316241229E-02	-9.81603343295E-03	7.04016280694E-02	1.72662435223E-01	1.58873939788E-01
1.72950000000E+09	-9.46803895230E-02	-1.79041980902E-02	-7.29117456280E-03	7.09605803873E-02	-8.29234495674E-03	7.05407996470E-02	1.76453434066E-01	1.55450045720E-01
1.73000000000E+09	-9.74637414367E-02	-1.93369393444E-02	-5.76871358856E-03	7.10371596938E-02	-6.76386597543E-03	7.06458408732E-02	1.80154028218E-01	1.51912805150E-01
1.73050000000E+09	-1.00308011642E-01	-2.06559080682E-02	-4.22154144455E-03	7.10873650652E-02	-5.23414485146E-03	7.07112724217E-02	1.83758753610E-01	1.48259609498E-01
1.73100000000E+09	-1.03217426785E-01	-2.18519926242E-02	-2.69116408086E-03	7.11068410580E-02	-3.70700636384E-03	7.07474127928E-02	1.87241108472E-01	1.44468947925E-01
1.73150000000E+09	-1.06177332648E-01	-2.29677709225E-02	-1.16433693042E-03	7.10812662460E-02	-2.18761251116E-03	7.07513840406E-02	1.90638976886E-01	1.40589782946E-01
1.73200000000E+09	-1.09208251287E-01	-2.39583668088E-02	3.63813827783E-04	7.10303441706E-02	-6.69628259914E-04	7.07234063224E-02	1.93906071907E-01	1.36612206355E-01
1.73250000000E+09	-1.12281302491E-01	-2.48356068964E-02	1.88897752068E-03	7.09423471177E-02	8.49933802180E-04	7.06541428547E-02	1.97059013421E-01	1.32499883885E-01
1.73300000000E+09	-1.15392457314E-01	-2.56139429544E-02	3.40734432339E-03	7.08246915993E-02	2.36098672924E-03	7.05529344129E-02	2.00087646254E-01	1.28311951120E-01
1.73350000000E+09	-1.18550286405E-01	-2.62502547195E-02	4.91510211198E-03	7.06659669190E-02	3.86767767149E-03	7.04184494982E-02	2.03001170166E-01	1.24024929689E-01
1.73400000000E+09	-1.21783689609E-01	-2.67952313700E-02	6.41616002657E-03	7.04897691892E-02	5.37126927013E-03	7.02625659938E-02	2.05772678626E-01	1.19636308707E-01
1.73450000000E+09	-1.24997935242E-01	-2.72000335822E-02	7.90496724016E-03	7.02523054879E-02	6.85926911689E-03	7.00684278887E-02	2.08435523989E-01	1.15158252435E-01
1.73500000000E+09	-1.28277262909E-01	-2.74793319373E-02	9.39395808852E-03	7.00062320878E-02	8.34041966880E-03	6.98280278609E-02	2.10931986485E-01	1.10557402041E-01
1.73550000000E+09	-1.31579756063E-01	-2.76375892444E-02	1.08852938193E-02	6.97168941436E-02	9.82019280693E-03	6.95614245385E-02	2.13326038635E-01	1.05920298567E-01
1.73600000000E+09	-1.34903557931E-01	-2.76767017194E-02	1.23494382283E-02	6.94009873480E-02	1.12909111146E-02	6.92797499587E-02	2.15561914815E-01	1.01184498094E-01
1.73650000000E+09	-1.38242757784E-01	-2.75815761614E-02	1.38099367233E-02	6.90537047649E-02	1.27488206653E-02	6.89437024425E-02	2.17656534627E-01	9.63666452600E-02
1.73700000000E+09	-1.41596733621E-01	-2.73459125907E-02	1.52652566914E-02	6.86855370107E-02	1.41984579982E-02	6.85903848032E-02	2.19607701122E-01	9.14948655388E-02
1.73750000000E+09	-1.44943440355E-01	-2.70019601520E-02	1.66953813324E-02	6.82768761355E-02	1.56345331849E-02	6.82115139618E-02	2.21418044839E-01	8.65520044614E-02
1.73800000000E+09	-1.48303727057E-01	-2.65117487944E-02	1.81139202655E-02	6.78449323162E-02	1.70630650444E-02	6.77890220922E-02	2.23067758140E-01	8.15413119952E-02
1.73850000000E+09	-1.51685335177E-01	-2.58865824024E-02	1.95355174270E-02	6.73749725207E-02	1.84659852581E-02	6.73404697116E-02	2.24589306421E-01	7.64685406728E-02
1.73900000000E+09	-1.55036431286E-01	-2.51390382201E-02	2.09272923114E-02	6.68739636608E-02	1.98763815732E-02	6.68677575748E-02	2.25924810351E-01	7.13526123477E-02
1.73950000000E+09	-1.58373238724E-01	-2.42622161077E-02	2.23171055317E-02	6.63588716041E-02	2.12425679564E-02	6.63643491672E-02	2.27125752839E-01	6.61713748445E-02
1.74000000000E+09	-1.61707028287E-01	-2.32285275269E-02	2.36785447938E-02	6.57967988054E-02	2.26191442586E-02	6.58346055395E-02	2.28157671314E-01	6.09721003744E-02
1.74050000000E+09	-1.65008627861E-01	-2.20724784721E-02	2.50316181383E-02	6.52083127751E-02	2.39733616450E-02	6.52686304396E-02	2.29034019193E-01	5.57107972361E-02
1.74100000000E+09	-1.68290800353E-01	-2.07823010064E-02	2.63742500302E-02	6.46131116002E-02	2.53144242417E-02	6.46809612900E-02	2.29746987133E-01	5.04383373399E-02
1.74150000000E+09	-1.71531963160E-01	-1.93628789661E-02	2.76963348139E-02	6.39742090036E-02	2.66405826618E-02	6.40700417050E-02	2.30325556738E-01	4.50934139784E-02
1.74200000000E+09	-1.74742476065E-01	-1.78037094986E-02	2.90072432523E-02	6.33136061636E-02	2.79374970864E-02	6.34251728877E-02	2.30697591537E-01	3.97414011951E-02
1.74250000000E+09	-1.77923430099E-01	-1.61105340023E-02	3.02842004929E-02	6.26224332115E-02	2.92257371077E-02	6.27571426150E-02	2.30928739478E-01	3.43940375619E-02
1.74300000000E+09	-1.81024233301E-01	-1.42743866127E-02	3.15554332881E-02	6.19108603121E-02	3.05034281367E-02	6.20713837967E-02	2.30998230947E-01	2.90075981512E-02
1.74350000000E+09	-1.84091203235E-01	-1.23350522472E-02	3.28026046975E-02	6.11648213250E-02	3.17513705393E-02	6.13557158688E-02	2.30899854962E-01	2.36154729235E-02
1.74400000000E+09	-1.87078256787E-01	-1.02301916534E-02	3.40300191363E-02	6.04139851379E-02	3.29808405385E-02	6.06160596797E-02	2.30598677917E-01	1.82202290337E-02
1.74450000000E+09	-1.90030692708E-01	-8.00843928175E-03	3.52462872900E-02	5.96368706676E-02	3.41960479710E-02	5.98403295378E-02	2.30172276362E-01	1.28255571163E-02
1.74500000000E+09	-1.92906530989E-01	-5.67464799268E-03	3.64319109394E-02	5.88187949265E-02	3.53882479493E-02	5.90713531854E-02	2.29559754362E-01	7.42506240758E-03
1.74550000000E+09	-1.95681505552E-01	-3.18565436500E-03	3.75991459540E-02	5.79830778109E-02	3.65610729764E-02	5.82591609429E-02	2.28794734575E-01	2.03882549675E-03
1.74600000000E+09	-1.98397775483E-01	-5.69546339456E-04	3.87608305476E-02	5.71454171829E-02	3.77197925108E-02	5.74218572621E-02	2.27854930742E-01	-3.32475822306E-03
1.74650000000E+09	-2.01011318749E-01	2.16593469703E-03	3.98769172556E-02	5.62722898464E-02	3.88562718828E-02	5.65802776728E-02	2.26731143314E-01	-8.66998994622E-03
1.74700000000E+09	-2.03527108395E-01	5.01289020873E-03	4.10023794756E-02	5.53765951703E-02	3.99647163517E-02	5.57028594355E-02	2.25446775701E-01	-1.39860875378E-02
1.74750000000E+09	-2.05949374617E-01	7.97764900251E-03	4.20802926195E-02	5.44693242877E-02	4.10704080503E-02	5.48157135019E-02	2.23988959841E-01	-1.92815930391E-02
1.74800000000E+09	-2.08254165714E-01	1.10732979454E-02	4.31515031744E-02	5.35437671612E-02	4.21365836739E-02	5.39021733160E-02	2.22393096490E-01	-2.45359205458E-02
1.74850000000E+09	-2.10461186825E-01	1.42719095220E-02	4.41969854076E-02	5.25908521829E-02	4.31875574736E-02	5.29783700308E-02	2.20604179259E-01	-2.97332970548E-02
1.74900000000E+09	-2.12508643822E-01	1.75796354597E-02	4.52234326690E-02	5.16192128718E-02	4.42162305810E-02	5.20325469581E-02	2.18662612876E-01	-3.49311538427E-02
1.74950000000E+09	-2.14461148640E-01	2.09884549236E-02	4.62240656042E-02	5.06451680059E-02	4.52287244733E-02	5.10680912006E-02	2.16549875274E-01	-4.00313695890E-02
1.75000000000E+09	-2.16247010556E-01	2.45108927258E-02	4.72034711557E-02	4.96421427383E-02	4.62105597325E-02	5.00876707977E-02	2.14251891836E-01	-4.50885222134E-02
1.75050000000E+09	-2.17908314059E-01	2.81114251708E-02	4.81471336332E-02	4.86325800443E-02	4.71749865210E-02	4.91008783836E-02	2.11829120200E-01	-5.00601648581E-02
1.75100000000E+09	-2.19429727746E-01	3.18150909623E-02	4.90959298346E-02	4.75931399106E-02	4.81229480456E-02	4.80856044061E-02	2.09227359380E-01	-5.49936466572E-02
1.75150000000E+09	-2.20777193191E-01	3.55735653926E-02	5.00019578370E-02	4.65513346731E-02	4.90429118853E-02	4.70570226258E-02	2.06467868176E-01	-5.98536639251E-02
1.75200000000E+09	-2.21981919978E-01	3.94027197053E-02	5.08918386962E-02	4.54893816065E-02	4.99403069396E-02	4.60178023401E-02	2.03543214509E-01	-6.46344091069E-02
1.75250000000E+09	-2.23019487046E-01	4.33248263008E-02	5.17636615683E-02	4.44124983899E-02	5.08198655303E-02	4.49716964845E-02	2.00483253980E-01	-6.93086215383E-02
1.75300000000E+09	-2.23876801009E-01	4.72870320257E-02	5.26004082120E-02	4.33277458490E-02	5.16708203280E-02	4.38985568924E-02	1.97253378595E-01	-7.39226601124E-02
1.75350000000E+09	-2.24566650161E-01	5.13161213959E-02	5.34342648009E-02	4.22276405302E-02	5.25026561426E-02	4.28240157760E-02	1.93901648537E-01	-7.84338414350E-02
1.75400000000E+09	-2.25098603016E-01	5.53741364783E-02	5.42212157140E-02	4.11107042616E-02	5.33130339098E-02	4.17185132140E-02	1.90377844464E-01	-8.28360487945E-02
1.75450000000E+09	-2.25442451532E-01	5.94718022605E-02	5.50123389630E-02	3.99911606399E-02	5.40973823986E-02	4.06235652456E-02	1.86710933248E-01	-8.71312000899E-02
1.75500000000E+09	-2.25591063442E-01	6.35736426339E-02	5.57628354025E-02	3.88492961559E-02	5.48684735695E-02	3.94919910376E-02	1.82900443105E-01	-9.13437816037E-02
1.75550000000E+09	-2.25572721509E-01	6.77148587512E-02	5.64898683694E-02	3.77064319354E-02	5.56058266246E-02	3.83730014904E-02	1.78968220520E-01	-9.54161450877E-02
1.75600000000E+09	-2.25342833259E-01	7.18651369266E-02	5.72066999458E-02	3.65499733386E-02	5.63409262650E-02	3.72397869460E-02	1.74884925898E-01	-9.93903626238E-02
1.75650000000E+09	-2.24930871953E-01	7.60075285402E-02	5.78934100959E-02	3.53794634078E-02	5.70394249909E-02	3.60863471014E-02	1.70683590016E-01	-1.03240034456E-01
1.75700000000E+09	-2.24331711219E-01	8.01183855738E-02	5.85617172069E-02	3.42003903297E-02	5.77185316804E-02	3.49300560948E-02	1.66328857666E-01	-1.06965303552E-01
1.75750000000E+09	-2.23533999216E-01	8.42382012468E-02	5.92090260949E-02	3.30290405648E-02	5.83755671083E-02	3.37574898898E-02	1.61889599993E-01	-1.10554107101E-01
1.75800000000E+09	-2.22520145080E-01	8.83097629718E-02	5.98374327212E-02	3.18239908853E-02	5.90225947156E-02	3.25912690473E-02	1.57298014181E-01	-1.14010664583E-01
1.75850000000E+09	-2.21325279387E-01	9.23362282000E-02	6.04360972155E-02	3.06162348588E-02	5.96395259457E-02	3.13938147131E-02	1.52604119228E-01	-1.17322523328E-01
1.75900000000E+09	-2.19941245445E-01	9.62855623169E-02	6.10174083453E-02	2.94043070972E-02	6.02373790775E-02	3.02064588982E-02	1.47800971879E-01	-1.20492740010E-01
