# Hz S RI R 50
! CMT, CMT808U, 21440046, 21.4.3/4
! Date: 6/12/2026 9:39:45 AM
! Data: Format (Calibration Info)
! Freq	S11:Re/Im(F2)	S41:Re/Im(F2)	S14:Re/Im(F2)	S44:Re/Im(F2)
1.70000000000E+09	-1.09480027693E-01	1.03424436374E-01	-6.55626224708E-02	2.63357310776E-02	-6.56491357791E-02	2.52750190465E-02	-7.18604633903E-02	1.35612496330E-01
1.70050000000E+09	-1.06654835394E-01	1.03039968211E-01	-6.50247542316E-02	2.77284322215E-02	-6.51235887979E-02	2.66686348745E-02	-6.90508911154E-02	1.39979327141E-01
1.70100000000E+09	-1.03879777017E-01	1.02487282111E-01	-6.44486634295E-02	2.91173807327E-02	-6.45709025656E-02	2.80588388407E-02	-6.60898155686E-02	1.44279538734E-01
1.70150000000E+09	-1.01138156731E-01	1.01793875228E-01	-6.38329273509E-02	3.04926685219E-02	-6.39847214422E-02	2.94259085940E-02	-6.29862798305E-02	1.48469730117E-01
1.70200000000E+09	-9.84711689149E-02	1.00970796701E-01	-6.31864704333E-02	3.18520140328E-02	-6.33638352013E-02	3.07961199944E-02	-5.97472201837E-02	1.52531891695E-01
1.70250000000E+09	-9.58528760581E-02	1.00013672418E-01	-6.25112365656E-02	3.32108508896E-02	-6.27151789558E-02	3.21584265831E-02	-5.63721407319E-02	1.56547850023E-01
1.70300000000E+09	-9.33140502178E-02	9.88988109270E-02	-6.18262894246E-02	3.45463206590E-02	-6.20333117213E-02	3.35040694988E-02	-5.28975937028E-02	1.60430323896E-01
1.70350000000E+09	-9.08384158604E-02	9.76820850700E-02	-6.10898161748E-02	3.58699678413E-02	-6.13332752111E-02	3.48324361420E-02	-4.93010791666E-02	1.64205348105E-01
1.70400000000E+09	-8.84605079297E-02	9.63366405246E-02	-6.03262720673E-02	3.71912989828E-02	-6.05804238009E-02	3.61422408105E-02	-4.55752016919E-02	1.67870363167E-01
1.70450000000E+09	-8.61500246673E-02	9.48860490648E-02	-5.95372280149E-02	3.84951434280E-02	-5.98191839764E-02	3.74434285145E-02	-4.17099988558E-02	1.71419152017E-01
1.70500000000E+09	-8.39330188839E-02	9.33350090996E-02	-5.87167493870E-02	3.97756706020E-02	-5.90171169871E-02	3.87399633795E-02	-3.77592739685E-02	1.74843153945E-01
1.70550000000E+09	-8.18095496714E-02	9.16694587158E-02	-5.78754155985E-02	4.10398089830E-02	-5.81909626920E-02	4.00093093595E-02	-3.37159539557E-02	1.78147212500E-01
1.70600000000E+09	-7.97830748221E-02	8.99108320395E-02	-5.69891318880E-02	4.22895987777E-02	-5.73332820896E-02	4.12564449050E-02	-2.95267399848E-02	1.81327017469E-01
1.70650000000E+09	-7.78491051477E-02	8.80683993177E-02	-5.60774554016E-02	4.35165651205E-02	-5.64446948045E-02	4.24993075880E-02	-2.52707925161E-02	1.84390468436E-01
1.70700000000E+09	-7.60202211959E-02	8.61423265168E-02	-5.51406885363E-02	4.47286257450E-02	-5.55326402233E-02	4.37231688683E-02	-2.08934537659E-02	1.87285342272E-01
1.70750000000E+09	-7.42975087583E-02	8.41346540463E-02	-5.41750564487E-02	4.59281530435E-02	-5.45990417733E-02	4.49212102009E-02	-1.64366406417E-02	1.90067509687E-01
1.70800000000E+09	-7.26738557433E-02	8.20601737142E-02	-5.31941594429E-02	4.70912428009E-02	-5.36298591328E-02	4.61056305708E-02	-1.18914172060E-02	1.92714851071E-01
1.70850000000E+09	-7.11534394822E-02	7.99120667662E-02	-5.21752298822E-02	4.82426323203E-02	-5.26213147576E-02	4.72555223300E-02	-7.27325789619E-03	1.95217295568E-01
1.70900000000E+09	-6.97402994763E-02	7.77065811195E-02	-5.11193781637E-02	4.93796611610E-02	-5.15969486820E-02	4.83971082731E-02	-2.57620334476E-03	1.97576625270E-01
1.70950000000E+09	-6.84478402340E-02	7.54510762731E-02	-5.00441145910E-02	5.04829196146E-02	-5.05566123484E-02	4.95265035730E-02	2.20214041091E-03	1.99772544661E-01
1.71000000000E+09	-6.72631358174E-02	7.31459911667E-02	-4.89462486209E-02	5.15577412423E-02	-4.94707937053E-02	5.06117379265E-02	7.05460910546E-03	2.01860965789E-01
1.71050000000E+09	-6.61826874377E-02	7.07853284453E-02	-4.78269712390E-02	5.26198185087E-02	-4.83756456781E-02	5.16791669506E-02	1.19594761445E-02	2.03761159182E-01
1.71100000000E+09	-6.52178428673E-02	6.84013000218E-02	-4.66706815349E-02	5.36600786274E-02	-4.72515936800E-02	5.27197490694E-02	1.69227440847E-02	2.05530595432E-01
1.71150000000E+09	-6.43671952566E-02	6.59819381884E-02	-4.55098946125E-02	5.46709287190E-02	-4.61088081662E-02	5.37514765224E-02	2.19409901333E-02	2.07142521849E-01
1.71200000000E+09	-6.36079871734E-02	6.35259043465E-02	-4.43087453833E-02	5.56478725869E-02	-4.49195731615E-02	5.47420238173E-02	2.70223672749E-02	2.08604038727E-01
1.71250000000E+09	-6.29948139252E-02	6.10460043496E-02	-4.30914435969E-02	5.66052785475E-02	-4.37318339762E-02	5.57078183706E-02	3.21357695509E-02	2.09924338319E-01
1.71300000000E+09	-6.24736874368E-02	5.85493693736E-02	-4.18530449983E-02	5.75234788238E-02	-4.25072890780E-02	5.66523654372E-02	3.73027238428E-02	2.11044436321E-01
1.71350000000E+09	-6.20582882023E-02	5.60353108978E-02	-4.05940137344E-02	5.84287349598E-02	-4.12651597433E-02	5.75670216675E-02	4.24895103413E-02	2.12039831061E-01
1.71400000000E+09	-6.17609274957E-02	5.35211635061E-02	-3.93120876805E-02	5.93050384332E-02	-3.99979164911E-02	5.84442562784E-02	4.77214398640E-02	2.12862106689E-01
1.71450000000E+09	-6.15840209795E-02	5.09922964471E-02	-3.80126764261E-02	6.01460684197E-02	-3.87257393398E-02	5.93156251343E-02	5.29834168304E-02	2.13533995254E-01
1.71500000000E+09	-6.14888544792E-02	4.84695105793E-02	-3.66867705727E-02	6.09610712148E-02	-3.74145243514E-02	6.01368715965E-02	5.82467981791E-02	2.14046182771E-01
1.71550000000E+09	-6.15085834406E-02	4.59351006424E-02	-3.53470989996E-02	6.17410196408E-02	-3.61017440903E-02	6.09426247908E-02	6.35296330444E-02	2.14387359408E-01
1.71600000000E+09	-6.16372809012E-02	4.34238120829E-02	-3.39890308524E-02	6.24835644432E-02	-3.47687887499E-02	6.17076650149E-02	6.88458432820E-02	2.14586229413E-01
1.71650000000E+09	-6.18772758235E-02	4.09344937629E-02	-3.26110476100E-02	6.32152156992E-02	-3.34035888051E-02	6.24457527302E-02	7.41495324443E-02	2.14607606442E-01
1.71700000000E+09	-6.22035853580E-02	3.84422650631E-02	-3.12278558658E-02	6.39029695658E-02	-3.20210935441E-02	6.31529903315E-02	7.94587467175E-02	2.14474981966E-01
1.71750000000E+09	-6.26384675313E-02	3.59540852794E-02	-2.98159490101E-02	6.45571253338E-02	-3.06379322633E-02	6.38286338016E-02	8.47546906844E-02	2.14166481021E-01
1.71800000000E+09	-6.31718848173E-02	3.35095549340E-02	-2.83984306035E-02	6.51782307389E-02	-2.92366299505E-02	6.44717669628E-02	9.00577850561E-02	2.13695080593E-01
1.71850000000E+09	-6.38048756208E-02	3.10814470059E-02	-2.69653769915E-02	6.57792516703E-02	-2.78220653121E-02	6.50830347509E-02	9.53511778824E-02	2.13078780598E-01
1.71900000000E+09	-6.45167106591E-02	2.86824252106E-02	-2.55174090915E-02	6.63390620092E-02	-2.63796098510E-02	6.56636447826E-02	1.00636625039E-01	2.12276518279E-01
1.71950000000E+09	-6.53384565869E-02	2.63216111004E-02	-2.40633615174E-02	6.68605360612E-02	-2.49415257997E-02	6.62062116529E-02	1.05851849141E-01	2.11328695336E-01
1.72000000000E+09	-6.62426635115E-02	2.39658487165E-02	-2.25833801565E-02	6.73619922685E-02	-2.34827771291E-02	6.67239997948E-02	1.11070840213E-01	2.10226224969E-01
1.72050000000E+09	-6.72583332366E-02	2.16640179479E-02	-2.11102760920E-02	6.78223278652E-02	-2.20162777900E-02	6.72055697154E-02	1.16253584853E-01	2.08979584665E-01
1.72100000000E+09	-6.83216686359E-02	1.94094823119E-02	-1.96176215757E-02	6.82432334437E-02	-2.05411807101E-02	6.76493942363E-02	1.21381257734E-01	2.07538820723E-01
1.72150000000E+09	-6.95003137813E-02	1.71809562304E-02	-1.81221976783E-02	6.86306909673E-02	-1.90542042760E-02	6.80537779981E-02	1.26499129428E-01	2.05969918600E-01
1.72200000000E+09	-7.07537160316E-02	1.49877174668E-02	-1.66103149343E-02	6.89887887538E-02	-1.75620693974E-02	6.84403762864E-02	1.31547403761E-01	2.04224116051E-01
1.72250000000E+09	-7.21002471055E-02	1.28561710138E-02	-1.51030325917E-02	6.93159195534E-02	-1.60598625529E-02	6.87819576463E-02	1.36557868603E-01	2.02341483130E-01
1.72300000000E+09	-7.35180478678E-02	1.07645034610E-02	-1.35756173315E-02	6.96041133002E-02	-1.45555735591E-02	6.90961085467E-02	1.41529774703E-01	2.00299806164E-01
1.72350000000E+09	-7.50247827770E-02	8.72789422538E-03	-1.20521013033E-02	6.98550193034E-02	-1.30398357447E-02	6.93813944557E-02	1.46408316433E-01	1.98101582993E-01
1.72400000000E+09	-7.66146663261E-02	6.72896940031E-03	-1.05248965266E-02	7.00755477815E-02	-1.15214611421E-02	6.96067225166E-02	1.51228780843E-01	1.95757547875E-01
1.72450000000E+09	-7.82805509842E-02	4.78482575447E-03	-8.98715368813E-03	7.02595325332E-02	-9.98877096474E-03	6.98162051039E-02	1.55980733204E-01	1.93291103390E-01
1.72500000000E+09	-8.00101837790E-02	2.89973001919E-03	-7.45782252421E-03	7.04021338085E-02	-8.46891290158E-03	6.99882875634E-02	1.60656146298E-01	1.90651361446E-01
1.72550000000E+09	-8.18190890249E-02	1.06452336457E-03	-5.93093749482E-03	7.05235567790E-02	-6.93702210321E-03	7.01225412714E-02	1.65250488427E-01	1.87867656928E-01
1.72600000000E+09	-8.37035559140E-02	-7.10956131345E-04	-4.38417796766E-03	7.05976760362E-02	-5.40081601508E-03	7.02247930781E-02	1.69775875949E-01	1.84957063666E-01
1.72650000000E+09	-8.56633897887E-02	-2.40280879261E-03	-2.84285234383E-03	7.06391744205E-02	-3.88079251753E-03	7.02896532120E-02	1.74205952249E-01	1.81893279299E-01
1.72700000000E+09	-8.76994636214E-02	-4.05784668265E-03	-1.30661245068E-03	7.06624692995E-02	-2.34423970916E-03	7.03225700834E-02	1.78544852454E-01	1.78730177699E-01
1.72750000000E+09	-8.97871698785E-02	-5.63543717396E-03	2.34108228424E-04	7.06378528268E-02	-8.17319674007E-04	7.03223637315E-02	1.82800722007E-01	1.75385273202E-01
1.72800000000E+09	-9.19632979169E-02	-7.14273098262E-03	1.77444508080E-03	7.05855372093E-02	7.11690697058E-04	7.02879628815E-02	1.86944384744E-01	1.71938311770E-01
1.72850000000E+09	-9.41743677408E-02	-8.59020256996E-03	3.29856976909E-03	7.04871371306E-02	2.24158575295E-03	7.02249254282E-02	1.90974625004E-01	1.68352332439E-01
1.72900000000E+09	-9.64867907307E-02	-9.94740882922E-03	4.83319224052E-03	7.03546981900E-02	3.75895724965E-03	7.01126856918E-02	1.94932340715E-01	1.64632098716E-01
1.72950000000E+09	-9.88402274372E-02	-1.12324943594E-02	6.35433312000E-03	7.01897085599E-02	5.28779108006E-03	6.99725663024E-02	1.98738030848E-01	1.60800827541E-01
1.73000000000E+09	-1.01269565328E-01	-1.24514966525E-02	7.86055282556E-03	6.99956620958E-02	6.79849160225E-03	6.97943287581E-02	2.02458967934E-01	1.56849857675E-01
1.73050000000E+09	-1.03747671802E-01	-1.35869024090E-02	9.38013544380E-03	6.97632144586E-02	8.31127131749E-03	6.95926073623E-02	2.06052542228E-01	1.52773734247E-01
1.73100000000E+09	-1.06279813555E-01	-1.46284978394E-02	1.08721103035E-02	6.94978858926E-02	9.81164698364E-03	6.93428565547E-02	2.09515265664E-01	1.48600477608E-01
1.73150000000E+09	-1.08881651823E-01	-1.55944174077E-02	1.23757854871E-02	6.91943137333E-02	1.12967188858E-02	6.90706975538E-02	2.12865684857E-01	1.44323011157E-01
1.73200000000E+09	-1.11519878762E-01	-1.64542619011E-02	1.38545817442E-02	6.88664750184E-02	1.27878204745E-02	6.87577517383E-02	2.16087197257E-01	1.39932553454E-01
1.73250000000E+09	-1.14207311558E-01	-1.72389080526E-02	1.53330211246E-02	6.85061999848E-02	1.42551211450E-02	6.84224520551E-02	2.19161005673E-01	1.35437465710E-01
1.73300000000E+09	-1.16957599417E-01	-1.79270426309E-02	1.68031728590E-02	6.81056741014E-02	1.57213430413E-02	6.80436956309E-02	2.22118490238E-01	1.30867114526E-01
1.73350000000E+09	-1.19730558683E-01	-1.85166120207E-02	1.82553761599E-02	6.76799219545E-02	1.71777661444E-02	6.76400982323E-02	2.24930526753E-01	1.26181628740E-01
1.73400000000E+09	-1.22573471998E-01	-1.90158665351E-02	1.97014615061E-02	6.72153452686E-02	1.86181298071E-02	6.71961248498E-02	2.27591043175E-01	1.21422214339E-01
1.73450000000E+09	-1.25442202010E-01	-1.94004368668E-02	2.11358998797E-02	6.67146017081E-02	2.00513266576E-02	6.67319085725E-02	2.30126752432E-01	1.16537415009E-01
1.73500000000E+09	-1.28339697599E-01	-1.96816568626E-02	2.25488717682E-02	6.61965264150E-02	2.14685665729E-02	6.62268149179E-02	2.32500272056E-01	1.11600431596E-01
1.73550000000E+09	-1.31276110868E-01	-1.98480400781E-02	2.39495368486E-02	6.56472641409E-02	2.28763823409E-02	6.56959469821E-02	2.34729088717E-01	1.06577431270E-01
1.73600000000E+09	-1.34247683740E-01	-1.99178975170E-02	2.53297520514E-02	6.50643687681E-02	2.42605614294E-02	6.51337876770E-02	2.36802394373E-01	1.01499302953E-01
1.73650000000E+09	-1.37226198751E-01	-1.98596419819E-02	2.67085890889E-02	6.44406465858E-02	2.56353568245E-02	6.45413465233E-02	2.38742688834E-01	9.63278516305E-02
1.73700000000E+09	-1.40249864072E-01	-1.97054998315E-02	2.80588464454E-02	6.38161815849E-02	2.69890511227E-02	6.39181245508E-02	2.40492594962E-01	9.11283932386E-02
1.73750000000E+09	-1.43266608627E-01	-1.94401470996E-02	2.93955861503E-02	6.31249446078E-02	2.83338412840E-02	6.32713753705E-02	2.42102302535E-01	8.58294357773E-02
1.73800000000E+09	-1.46290511168E-01	-1.90478733765E-02	3.07103676279E-02	6.24248938188E-02	2.96527520716E-02	6.25897023946E-02	2.43544510932E-01	8.05055982368E-02
1.73850000000E+09	-1.49352775377E-01	-1.85367969404E-02	3.20143230847E-02	6.17085566914E-02	3.09485472255E-02	6.18818414631E-02	2.44835637346E-01	7.51204609842E-02
1.73900000000E+09	-1.52395605193E-01	-1.79034439706E-02	3.32996806473E-02	6.09498379808E-02	3.22489590960E-02	6.11480816352E-02	2.45958878952E-01	6.96918439550E-02
1.73950000000E+09	-1.55443409840E-01	-1.71607791603E-02	3.45735703605E-02	6.01664939702E-02	3.35156281949E-02	6.03953275042E-02	2.46909211837E-01	6.42274985500E-02
1.74000000000E+09	-1.58486742870E-01	-1.62755080799E-02	3.58038023784E-02	5.93566327247E-02	3.47611080420E-02	5.96068348919E-02	2.47689878043E-01	5.87262181853E-02
1.74050000000E+09	-1.61506392111E-01	-1.52855102953E-02	3.70322705803E-02	5.85245868007E-02	3.59852422661E-02	5.87899864592E-02	2.48308211336E-01	5.31783416583E-02
1.74100000000E+09	-1.64542324015E-01	-1.41462187410E-02	3.82350896804E-02	5.76635401780E-02	3.71987617815E-02	5.79505834774E-02	2.48743016256E-01	4.76340947148E-02
1.74150000000E+09	-1.67530781969E-01	-1.29037984605E-02	3.94096201216E-02	5.67870468291E-02	3.83813980770E-02	5.70926024090E-02	2.49046588582E-01	4.20501023077E-02
1.74200000000E+09	-1.70491136675E-01	-1.15287038289E-02	4.05715430246E-02	5.58674414261E-02	3.95421531563E-02	5.62077536599E-02	2.49136397354E-01	3.64358963187E-02
1.74250000000E+09	-1.73437283752E-01	-1.00219013059E-02	4.17010012354E-02	5.49487866204E-02	4.06786421352E-02	5.52961942202E-02	2.49055700433E-01	3.08434391050E-02
1.74300000000E+09	-1.76335964398E-01	-8.39799518369E-03	4.28071196580E-02	5.39987751579E-02	4.17923426912E-02	5.43706289418E-02	2.48811733562E-01	2.52312570865E-02
1.74350000000E+09	-1.79193654173E-01	-6.64095132109E-03	4.38941358454E-02	5.30249482604E-02	4.28978244468E-02	5.34174412010E-02	2.48411122010E-01	1.96209772625E-02
1.74400000000E+09	-1.81991780123E-01	-4.75601337198E-03	4.49560963301E-02	5.20382891128E-02	4.39572752596E-02	5.24442614941E-02	2.47792490779E-01	1.40296797678E-02
1.74450000000E+09	-1.84740573138E-01	-2.74833318696E-03	4.60011591496E-02	5.10221833832E-02	4.50094839291E-02	5.14551570985E-02	2.47031533375E-01	8.41491273542E-03
1.74500000000E+09	-1.87441788882E-01	-6.23826706967E-04	4.70052814713E-02	4.99957438528E-02	4.60213896854E-02	5.04274061307E-02	2.46073664061E-01	2.83313802056E-03
1.74550000000E+09	-1.90061328305E-01	1.64465890303E-03	4.80019800972E-02	4.89398559104E-02	4.70226779618E-02	4.94196568375E-02	2.44958783092E-01	-2.69593724997E-03
1.74600000000E+09	-1.92617058833E-01	4.02219318733E-03	4.89709350042E-02	4.78613867040E-02	4.79930302892E-02	4.83583570562E-02	2.43667361856E-01	-8.24031923498E-03
1.74650000000E+09	-1.95100856937E-01	6.54216008099E-03	4.99024240462E-02	4.67778582575E-02	4.89369426213E-02	4.73037435064E-02	2.42194472997E-01	-1.37213746420E-02
1.74700000000E+09	-1.97479279715E-01	9.15338150813E-03	5.08079927878E-02	4.56913841382E-02	4.98577602956E-02	4.62118827233E-02	2.40557879256E-01	-1.91743523185E-02
1.74750000000E+09	-1.99785377527E-01	1.19027890513E-02	5.16996864659E-02	4.45725174791E-02	5.07662596151E-02	4.51183298950E-02	2.38753387022E-01	-2.45998607778E-02
1.74800000000E+09	-2.01976919582E-01	1.47396451875E-02	5.25524424867E-02	4.34421759687E-02	5.16320733702E-02	4.40074361850E-02	2.36781991952E-01	-2.99549747745E-02
1.74850000000E+09	-2.04061584467E-01	1.77165372149E-02	5.33888972317E-02	4.22947419352E-02	5.24735023127E-02	4.28856913878E-02	2.34616445559E-01	-3.52581992248E-02
1.74900000000E+09	-2.06046855162E-01	2.07919760290E-02	5.42001336099E-02	4.11337949582E-02	5.32952929132E-02	4.17578596531E-02	2.32283697098E-01	-4.05311104938E-02
1.74950000000E+09	-2.07902683694E-01	2.39602996870E-02	5.49769722847E-02	3.99685972750E-02	5.40882245793E-02	4.05974957070E-02	2.29780268476E-01	-4.56972608749E-02
1.75000000000E+09	-2.09626777568E-01	2.72310056484E-02	5.57307940722E-02	3.87813338207E-02	5.48491322087E-02	3.94264683044E-02	2.27109032528E-01	-5.08103846903E-02
1.75050000000E+09	-2.11221774767E-01	3.05933164552E-02	5.64506296691E-02	3.75926816174E-02	5.55841226059E-02	3.82556995921E-02	2.24293796749E-01	-5.58333607741E-02
1.75100000000E+09	-2.12687633115E-01	3.40615875192E-02	5.71627251532E-02	3.63889531030E-02	5.63037025688E-02	3.70735846757E-02	2.21311357512E-01	-6.07911154864E-02
1.75150000000E+09	-2.13987386544E-01	3.75770711594E-02	5.78414829404E-02	3.51782589256E-02	5.69983846079E-02	3.58762864830E-02	2.18151988057E-01	-6.56812200443E-02
1.75200000000E+09	-2.15152025713E-01	4.11904039564E-02	5.84936756324E-02	3.39575890575E-02	5.76499512589E-02	3.46736754097E-02	2.14841218886E-01	-7.04459822442E-02
1.75250000000E+09	-2.16164388495E-01	4.48586967047E-02	5.91088926281E-02	3.27338629898E-02	5.82953320320E-02	3.34650148621E-02	2.11397449359E-01	-7.51221549421E-02
1.75300000000E+09	-2.17014064906E-01	4.85899340652E-02	5.97096652067E-02	3.14961843112E-02	5.89106392686E-02	3.22493848205E-02	2.07766471006E-01	-7.97056335938E-02
1.75350000000E+09	-2.17689417496E-01	5.23585780137E-02	6.02799995685E-02	3.02541381554E-02	5.95030845064E-02	3.10165349166E-02	2.04024215737E-01	-8.41654527965E-02
1.75400000000E+09	-2.18210256411E-01	5.61949954903E-02	6.08403936191E-02	2.89922758165E-02	6.00549083348E-02	2.97846453352E-02	2.00102005278E-01	-8.85300555635E-02
1.75450000000E+09	-2.18563932452E-01	6.00625820757E-02	6.13616334763E-02	2.77366423930E-02	6.06051372930E-02	2.85482587723E-02	1.96053176443E-01	-9.27704901327E-02
1.75500000000E+09	-2.18732138380E-01	6.39469324513E-02	6.18630804785E-02	2.64760209966E-02	6.11118728460E-02	2.73029105781E-02	1.91854121061E-01	-9.68907580228E-02
1.75550000000E+09	-2.18736071184E-01	6.78601585203E-02	6.23487646370E-02	2.52034499070E-02	6.16135799408E-02	2.60488374483E-02	1.87523683070E-01	-1.00886426297E-01
1.75600000000E+09	-2.18543425690E-01	7.17758618752E-02	6.27835808533E-02	2.39368631744E-02	6.20818502454E-02	2.47992167307E-02	1.83055130514E-01	-1.04748986331E-01
1.75650000000E+09	-2.18165792228E-01	7.56963016790E-02	6.32150587555E-02	2.26631473684E-02	6.25252030672E-02	2.35368979270E-02	1.78469587064E-01	-1.08461532107E-01
1.75700000000E+09	-2.17603037044E-01	7.96050689587E-02	6.36147454829E-02	2.13818860269E-02	6.29506880463E-02	2.22699452669E-02	1.73756309111E-01	-1.12056107875E-01
1.75750000000E+09	-2.16860067050E-01	8.34845889033E-02	6.39977550883E-02	2.00951701732E-02	6.33447242352E-02	2.10121668123E-02	1.68916672535E-01	-1.15496857660E-01
1.75800000000E+09	-2.15915657389E-01	8.73592505408E-02	6.43687245386E-02	1.88054305043E-02	6.37292737181E-02	1.97319733122E-02	1.63968479752E-01	-1.18780563654E-01
1.75850000000E+09	-2.14774088171E-01	9.11630977878E-02	6.46996465137E-02	1.75125929918E-02	6.40831509228E-02	1.84576745161E-02	1.58892279806E-01	-1.21934470545E-01
1.75900000000E+09	-2.13453248580E-01	9.49098687193E-02	6.50110767542E-02	1.62201180859E-02	6.44239707381E-02	1.71785325261E-02	1.53733474651E-01	-1.24894468779E-01
