# Hz S RI R 50
! CMT, CMT808U, 21440046, 21.4.3/4
! Date: 6/12/2026 9:36:14 AM
! Data: Format (Calibration Info)
! Freq	S11:Re/Im(F2)	S41:Re/Im(F2)	S14:Re/Im(F2)	S44:Re/Im(F2)
1.70000000000E+09	-1.08550537639E-01	1.03452318782E-01	-6.78737836986E-02	1.95310193088E-02	-6.78428172875E-02	1.84682319722E-02	-8.29347824705E-02	1.46406441819E-01
1.70050000000E+09	-1.05720576780E-01	1.02996571148E-01	-6.74346244196E-02	2.09446450694E-02	-6.74294279837E-02	1.98841919335E-02	-8.00970774159E-02	1.50637412195E-01
1.70100000000E+09	-1.02935929526E-01	1.02379558135E-01	-6.69768242980E-02	2.23617554180E-02	-6.69889826022E-02	2.12921446001E-02	-7.71302148308E-02	1.54797477892E-01
1.70150000000E+09	-1.00210336742E-01	1.01614436678E-01	-6.64801895228E-02	2.37468325582E-02	-6.65191403639E-02	2.26949798545E-02	-7.40189013104E-02	1.58857904726E-01
1.70200000000E+09	-9.75421765821E-02	1.00732012052E-01	-6.59516608876E-02	2.51455538911E-02	-6.60125275566E-02	2.40918672167E-02	-7.07672395338E-02	1.62806123671E-01
1.70250000000E+09	-9.49276302266E-02	9.96879169414E-02	-6.54075903075E-02	2.65335386329E-02	-6.54865182583E-02	2.54738676595E-02	-6.74054187051E-02	1.66670135806E-01
1.70300000000E+09	-9.23974903137E-02	9.85186523827E-02	-6.48248554507E-02	2.79046216074E-02	-6.49299973866E-02	2.68458089555E-02	-6.39245735399E-02	1.70450131350E-01
1.70350000000E+09	-8.99415240896E-02	9.72532948764E-02	-6.42165990990E-02	2.92675927563E-02	-6.43482487080E-02	2.82036273381E-02	-6.03094273961E-02	1.74122655479E-01
1.70400000000E+09	-8.75825608866E-02	9.58419115055E-02	-6.35764994147E-02	3.06135986083E-02	-6.37245352611E-02	2.95597861916E-02	-5.66013470868E-02	1.77645923105E-01
1.70450000000E+09	-8.52776581349E-02	9.43203283889E-02	-6.29142663814E-02	3.19435091434E-02	-6.30804509313E-02	3.08898300388E-02	-5.27589488546E-02	1.81085623820E-01
1.70500000000E+09	-8.30921431065E-02	9.27104586754E-02	-6.22045543456E-02	3.32619988332E-02	-6.24178383002E-02	3.22164288523E-02	-4.88279566305E-02	1.84407139044E-01
1.70550000000E+09	-8.09874052975E-02	9.09838289052E-02	-6.14982660667E-02	3.45554946943E-02	-6.17073577523E-02	3.35177933831E-02	-4.47652220555E-02	1.87605392390E-01
1.70600000000E+09	-7.89901611849E-02	8.91654182477E-02	-6.07448834735E-02	3.58518066625E-02	-6.09855981646E-02	3.48105461171E-02	-4.06090352207E-02	1.90678834204E-01
1.70650000000E+09	-7.70833767311E-02	8.72831742259E-02	-5.99810384841E-02	3.71289309268E-02	-6.02252832432E-02	3.60864196024E-02	-3.63615890277E-02	1.93627163795E-01
1.70700000000E+09	-7.52782981745E-02	8.52987339746E-02	-5.91572390120E-02	3.83871294899E-02	-5.94439860144E-02	3.73448998171E-02	-3.20114971600E-02	1.96437910056E-01
1.70750000000E+09	-7.35797987352E-02	8.32375998594E-02	-5.83294665299E-02	3.96145338681E-02	-5.86346804922E-02	3.85914429428E-02	-2.75954968353E-02	1.99125452095E-01
1.70800000000E+09	-7.20006746920E-02	8.11066635523E-02	-5.74732316238E-02	4.08432339371E-02	-5.77960828342E-02	3.98248307842E-02	-2.30535005233E-02	2.01679144788E-01
1.70850000000E+09	-7.05109688368E-02	7.89149868589E-02	-5.65839893752E-02	4.20416019296E-02	-5.69385660615E-02	4.10330735102E-02	-1.84516610782E-02	2.04089476969E-01
1.70900000000E+09	-6.91376135970E-02	7.66621835601E-02	-5.56937497577E-02	4.32408760613E-02	-5.60489321353E-02	4.22190601616E-02	-1.37799245853E-02	2.06367001165E-01
1.70950000000E+09	-6.78776986187E-02	7.43558352106E-02	-5.47521968799E-02	4.43918707751E-02	-5.51423617162E-02	4.33969786654E-02	-9.05931566366E-03	2.08475088810E-01
1.71000000000E+09	-6.67277443766E-02	7.20088598166E-02	-5.37915580035E-02	4.55390562188E-02	-5.42144063406E-02	4.45349146598E-02	-4.23383877099E-03	2.10497219280E-01
1.71050000000E+09	-6.56906762364E-02	6.96120619106E-02	-5.28132788064E-02	4.66673834867E-02	-5.32567779782E-02	4.56746648512E-02	6.40083631374E-04	2.12317364706E-01
1.71100000000E+09	-6.47706405326E-02	6.71798449812E-02	-5.18046535029E-02	4.77646795701E-02	-5.22580422933E-02	4.67954191484E-02	5.57780789334E-03	2.14011178917E-01
1.71150000000E+09	-6.39539665680E-02	6.47178164862E-02	-5.07827361749E-02	4.88537953165E-02	-5.12580570198E-02	4.78808636536E-02	1.05722036744E-02	2.15547413222E-01
1.71200000000E+09	-6.32463370022E-02	6.22299819066E-02	-4.97309835703E-02	4.99167991093E-02	-5.02290522426E-02	4.89540393151E-02	1.56154557270E-02	2.16935066046E-01
1.71250000000E+09	-6.26750405192E-02	5.97086771311E-02	-4.86584325143E-02	5.09521749224E-02	-4.91859402094E-02	4.99998118711E-02	2.06796120829E-02	2.18195525894E-01
1.71300000000E+09	-6.22026532919E-02	5.71812067759E-02	-4.75677186348E-02	5.19676308147E-02	-4.81121289422E-02	5.10288675832E-02	2.58265180729E-02	2.19267288554E-01
1.71350000000E+09	-6.18387891090E-02	5.46278702362E-02	-4.64443907539E-02	5.29492168760E-02	-4.70139437520E-02	5.20325554479E-02	3.09748498151E-02	2.20200029114E-01
1.71400000000E+09	-6.15953880764E-02	5.20871624603E-02	-4.53156985629E-02	5.39226830120E-02	-4.59066439785E-02	5.30114294738E-02	3.61786526309E-02	2.20963877699E-01
1.71450000000E+09	-6.14613720365E-02	4.95270075667E-02	-4.41512234896E-02	5.48584836762E-02	-4.47605691948E-02	5.39715863384E-02	4.14023487997E-02	2.21580040844E-01
1.71500000000E+09	-6.14282448910E-02	4.69779786128E-02	-4.29756192527E-02	5.57870510234E-02	-4.36056163995E-02	5.49000794080E-02	4.66323964046E-02	2.22045404204E-01
1.71550000000E+09	-6.15065222994E-02	4.44265251731E-02	-4.17923539955E-02	5.66768649425E-02	-4.24395850944E-02	5.58168905469E-02	5.18814956229E-02	2.22330974187E-01
1.71600000000E+09	-6.16873773344E-02	4.18948149857E-02	-4.05735451502E-02	5.75446826659E-02	-4.12379113366E-02	5.66887639665E-02	5.71415154614E-02	2.22472233713E-01
1.71650000000E+09	-6.19842471794E-02	3.93730713381E-02	-3.93493597852E-02	5.83904868685E-02	-4.00331694373E-02	5.75609601529E-02	6.24180534710E-02	2.22444237635E-01
1.71700000000E+09	-6.23678076830E-02	3.68686954284E-02	-3.80930672352E-02	5.92136195146E-02	-3.88033104559E-02	5.83820908036E-02	6.76799745133E-02	2.22264931316E-01
1.71750000000E+09	-6.28633742905E-02	3.43730873433E-02	-3.68355668705E-02	6.00085669969E-02	-3.75526080535E-02	5.91960292126E-02	7.29364535760E-02	2.21903980821E-01
1.71800000000E+09	-6.34525277494E-02	3.19203673869E-02	-3.55446822420E-02	6.07736983146E-02	-3.62856447417E-02	5.99763533889E-02	7.81984465551E-02	2.21409735309E-01
1.71850000000E+09	-6.41402024314E-02	2.94847662031E-02	-3.42491461091E-02	6.15111947708E-02	-3.50097417943E-02	6.07330404004E-02	8.34510873501E-02	2.20743733097E-01
1.71900000000E+09	-6.49198827607E-02	2.70770411960E-02	-3.29349436251E-02	6.22282455514E-02	-3.37137298442E-02	6.14572883862E-02	8.86720881591E-02	2.19911328068E-01
1.71950000000E+09	-6.57928184155E-02	2.47077094171E-02	-3.16236544621E-02	6.29007178811E-02	-3.23926400550E-02	6.21665604374E-02	9.38888286288E-02	2.18927567060E-01
1.72000000000E+09	-6.67664313655E-02	2.23657658352E-02	-3.02611142796E-02	6.35691621594E-02	-3.10719340886E-02	6.28343321705E-02	9.90511340161E-02	2.17791931436E-01
1.72050000000E+09	-6.78332332412E-02	2.00712700169E-02	-2.89207349772E-02	6.41921195729E-02	-2.97305456187E-02	6.34733394723E-02	1.04180479629E-01	2.16503785621E-01
1.72100000000E+09	-6.89570019913E-02	1.78051724516E-02	-2.75365530772E-02	6.47885242611E-02	-2.83729124774E-02	6.40960544448E-02	1.09291319847E-01	2.15049810569E-01
1.72150000000E+09	-7.01945960235E-02	1.55932225068E-02	-2.61533622024E-02	6.53729492962E-02	-2.69998401065E-02	6.46953145035E-02	1.14367335365E-01	2.13435175496E-01
1.72200000000E+09	-7.15165555842E-02	1.34067832252E-02	-2.47567986515E-02	6.59106689901E-02	-2.56218553161E-02	6.52527580268E-02	1.19378595677E-01	2.11661823564E-01
1.72250000000E+09	-7.29026665028E-02	1.12832951380E-02	-2.33512059797E-02	6.64259493240E-02	-2.42285494142E-02	6.57835983267E-02	1.24348537349E-01	2.09743318549E-01
1.72300000000E+09	-7.43838830295E-02	9.20258344386E-03	-2.19380214555E-02	6.69144164207E-02	-2.28170031844E-02	6.62879289712E-02	1.29262982275E-01	2.07679838478E-01
1.72350000000E+09	-7.59458466196E-02	7.18123833688E-03	-2.05025543086E-02	6.73631656186E-02	-2.14031646094E-02	6.67616029006E-02	1.34097137479E-01	2.05483400192E-01
1.72400000000E+09	-7.75919580891E-02	5.20225144180E-03	-1.90618428271E-02	6.77860000613E-02	-1.99746918050E-02	6.72019471937E-02	1.38875215081E-01	2.03099491955E-01
1.72450000000E+09	-7.93169981441E-02	3.27123986468E-03	-1.76141998882E-02	6.81734735722E-02	-1.85424982660E-02	6.76183655126E-02	1.43580605880E-01	2.00605905581E-01
1.72500000000E+09	-8.10989858728E-02	1.41982355719E-03	-1.61600743342E-02	6.85384040803E-02	-1.70981170451E-02	6.80043088085E-02	1.48208400142E-01	1.97972136860E-01
1.72550000000E+09	-8.29618452445E-02	-3.89620701603E-04	-1.46818014014E-02	6.88655682421E-02	-1.56352438241E-02	6.83533203375E-02	1.52761570089E-01	1.95156319661E-01
1.72600000000E+09	-8.48945394208E-02	-2.13026551101E-03	-1.32098018571E-02	6.91653047494E-02	-1.41758497540E-02	6.86697324698E-02	1.57239372550E-01	1.92235952077E-01
1.72650000000E+09	-8.68985116554E-02	-3.80919544708E-03	-1.17264945921E-02	6.94387846255E-02	-1.27098318207E-02	6.89508617693E-02	1.61622408083E-01	1.89167854200E-01
1.72700000000E+09	-8.89863175509E-02	-5.42173564816E-03	-1.02394748157E-02	6.96669107908E-02	-1.12244955383E-02	6.92163537997E-02	1.65924685238E-01	1.85960934968E-01
1.72750000000E+09	-9.11182573116E-02	-6.97017385966E-03	-8.73932132158E-03	6.98699147885E-02	-9.71859235439E-03	6.94395062342E-02	1.70140505534E-01	1.82597795411E-01
1.72800000000E+09	-9.33420477090E-02	-8.44110203510E-03	-7.24216753859E-03	7.00516984759E-02	-8.24022822501E-03	6.96315246796E-02	1.74238217725E-01	1.79157693922E-01
1.72850000000E+09	-9.56156738227E-02	-9.84282219868E-03	-5.73324403539E-03	7.01862040226E-02	-6.73205470148E-03	6.97922568758E-02	1.78221431889E-01	1.75548386554E-01
1.72900000000E+09	-9.79544674313E-02	-1.11652369732E-02	-4.23565835217E-03	7.02913218472E-02	-5.24481473647E-03	6.99172916155E-02	1.82128514821E-01	1.71835780173E-01
1.72950000000E+09	-1.00352466518E-01	-1.24102573408E-02	-2.72078962315E-03	7.03664640962E-02	-3.73790202083E-03	7.00070546093E-02	1.85879748507E-01	1.67996974237E-01
1.73000000000E+09	-1.02807010543E-01	-1.35786314960E-02	-1.19420139645E-03	7.03978113026E-02	-2.22039314223E-03	7.00777161018E-02	1.89556850658E-01	1.64042178324E-01
1.73050000000E+09	-1.05334732712E-01	-1.46641008167E-02	3.06541913970E-04	7.04116449631E-02	-7.23229665832E-04	7.01000475430E-02	1.93116838040E-01	1.59970324556E-01
1.73100000000E+09	-1.07906363536E-01	-1.56625495634E-02	1.81977751337E-03	7.03834578168E-02	7.89635378207E-04	7.00928782533E-02	1.96538514135E-01	1.55784704847E-01
1.73150000000E+09	-1.10540553145E-01	-1.65799037577E-02	3.34356241247E-03	7.03224020002E-02	2.29152590264E-03	7.00468491090E-02	1.99833953817E-01	1.51505922960E-01
1.73200000000E+09	-1.13210728487E-01	-1.73884223167E-02	4.85720058601E-03	7.02188529085E-02	3.79854381894E-03	6.99828646991E-02	2.03008592016E-01	1.47136124160E-01
1.73250000000E+09	-1.15937627058E-01	-1.81184310621E-02	6.36033794229E-03	7.00957975044E-02	5.30676429868E-03	6.98786633409E-02	2.06038876582E-01	1.42633671949E-01
1.73300000000E+09	-1.18707726307E-01	-1.87538345770E-02	7.87115595936E-03	6.99336291591E-02	6.81691625108E-03	6.97288271653E-02	2.08940913633E-01	1.38055880122E-01
1.73350000000E+09	-1.21502295117E-01	-1.92893694513E-02	9.36627840969E-03	6.97253945015E-02	8.30981277729E-03	6.95550955258E-02	2.11716348114E-01	1.33376737821E-01
1.73400000000E+09	-1.24371787248E-01	-1.97232729236E-02	1.08744366836E-02	6.95022878871E-02	9.81063651665E-03	6.93435732378E-02	2.14324040401E-01	1.28648892636E-01
1.73450000000E+09	-1.27257722965E-01	-2.00611744004E-02	1.23687080053E-02	6.92321211437E-02	1.12946946496E-02	6.91037533741E-02	2.16793319442E-01	1.23770260308E-01
1.73500000000E+09	-1.30186502176E-01	-2.02774905730E-02	1.38540703864E-02	6.89458115408E-02	1.27857887939E-02	6.88216543281E-02	2.19136343102E-01	1.18833423764E-01
1.73550000000E+09	-1.33132706602E-01	-2.03912199287E-02	1.53383351823E-02	6.86073579032E-02	1.42618156920E-02	6.85205382541E-02	2.21328355903E-01	1.13844594515E-01
1.73600000000E+09	-1.36112806319E-01	-2.03984142028E-02	1.68112438234E-02	6.82448778394E-02	1.57304679448E-02	6.81797463148E-02	2.23337907672E-01	1.08783158109E-01
1.73650000000E+09	-1.39113687936E-01	-2.02900696103E-02	1.82695823350E-02	6.78512155338E-02	1.71897786358E-02	6.77956161817E-02	2.25228181433E-01	1.03624179591E-01
1.73700000000E+09	-1.42134960742E-01	-2.00549399895E-02	1.97319265210E-02	6.74135511056E-02	1.86493828992E-02	6.73912588701E-02	2.26947521173E-01	9.84364783363E-02
1.73750000000E+09	-1.45156651479E-01	-1.97333429740E-02	2.11695309305E-02	6.69549321029E-02	2.00918999007E-02	6.69525502528E-02	2.28485764953E-01	9.31821106516E-02
1.73800000000E+09	-1.48191591709E-01	-1.92713323519E-02	2.26045861089E-02	6.64548748441E-02	2.15126830720E-02	6.64806377546E-02	2.29889549303E-01	8.78665596555E-02
1.73850000000E+09	-1.51249542353E-01	-1.87041202024E-02	2.40230962680E-02	6.59284842478E-02	2.29393903442E-02	6.59726929071E-02	2.31142739736E-01	8.24865232094E-02
1.73900000000E+09	-1.54275447869E-01	-1.80096189843E-02	2.54223386604E-02	6.53770931231E-02	2.43479581293E-02	6.54357454798E-02	2.32200443518E-01	7.70994290886E-02
1.73950000000E+09	-1.57326978402E-01	-1.71991868553E-02	2.68138004117E-02	6.47879245405E-02	2.57350994943E-02	6.48617728711E-02	2.33111995586E-01	7.16548925148E-02
1.74000000000E+09	-1.60356348077E-01	-1.62609062500E-02	2.81920940362E-02	6.41658230447E-02	2.71180236021E-02	6.42727350559E-02	2.33837423525E-01	6.61975977594E-02
1.74050000000E+09	-1.63370441069E-01	-1.51879218117E-02	2.95590310716E-02	6.35145416114E-02	2.84810162141E-02	6.36410441703E-02	2.34406053840E-01	6.06909402076E-02
1.74100000000E+09	-1.66383831009E-01	-1.39997321567E-02	3.09049447161E-02	6.28249506277E-02	2.98305073720E-02	6.29846161740E-02	2.34804965401E-01	5.51540889673E-02
1.74150000000E+09	-1.69352465014E-01	-1.26881692564E-02	3.22301292482E-02	6.21274634789E-02	3.11462151030E-02	6.22914435136E-02	2.35043201967E-01	4.96217250338E-02
1.74200000000E+09	-1.72296866248E-01	-1.12509209424E-02	3.35385117777E-02	6.13765071891E-02	3.24764473245E-02	6.15786502974E-02	2.35084748987E-01	4.40473842159E-02
1.74250000000E+09	-1.75201927417E-01	-9.68742431313E-03	3.48305949369E-02	6.06136988783E-02	3.37694395520E-02	6.08343195477E-02	2.34976562912E-01	3.85011595161E-02
1.74300000000E+09	-1.78077932963E-01	-8.01210704444E-03	3.61090297463E-02	5.98173224428E-02	3.50418940509E-02	6.00586369297E-02	2.34679031363E-01	3.29339889738E-02
1.74350000000E+09	-1.80903059922E-01	-6.18990577193E-03	3.73458109523E-02	5.89962699438E-02	3.62986035849E-02	5.92669138593E-02	2.34218188252E-01	2.73677650144E-02
1.74400000000E+09	-1.83673582945E-01	-4.25672132599E-03	3.85865575029E-02	5.81672246207E-02	3.75343434650E-02	5.84310632991E-02	2.33551135273E-01	2.18080019969E-02
1.74450000000E+09	-1.86394729763E-01	-2.17731206787E-03	3.97976032041E-02	5.72775824172E-02	3.87501285113E-02	5.75805465271E-02	2.32747264999E-01	1.62702480375E-02
1.74500000000E+09	-1.89041081228E-01	-1.52432497251E-05	4.09876651954E-02	5.63822058870E-02	3.99417383327E-02	5.67093942086E-02	2.31752268851E-01	1.07430910243E-02
1.74550000000E+09	-1.91623655904E-01	2.30363863410E-03	4.21589763901E-02	5.54524852132E-02	4.11267090781E-02	5.58104523065E-02	2.30595431282E-01	5.24270263924E-03
1.74600000000E+09	-1.94140072800E-01	4.74061278025E-03	4.33003730889E-02	5.45126176490E-02	4.22715766017E-02	5.48868096057E-02	2.29260665367E-01	-2.18437177361E-04
1.74650000000E+09	-1.96564568489E-01	7.28646713756E-03	4.44235414882E-02	5.35446381290E-02	4.34046177319E-02	5.39431841116E-02	2.27733105848E-01	-5.65185496059E-03
1.74700000000E+09	-1.98909106998E-01	9.94427752176E-03	4.55282104473E-02	5.25552902687E-02	4.45010293845E-02	5.29647255484E-02	2.26070066855E-01	-1.10482437761E-02
1.74750000000E+09	-2.01147826876E-01	1.27296890584E-02	4.66016005652E-02	5.15433506296E-02	4.55952436478E-02	5.19662539194E-02	2.24205972717E-01	-1.64106534530E-02
1.74800000000E+09	-2.03296744731E-01	1.56253197958E-02	4.76547788625E-02	5.05026339160E-02	4.66421495674E-02	5.09479505849E-02	2.22183617069E-01	-2.16870685274E-02
1.74850000000E+09	-2.05336169474E-01	1.86322911026E-02	4.86726758231E-02	4.94473684335E-02	4.76778228327E-02	4.99179100301E-02	2.19987726594E-01	-2.69253219231E-02
1.74900000000E+09	-2.07248197464E-01	2.17288682550E-02	4.96732380256E-02	4.83607992102E-02	4.86971308455E-02	4.88678342553E-02	2.17622168425E-01	-3.21176316647E-02
1.74950000000E+09	-2.09054279549E-01	2.49440855420E-02	5.06577648248E-02	4.72719172495E-02	4.96709918651E-02	4.77932610238E-02	2.15065917152E-01	-3.72024149027E-02
1.75000000000E+09	-2.10717534279E-01	2.82534419323E-02	5.16145185608E-02	4.61667078519E-02	5.06390966989E-02	4.67088045201E-02	2.12371986586E-01	-4.22406259897E-02
1.75050000000E+09	-2.12245824527E-01	3.16385947719E-02	5.25333098988E-02	4.50371445127E-02	5.15736547305E-02	4.55893412828E-02	2.09523938971E-01	-4.71808809645E-02
1.75100000000E+09	-2.13647406490E-01	3.51291642463E-02	5.34354708171E-02	4.38911478387E-02	5.24855926980E-02	4.44803672813E-02	2.06506942849E-01	-5.20616590079E-02
1.75150000000E+09	-2.14906915764E-01	3.86909480672E-02	5.43166829193E-02	4.27174920039E-02	5.33671923178E-02	4.33323931026E-02	2.03313876431E-01	-5.68466307583E-02
1.75200000000E+09	-2.15987867457E-01	4.22996756303E-02	5.51528782939E-02	4.15418887284E-02	5.42217324639E-02	4.21723552961E-02	1.99985497780E-01	-6.15247838928E-02
1.75250000000E+09	-2.16933030624E-01	4.59893774007E-02	5.59753446255E-02	4.03492820428E-02	5.50538844829E-02	4.09915114389E-02	1.96504893052E-01	-6.61169084758E-02
1.75300000000E+09	-2.17708431044E-01	4.97269566955E-02	5.67700536476E-02	3.91485791360E-02	5.58629177978E-02	3.98046943491E-02	1.92847964404E-01	-7.06113920939E-02
1.75350000000E+09	-2.18310682064E-01	5.35281203137E-02	5.75432230576E-02	3.79284384302E-02	5.66444199701E-02	3.86079805901E-02	1.89088053350E-01	-7.49816267243E-02
1.75400000000E+09	-2.18772644930E-01	5.73527127262E-02	5.82720214282E-02	3.66935355429E-02	5.73950017480E-02	3.73968892625E-02	1.85146939641E-01	-7.92422239480E-02
1.75450000000E+09	-2.19048260035E-01	6.12271723813E-02	5.89917450508E-02	3.54420773736E-02	5.81231684780E-02	3.61773796588E-02	1.81085997836E-01	-8.33776941077E-02
1.75500000000E+09	-2.19143480014E-01	6.51101221800E-02	5.96899532510E-02	3.41843547048E-02	5.88293370345E-02	3.49415668466E-02	1.76865950577E-01	-8.73976181351E-02
1.75550000000E+09	-2.19053478743E-01	6.90091859253E-02	6.03434215008E-02	3.29173515252E-02	5.94972942877E-02	3.36833182032E-02	1.72516175797E-01	-9.12708357929E-02
1.75600000000E+09	-2.18796094846E-01	7.29226596740E-02	6.09645607714E-02	3.16433639963E-02	6.01534216720E-02	3.24318549502E-02	1.68050895337E-01	-9.50243218097E-02
1.75650000000E+09	-2.18360569862E-01	7.68242868588E-02	6.15857451530E-02	3.03602359857E-02	6.07842723578E-02	3.11615207410E-02	1.63447112245E-01	-9.86377066639E-02
1.75700000000E+09	-2.17721391187E-01	8.07213831800E-02	6.21662864622E-02	2.90634110563E-02	6.13784721680E-02	2.98855476933E-02	1.58725613325E-01	-1.02120222855E-01
1.75750000000E+09	-2.16901052851E-01	8.45850063513E-02	6.27201547869E-02	2.77553372981E-02	6.19504515266E-02	2.86031308876E-02	1.53901724999E-01	-1.05447069753E-01
1.75800000000E+09	-2.15875261123E-01	8.84136348151E-02	6.32485607449E-02	2.64395271035E-02	6.25036503467E-02	2.72970783495E-02	1.48942917148E-01	-1.08620947706E-01
1.75850000000E+09	-2.14686912913E-01	9.22042053160E-02	6.37516193609E-02	2.51159387492E-02	6.30178749132E-02	2.60006799979E-02	1.43862182957E-01	-1.11640837246E-01
1.75900000000E+09	-2.13293046108E-01	9.59060226020E-02	6.42224492929E-02	2.37878640718E-02	6.35117459902E-02	2.46829294833E-02	1.38719318988E-01	-1.14489611019E-01
