# Hz S RI R 50
! CMT, CMT808U, 21440046, 21.4.3/4
! Date: 6/12/2026 9:34:10 AM
! Data: Format (Calibration Info)
! Freq	S11:Re/Im(F2)	S41:Re/Im(F2)	S14:Re/Im(F2)	S44:Re/Im(F2)
1.70000000000E+09	-1.12713133342E-01	1.01052611781E-01	-6.78187940561E-02	2.42364200925E-02	-6.78564785947E-02	2.31638140613E-02	-3.37577699026E-02	1.63971483953E-01
1.70050000000E+09	-1.09987854004E-01	1.00858887858E-01	-6.72777423561E-02	2.56653694045E-02	-6.73460101935E-02	2.45957971385E-02	-3.01219145392E-02	1.67420047789E-01
1.70100000000E+09	-1.07288777350E-01	1.00475679446E-01	-6.67081183882E-02	2.70760280620E-02	-6.67947364898E-02	2.59942767673E-02	-2.63743429206E-02	1.70749209116E-01
1.70150000000E+09	-1.04608796729E-01	9.99699513013E-02	-6.61135264896E-02	2.84725932130E-02	-6.62246196134E-02	2.73959383451E-02	-2.25274492848E-02	1.73961261070E-01
1.70200000000E+09	-1.01980471293E-01	9.93376900744E-02	-6.54905307853E-02	2.98646795038E-02	-6.56180975654E-02	2.88037046748E-02	-1.85556528697E-02	1.77020391767E-01
1.70250000000E+09	-9.94048690298E-02	9.85450262070E-02	-6.48259011698E-02	3.12394849111E-02	-6.49875214766E-02	3.01732061218E-02	-1.45017915332E-02	1.79998989957E-01
1.70300000000E+09	-9.68891651177E-02	9.76347325851E-02	-6.41399464098E-02	3.26020032008E-02	-6.43159425380E-02	3.15404422128E-02	-1.03622655075E-02	1.82849324616E-01
1.70350000000E+09	-9.44421746544E-02	9.65946001749E-02	-6.34265596320E-02	3.39431945163E-02	-6.36262927953E-02	3.28978867827E-02	-6.11653205378E-03	1.85555180461E-01
1.70400000000E+09	-9.20571811302E-02	9.54235397391E-02	-6.26790084608E-02	3.52788228196E-02	-6.29024951582E-02	3.42277585604E-02	-1.79770157070E-03	1.88124280289E-01
1.70450000000E+09	-8.97535769084E-02	9.41443555168E-02	-6.19273818794E-02	3.66009966128E-02	-6.21608242985E-02	3.55538656972E-02	2.61393036867E-03	1.90600069819E-01
1.70500000000E+09	-8.75199698550E-02	9.27697486405E-02	-6.11258464784E-02	3.78990623733E-02	-6.13863426186E-02	3.68601520708E-02	7.08478241961E-03	1.92893083980E-01
1.70550000000E+09	-8.53691254171E-02	9.12698390128E-02	-6.03040939241E-02	3.91780278464E-02	-6.05800156859E-02	3.81428822998E-02	1.16328486636E-02	1.95052979108E-01
1.70600000000E+09	-8.33048820867E-02	8.96703271669E-02	-5.94379132706E-02	4.04558778337E-02	-5.97494663850E-02	3.94136020759E-02	1.62572476987E-02	1.97091053869E-01
1.70650000000E+09	-8.13275382905E-02	8.79984316698E-02	-5.85592907243E-02	4.17005011973E-02	-5.88982430458E-02	4.06696119367E-02	2.09357907935E-02	1.98983507079E-01
1.70700000000E+09	-7.94510298330E-02	8.62146082297E-02	-5.76613261349E-02	4.29266903244E-02	-5.80113697371E-02	4.19056651396E-02	2.56845438052E-02	2.00722221868E-01
1.70750000000E+09	-7.76611442462E-02	8.43418153668E-02	-5.67224285753E-02	4.41361182051E-02	-5.71018138670E-02	4.31194157328E-02	3.04505890133E-02	2.02312999538E-01
1.70800000000E+09	-7.59793817398E-02	8.24055186714E-02	-5.57672004775E-02	4.53269566010E-02	-5.61562096337E-02	4.43204616315E-02	3.53254844923E-02	2.03771821769E-01
1.70850000000E+09	-7.43959375896E-02	8.03915585849E-02	-5.47803767707E-02	4.64937061700E-02	-5.52015095278E-02	4.55000097678E-02	4.02009284494E-02	2.05054231382E-01
1.70900000000E+09	-7.29114525222E-02	7.83132692796E-02	-5.37736579898E-02	4.76438458158E-02	-5.42119815655E-02	4.66571090742E-02	4.51285609526E-02	2.06242750309E-01
1.70950000000E+09	-7.15353066775E-02	7.61843437426E-02	-5.27378310458E-02	4.87766534881E-02	-5.32049724749E-02	4.77912416699E-02	5.00908255873E-02	2.07202773263E-01
1.71000000000E+09	-7.02586941429E-02	7.39887792533E-02	-5.16851397428E-02	4.98773057989E-02	-5.21730031638E-02	4.89036901372E-02	5.50811195859E-02	2.08076853256E-01
1.71050000000E+09	-6.91033729031E-02	7.17346200653E-02	-5.06066184879E-02	5.09566468305E-02	-5.11127356608E-02	4.99931878562E-02	6.00909111938E-02	2.08756225931E-01
1.71100000000E+09	-6.80465712119E-02	6.94487731053E-02	-4.95058084600E-02	5.20142009751E-02	-5.00364088472E-02	5.10649985931E-02	6.51466484527E-02	2.09301576412E-01
1.71150000000E+09	-6.71025534816E-02	6.71238429604E-02	-4.83768361308E-02	5.30505991169E-02	-4.89362042345E-02	5.21100326372E-02	7.02015715841E-02	2.09688849366E-01
1.71200000000E+09	-6.62664453271E-02	6.47507259060E-02	-4.72302562854E-02	5.40585088931E-02	-4.77993892407E-02	5.31339552062E-02	7.52626841461E-02	2.09914521953E-01
1.71250000000E+09	-6.55422908483E-02	6.23483660560E-02	-4.60657531142E-02	5.50450021898E-02	-4.66638602465E-02	5.41259585594E-02	8.03389842991E-02	2.09999860636E-01
1.71300000000E+09	-6.49254154985E-02	5.99320092838E-02	-4.48714926634E-02	5.60131526317E-02	-4.54919260988E-02	5.51011726139E-02	8.54365488654E-02	2.09913744327E-01
1.71350000000E+09	-6.44131558453E-02	5.74739981940E-02	-4.36863708805E-02	5.69361065054E-02	-4.43064383532E-02	5.60450033870E-02	9.04876339450E-02	2.09695935646E-01
1.71400000000E+09	-6.40174618905E-02	5.50207889612E-02	-4.24357225380E-02	5.78347280736E-02	-4.30998421519E-02	5.69607291022E-02	9.55679398929E-02	2.09303812853E-01
1.71450000000E+09	-6.37347208640E-02	5.25577446522E-02	-4.11970110421E-02	5.87224377433E-02	-4.18801241765E-02	5.78730423786E-02	1.00629558674E-01	2.08760191947E-01
1.71500000000E+09	-6.35426198604E-02	5.00832637124E-02	-3.99412626052E-02	5.95809719731E-02	-4.06313175971E-02	5.87299337698E-02	1.05648835000E-01	2.08076989707E-01
1.71550000000E+09	-6.34707321596E-02	4.76072388488E-02	-3.86684961605E-02	6.04129411897E-02	-3.93691791928E-02	5.95793134230E-02	1.10658016729E-01	2.07223924680E-01
1.71600000000E+09	-6.35041622358E-02	4.51266453604E-02	-3.73726997019E-02	6.12134032727E-02	-3.80974886827E-02	6.03918941681E-02	1.15653683411E-01	2.06243258098E-01
1.71650000000E+09	-6.36467266797E-02	4.26751131629E-02	-3.60568714737E-02	6.19932903089E-02	-3.68060464905E-02	6.11929516108E-02	1.20618412647E-01	2.05089535718E-01
1.71700000000E+09	-6.38685228789E-02	4.02124897537E-02	-3.47280918408E-02	6.27341270156E-02	-3.54859353639E-02	6.19539414733E-02	1.25548705985E-01	2.03780142761E-01
1.71750000000E+09	-6.42061576103E-02	3.77621035760E-02	-3.33830576496E-02	6.34463248517E-02	-3.41534796710E-02	6.26958232962E-02	1.30415974762E-01	2.02325689121E-01
1.71800000000E+09	-6.46498202139E-02	3.53456780909E-02	-3.20273435096E-02	6.41473247431E-02	-3.28244637187E-02	6.33937393221E-02	1.35273387911E-01	2.00735631658E-01
1.71850000000E+09	-6.51968655891E-02	3.29414838886E-02	-3.06551180625E-02	6.48062768865E-02	-3.14604187053E-02	6.40713811598E-02	1.40064193124E-01	1.98990276060E-01
1.71900000000E+09	-6.58158386771E-02	3.05623557687E-02	-2.92672194081E-02	6.54441612505E-02	-3.00838859996E-02	6.47157338544E-02	1.44815579649E-01	1.97100343977E-01
1.71950000000E+09	-6.65367219432E-02	2.81946944101E-02	-2.78679057571E-02	6.60469507413E-02	-2.87009204491E-02	6.53521104820E-02	1.49483312617E-01	1.95071130647E-01
1.72000000000E+09	-6.73578736150E-02	2.58692721982E-02	-2.64403678775E-02	6.66122956194E-02	-2.73085881898E-02	6.59434549453E-02	1.54097617130E-01	1.92885574513E-01
1.72050000000E+09	-6.82815138471E-02	2.35809327440E-02	-2.50287726308E-02	6.71698226531E-02	-2.58931952253E-02	6.65092457328E-02	1.58645885396E-01	1.90582300737E-01
1.72100000000E+09	-6.92566986302E-02	2.13146549753E-02	-2.35918657928E-02	6.76844156812E-02	-2.44700518392E-02	6.70417470412E-02	1.63135567833E-01	1.88120224250E-01
1.72150000000E+09	-7.03580357335E-02	1.91035455371E-02	-2.21372029821E-02	6.81681016020E-02	-2.30384210074E-02	6.75384237394E-02	1.67537598982E-01	1.85539354661E-01
1.72200000000E+09	-7.15249381669E-02	1.69040716556E-02	-2.06935558216E-02	6.86202080315E-02	-2.15913281347E-02	6.80106818701E-02	1.71866132120E-01	1.82808124535E-01
1.72250000000E+09	-7.27761505900E-02	1.47683822672E-02	-1.92199614480E-02	6.90407784865E-02	-2.01345748065E-02	6.84578135956E-02	1.76127208669E-01	1.79960048551E-01
1.72300000000E+09	-7.41129525016E-02	1.26719404223E-02	-1.77478154472E-02	6.94351967040E-02	-1.86789116390E-02	6.88642377321E-02	1.80288963279E-01	1.76996547244E-01
1.72350000000E+09	-7.55451596787E-02	1.06190596805E-02	-1.62516437643E-02	6.97921541436E-02	-1.72020827559E-02	6.92563667259E-02	1.84358886951E-01	1.73888660121E-01
1.72400000000E+09	-7.70597009642E-02	8.61829392165E-03	-1.47662153151E-02	7.01351728451E-02	-1.57213748654E-02	6.96114141722E-02	1.88332115084E-01	1.70641644603E-01
1.72450000000E+09	-7.86340078062E-02	6.66222921119E-03	-1.32646686277E-02	7.04244384862E-02	-1.42274374270E-02	6.99345750450E-02	1.92215284174E-01	1.67317752339E-01
1.72500000000E+09	-8.02979937000E-02	4.76380423569E-03	-1.17593982230E-02	7.06904881035E-02	-1.27386233014E-02	7.02172176160E-02	1.95983469528E-01	1.63849875756E-01
1.72550000000E+09	-8.20372005166E-02	2.91971534932E-03	-1.02369143273E-02	7.09381839165E-02	-1.12328150690E-02	7.04664097321E-02	1.99650290885E-01	1.60258375012E-01
1.72600000000E+09	-8.38418405579E-02	1.14340901734E-03	-8.71578298884E-03	7.11380082731E-02	-9.71559319729E-03	7.06999064701E-02	2.03212892845E-01	1.56551076045E-01
1.72650000000E+09	-8.57168168120E-02	-5.97890690630E-04	-7.19897509979E-03	7.13008929948E-02	-8.19728854221E-03	7.08841800125E-02	2.06678171397E-01	1.52758420677E-01
1.72700000000E+09	-8.76826161872E-02	-2.25384824265E-03	-5.66784766238E-03	7.14379183720E-02	-6.67629271847E-03	7.10508476694E-02	2.10023098795E-01	1.48870100517E-01
1.72750000000E+09	-8.96806445578E-02	-3.84493012556E-03	-4.13756924442E-03	7.15517815568E-02	-5.14955394498E-03	7.11751285698E-02	2.13247439384E-01	1.44846180136E-01
1.72800000000E+09	-9.17818537029E-02	-5.38145563254E-03	-2.59437214503E-03	7.16219755787E-02	-3.62650036838E-03	7.12726976898E-02	2.16353292354E-01	1.40741559808E-01
1.72850000000E+09	-9.39374753859E-02	-6.85457635043E-03	-1.06076531644E-03	7.16540510414E-02	-2.09102466148E-03	7.13204047136E-02	2.19312451907E-01	1.36539718786E-01
1.72900000000E+09	-9.61712283233E-02	-8.23173398404E-03	4.71193780232E-04	7.16641128767E-02	-5.67224022949E-04	7.13544524490E-02	2.22185186915E-01	1.32226112073E-01
1.72950000000E+09	-9.84510924426E-02	-9.55218889563E-03	2.01793069926E-03	7.16305944842E-02	9.61612565139E-04	7.13477535816E-02	2.24862157713E-01	1.27867754206E-01
1.73000000000E+09	-1.00799050016E-01	-1.07854187186E-02	3.54808101264E-03	7.15620254186E-02	2.49865386297E-03	7.13047687534E-02	2.27474912717E-01	1.23395400161E-01
1.73050000000E+09	-1.03217695030E-01	-1.19499676913E-02	5.09639218540E-03	7.14686984465E-02	4.04114442146E-03	7.12373028617E-02	2.29933928996E-01	1.18864615156E-01
1.73100000000E+09	-1.05684668708E-01	-1.30257906257E-02	6.63280521019E-03	7.13324679595E-02	5.56836694547E-03	7.11212814182E-02	2.32250876164E-01	1.14211941841E-01
1.73150000000E+09	-1.08214769011E-01	-1.40313613382E-02	8.16879703398E-03	7.11744857525E-02	7.10025869009E-03	7.09792557691E-02	2.34412135425E-01	1.09530500089E-01
1.73200000000E+09	-1.10783971174E-01	-1.49399536010E-02	9.69105382520E-03	7.09698323498E-02	8.62766684957E-03	7.08068767903E-02	2.36463817885E-01	1.04779746405E-01
1.73250000000E+09	-1.13419851864E-01	-1.57406335756E-02	1.12330616198E-02	7.07502994767E-02	1.01513061985E-02	7.05846721116E-02	2.38360021072E-01	9.99329883566E-02
1.73300000000E+09	-1.16097505776E-01	-1.64775344165E-02	1.27435711770E-02	7.04810759365E-02	1.16645939401E-02	7.03462833483E-02	2.40093236418E-01	9.50749588746E-02
1.73350000000E+09	-1.18797831504E-01	-1.71137587325E-02	1.42566484790E-02	7.01743359703E-02	1.31805698035E-02	7.00695403164E-02	2.41696048511E-01	9.01315429189E-02
1.73400000000E+09	-1.21576187256E-01	-1.76374115999E-02	1.57714275055E-02	6.98418326281E-02	1.46830682038E-02	6.97469434637E-02	2.43133681450E-01	8.51437472293E-02
1.73450000000E+09	-1.24366526443E-01	-1.80676246828E-02	1.72725569586E-02	6.94652820965E-02	1.61758104525E-02	6.94139429990E-02	2.44429089160E-01	8.00987694129E-02
1.73500000000E+09	-1.27204544813E-01	-1.84138048684E-02	1.87588113014E-02	6.90757406850E-02	1.76642736219E-02	6.90252806099E-02	2.45566488508E-01	7.50022067229E-02
1.73550000000E+09	-1.30065950756E-01	-1.86240837399E-02	2.02385809500E-02	6.86355192817E-02	1.91459548047E-02	6.86124560116E-02	2.46566540286E-01	6.98819423756E-02
1.73600000000E+09	-1.32973260626E-01	-1.87498589452E-02	2.17072108460E-02	6.81630693912E-02	2.06159059272E-02	6.81667626507E-02	2.47368686404E-01	6.47437532582E-02
1.73650000000E+09	-1.35901662061E-01	-1.87509983357E-02	2.31789787423E-02	6.76732198389E-02	2.20774879789E-02	6.76971823679E-02	2.48062121638E-01	5.95527994296E-02
1.73700000000E+09	-1.38852892211E-01	-1.86527646628E-02	2.46210282684E-02	6.71306316422E-02	2.35244490443E-02	6.71781203865E-02	2.48556994655E-01	5.43587181421E-02
1.73750000000E+09	-1.41797027711E-01	-1.84583541570E-02	2.60471591366E-02	6.65646541257E-02	2.49668023418E-02	6.66461017303E-02	2.48912733284E-01	4.91434059846E-02
1.73800000000E+09	-1.44768673084E-01	-1.81250636494E-02	2.74749965581E-02	6.59667450626E-02	2.63878637134E-02	6.60706966269E-02	2.49115043029E-01	4.38920740950E-02
1.73850000000E+09	-1.47771535386E-01	-1.76823409020E-02	2.88873493924E-02	6.53441116587E-02	2.77972042687E-02	6.54568934541E-02	2.49142162164E-01	3.86339963627E-02
1.73900000000E+09	-1.50749305913E-01	-1.71112151953E-02	3.02704441112E-02	6.46844784935E-02	2.91954225914E-02	6.48211712664E-02	2.49006357382E-01	3.33806354780E-02
1.73950000000E+09	-1.53729162078E-01	-1.64567965194E-02	3.16493515278E-02	6.40000908615E-02	3.05702225533E-02	6.41580081744E-02	2.48720869606E-01	2.81237780234E-02
1.74000000000E+09	-1.56737526590E-01	-1.56460935959E-02	3.30160632895E-02	6.32742425473E-02	3.19407302945E-02	6.34575745072E-02	2.48268470203E-01	2.28716475557E-02
1.74050000000E+09	-1.59701518985E-01	-1.47150265697E-02	3.43555258368E-02	6.25266790837E-02	3.32822543120E-02	6.27330804129E-02	2.47648142374E-01	1.76329118927E-02
1.74100000000E+09	-1.62690767120E-01	-1.36834385398E-02	3.56863206889E-02	6.17482716123E-02	3.46088629597E-02	6.19590602000E-02	2.46854912392E-01	1.24175739581E-02
1.74150000000E+09	-1.65631942870E-01	-1.25131665119E-02	3.69792936670E-02	6.09413271592E-02	3.59135110335E-02	6.11893049899E-02	2.45926646591E-01	7.20371033063E-03
1.74200000000E+09	-1.68537805674E-01	-1.12322309466E-02	3.82696953510E-02	6.00982007290E-02	3.72098919558E-02	6.03746744831E-02	2.44823290620E-01	2.01254482508E-03
1.74250000000E+09	-1.71435173902E-01	-9.83031377981E-03	3.95325903106E-02	5.92418457464E-02	3.84860527718E-02	5.95287295110E-02	2.43554414912E-01	-3.13684403192E-03
1.74300000000E+09	-1.74293852336E-01	-8.28869432134E-03	4.07782460918E-02	5.83474526523E-02	3.97364569152E-02	5.86631979704E-02	2.42126284262E-01	-8.26010166296E-03
1.74350000000E+09	-1.77103016203E-01	-6.63793830933E-03	4.20054209467E-02	5.74287709166E-02	4.09597008802E-02	5.77619586936E-02	2.40553210560E-01	-1.33374725650E-02
1.74400000000E+09	-1.79853693452E-01	-4.85041252336E-03	4.32141718591E-02	5.64847128220E-02	4.21727017921E-02	5.68451103191E-02	2.38797956815E-01	-1.83762311072E-02
1.74450000000E+09	-1.82573901446E-01	-2.94042774436E-03	4.43837080142E-02	5.55241857259E-02	4.33473239878E-02	5.59001085240E-02	2.36907736769E-01	-2.33612400759E-02
1.74500000000E+09	-1.85245452249E-01	-9.27278227341E-04	4.55409322681E-02	5.45209242896E-02	4.45100554371E-02	5.49275073403E-02	2.34830362347E-01	-2.83026277747E-02
1.74550000000E+09	-1.87837709745E-01	1.22228560368E-03	4.66776278837E-02	5.35104341563E-02	4.56509972029E-02	5.39387972064E-02	2.32617636676E-01	-3.31790429696E-02
1.74600000000E+09	-1.90368331415E-01	3.48868296352E-03	4.77891333037E-02	5.24735708168E-02	4.67676814444E-02	5.29144013861E-02	2.30246020008E-01	-3.79956470724E-02
1.74650000000E+09	-1.92831762453E-01	5.87742213086E-03	4.88634851815E-02	5.14146648889E-02	4.78537830156E-02	5.18793725692E-02	2.27694023070E-01	-4.27244235620E-02
1.74700000000E+09	-1.95208712800E-01	8.35857416179E-03	4.99194157827E-02	5.03291017225E-02	4.89116079907E-02	5.08121602297E-02	2.25026141546E-01	-4.74026892677E-02
1.74750000000E+09	-1.97501272865E-01	1.09866871617E-02	5.09641603247E-02	4.92172741378E-02	4.99691685875E-02	4.97284009175E-02	2.22204826849E-01	-5.20089991695E-02
1.74800000000E+09	-1.99706361641E-01	1.37069440407E-02	5.19668985848E-02	4.81078380687E-02	5.09794137177E-02	4.86332666614E-02	2.19259361264E-01	-5.65079029949E-02
1.74850000000E+09	-2.01797151086E-01	1.65387981314E-02	5.29453664553E-02	4.69497144915E-02	5.19781803288E-02	4.75094536885E-02	2.16123011366E-01	-6.09222891519E-02
1.74900000000E+09	-2.03791814841E-01	1.94780353672E-02	5.39045213093E-02	4.57937086955E-02	5.29371697264E-02	4.63618183063E-02	2.12865722922E-01	-6.52725033734E-02
1.74950000000E+09	-2.05654850540E-01	2.25234689208E-02	5.48310631260E-02	4.46071164138E-02	5.38797457837E-02	4.51992051681E-02	2.09454936488E-01	-6.94945492642E-02
1.75000000000E+09	-2.07404376786E-01	2.56521077915E-02	5.57361130416E-02	4.34168525038E-02	5.47823561134E-02	4.40304323149E-02	2.05907832780E-01	-7.36282577857E-02
1.75050000000E+09	-2.09029698105E-01	2.88840946487E-02	5.66038513235E-02	4.21931882515E-02	5.56745801472E-02	4.28288261034E-02	2.02258406459E-01	-7.76310497335E-02
1.75100000000E+09	-2.10536123383E-01	3.21870787014E-02	5.74525744037E-02	4.09602094380E-02	5.65314698407E-02	4.16215796013E-02	1.98454757762E-01	-8.15631280682E-02
1.75150000000E+09	-2.11886076994E-01	3.55819623599E-02	5.82641897703E-02	3.97212258657E-02	5.73649850992E-02	4.03917617207E-02	1.94529608623E-01	-8.53689588050E-02
1.75200000000E+09	-2.13096964448E-01	3.90429357907E-02	5.90546322023E-02	3.84539263709E-02	5.81591464109E-02	3.91543600144E-02	1.90462926949E-01	-8.90543947900E-02
1.75250000000E+09	-2.14167374225E-01	4.25769219498E-02	5.98249567507E-02	3.71750166324E-02	5.89363858791E-02	3.78878315930E-02	1.86300295081E-01	-9.26084865301E-02
1.75300000000E+09	-2.15078300109E-01	4.61606948045E-02	6.05623923669E-02	3.58839881866E-02	5.96869784270E-02	3.66214775727E-02	1.81976521398E-01	-9.60403416939E-02
1.75350000000E+09	-2.15835874242E-01	4.98214480197E-02	6.12635791174E-02	3.45798951490E-02	6.04079893432E-02	3.53369194676E-02	1.77590880785E-01	-9.93445442084E-02
1.75400000000E+09	-2.16450697619E-01	5.35012382580E-02	6.19426497583E-02	3.32649375007E-02	6.11041709732E-02	3.40414144219E-02	1.73080083103E-01	-1.02509009756E-01
1.75450000000E+09	-2.16898492411E-01	5.72311018843E-02	6.25927425140E-02	3.19464540740E-02	6.17635794722E-02	3.27468317097E-02	1.68451655153E-01	-1.05523482480E-01
1.75500000000E+09	-2.17158014117E-01	6.09758574647E-02	6.32092056786E-02	3.06045412127E-02	6.24016212344E-02	3.14208406663E-02	1.63723810280E-01	-1.08418152772E-01
1.75550000000E+09	-2.17281875015E-01	6.47700293937E-02	6.37975336320E-02	2.92554206794E-02	6.30034279801E-02	3.00957503733E-02	1.58898888256E-01	-1.11142991480E-01
1.75600000000E+09	-2.17209433071E-01	6.85616233912E-02	6.43612273113E-02	2.79049893100E-02	6.35959160402E-02	2.87507984710E-02	1.53988249907E-01	-1.13759407761E-01
1.75650000000E+09	-2.16965486019E-01	7.23544397792E-02	6.49040552220E-02	2.65331342249E-02	6.41433796502E-02	2.74113945281E-02	1.48971839827E-01	-1.16179566211E-01
1.75700000000E+09	-2.16526786404E-01	7.61433533298E-02	6.54033706451E-02	2.51634532395E-02	6.46701772162E-02	2.60632485614E-02	1.43891109716E-01	-1.18473536674E-01
1.75750000000E+09	-2.15922289554E-01	7.99220297792E-02	6.58822911145E-02	2.37820108276E-02	6.51732130892E-02	2.47050661383E-02	1.38743258302E-01	-1.20595984141E-01
1.75800000000E+09	-2.15137372032E-01	8.36776629408E-02	6.63370463323E-02	2.23987740348E-02	6.56355714271E-02	2.33229278780E-02	1.33495713719E-01	-1.22563892381E-01
1.75850000000E+09	-2.14159336426E-01	8.73744567636E-02	6.67599505406E-02	2.10154725245E-02	6.60818806601E-02	2.19434698875E-02	1.28170190872E-01	-1.24358629411E-01
1.75900000000E+09	-2.13000251208E-01	9.10224628378E-02	6.71583026112E-02	1.96086062755E-02	6.65031611796E-02	2.05568011441E-02	1.22805420839E-01	-1.25992734695E-01
