# Hz S RI R 50
! CMT, CMT808U, 21440046, 21.4.3/4
! Date: 6/12/2026 9:31:27 AM
! Data: Format (Calibration Info)
! Freq	S11:Re/Im(F2)	S41:Re/Im(F2)	S14:Re/Im(F2)	S44:Re/Im(F2)
1.70000000000E+09	-1.13264613169E-01	1.00770116133E-01	-7.01302415910E-02	2.32132815286E-02	-7.01423121492E-02	2.21094798577E-02	-4.26948850746E-02	1.56861894552E-01
1.70050000000E+09	-1.10532794486E-01	1.00572648929E-01	-6.96367670083E-02	2.47141955768E-02	-6.96829094541E-02	2.36081018774E-02	-3.90694715728E-02	1.60770334695E-01
1.70100000000E+09	-1.07847273917E-01	1.00204392068E-01	-6.91300122876E-02	2.62021927556E-02	-6.91846689119E-02	2.51096549089E-02	-3.53415156593E-02	1.64563316885E-01
1.70150000000E+09	-1.05202413924E-01	9.96922244537E-02	-6.85709912932E-02	2.76815690262E-02	-6.86554060405E-02	2.65842225202E-02	-3.14745461339E-02	1.68234256169E-01
1.70200000000E+09	-1.02590077394E-01	9.90818022850E-02	-6.79852343075E-02	2.91503478817E-02	-6.80952748716E-02	2.80567028526E-02	-2.74867071500E-02	1.71769943201E-01
1.70250000000E+09	-1.00025143819E-01	9.83088713670E-02	-6.73660377105E-02	3.06206192452E-02	-6.74926492731E-02	2.95195785515E-02	-2.34117829874E-02	1.75200134075E-01
1.70300000000E+09	-9.75214337070E-02	9.73951741933E-02	-6.67238344433E-02	3.20657210679E-02	-6.68769642354E-02	3.09786019710E-02	-1.92195742919E-02	1.78513574749E-01
1.70350000000E+09	-9.50761277117E-02	9.63772314412E-02	-6.60373640016E-02	3.35074054707E-02	-6.62116686966E-02	3.24247239966E-02	-1.49135745913E-02	1.81671440862E-01
1.70400000000E+09	-9.27199412130E-02	9.52165683042E-02	-6.53187087265E-02	3.49316560470E-02	-6.55087629554E-02	3.38403426265E-02	-1.05407793706E-02	1.84717279917E-01
1.70450000000E+09	-9.04028055583E-02	9.39401343075E-02	-6.45603370706E-02	3.63402511914E-02	-6.47827515888E-02	3.52673213419E-02	-6.01551495175E-03	1.87621400751E-01
1.70500000000E+09	-8.81993848446E-02	9.25740042015E-02	-6.37778136038E-02	3.77352239981E-02	-6.40194238040E-02	3.66601217854E-02	-1.43794754513E-03	1.90373852313E-01
1.70550000000E+09	-8.60655248696E-02	9.10945015870E-02	-6.29616723849E-02	3.91043410503E-02	-6.32364263827E-02	3.80420730082E-02	3.25765107544E-03	1.92996207023E-01
1.70600000000E+09	-8.40093429474E-02	8.95107318585E-02	-6.21195740824E-02	4.04813376394E-02	-6.24095217048E-02	3.94090847198E-02	8.00117207218E-03	1.95473562614E-01
1.70650000000E+09	-8.20288654062E-02	8.78325119140E-02	-6.12380106239E-02	4.18268532398E-02	-6.15524505995E-02	4.07580787413E-02	1.28373185101E-02	1.97798299213E-01
1.70700000000E+09	-8.01685714286E-02	8.60847501417E-02	-6.03298888502E-02	4.31594220364E-02	-6.06599650851E-02	4.20968381145E-02	1.77700968834E-02	1.99970327996E-01
1.70750000000E+09	-7.83913004630E-02	8.42388103259E-02	-5.93820126405E-02	4.44532440445E-02	-5.97491846449E-02	4.34071698439E-02	2.27193729909E-02	2.01985065709E-01
1.70800000000E+09	-7.67128012141E-02	8.23154409256E-02	-5.84081682637E-02	4.57451183218E-02	-5.87935884021E-02	4.47050021212E-02	2.77716217697E-02	2.03840187959E-01
1.70850000000E+09	-7.51394445389E-02	8.03218109869E-02	-5.74035137744E-02	4.70012575476E-02	-5.78269675692E-02	4.59738054943E-02	3.28727083987E-02	2.05576515421E-01
1.70900000000E+09	-7.36594669442E-02	7.82635853157E-02	-5.63742862098E-02	4.82511122521E-02	-5.68114821382E-02	4.72205417900E-02	3.80248763586E-02	2.07130443117E-01
1.70950000000E+09	-7.23025374058E-02	7.61483753506E-02	-5.53173545713E-02	4.94652112256E-02	-5.57569200705E-02	4.84511327329E-02	4.32203511651E-02	2.08499607538E-01
1.71000000000E+09	-7.10287476413E-02	7.39633171037E-02	-5.42367853985E-02	5.06653941520E-02	-5.47121788225E-02	4.96555848900E-02	4.84683154906E-02	2.09758990883E-01
1.71050000000E+09	-6.98714538037E-02	7.17368641444E-02	-5.31174731622E-02	5.18314179450E-02	-5.36190562855E-02	5.08349912502E-02	5.37336491557E-02	2.10817701566E-01
1.71100000000E+09	-6.88172640505E-02	6.94597183593E-02	-5.19656128991E-02	5.29815282810E-02	-5.24971232230E-02	5.19908804826E-02	5.90635707765E-02	2.11734210103E-01
1.71150000000E+09	-6.78742619452E-02	6.71561754603E-02	-5.07974957896E-02	5.40982358975E-02	-5.13329866557E-02	5.31203944168E-02	6.44056449609E-02	2.12475328211E-01
1.71200000000E+09	-6.70239118433E-02	6.48137987856E-02	-4.95972417135E-02	5.51921478598E-02	-5.01668707368E-02	5.42269389387E-02	6.97887963927E-02	2.13062603674E-01
1.71250000000E+09	-6.63077948465E-02	6.24319703995E-02	-4.83816750061E-02	5.62478984220E-02	-4.89811350867E-02	5.52890266810E-02	7.51662990430E-02	2.13490206446E-01
1.71300000000E+09	-6.56963079155E-02	6.00272320927E-02	-4.71422751680E-02	5.72844136687E-02	-4.77507500882E-02	5.63470183000E-02	8.05847223699E-02	2.13725538685E-01
1.71350000000E+09	-6.51842973614E-02	5.75992734954E-02	-4.58725691036E-02	5.82984743680E-02	-4.65164724162E-02	5.73688058284E-02	8.59769400498E-02	2.13830490369E-01
1.71400000000E+09	-6.47738277052E-02	5.51705835570E-02	-4.45874564054E-02	5.92717087502E-02	-4.52320276092E-02	5.83660422768E-02	9.14036752199E-02	2.13730857410E-01
1.71450000000E+09	-6.44989301905E-02	5.27100145250E-02	-4.32682286448E-02	6.02264040850E-02	-4.39422202111E-02	5.93294330792E-02	9.68147573602E-02	2.13503119171E-01
1.71500000000E+09	-6.43061369037E-02	5.02807111649E-02	-4.19377154651E-02	6.11419665449E-02	-4.26271554848E-02	6.02524471170E-02	1.02215874255E-01	2.13080586090E-01
1.71550000000E+09	-6.42120424288E-02	4.78117592643E-02	-4.05831568188E-02	6.20320060939E-02	-4.12952645956E-02	6.11528811974E-02	1.07596859569E-01	2.12491844435E-01
1.71600000000E+09	-6.42365424373E-02	4.53517978970E-02	-3.92108543851E-02	6.28787740491E-02	-3.99352289855E-02	6.20289783360E-02	1.12980099997E-01	2.11760015760E-01
1.71650000000E+09	-6.43722768931E-02	4.29138433645E-02	-3.78197008354E-02	6.36975350021E-02	-3.85751454610E-02	6.28749104377E-02	1.18343328274E-01	2.10843238570E-01
1.71700000000E+09	-6.45877585272E-02	4.04774980236E-02	-3.64093953302E-02	6.44903765465E-02	-3.71812580964E-02	6.36773681719E-02	1.23651260366E-01	2.09783859702E-01
1.71750000000E+09	-6.49161756216E-02	3.80459006537E-02	-3.49832381421E-02	6.52466446061E-02	-3.57709129869E-02	6.44525876407E-02	1.28947459591E-01	2.08547253055E-01
1.71800000000E+09	-6.53393575219E-02	3.56441984946E-02	-3.35423334712E-02	6.59743918062E-02	-3.43486463141E-02	6.51957324429E-02	1.34198759378E-01	2.07145494804E-01
1.71850000000E+09	-6.58665275603E-02	3.32485021941E-02	-3.20863426979E-02	6.66618728905E-02	-3.29142150425E-02	6.58993087434E-02	1.39421317818E-01	2.05598405600E-01
1.71900000000E+09	-6.64844644510E-02	3.08821544560E-02	-3.06133605662E-02	6.73188057657E-02	-3.14542478104E-02	6.65761295289E-02	1.44585525079E-01	2.03866699894E-01
1.71950000000E+09	-6.71876411747E-02	2.85458167106E-02	-2.91352236064E-02	6.79395503502E-02	-2.99776730650E-02	6.72156378995E-02	1.49702855226E-01	2.02003873750E-01
1.72000000000E+09	-6.79935132828E-02	2.62291695325E-02	-2.76217905510E-02	6.85445661570E-02	-2.85010166315E-02	6.78321797611E-02	1.54766876060E-01	1.99948948624E-01
1.72050000000E+09	-6.89023993144E-02	2.39484760783E-02	-2.61169172600E-02	6.90826699541E-02	-2.70030392257E-02	6.84045784754E-02	1.59757924138E-01	1.97774827544E-01
1.72100000000E+09	-6.98618652986E-02	2.17054043712E-02	-2.46131591408E-02	6.96050637112E-02	-2.55067796719E-02	6.89454151526E-02	1.64673639180E-01	1.95430819340E-01
1.72150000000E+09	-7.09372441997E-02	1.94862852680E-02	-2.30741568981E-02	7.00967469196E-02	-2.39903637286E-02	6.94456584554E-02	1.69546061924E-01	1.92944135653E-01
1.72200000000E+09	-7.20932982167E-02	1.73132529605E-02	-2.15367630417E-02	7.05442086052E-02	-2.24660838742E-02	6.99214345154E-02	1.74338772497E-01	1.90301356541E-01
1.72250000000E+09	-7.33246291161E-02	1.51873660077E-02	-1.99870271232E-02	7.09655642102E-02	-2.09288925978E-02	7.03645558329E-02	1.79053684973E-01	1.87519845802E-01
1.72300000000E+09	-7.46353582856E-02	1.30917053783E-02	-1.84335350108E-02	7.13451416131E-02	-1.93892023723E-02	7.07614307397E-02	1.83665578815E-01	1.84588484973E-01
1.72350000000E+09	-7.60510092356E-02	1.10577502886E-02	-1.68709347003E-02	7.16867135593E-02	-1.78387659914E-02	7.11366682951E-02	1.88193971058E-01	1.81506611771E-01
1.72400000000E+09	-7.75424250538E-02	9.05611907151E-03	-1.53045635434E-02	7.20072319030E-02	-1.62826904786E-02	7.14634430244E-02	1.92645715361E-01	1.78296045498E-01
1.72450000000E+09	-7.91034204626E-02	7.11288244747E-03	-1.37357162452E-02	7.22765292263E-02	-1.47113349214E-02	7.17497583200E-02	1.96983561273E-01	1.74959185899E-01
1.72500000000E+09	-8.07337410932E-02	5.21996402547E-03	-1.21586267709E-02	7.25163286491E-02	-1.31555650173E-02	7.20120028794E-02	2.01223460290E-01	1.71495676551E-01
1.72550000000E+09	-8.24514702264E-02	3.37209955051E-03	-1.05741340444E-02	7.27166662455E-02	-1.15770117814E-02	7.22403670670E-02	2.05346931304E-01	1.67860972822E-01
1.72600000000E+09	-8.42379561150E-02	1.59811406185E-03	-8.99744514577E-03	7.28818800360E-02	-1.00093063529E-02	7.24328078523E-02	2.09388894719E-01	1.64125316845E-01
1.72650000000E+09	-8.60949607320E-02	-1.34902269572E-04	-7.40986479878E-03	7.30259534675E-02	-8.43687040425E-03	7.25903102099E-02	2.13305951139E-01	1.60265304502E-01
1.72700000000E+09	-8.80364548133E-02	-1.81331737322E-03	-5.83376570049E-03	7.31135179284E-02	-6.86144681243E-03	7.27071307443E-02	2.17106986122E-01	1.56283408750E-01
1.72750000000E+09	-9.00290935620E-02	-3.39924202349E-03	-4.24787871475E-03	7.31730452193E-02	-5.28874284202E-03	7.27891299093E-02	2.20797849726E-01	1.52159942845E-01
1.72800000000E+09	-9.21138007873E-02	-4.93486135948E-03	-2.66515450455E-03	7.32104280016E-02	-3.71455519955E-03	7.28400161127E-02	2.24355059551E-01	1.47944660631E-01
1.72850000000E+09	-9.42448312057E-02	-6.40694273302E-03	-1.08709825660E-03	7.31901445903E-02	-2.13159906662E-03	7.28591356520E-02	2.27766004335E-01	1.43617743179E-01
1.72900000000E+09	-9.64633069990E-02	-7.80429338863E-03	4.89557201040E-04	7.31539741166E-02	-5.63165325848E-04	7.28406241914E-02	2.31089490394E-01	1.39170564258E-01
1.72950000000E+09	-9.87127613734E-02	-9.11069260421E-03	2.06936427671E-03	7.30773520279E-02	1.01011854487E-03	7.27827385357E-02	2.34233266535E-01	1.34633056703E-01
1.73000000000E+09	-1.01049784565E-01	-1.03699533623E-02	3.63791646710E-03	7.29684385124E-02	2.56608179008E-03	7.26822002397E-02	2.37264163025E-01	1.30002450773E-01
1.73050000000E+09	-1.03445818279E-01	-1.15453524805E-02	5.20750158663E-03	7.28173906290E-02	4.13406359904E-03	7.25641052725E-02	2.40150774598E-01	1.25253205540E-01
1.73100000000E+09	-1.05888636611E-01	-1.26256324504E-02	6.76397182235E-03	7.26303566472E-02	5.69426165490E-03	7.24106941841E-02	2.42891514734E-01	1.20430711723E-01
1.73150000000E+09	-1.08400397068E-01	-1.36395636938E-02	8.31933358544E-03	7.24160039160E-02	7.24052275355E-03	7.22165569205E-02	2.45489115964E-01	1.15521459097E-01
1.73200000000E+09	-1.10961320713E-01	-1.45485481159E-02	9.86731769030E-03	7.21652188369E-02	8.78097610209E-03	7.19902920800E-02	2.47921648970E-01	1.10538951533E-01
1.73250000000E+09	-1.13556756760E-01	-1.53726264773E-02	1.14053384226E-02	7.18851978341E-02	1.03196347602E-02	7.17341956054E-02	2.50219626198E-01	1.05448304508E-01
1.73300000000E+09	-1.16223294768E-01	-1.61188569825E-02	1.29403657899E-02	7.15692475637E-02	1.18490965561E-02	7.14371612407E-02	2.52368825563E-01	1.00289239138E-01
1.73350000000E+09	-1.18929276501E-01	-1.67623601310E-02	1.44532454985E-02	7.12191309928E-02	1.33632582061E-02	7.11059503328E-02	2.54353470132E-01	9.50762515828E-02
1.73400000000E+09	-1.21692428199E-01	-1.73147386725E-02	1.59692416672E-02	7.08337644439E-02	1.48770993213E-02	7.07446952109E-02	2.56173291016E-01	8.98054171373E-02
1.73450000000E+09	-1.24472754561E-01	-1.77572635209E-02	1.74673260341E-02	7.04240125397E-02	1.63686627241E-02	7.03577783518E-02	2.57827499479E-01	8.44442798467E-02
1.73500000000E+09	-1.27297747995E-01	-1.81013322421E-02	1.89558952474E-02	6.99790202520E-02	1.78482560711E-02	6.99302436385E-02	2.59317884332E-01	7.90341555687E-02
1.73550000000E+09	-1.30155369216E-01	-1.83446387108E-02	2.04291102148E-02	6.94949986919E-02	1.93313900107E-02	6.94646005320E-02	2.60662089543E-01	7.35707466062E-02
1.73600000000E+09	-1.33040263790E-01	-1.84823389039E-02	2.18841560552E-02	6.89937166088E-02	2.07977451076E-02	6.89900500064E-02	2.61811121197E-01	6.80747367010E-02
1.73650000000E+09	-1.35964022358E-01	-1.85030561428E-02	2.33421731919E-02	6.84514301364E-02	2.22328481602E-02	6.84745987075E-02	2.62806608240E-01	6.25465168400E-02
1.73700000000E+09	-1.38901312708E-01	-1.84109229207E-02	2.47721383438E-02	6.78866730460E-02	2.36794527079E-02	6.79158741428E-02	2.63628258492E-01	5.69657188272E-02
1.73750000000E+09	-1.41854014461E-01	-1.82233454267E-02	2.61902998951E-02	6.72765529587E-02	2.50893905608E-02	6.73447392503E-02	2.64282452995E-01	5.13586219864E-02
1.73800000000E+09	-1.44821874622E-01	-1.79158042117E-02	2.75840066896E-02	6.66481992371E-02	2.64921418807E-02	6.67404992719E-02	2.64752516518E-01	4.57343052193E-02
1.73850000000E+09	-1.47812921920E-01	-1.74931103929E-02	2.89750275024E-02	6.59932627425E-02	2.78821161980E-02	6.61026944044E-02	2.65079891243E-01	4.00712698818E-02
1.73900000000E+09	-1.50792476809E-01	-1.69499790284E-02	3.03426837623E-02	6.53006936094E-02	2.92564084105E-02	6.54344650769E-02	2.65201107975E-01	3.44020775489E-02
1.73950000000E+09	-1.53777348846E-01	-1.62851818454E-02	3.16907103555E-02	6.46052418995E-02	3.06122585406E-02	6.47448663407E-02	2.65156031142E-01	2.87135944156E-02
1.74000000000E+09	-1.56767941844E-01	-1.54969692798E-02	3.30295356287E-02	6.38465510474E-02	3.19396255084E-02	6.40190173451E-02	2.64920278499E-01	2.30329720638E-02
1.74050000000E+09	-1.59730435191E-01	-1.45922049133E-02	3.43333424412E-02	6.30726027157E-02	3.32633861463E-02	6.32634426567E-02	2.64515753205E-01	1.73457393294E-02
1.74100000000E+09	-1.62708448075E-01	-1.35691515055E-02	3.56310000826E-02	6.22857198925E-02	3.45510732452E-02	6.24961291559E-02	2.63946292243E-01	1.16740096159E-02
1.74150000000E+09	-1.65649568510E-01	-1.24146769511E-02	3.69063256114E-02	6.14543080026E-02	3.58247730460E-02	6.16910666209E-02	2.63206730136E-01	6.00046028147E-03
1.74200000000E+09	-1.68561683110E-01	-1.11464887503E-02	3.81509789080E-02	6.06073237368E-02	3.70849834442E-02	6.08674570210E-02	2.62251290094E-01	3.38161702489E-04
1.74250000000E+09	-1.71447693498E-01	-9.75309041413E-03	3.93910468316E-02	5.97282059915E-02	3.83295458340E-02	6.00154109132E-02	2.61154172489E-01	-5.30419016640E-03
1.74300000000E+09	-1.74307783454E-01	-8.24088911897E-03	4.05948947992E-02	5.88411982482E-02	3.95536633584E-02	5.91392662659E-02	2.59852832391E-01	-1.08832031302E-02
1.74350000000E+09	-1.77130414580E-01	-6.59499036583E-03	4.17895027672E-02	5.79178159772E-02	4.07328453913E-02	5.82415192537E-02	2.58393892049E-01	-1.64541246663E-02
1.74400000000E+09	-1.79889312677E-01	-4.84029884849E-03	4.29582591583E-02	5.69736446437E-02	4.19107264648E-02	5.73197586627E-02	2.56736064054E-01	-2.19916116287E-02
1.74450000000E+09	-1.82611209569E-01	-2.93932321570E-03	4.40966082447E-02	5.60094449621E-02	4.30550368475E-02	5.63799628559E-02	2.54919758363E-01	-2.75022873229E-02
1.74500000000E+09	-1.85290201738E-01	-9.55708429009E-04	4.52098822555E-02	5.50238477388E-02	4.41828081786E-02	5.54099070671E-02	2.52916525791E-01	-3.29378185144E-02
1.74550000000E+09	-1.87885993614E-01	1.18376871636E-03	4.63076340304E-02	5.40079453930E-02	4.52841622326E-02	5.44325636425E-02	2.50755511443E-01	-3.83074905457E-02
1.74600000000E+09	-1.90436605394E-01	3.43098042621E-03	4.73899820205E-02	5.29844788466E-02	4.63637851586E-02	5.34120461858E-02	2.48423496703E-01	-4.36514898284E-02
1.74650000000E+09	-1.92889746633E-01	5.80860311629E-03	4.84257506933E-02	5.19317737374E-02	4.74209265178E-02	5.23892848187E-02	2.45890480118E-01	-4.89133996266E-02
1.74700000000E+09	-1.95271968071E-01	8.27919103812E-03	4.94646195867E-02	5.08652098773E-02	4.84506516707E-02	5.13383436272E-02	2.43218779096E-01	-5.41021825909E-02
1.74750000000E+09	-1.97563070362E-01	1.08975480214E-02	5.04510416888E-02	4.97769605225E-02	4.94540689743E-02	5.02782977577E-02	2.40377204656E-01	-5.92149717893E-02
1.74800000000E+09	-1.99767377098E-01	1.35978935528E-02	5.14243736015E-02	4.86790597139E-02	5.04422838613E-02	4.91936913359E-02	2.37368571881E-01	-6.42366578650E-02
1.74850000000E+09	-2.01861738185E-01	1.64244234781E-02	5.23769081986E-02	4.75539297272E-02	5.14009573499E-02	4.80906742840E-02	2.34181526912E-01	-6.91918777353E-02
1.74900000000E+09	-2.03867093959E-01	1.93546784445E-02	5.32982452450E-02	4.64208692187E-02	5.23255140571E-02	4.69715070739E-02	2.30848324645E-01	-7.40565687165E-02
1.74950000000E+09	-2.05747677647E-01	2.23685545847E-02	5.41904902999E-02	4.52823956649E-02	5.32350749266E-02	4.58471874600E-02	2.27345572284E-01	-7.87916997140E-02
1.75000000000E+09	-2.07507236352E-01	2.54962922350E-02	5.50624795622E-02	4.41161458200E-02	5.41165493794E-02	4.47117648039E-02	2.23686678449E-01	-8.34537290889E-02
1.75050000000E+09	-2.09140984169E-01	2.87146948702E-02	5.58994065298E-02	4.29379681946E-02	5.49686110188E-02	4.35377709227E-02	2.19879794798E-01	-8.79759019345E-02
1.75100000000E+09	-2.10662420077E-01	3.20242474517E-02	5.67333367149E-02	4.17330089023E-02	5.58102811646E-02	4.23754608477E-02	2.15931607572E-01	-9.24177589414E-02
1.75150000000E+09	-2.12019519869E-01	3.53947400496E-02	5.75256585046E-02	4.05269066648E-02	5.66094814180E-02	4.11833924758E-02	2.11804969270E-01	-9.67473602551E-02
1.75200000000E+09	-2.13250099428E-01	3.88550749526E-02	5.82932046931E-02	3.93163089357E-02	5.73878781504E-02	4.00007079742E-02	2.07560588366E-01	-1.00940596867E-01
1.75250000000E+09	-2.14342546066E-01	4.23688112364E-02	5.90337127905E-02	3.80887592654E-02	5.81441867922E-02	3.87859112400E-02	2.03186521772E-01	-1.04989137160E-01
1.75300000000E+09	-2.15255572810E-01	4.59527500108E-02	5.97477002403E-02	3.68524537701E-02	5.88694198296E-02	3.75703878440E-02	1.98641227375E-01	-1.08915593254E-01
1.75350000000E+09	-2.16023661950E-01	4.95908073999E-02	6.04407544943E-02	3.55999325619E-02	5.95856080433E-02	3.63312442827E-02	1.93999226368E-01	-1.12713360865E-01
1.75400000000E+09	-2.16653214665E-01	5.32662622972E-02	6.11076291048E-02	3.43442216789E-02	6.02569747112E-02	3.51002189242E-02	1.89212858085E-01	-1.16375633489E-01
1.75450000000E+09	-2.17094650926E-01	5.69898954782E-02	6.17454531015E-02	3.30777060403E-02	6.09077866629E-02	3.38402830688E-02	1.84300515786E-01	-1.19867757763E-01
1.75500000000E+09	-2.17379384388E-01	6.07295106816E-02	6.23620117230E-02	3.17999314410E-02	6.15424171778E-02	3.25924467547E-02	1.79259552990E-01	-1.23217304522E-01
1.75550000000E+09	-2.17493699576E-01	6.45092189551E-02	6.29550843682E-02	3.05172431716E-02	6.21434986698E-02	3.13263477987E-02	1.74110059743E-01	-1.26425233508E-01
1.75600000000E+09	-2.17433651376E-01	6.82946160713E-02	6.35105098205E-02	2.92239025180E-02	6.27165994647E-02	3.00583969316E-02	1.68848685614E-01	-1.29463731815E-01
1.75650000000E+09	-2.17202202472E-01	7.20834022163E-02	6.40549266360E-02	2.79280459073E-02	6.32835786243E-02	2.87741319993E-02	1.63490162784E-01	-1.32337713527E-01
1.75700000000E+09	-2.16784721792E-01	7.58672937472E-02	6.45685983463E-02	2.66315739593E-02	6.38185408015E-02	2.74894271364E-02	1.58037701244E-01	-1.35053924296E-01
1.75750000000E+09	-2.16191596918E-01	7.96347205271E-02	6.50644452494E-02	2.53137752769E-02	6.43206402792E-02	2.61948574783E-02	1.52460261632E-01	-1.37597735011E-01
1.75800000000E+09	-2.15408454440E-01	8.33772157331E-02	6.55307751554E-02	2.39846800906E-02	6.48054477777E-02	2.48981973528E-02	1.46817205440E-01	-1.39951640113E-01
1.75850000000E+09	-2.14450487344E-01	8.70839893347E-02	6.59724523170E-02	2.26768750490E-02	6.52693045433E-02	2.35941076110E-02	1.41087974799E-01	-1.42142495982E-01
1.75900000000E+09	-2.13325791637E-01	9.07336513833E-02	6.63943688558E-02	2.13497218433E-02	6.57190288199E-02	2.22839023642E-02	1.35271108519E-01	-1.44165615129E-01
