# Hz S RI R 50
! CMT, CMT808U, 21440046, 21.4.3/4
! Date: 6/12/2026 9:35:09 AM
! Data: Format (Calibration Info)
! Freq	S11:Re/Im(F2)	S41:Re/Im(F2)	S14:Re/Im(F2)	S44:Re/Im(F2)
1.70000000000E+09	-1.12013636589E-01	1.01217954169E-01	-6.68379610342E-02	2.44641173518E-02	-6.68932846105E-02	2.34008165053E-02	-5.35910860606E-02	1.50575709311E-01
1.70050000000E+09	-1.09275147939E-01	1.00971618643E-01	-6.63073776351E-02	2.58538098016E-02	-6.63774527368E-02	2.47912083300E-02	-5.04176625586E-02	1.54472280400E-01
1.70100000000E+09	-1.06589004148E-01	1.00565226513E-01	-6.57377149477E-02	2.72357887466E-02	-6.58310149833E-02	2.61738629718E-02	-4.71046242965E-02	1.58258501212E-01
1.70150000000E+09	-1.03925343043E-01	1.00012560498E-01	-6.51347972932E-02	2.85869193324E-02	-6.52562084371E-02	2.75414741043E-02	-4.36898102095E-02	1.61933425644E-01
1.70200000000E+09	-1.01323507811E-01	9.93477174635E-02	-6.45095363262E-02	2.99520367385E-02	-6.46492847658E-02	2.88992063021E-02	-4.01310466406E-02	1.65488026820E-01
1.70250000000E+09	-9.87442198691E-02	9.85407280285E-02	-6.38616852950E-02	3.12846054578E-02	-6.40234924200E-02	3.02297221497E-02	-3.64699136257E-02	1.68961682414E-01
1.70300000000E+09	-9.62534590269E-02	9.75857982451E-02	-6.31902551176E-02	3.26091787030E-02	-6.33687055994E-02	3.15704675814E-02	-3.27051740024E-02	1.72319275892E-01
1.70350000000E+09	-9.38202097734E-02	9.65288234975E-02	-6.24744619068E-02	3.39354783863E-02	-6.26777045610E-02	3.28825215622E-02	-2.88297838810E-02	1.75532536824E-01
1.70400000000E+09	-9.14648279881E-02	9.53307951557E-02	-6.17521736713E-02	3.52341416088E-02	-6.19790359239E-02	3.41866811810E-02	-2.48688841763E-02	1.78639374275E-01
1.70450000000E+09	-8.91529302649E-02	9.40227578162E-02	-6.09867287067E-02	3.65209046633E-02	-6.12377969647E-02	3.54718325165E-02	-2.07829682081E-02	1.81612174648E-01
1.70500000000E+09	-8.69529453811E-02	9.26166197505E-02	-6.02069730075E-02	3.77836595717E-02	-6.04753351134E-02	3.67592573839E-02	-1.66308852911E-02	1.84481137466E-01
1.70550000000E+09	-8.48280975718E-02	9.11021522064E-02	-5.93931779820E-02	3.90354920366E-02	-5.96932264749E-02	3.80190176871E-02	-1.23540413986E-02	1.87203345463E-01
1.70600000000E+09	-8.27823302899E-02	8.94788848610E-02	-5.85624589044E-02	4.02755276425E-02	-5.88769342853E-02	3.92465669712E-02	-8.03145342745E-03	1.89787959756E-01
1.70650000000E+09	-8.08203809924E-02	8.77696025281E-02	-5.77080094776E-02	4.14998730109E-02	-5.80364931576E-02	4.04760353232E-02	-3.59375566017E-03	1.92253799148E-01
1.70700000000E+09	-7.89512366885E-02	8.59697499700E-02	-5.68057352355E-02	4.27083974033E-02	-5.71694041454E-02	4.16925503913E-02	9.12750013203E-04	1.94561074092E-01
1.70750000000E+09	-7.71910177739E-02	8.40937742495E-02	-5.58961923738E-02	4.38902941842E-02	-5.62754262125E-02	4.28754040045E-02	5.47624434214E-03	1.96732669638E-01
1.70800000000E+09	-7.55242385152E-02	8.21329984490E-02	-5.49609759256E-02	4.50581599440E-02	-5.53539906568E-02	4.40515601549E-02	1.01186620580E-02	1.98776384910E-01
1.70850000000E+09	-7.39586973756E-02	8.00998670027E-02	-5.39976633143E-02	4.62068518623E-02	-5.44193722376E-02	4.52078991171E-02	1.48352076194E-02	2.00648084325E-01
1.70900000000E+09	-7.24905777052E-02	7.80061519086E-02	-5.30170698182E-02	4.73387533469E-02	-5.34570340187E-02	4.63447292463E-02	1.95882854955E-02	2.02422825881E-01
1.70950000000E+09	-7.11408608449E-02	7.58547858049E-02	-5.20022257011E-02	4.84286787843E-02	-5.24686421776E-02	4.74730488950E-02	2.43979291777E-02	2.03997204549E-01
1.71000000000E+09	-6.98867391820E-02	7.36466165877E-02	-5.09703327573E-02	4.95303614770E-02	-5.14659955237E-02	4.85665024485E-02	2.92859942381E-02	2.05468352209E-01
1.71050000000E+09	-6.87428956836E-02	7.13851582562E-02	-4.99207812018E-02	5.05961072449E-02	-5.04266077383E-02	4.96416500237E-02	3.41911657824E-02	2.06745049112E-01
1.71100000000E+09	-6.76991430585E-02	6.90856614066E-02	-4.88340945357E-02	5.16476253173E-02	-4.93743205193E-02	5.06932996992E-02	3.91477481597E-02	2.07894057116E-01
1.71150000000E+09	-6.67738067065E-02	6.67378390364E-02	-4.77445198689E-02	5.26608897560E-02	-4.82934691083E-02	5.17352980905E-02	4.41218992731E-02	2.08899799750E-01
1.71200000000E+09	-6.59563384140E-02	6.43663892469E-02	-4.66211446545E-02	5.36598473305E-02	-4.71849986674E-02	5.27518320653E-02	4.91628620911E-02	2.09740859054E-01
1.71250000000E+09	-6.52621998123E-02	6.19570003445E-02	-4.54716857266E-02	5.46383479033E-02	-4.60667579590E-02	5.37302946949E-02	5.41919984738E-02	2.10423697659E-01
1.71300000000E+09	-6.46787917463E-02	5.95407459158E-02	-4.43122685231E-02	5.56066162549E-02	-4.49239090657E-02	5.46945606008E-02	5.92676729714E-02	2.10957151642E-01
1.71350000000E+09	-6.41846441736E-02	5.70715107307E-02	-4.31353367696E-02	5.65302733980E-02	-4.37674238022E-02	5.56446698062E-02	6.43436139446E-02	2.11340144116E-01
1.71400000000E+09	-6.38045186976E-02	5.46178471911E-02	-4.19415053371E-02	5.74321065350E-02	-4.25782344281E-02	5.65625618847E-02	6.94537696319E-02	2.11541665028E-01
1.71450000000E+09	-6.35404579369E-02	5.21451712818E-02	-4.06974907314E-02	5.83095029197E-02	-4.13716810122E-02	5.74589010743E-02	7.45454562221E-02	2.11598725653E-01
1.71500000000E+09	-6.33741166045E-02	4.96653313626E-02	-3.94644962978E-02	5.91716796854E-02	-4.01547649572E-02	5.83277230183E-02	7.96420879477E-02	2.11531289576E-01
1.71550000000E+09	-6.33097184954E-02	4.71897197477E-02	-3.82069142669E-02	6.00019642433E-02	-3.89181868395E-02	5.91788025644E-02	8.47372300458E-02	2.11274064656E-01
1.71600000000E+09	-6.33553425253E-02	4.47050279693E-02	-3.69227469758E-02	6.08037435990E-02	-3.76467307289E-02	5.99914226607E-02	8.98265903756E-02	2.10879378088E-01
1.71650000000E+09	-6.35214258565E-02	4.22544912276E-02	-3.56383867309E-02	6.15745244897E-02	-3.63759497051E-02	6.08018152878E-02	9.49246179883E-02	2.10308749652E-01
1.71700000000E+09	-6.37593639721E-02	3.97917841093E-02	-3.43251116579E-02	6.23344559061E-02	-3.50824850280E-02	6.15622069114E-02	9.99958323102E-02	2.09597574216E-01
1.71750000000E+09	-6.41108043880E-02	3.73481717811E-02	-3.29897751340E-02	6.30568947147E-02	-3.37665173143E-02	6.22966140146E-02	1.05011720793E-01	2.08722810977E-01
1.71800000000E+09	-6.45611443260E-02	3.49276787197E-02	-3.16512259802E-02	6.37596025751E-02	-3.24432521378E-02	6.30078139542E-02	1.10036617371E-01	2.07686518243E-01
1.71850000000E+09	-6.51117210518E-02	3.25185071069E-02	-3.02888200563E-02	6.44259673396E-02	-3.11041124226E-02	6.36949456048E-02	1.15016329786E-01	2.06523993944E-01
1.71900000000E+09	-6.57467170653E-02	3.01525308356E-02	-2.89140886317E-02	6.50647341151E-02	-2.97344948100E-02	6.43596416651E-02	1.19977469645E-01	2.05180689238E-01
1.71950000000E+09	-6.64940370511E-02	2.77993592752E-02	-2.75261711829E-02	6.56781830973E-02	-2.83625239578E-02	6.49818263971E-02	1.24868734112E-01	2.03695657687E-01
1.72000000000E+09	-6.73384554507E-02	2.54596346279E-02	-2.61197579183E-02	6.62553376161E-02	-2.69802015456E-02	6.55856665829E-02	1.29744528477E-01	2.02065194664E-01
1.72050000000E+09	-6.82805938028E-02	2.31823692361E-02	-2.47102356245E-02	6.68149449915E-02	-2.55716007103E-02	6.61601476189E-02	1.34536399152E-01	2.00296766757E-01
1.72100000000E+09	-6.92862956184E-02	2.09245219229E-02	-2.32841686444E-02	6.73437636416E-02	-2.41547805206E-02	6.67025172574E-02	1.39311609254E-01	1.98372952766E-01
1.72150000000E+09	-7.03884903219E-02	1.87196790551E-02	-2.18391432067E-02	6.78401204381E-02	-2.27324551369E-02	6.72076851121E-02	1.43989163627E-01	1.96311294609E-01
1.72200000000E+09	-7.15657693403E-02	1.65323390984E-02	-2.03719890445E-02	6.82884455463E-02	-2.12964052146E-02	6.76950183545E-02	1.48631427993E-01	1.94087114226E-01
1.72250000000E+09	-7.28353824410E-02	1.43913753053E-02	-1.89167582931E-02	6.87241557125E-02	-1.98383870635E-02	6.81455136602E-02	1.53207055227E-01	1.91728232810E-01
1.72300000000E+09	-7.41815822364E-02	1.23047171042E-02	-1.74530885684E-02	6.91289536937E-02	-1.83832191928E-02	6.85629121594E-02	1.57711103107E-01	1.89238507277E-01
1.72350000000E+09	-7.56230966872E-02	1.02612606796E-02	-1.59575208647E-02	6.94951710665E-02	-1.69003034225E-02	6.89636606125E-02	1.62146646805E-01	1.86606828802E-01
1.72400000000E+09	-7.71297390111E-02	8.26902740844E-03	-1.44648038825E-02	6.98356010799E-02	-1.54217459810E-02	6.93214161620E-02	1.66475293023E-01	1.83832277482E-01
1.72450000000E+09	-7.87201552641E-02	6.31934390481E-03	-1.29702295007E-02	7.01363176566E-02	-1.39340909013E-02	6.96405150547E-02	1.70717415927E-01	1.80959762900E-01
1.72500000000E+09	-8.03741163625E-02	4.44076112924E-03	-1.14534544527E-02	7.04045585689E-02	-1.24433672397E-02	6.99446535416E-02	1.74916275729E-01	1.77927892864E-01
1.72550000000E+09	-8.21072577288E-02	2.60342026989E-03	-9.93797172487E-03	7.06457702569E-02	-1.09263999903E-02	7.01938695484E-02	1.78972503151E-01	1.74759319202E-01
1.72600000000E+09	-8.39209022391E-02	8.29027562600E-04	-8.42393534151E-03	7.08508470861E-02	-9.41506926944E-03	7.04326029589E-02	1.82983655675E-01	1.71492287575E-01
1.72650000000E+09	-8.58046774753E-02	-8.79577816652E-04	-6.88607455055E-03	7.10273538600E-02	-7.89985189611E-03	7.06225108126E-02	1.86864930426E-01	1.68093842992E-01
1.72700000000E+09	-8.77677291563E-02	-2.54678981677E-03	-5.34663121921E-03	7.11673300356E-02	-6.36518366341E-03	7.07881578398E-02	1.90651923528E-01	1.64573908753E-01
1.72750000000E+09	-8.98007451030E-02	-4.12784424511E-03	-3.81999630621E-03	7.12749047795E-02	-4.83628898237E-03	7.09207972242E-02	1.94351738867E-01	1.60927463924E-01
1.72800000000E+09	-9.19039427121E-02	-5.65232673368E-03	-2.27401770478E-03	7.13476704049E-02	-3.31140109555E-03	7.10026516999E-02	1.97904328701E-01	1.57181386206E-01
1.72850000000E+09	-9.40490234689E-02	-7.10307456879E-03	-7.38336050635E-04	7.13785781949E-02	-1.76359354644E-03	7.10624585783E-02	2.01347357455E-01	1.53314857971E-01
1.72900000000E+09	-9.62913077468E-02	-8.48180945485E-03	8.12634553669E-04	7.13918061856E-02	-2.36322377930E-04	7.10902685138E-02	2.04717449524E-01	1.49339461022E-01
1.72950000000E+09	-9.85751571909E-02	-9.78361242003E-03	2.35530696078E-03	7.13482273761E-02	1.29934766953E-03	7.10825435220E-02	2.07901120714E-01	1.45281286003E-01
1.73000000000E+09	-1.00933905684E-01	-1.10124579374E-02	3.90595992457E-03	7.12827756295E-02	2.85127117946E-03	7.10446878840E-02	2.11022430888E-01	1.41120919391E-01
1.73050000000E+09	-1.03341522184E-01	-1.21634115592E-02	5.44608948052E-03	7.11840771904E-02	4.38181313953E-03	7.09525075939E-02	2.13994381431E-01	1.36832612877E-01
1.73100000000E+09	-1.05801832066E-01	-1.32213893857E-02	6.99221342822E-03	7.10476659420E-02	5.92278306848E-03	7.08406548122E-02	2.16832198932E-01	1.32466391700E-01
1.73150000000E+09	-1.08329519579E-01	-1.42088686704E-02	8.52171089057E-03	7.08738759035E-02	7.45332801032E-03	7.06898027403E-02	2.19542231267E-01	1.28040730619E-01
1.73200000000E+09	-1.10908738535E-01	-1.50870615455E-02	1.00684612257E-02	7.06625468874E-02	8.98411606611E-03	7.05126575703E-02	2.22129558255E-01	1.23510069140E-01
1.73250000000E+09	-1.13538746535E-01	-1.58896414821E-02	1.15962228621E-02	7.04261141027E-02	1.05177897135E-02	7.03005385579E-02	2.24553541097E-01	1.18878107107E-01
1.73300000000E+09	-1.16224795115E-01	-1.66040805722E-02	1.31243743587E-02	7.01564533108E-02	1.20478159244E-02	7.00372477394E-02	2.26849134520E-01	1.14194663092E-01
1.73350000000E+09	-1.18937895182E-01	-1.72244058785E-02	1.46375017925E-02	6.98357177980E-02	1.35579715041E-02	6.97637536553E-02	2.29020062052E-01	1.09432698459E-01
1.73400000000E+09	-1.21721918415E-01	-1.77451658798E-02	1.61545773932E-02	6.94969942745E-02	1.50639436511E-02	6.94326322121E-02	2.31035978322E-01	1.04607948308E-01
1.73450000000E+09	-1.24530113076E-01	-1.81685141563E-02	1.76552031956E-02	6.91085956875E-02	1.65600964637E-02	6.90724794609E-02	2.32881060297E-01	9.96954375253E-02
1.73500000000E+09	-1.27380753674E-01	-1.84820735557E-02	1.91473357960E-02	6.87106672685E-02	1.80541193264E-02	6.86815613311E-02	2.34608999602E-01	9.47255031245E-02
1.73550000000E+09	-1.30256093132E-01	-1.86960679686E-02	2.06414717217E-02	6.82528666108E-02	1.95498890077E-02	6.82571870246E-02	2.36175957478E-01	8.96929322956E-02
1.73600000000E+09	-1.33173916204E-01	-1.88079464098E-02	2.21046102516E-02	6.77817463613E-02	2.10089446518E-02	6.77985200928E-02	2.37567378068E-01	8.46414111024E-02
1.73650000000E+09	-1.36111676447E-01	-1.87939611032E-02	2.35708317368E-02	6.72639805570E-02	2.24745095993E-02	6.73242338633E-02	2.38844941632E-01	7.95188117311E-02
1.73700000000E+09	-1.39071649952E-01	-1.86806317355E-02	2.50133787351E-02	6.67175308516E-02	2.39293807243E-02	6.67929302782E-02	2.39931985217E-01	7.43725507722E-02
1.73750000000E+09	-1.42035320969E-01	-1.84683620257E-02	2.64497377645E-02	6.61430449722E-02	2.53774893481E-02	6.62377751796E-02	2.40891222308E-01	6.91708339274E-02
1.73800000000E+09	-1.45018563661E-01	-1.81081690233E-02	2.78723665678E-02	6.55402276291E-02	2.67924310386E-02	6.56481478419E-02	2.41660273612E-01	6.39302674138E-02
1.73850000000E+09	-1.48000886951E-01	-1.76568862200E-02	2.92778261072E-02	6.48856927261E-02	2.81922599686E-02	6.50308420596E-02	2.42306881597E-01	5.86626772513E-02
1.73900000000E+09	-1.50991329168E-01	-1.70754999249E-02	3.06627154666E-02	6.42116717876E-02	2.95835991856E-02	6.43762340899E-02	2.42744045378E-01	5.33796804902E-02
1.73950000000E+09	-1.53990390845E-01	-1.63861267251E-02	3.20402519531E-02	6.35239354518E-02	3.09588661595E-02	6.36956114574E-02	2.43055257424E-01	4.80796686528E-02
1.74000000000E+09	-1.56989246315E-01	-1.55602402882E-02	3.33928878043E-02	6.27696559303E-02	3.23214672959E-02	6.29820230218E-02	2.43176060386E-01	4.27713664775E-02
1.74050000000E+09	-1.59962580912E-01	-1.46326848225E-02	3.47250865392E-02	6.20105412450E-02	3.36586203258E-02	6.22387754429E-02	2.43146908512E-01	3.74544841155E-02
1.74100000000E+09	-1.62936572955E-01	-1.35658061307E-02	3.60430383067E-02	6.12097582388E-02	3.49828688107E-02	6.14648850565E-02	2.42939623667E-01	3.21279351634E-02
1.74150000000E+09	-1.65885606570E-01	-1.23783253115E-02	3.73530419549E-02	6.04017718149E-02	3.62836796114E-02	6.06598797873E-02	2.42600487695E-01	2.67855063417E-02
1.74200000000E+09	-1.68819495331E-01	-1.10761921134E-02	3.86262299227E-02	5.95414029665E-02	3.75619336013E-02	5.98377096172E-02	2.42057654714E-01	2.14488879905E-02
1.74250000000E+09	-1.71711393123E-01	-9.64211008301E-03	3.98828807128E-02	5.86690627817E-02	3.88328964868E-02	5.89838400215E-02	2.41371623070E-01	1.61393420688E-02
1.74300000000E+09	-1.74566463926E-01	-8.09914459461E-03	4.11153518140E-02	5.77619275021E-02	4.00702153169E-02	5.80947861698E-02	2.40504026132E-01	1.08437799414E-02
1.74350000000E+09	-1.77380397519E-01	-6.42630030339E-03	4.23264459886E-02	5.68365550190E-02	4.12949579690E-02	5.71947830651E-02	2.39493333935E-01	5.57742948746E-03
1.74400000000E+09	-1.80160393018E-01	-4.62569476328E-03	4.35226984865E-02	5.58745429744E-02	4.24892378628E-02	5.62541652832E-02	2.38287777864E-01	3.09429688636E-04
1.74450000000E+09	-1.82889050886E-01	-2.70335914659E-03	4.46908208202E-02	5.49031807723E-02	4.36591408798E-02	5.52922299275E-02	2.36950109429E-01	-4.91316567392E-03
1.74500000000E+09	-1.85559579275E-01	-6.65736796852E-04	4.58285351655E-02	5.39015582085E-02	4.48161684777E-02	5.43219031241E-02	2.35419016550E-01	-1.01018103765E-02
1.74550000000E+09	-1.88141567010E-01	1.50616308367E-03	4.69560728851E-02	5.28622593557E-02	4.59407273608E-02	5.33083712033E-02	2.33732264211E-01	-1.52493328861E-02
1.74600000000E+09	-1.90673899739E-01	3.80973037345E-03	4.80552323034E-02	5.18143986308E-02	4.70370748165E-02	5.22732751300E-02	2.31889773853E-01	-2.03370608268E-02
1.74650000000E+09	-1.93131878881E-01	6.22527922842E-03	4.91185076246E-02	5.07379157339E-02	4.81239179673E-02	5.12293677249E-02	2.29868360177E-01	-2.53900225447E-02
1.74700000000E+09	-1.95504077497E-01	8.72084926420E-03	5.01680768993E-02	4.96418982929E-02	4.91730965085E-02	5.01440975543E-02	2.27714300650E-01	-3.03867781275E-02
1.74750000000E+09	-1.97795717512E-01	1.13669881035E-02	5.11850315834E-02	4.85370764155E-02	5.02056583007E-02	4.90502175178E-02	2.25384906071E-01	-3.53171662891E-02
1.74800000000E+09	-1.99967339380E-01	1.41200656378E-02	5.21795837291E-02	4.73983527729E-02	5.11958504736E-02	4.79354455142E-02	2.22909599321E-01	-4.01776132619E-02
1.74850000000E+09	-2.02063943727E-01	1.69756416331E-02	5.31451607842E-02	4.62378962481E-02	5.21878549375E-02	4.68109663546E-02	2.20274869736E-01	-4.49761598999E-02
1.74900000000E+09	-2.04037226202E-01	1.99389840683E-02	5.40764148981E-02	4.50705317286E-02	5.31396933947E-02	4.56535698847E-02	2.17478032635E-01	-4.97010052865E-02
1.74950000000E+09	-2.05888545499E-01	2.29872171138E-02	5.49858415137E-02	4.38781611184E-02	5.40637572715E-02	4.44867612188E-02	2.14517121666E-01	-5.43338386592E-02
1.75000000000E+09	-2.07636320561E-01	2.61519733547E-02	5.58846041077E-02	4.26609587749E-02	5.49474997680E-02	4.33049150203E-02	2.11411595300E-01	-5.88841133093E-02
1.75050000000E+09	-2.09250071297E-01	2.94045579113E-02	5.67457052551E-02	4.14432995437E-02	5.58253996032E-02	4.20883986159E-02	2.08185016237E-01	-6.33436386465E-02
1.75100000000E+09	-2.10746678802E-01	3.27333674245E-02	5.75667477387E-02	4.01991255270E-02	5.66600382415E-02	4.08743223390E-02	2.04796621755E-01	-6.76982746088E-02
1.75150000000E+09	-2.12097760729E-01	3.61455100832E-02	5.83692968076E-02	3.89459762313E-02	5.74699946784E-02	3.96377874610E-02	2.01253020286E-01	-7.19728593770E-02
1.75200000000E+09	-2.13295418982E-01	3.96174224561E-02	5.91297472298E-02	3.76820697259E-02	5.82621903972E-02	3.83926318677E-02	1.97586213118E-01	-7.61348192121E-02
1.75250000000E+09	-2.14350674011E-01	4.31648268896E-02	5.98873260294E-02	3.64010784713E-02	5.90143032486E-02	3.71290323729E-02	1.93787434452E-01	-8.01764978463E-02
1.75300000000E+09	-2.15239781389E-01	4.67834691175E-02	6.06037675624E-02	3.50898755411E-02	5.97477920925E-02	3.58462352674E-02	1.89829957633E-01	-8.41125266026E-02
1.75350000000E+09	-2.15967360370E-01	5.04417218786E-02	6.12812332878E-02	3.37972378729E-02	6.04447006294E-02	3.45582124979E-02	1.85779754509E-01	-8.79208742265E-02
1.75400000000E+09	-2.16553833154E-01	5.41501454837E-02	6.19489925532E-02	3.24675680347E-02	6.11229067624E-02	3.32581653600E-02	1.81584789357E-01	-9.16206426647E-02
1.75450000000E+09	-2.16954371239E-01	5.78834845907E-02	6.25761844695E-02	3.11422026790E-02	6.17696174819E-02	3.19515115108E-02	1.77262866658E-01	-9.51884296611E-02
1.75500000000E+09	-2.17187174164E-01	6.16506541824E-02	6.31743205371E-02	2.98008780221E-02	6.23889217345E-02	3.06269603461E-02	1.72812791146E-01	-9.86244413599E-02
1.75550000000E+09	-2.17277581691E-01	6.54465849352E-02	6.37573956909E-02	2.84375282290E-02	6.29794308641E-02	2.92959473125E-02	1.68274111175E-01	-1.01912041014E-01
1.75600000000E+09	-2.17163834382E-01	6.92426959846E-02	6.42980609219E-02	2.70880065041E-02	6.35479496363E-02	2.79520720159E-02	1.63602308942E-01	-1.05087805595E-01
1.75650000000E+09	-2.16863461486E-01	7.30424334730E-02	6.48068106800E-02	2.57170688529E-02	6.40739007885E-02	2.65992405464E-02	1.58837541953E-01	-1.08096751022E-01
1.75700000000E+09	-2.16393873472E-01	7.68390282659E-02	6.53006702590E-02	2.43407097186E-02	6.45809941433E-02	2.52392516558E-02	1.53952678539E-01	-1.10966904648E-01
1.75750000000E+09	-2.15753537483E-01	8.06127912945E-02	6.57588305841E-02	2.29691131686E-02	6.50586943204E-02	2.38801113504E-02	1.48981691855E-01	-1.13691311310E-01
1.75800000000E+09	-2.14912586883E-01	8.43570752919E-02	6.61830595896E-02	2.15693573794E-02	6.55123620846E-02	2.25006264912E-02	1.43915884603E-01	-1.16259614285E-01
1.75850000000E+09	-2.13916839462E-01	8.80607565725E-02	6.65911776488E-02	2.01832836399E-02	6.59308678512E-02	2.11330884236E-02	1.38763623687E-01	-1.18665528107E-01
1.75900000000E+09	-2.12714645362E-01	9.17060579096E-02	6.69685964450E-02	1.87830741495E-02	6.63297708010E-02	1.97447758667E-02	1.33528159073E-01	-1.20905689794E-01
