# Hz S RI R 50
! CMT, CMT808U, 21440046, 21.4.3/4
! Date: 6/12/2026 9:25:24 AM
! Data: Format (Calibration Info)
! Freq	S11:Re/Im(F2)	S41:Re/Im(F2)	S14:Re/Im(F2)	S44:Re/Im(F2)
1.70000000000E+09	-1.15159648927E-01	1.00836409470E-01	-6.78407415001E-02	3.07118723841E-02	-6.79755947399E-02	2.96377195984E-02	-3.45187825335E-02	1.51896486399E-01
1.70050000000E+09	-1.12410001068E-01	1.00705059652E-01	-6.71860411010E-02	3.21395833333E-02	-6.73295405151E-02	3.10706396040E-02	-3.08046466465E-02	1.55523100080E-01
1.70100000000E+09	-1.09693641668E-01	1.00430613598E-01	-6.64929821152E-02	3.35742613678E-02	-6.66660705543E-02	3.24977116293E-02	-2.69961751395E-02	1.59028212357E-01
1.70150000000E+09	-1.07000856392E-01	9.99894747022E-02	-6.57786424600E-02	3.49698406710E-02	-6.59725386073E-02	3.39203008516E-02	-2.30517200486E-02	1.62413967898E-01
1.70200000000E+09	-1.04352584179E-01	9.94314030105E-02	-6.50305423373E-02	3.63680522671E-02	-6.52396311180E-02	3.53133922585E-02	-1.90176614698E-02	1.65660083508E-01
1.70250000000E+09	-1.01753165029E-01	9.87121345918E-02	-6.42543997619E-02	3.77478750580E-02	-6.44868165524E-02	3.66941972258E-02	-1.48920334973E-02	1.68803163850E-01
1.70300000000E+09	-9.92120537212E-02	9.78700608776E-02	-6.34432403875E-02	3.91158905590E-02	-6.37058398280E-02	3.80676389719E-02	-1.06614831746E-02	1.71825142448E-01
1.70350000000E+09	-9.67319966470E-02	9.69026759224E-02	-6.26090226035E-02	4.04678739889E-02	-6.28933271289E-02	3.94138910954E-02	-6.34622391926E-03	1.74713056110E-01
1.70400000000E+09	-9.43185361647E-02	9.58010262392E-02	-6.17429514458E-02	4.18020295911E-02	-6.20540665290E-02	4.07507525328E-02	-1.95400793075E-03	1.77455912403E-01
1.70450000000E+09	-9.19540573799E-02	9.45717350313E-02	-6.08545515698E-02	4.31043330425E-02	-6.11810389789E-02	4.20830151692E-02	2.53126515943E-03	1.80070020346E-01
1.70500000000E+09	-8.97058610151E-02	9.32532167418E-02	-5.99302616749E-02	4.44116791018E-02	-6.02740216917E-02	4.33809053623E-02	7.10191331457E-03	1.82533148767E-01
1.70550000000E+09	-8.75235116805E-02	9.18160521862E-02	-5.89730425919E-02	4.56902145482E-02	-5.93489520921E-02	4.46677358713E-02	1.17447060515E-02	1.84866629336E-01
1.70600000000E+09	-8.54174688027E-02	9.02767140333E-02	-5.80125296848E-02	4.69430116359E-02	-5.83882130863E-02	4.59319058625E-02	1.64513661823E-02	1.87055001926E-01
1.70650000000E+09	-8.34004032349E-02	8.86466650180E-02	-5.69878766448E-02	4.81870340353E-02	-5.74023202171E-02	4.71776584558E-02	2.12296907709E-02	1.89113676129E-01
1.70700000000E+09	-8.14807852694E-02	8.69312007750E-02	-5.59508903563E-02	4.94051677044E-02	-5.63885691332E-02	4.83978344891E-02	2.60590572351E-02	1.90981613382E-01
1.70750000000E+09	-7.96492300155E-02	8.51208764752E-02	-5.48880028146E-02	5.06071940716E-02	-5.53419563472E-02	4.96076842798E-02	3.09370637404E-02	1.92748174989E-01
1.70800000000E+09	-7.79254974899E-02	8.32353515273E-02	-5.38003205099E-02	5.17761595494E-02	-5.42795766561E-02	5.07936807188E-02	3.58876662822E-02	1.94348032412E-01
1.70850000000E+09	-7.62889356196E-02	8.12665917162E-02	-5.26860892668E-02	5.29318352983E-02	-5.31841903261E-02	5.19548518860E-02	4.08746981689E-02	1.95789773820E-01
1.70900000000E+09	-7.47599451912E-02	7.92340573126E-02	-5.15481017240E-02	5.40585019186E-02	-5.20733110667E-02	5.31021886989E-02	4.59139861038E-02	1.97107178651E-01
1.70950000000E+09	-7.33409186405E-02	7.71509625189E-02	-5.03754981137E-02	5.51560744635E-02	-5.09132726593E-02	5.42133798079E-02	5.09635334088E-02	1.98216443196E-01
1.71000000000E+09	-7.20197784287E-02	7.49879832866E-02	-4.91867290137E-02	5.62324439745E-02	-4.97526738779E-02	5.53069204614E-02	5.60640220984E-02	1.99232299700E-01
1.71050000000E+09	-7.08084459708E-02	7.27907274738E-02	-4.79617844949E-02	5.72993905667E-02	-4.85619436834E-02	5.63605591957E-02	6.11678343016E-02	2.00045817446E-01
1.71100000000E+09	-6.96966038894E-02	7.05283497752E-02	-4.67239660896E-02	5.83230796927E-02	-4.73405486868E-02	5.74087004825E-02	6.63116486361E-02	2.00735192714E-01
1.71150000000E+09	-6.86998882159E-02	6.82353388973E-02	-4.54678004303E-02	5.93164758321E-02	-4.60953865848E-02	5.84213711823E-02	7.14844367993E-02	2.01265215461E-01
1.71200000000E+09	-6.77988449126E-02	6.59039699170E-02	-4.41811035274E-02	6.02947240864E-02	-4.48264624768E-02	5.94117924515E-02	7.66552158434E-02	2.01624479020E-01
1.71250000000E+09	-6.70286001520E-02	6.35384519956E-02	-4.28736210633E-02	6.12361468367E-02	-4.35368645656E-02	6.03590036065E-02	8.18236100709E-02	2.01830084772E-01
1.71300000000E+09	-6.63541907012E-02	6.11473457535E-02	-4.15428685047E-02	6.21487953237E-02	-4.22295719964E-02	6.12868602317E-02	8.70440537403E-02	2.01871756337E-01
1.71350000000E+09	-6.57938226056E-02	5.87257033703E-02	-4.01938291185E-02	6.30389891385E-02	-4.08970253715E-02	6.22005415934E-02	9.22067142319E-02	2.01776380390E-01
1.71400000000E+09	-6.53380096127E-02	5.63015007902E-02	-3.88205497677E-02	6.38982905987E-02	-3.95482319891E-02	6.30723456870E-02	9.73876458609E-02	2.01522286349E-01
1.71450000000E+09	-6.49992261334E-02	5.38545497688E-02	-3.74272565854E-02	6.47143521759E-02	-3.81793918070E-02	6.39081808828E-02	1.02550638316E-01	2.01085997028E-01
1.71500000000E+09	-6.47487039893E-02	5.14068460902E-02	-3.60205967692E-02	6.55201713197E-02	-3.67837626670E-02	6.47228297610E-02	1.07689541835E-01	2.00523879560E-01
1.71550000000E+09	-6.46080582119E-02	4.89458433879E-02	-3.45850836513E-02	6.62741032541E-02	-3.53767085657E-02	6.54959852899E-02	1.12813616808E-01	1.99779757553E-01
1.71600000000E+09	-6.45813950781E-02	4.64887896280E-02	-3.31535819605E-02	6.70162113857E-02	-3.39507150562E-02	6.62573881336E-02	1.17926715136E-01	1.98916937302E-01
1.71650000000E+09	-6.46653474166E-02	4.40495671446E-02	-3.16931867103E-02	6.77146433939E-02	-3.25022394703E-02	6.69674843185E-02	1.23008669785E-01	1.97868992387E-01
1.71700000000E+09	-6.48173278184E-02	4.15959842738E-02	-3.02106347299E-02	6.83762484518E-02	-3.10438925821E-02	6.76605906053E-02	1.28033032759E-01	1.96688757685E-01
1.71750000000E+09	-6.50979596827E-02	3.91647822794E-02	-2.87254463659E-02	6.90128554143E-02	-2.95700982060E-02	6.83019596926E-02	1.33012899009E-01	1.95334472052E-01
1.71800000000E+09	-6.54741342403E-02	3.67501114146E-02	-2.72318206155E-02	6.96138532908E-02	-2.80895334244E-02	6.89241646167E-02	1.37966201029E-01	1.93855050424E-01
1.71850000000E+09	-6.59534894655E-02	3.43472460468E-02	-2.57137513600E-02	7.01791561259E-02	-2.65769966165E-02	6.95231764479E-02	1.42877901605E-01	1.92206978714E-01
1.71900000000E+09	-6.65218970671E-02	3.19727437852E-02	-2.41824449746E-02	7.07238666131E-02	-2.50653565924E-02	7.00633400364E-02	1.47734429206E-01	1.90413015735E-01
1.71950000000E+09	-6.71738338465E-02	2.96219523110E-02	-2.26282675969E-02	7.12218696081E-02	-2.35400689078E-02	7.05837952324E-02	1.52517044122E-01	1.88481411816E-01
1.72000000000E+09	-6.79309547719E-02	2.72843144744E-02	-2.10837765018E-02	7.16801071240E-02	-2.20094430722E-02	7.10712829499E-02	1.57255701420E-01	1.86405698917E-01
1.72050000000E+09	-6.87897491202E-02	2.49963896366E-02	-1.95219065554E-02	7.21063323228E-02	-2.04538740505E-02	7.15279278929E-02	1.61912558218E-01	1.84194769587E-01
1.72100000000E+09	-6.97057063888E-02	2.27300237919E-02	-1.79575640344E-02	7.25068646322E-02	-1.88959539665E-02	7.19352523114E-02	1.66504188606E-01	1.81826940440E-01
1.72150000000E+09	-7.07347642245E-02	2.04957696691E-02	-1.63819017522E-02	7.28673669342E-02	-1.73316366922E-02	7.23164443582E-02	1.71029931391E-01	1.79347622566E-01
1.72200000000E+09	-7.18466280167E-02	1.82926783630E-02	-1.47922573465E-02	7.31968094562E-02	-1.57606867456E-02	7.26694632471E-02	1.75463583101E-01	1.76692733709E-01
1.72250000000E+09	-7.30278213396E-02	1.61384467130E-02	-1.31925234185E-02	7.34808150989E-02	-1.41804944722E-02	7.29731523474E-02	1.79837748021E-01	1.73941452207E-01
1.72300000000E+09	-7.42992010571E-02	1.40301989302E-02	-1.16022089181E-02	7.37440125470E-02	-1.25920424934E-02	7.32476219376E-02	1.84108361639E-01	1.71047037979E-01
1.72350000000E+09	-7.56670156703E-02	1.19622469728E-02	-1.00012119387E-02	7.39547605961E-02	-1.09967652836E-02	7.34974103294E-02	1.88278110911E-01	1.68035322415E-01
1.72400000000E+09	-7.71184002444E-02	9.94132660637E-03	-8.38981925481E-03	7.41418416716E-02	-9.40271316431E-03	7.37026342850E-02	1.92373546937E-01	1.64865407436E-01
1.72450000000E+09	-7.86436634713E-02	7.95703791050E-03	-6.79628276510E-03	7.42891074429E-02	-7.80787577795E-03	7.38721724435E-02	1.96344019545E-01	1.61619109143E-01
1.72500000000E+09	-8.02297219205E-02	6.05029905085E-03	-5.16534902053E-03	7.44068410681E-02	-6.20540689448E-03	7.39993103559E-02	2.00229998799E-01	1.58234200123E-01
1.72550000000E+09	-8.18982595634E-02	4.17017037408E-03	-3.56198892367E-03	7.44751582048E-02	-4.58854449823E-03	7.41004246333E-02	2.03996435834E-01	1.54721586503E-01
1.72600000000E+09	-8.36469459129E-02	2.35478495202E-03	-1.93585287320E-03	7.45165445542E-02	-2.97673750667E-03	7.41713585869E-02	2.07686449669E-01	1.51107537289E-01
1.72650000000E+09	-8.54626232322E-02	5.91575737246E-04	-3.19074163702E-04	7.45185824772E-02	-1.38610979706E-03	7.42000199731E-02	2.11238190923E-01	1.47390762305E-01
1.72700000000E+09	-8.73717670898E-02	-1.10638493878E-03	1.28322843908E-03	7.44894940850E-02	2.30248111913E-04	7.41837002959E-02	2.14671945490E-01	1.43559417117E-01
1.72750000000E+09	-8.93308220054E-02	-2.74233492234E-03	2.90529777333E-03	7.44261653620E-02	1.83614534101E-03	7.41431258164E-02	2.18004218053E-01	1.39609871395E-01
1.72800000000E+09	-9.13695403550E-02	-4.32262109990E-03	4.50351559420E-03	7.43102934884E-02	3.44290386897E-03	7.40566098240E-02	2.21210780797E-01	1.35588731582E-01
1.72850000000E+09	-9.34655229130E-02	-5.83766013313E-03	6.11808223325E-03	7.41737218815E-02	5.04478888737E-03	7.39421091654E-02	2.24265520276E-01	1.31447132377E-01
1.72900000000E+09	-9.56458776308E-02	-7.27570293525E-03	7.71380567547E-03	7.40011434912E-02	6.64324349644E-03	7.37869005064E-02	2.27252512495E-01	1.27219325139E-01
1.72950000000E+09	-9.78826993723E-02	-8.63455604648E-03	9.32231935054E-03	7.37882446534E-02	8.23129991196E-03	7.35993680254E-02	2.30019467412E-01	1.22924959449E-01
1.73000000000E+09	-1.00167819127E-01	-9.93034562331E-03	1.09068058000E-02	7.35325887940E-02	9.82462591502E-03	7.33727380270E-02	2.32731319706E-01	1.18515404850E-01
1.73050000000E+09	-1.02540480886E-01	-1.11564902106E-02	1.24902560310E-02	7.32635091783E-02	1.14009073850E-02	7.31114127204E-02	2.35274391761E-01	1.14044497136E-01
1.73100000000E+09	-1.04962284921E-01	-1.22856702213E-02	1.40655013975E-02	7.29416664497E-02	1.29842677817E-02	7.28256554526E-02	2.37684242530E-01	1.09488029032E-01
1.73150000000E+09	-1.07447657977E-01	-1.33525112549E-02	1.56349445856E-02	7.25937665764E-02	1.45356142172E-02	7.24916289050E-02	2.39942279917E-01	1.04870091094E-01
1.73200000000E+09	-1.09976761155E-01	-1.43091102074E-02	1.71970688612E-02	7.22052443068E-02	1.61056428347E-02	7.21317179133E-02	2.42073932272E-01	1.00192232517E-01
1.73250000000E+09	-1.12566584217E-01	-1.51904283612E-02	1.87438237230E-02	7.17778728603E-02	1.76439170310E-02	7.17307291305E-02	2.44051319725E-01	9.54165372360E-02
1.73300000000E+09	-1.15205144826E-01	-1.59944697087E-02	2.02850362245E-02	7.13255848517E-02	1.91850478788E-02	7.12952684765E-02	2.45874244233E-01	9.06141156428E-02
1.73350000000E+09	-1.17885159724E-01	-1.66916640968E-02	2.18004825900E-02	7.08402957780E-02	2.07064924153E-02	7.08340866841E-02	2.47570946903E-01	8.57335997566E-02
1.73400000000E+09	-1.20629527143E-01	-1.73001847776E-02	2.33250204788E-02	7.03231495579E-02	2.22228988259E-02	7.03316506890E-02	2.49100207036E-01	8.08339808667E-02
1.73450000000E+09	-1.23402700840E-01	-1.78101767990E-02	2.48260989730E-02	6.97549241728E-02	2.37268897855E-02	6.98090134058E-02	2.50491601552E-01	7.58452999050E-02
1.73500000000E+09	-1.26219405365E-01	-1.82204902734E-02	2.63115423045E-02	6.91798010038E-02	2.52141061866E-02	6.92344621792E-02	2.51696450717E-01	7.08257598049E-02
1.73550000000E+09	-1.29060650602E-01	-1.85267061593E-02	2.77823711624E-02	6.85513374779E-02	2.66923579568E-02	6.86342416477E-02	2.52789808963E-01	6.57917836495E-02
1.73600000000E+09	-1.31959179320E-01	-1.87342803496E-02	2.92312370856E-02	6.78921268485E-02	2.81502148933E-02	6.80044421171E-02	2.53689710264E-01	6.07106440465E-02
1.73650000000E+09	-1.34862248542E-01	-1.88182388987E-02	3.06752389381E-02	6.72100484162E-02	2.95871137573E-02	6.73537408942E-02	2.54444606556E-01	5.55993709251E-02
1.73700000000E+09	-1.37820540780E-01	-1.87887352890E-02	3.21007173538E-02	6.64935670849E-02	3.10084088930E-02	6.66548139037E-02	2.55024716736E-01	5.05012254997E-02
1.73750000000E+09	-1.40761251776E-01	-1.86794726174E-02	3.35061722867E-02	6.57538492231E-02	3.24108648094E-02	6.59201128796E-02	2.55459611235E-01	4.53369352792E-02
1.73800000000E+09	-1.43728709380E-01	-1.84399984624E-02	3.48870875026E-02	6.49701835494E-02	3.38096053634E-02	6.51680106468E-02	2.55723867074E-01	4.01858571116E-02
1.73850000000E+09	-1.46725658409E-01	-1.80778124941E-02	3.62619975523E-02	6.41621215805E-02	3.51809857269E-02	6.43881089623E-02	2.55856711370E-01	3.49947724830E-02
1.73900000000E+09	-1.49722480084E-01	-1.75983148695E-02	3.75968653385E-02	6.33320611180E-02	3.65320962251E-02	6.35745947801E-02	2.55809824227E-01	2.98238837956E-02
1.73950000000E+09	-1.52731474076E-01	-1.70136076783E-02	3.89240978875E-02	6.24813365750E-02	3.78632917482E-02	6.27262780618E-02	2.55601941296E-01	2.46466630897E-02
1.74000000000E+09	-1.55736721949E-01	-1.62998755974E-02	4.02324866390E-02	6.15794578866E-02	3.91666576180E-02	6.18604516442E-02	2.55220843827E-01	1.94979847938E-02
1.74050000000E+09	-1.58724929212E-01	-1.54631875183E-02	4.15138397556E-02	6.06661635936E-02	4.04596918891E-02	6.09719058315E-02	2.54680519820E-01	1.43250795341E-02
1.74100000000E+09	-1.61721959147E-01	-1.44836449678E-02	4.27762884740E-02	5.97159023070E-02	4.17239042514E-02	6.00488507932E-02	2.53981366129E-01	9.18456898463E-03
1.74150000000E+09	-1.64684133706E-01	-1.34181079511E-02	4.40090842469E-02	5.87609681841E-02	4.29706556341E-02	5.90871500340E-02	2.53133887685E-01	4.05516333508E-03
1.74200000000E+09	-1.67641294256E-01	-1.22136138357E-02	4.52202355251E-02	5.77433020490E-02	4.41896491568E-02	5.81205815243E-02	2.52101281063E-01	-1.04738676281E-03
1.74250000000E+09	-1.70579193779E-01	-1.08910423511E-02	4.64170448545E-02	5.67335861808E-02	4.53849335626E-02	5.71181106802E-02	2.50928943299E-01	-6.08648537367E-03
1.74300000000E+09	-1.73471806220E-01	-9.44771429225E-03	4.75821110380E-02	5.56770637218E-02	4.65568583074E-02	5.60938757706E-02	2.49580016838E-01	-1.11343913955E-02
1.74350000000E+09	-1.76335411549E-01	-7.87134922180E-03	4.87016295232E-02	5.46168293055E-02	4.76965703781E-02	5.50510753487E-02	2.48083633050E-01	-1.61066391969E-02
1.74400000000E+09	-1.79137309082E-01	-6.17224193472E-03	4.98243336592E-02	5.35217256852E-02	4.88273619411E-02	5.39733217100E-02	2.46411070167E-01	-2.10611752142E-02
1.74450000000E+09	-1.81925348745E-01	-4.33310630203E-03	5.09158952843E-02	5.24104816175E-02	4.99122251413E-02	5.28786508546E-02	2.44595763626E-01	-2.59390575172E-02
1.74500000000E+09	-1.84656859837E-01	-2.38550628385E-03	5.19745571966E-02	5.12712267075E-02	5.09793334981E-02	5.17661927571E-02	2.42608450058E-01	-3.07887293217E-02
1.74550000000E+09	-1.87309376916E-01	-3.24932217837E-04	5.30097517736E-02	5.01146130844E-02	5.20304033496E-02	5.06397591519E-02	2.40486083318E-01	-3.55564742701E-02
1.74600000000E+09	-1.89914957201E-01	1.88151230490E-03	5.40176265825E-02	4.89456527539E-02	5.30358586830E-02	4.94812435696E-02	2.38206590241E-01	-4.02818618797E-02
1.74650000000E+09	-1.92448769177E-01	4.19901550470E-03	5.49909526427E-02	4.77572606711E-02	5.40344013973E-02	4.83107355766E-02	2.35767772695E-01	-4.49197110793E-02
1.74700000000E+09	-1.94905525075E-01	6.63184068051E-03	5.59494883663E-02	4.65440529806E-02	5.49885512700E-02	4.71247008996E-02	2.33197860036E-01	-4.94794159823E-02
1.74750000000E+09	-1.97260654698E-01	9.18286660312E-03	5.68638155886E-02	4.53172410692E-02	5.59322613945E-02	4.59097945810E-02	2.30459406719E-01	-5.39817910212E-02
1.74800000000E+09	-1.99562284733E-01	1.18352910896E-02	5.77630173777E-02	4.40724121586E-02	5.68374065616E-02	4.46857798401E-02	2.27608355412E-01	-5.83746142230E-02
1.74850000000E+09	-2.01732052262E-01	1.46273478826E-02	5.86262537598E-02	4.28148532552E-02	5.77136912064E-02	4.34444065220E-02	2.24582841787E-01	-6.26893416167E-02
1.74900000000E+09	-2.03821524358E-01	1.75126726011E-02	5.94666717219E-02	4.15347141163E-02	5.85569358699E-02	4.21864509670E-02	2.21428542578E-01	-6.69165910088E-02
1.74950000000E+09	-2.05790782973E-01	2.05050453597E-02	6.02633593819E-02	4.02391667553E-02	5.93740477381E-02	4.09255228854E-02	2.18130537503E-01	-7.10340256261E-02
1.75000000000E+09	-2.07635640198E-01	2.36046087479E-02	6.10488003077E-02	3.89461970550E-02	6.01593932451E-02	3.96354959646E-02	2.14691041757E-01	-7.50519221168E-02
1.75050000000E+09	-2.09375605707E-01	2.67944046465E-02	6.17947445084E-02	3.76368103174E-02	6.09254955278E-02	3.83397142510E-02	2.11140081146E-01	-7.89534460160E-02
1.75100000000E+09	-2.10974023096E-01	3.00928500483E-02	6.25100782236E-02	3.63056316270E-02	6.16635603810E-02	3.70343670570E-02	2.07453445074E-01	-8.27608895946E-02
1.75150000000E+09	-2.12443005105E-01	3.34443377878E-02	6.32040000371E-02	3.49775502724E-02	6.23645733647E-02	3.57184306134E-02	2.03635439442E-01	-8.64510818524E-02
1.75200000000E+09	-2.13763349654E-01	3.68946928816E-02	6.38648501992E-02	3.36113033878E-02	6.30421412728E-02	3.43906001080E-02	1.99688160012E-01	-9.00180124104E-02
1.75250000000E+09	-2.14954212022E-01	4.04223637379E-02	6.44937034005E-02	3.22664245778E-02	6.36828650772E-02	3.30584759525E-02	1.95649973355E-01	-9.34597969173E-02
1.75300000000E+09	-2.15979018847E-01	4.39989972836E-02	6.50951940455E-02	3.09030043296E-02	6.43107683403E-02	3.17096451780E-02	1.91483599317E-01	-9.67867606749E-02
1.75350000000E+09	-2.16844276132E-01	4.76668470536E-02	6.56758684909E-02	2.95251201658E-02	6.48962914963E-02	3.03440587758E-02	1.87203577111E-01	-9.99805402145E-02
1.75400000000E+09	-2.17566644543E-01	5.13572733671E-02	6.62303904513E-02	2.81512994931E-02	6.54636294226E-02	2.89904216006E-02	1.82817009954E-01	-1.03010356132E-01
1.75450000000E+09	-2.18119773453E-01	5.51030508936E-02	6.67405618064E-02	2.67603721786E-02	6.60002127495E-02	2.76166955351E-02	1.78323300185E-01	-1.05924912957E-01
1.75500000000E+09	-2.18496602031E-01	5.88752060689E-02	6.72347210424E-02	2.53687468004E-02	6.65113740542E-02	2.62438644451E-02	1.73725662970E-01	-1.08699649666E-01
1.75550000000E+09	-2.18720151292E-01	6.26881586941E-02	6.76984014845E-02	2.39658760477E-02	6.69945881847E-02	2.48603362952E-02	1.69054215209E-01	-1.11326340137E-01
1.75600000000E+09	-2.18760662086E-01	6.65175096443E-02	6.81251587401E-02	2.25606870976E-02	6.74379989464E-02	2.34762566673E-02	1.64276439315E-01	-1.13795111758E-01
1.75650000000E+09	-2.18616111186E-01	7.03528674132E-02	6.85464858325E-02	2.11551678578E-02	6.78713770834E-02	2.20800904279E-02	1.59437591047E-01	-1.16117884918E-01
1.75700000000E+09	-2.18303862625E-01	7.41832803689E-02	6.89237049536E-02	1.97414779857E-02	6.82751526448E-02	2.06901757216E-02	1.54502442411E-01	-1.18275935800E-01
1.75750000000E+09	-2.17806335921E-01	7.80147807617E-02	6.92801764615E-02	1.83255266357E-02	6.86438684909E-02	1.92866219311E-02	1.49497168543E-01	-1.20287498136E-01
1.75800000000E+09	-2.17104810815E-01	8.18333446303E-02	6.96100369025E-02	1.68988744217E-02	6.89933896422E-02	1.78779898744E-02	1.44407068923E-01	-1.22139544997E-01
1.75850000000E+09	-2.16248094281E-01	8.56029666908E-02	6.99175022432E-02	1.54877134282E-02	6.93162841815E-02	1.64672047562E-02	1.39266046565E-01	-1.23825561101E-01
1.75900000000E+09	-2.15179683277E-01	8.93359957455E-02	7.01871070424E-02	1.40544877720E-02	6.96208908339E-02	1.50554018692E-02	1.34066883004E-01	-1.25335512160E-01
