# Hz S RI R 50
! CMT, CMT808U, 21440046, 21.4.3/4
! Date: 6/12/2026 9:30:12 AM
! Data: Format (Calibration Info)
! Freq	S11:Re/Im(F2)	S41:Re/Im(F2)	S14:Re/Im(F2)	S44:Re/Im(F2)
1.70000000000E+09	-1.11948257685E-01	1.00991266030E-01	-7.00433458554E-02	2.33424386125E-02	-7.00547411385E-02	2.22512700579E-02	-6.41470477650E-02	1.62664541580E-01
1.70050000000E+09	-1.09242526615E-01	1.00725258010E-01	-6.95451781098E-02	2.48515155880E-02	-6.95826993156E-02	2.37571287622E-02	-6.08660230973E-02	1.66627190235E-01
1.70100000000E+09	-1.06554345967E-01	1.00303390888E-01	-6.90159014961E-02	2.63423018183E-02	-6.90704501585E-02	2.52516152648E-02	-5.74547248167E-02	1.70499779665E-01
1.70150000000E+09	-1.03912226985E-01	9.97344443729E-02	-6.84465394716E-02	2.78296293883E-02	-6.85320301744E-02	2.67376285372E-02	-5.39364381133E-02	1.74268085205E-01
1.70200000000E+09	-1.01320303041E-01	9.90571940582E-02	-6.78464071627E-02	2.93154134310E-02	-6.79619337973E-02	2.82221179760E-02	-5.02716764547E-02	1.77888455413E-01
1.70250000000E+09	-9.87737366174E-02	9.82315286563E-02	-6.72170236510E-02	3.07817774637E-02	-6.73561577993E-02	2.96869255464E-02	-4.65153721279E-02	1.81444247003E-01
1.70300000000E+09	-9.62808924443E-02	9.72639381145E-02	-6.65613027706E-02	3.22307285095E-02	-6.67124983536E-02	3.11415487128E-02	-4.26541917828E-02	1.84863493066E-01
1.70350000000E+09	-9.38701027409E-02	9.61889199755E-02	-6.58494577672E-02	3.36653695186E-02	-6.60390181101E-02	3.25731889415E-02	-3.86867432866E-02	1.88172403423E-01
1.70400000000E+09	-9.15177727842E-02	9.49801287870E-02	-6.51255792106E-02	3.50828240595E-02	-6.53264849170E-02	3.40123931285E-02	-3.46142567894E-02	1.91353635283E-01
1.70450000000E+09	-8.92418781566E-02	9.36748944253E-02	-6.43623737670E-02	3.65032077998E-02	-6.45898308603E-02	3.54222688190E-02	-3.04447958852E-02	1.94419251178E-01
1.70500000000E+09	-8.70501948830E-02	9.22489507947E-02	-6.35723546307E-02	3.78935773741E-02	-6.38194762256E-02	3.68218475270E-02	-2.61698723688E-02	1.97332063900E-01
1.70550000000E+09	-8.49492052434E-02	9.07154592425E-02	-6.27403991132E-02	3.92634582899E-02	-6.30110135884E-02	3.81996385342E-02	-2.18122369759E-02	2.00143516637E-01
1.70600000000E+09	-8.29219003171E-02	8.90887695483E-02	-6.18784799071E-02	4.06260735913E-02	-6.21802069197E-02	3.95684132690E-02	-1.73646076645E-02	2.02806484142E-01
1.70650000000E+09	-8.09732369221E-02	8.73854875789E-02	-6.09869327699E-02	4.19699164940E-02	-6.13065414986E-02	4.09028175834E-02	-1.28500201441E-02	2.05339159149E-01
1.70700000000E+09	-7.91450543593E-02	8.55821506627E-02	-6.00580153302E-02	4.32871169139E-02	-6.04039582959E-02	4.22380151392E-02	-8.23955777805E-03	2.07723649501E-01
1.70750000000E+09	-7.73901753876E-02	8.37182287311E-02	-5.91176527969E-02	4.45911958291E-02	-5.94809824855E-02	4.35433367673E-02	-3.57818882204E-03	2.09980502231E-01
1.70800000000E+09	-7.57617792729E-02	8.17512745585E-02	-5.81389624769E-02	4.58591631473E-02	-5.85276257660E-02	4.48342515780E-02	1.15827006882E-03	2.12076166988E-01
1.70850000000E+09	-7.42133360074E-02	7.97189837973E-02	-5.71310045372E-02	4.71298959709E-02	-5.75337430973E-02	4.60917380495E-02	5.96990107369E-03	2.14052527869E-01
1.70900000000E+09	-7.27691545157E-02	7.76177749332E-02	-5.60835364737E-02	4.83617454273E-02	-5.65185337770E-02	4.73323903743E-02	1.08246765366E-02	2.15890118033E-01
1.70950000000E+09	-7.14477249137E-02	7.54874217071E-02	-5.50174834133E-02	4.95583509409E-02	-5.54756155817E-02	4.85448240494E-02	1.57203600534E-02	2.17520171753E-01
1.71000000000E+09	-7.02135158485E-02	7.32732846432E-02	-5.39154170500E-02	5.07481989812E-02	-5.43999433484E-02	4.97458211562E-02	2.06906548188E-02	2.19067019731E-01
1.71050000000E+09	-6.90991061928E-02	7.10241716258E-02	-5.27947098198E-02	5.19118410984E-02	-5.33090583604E-02	5.09188247947E-02	2.56899599693E-02	2.20428321430E-01
1.71100000000E+09	-6.80794041262E-02	6.87202533468E-02	-5.16485138299E-02	5.30337559922E-02	-5.21724657878E-02	5.20610801101E-02	3.07445710294E-02	2.21657344633E-01
1.71150000000E+09	-6.71800634937E-02	6.63934645390E-02	-5.04831050823E-02	5.41484583907E-02	-5.10196735926E-02	5.31827242316E-02	3.58205448303E-02	2.22727342564E-01
1.71200000000E+09	-6.63714837178E-02	6.40329196842E-02	-4.92793285785E-02	5.52307425346E-02	-4.98493128140E-02	5.42675946086E-02	4.09479633911E-02	2.23634497215E-01
1.71250000000E+09	-6.56864082893E-02	6.16289096671E-02	-4.80463090356E-02	5.62867656505E-02	-4.86509539156E-02	5.53413197121E-02	4.60898191439E-02	2.24399928794E-01
1.71300000000E+09	-6.51091270886E-02	5.92243867836E-02	-4.68049347968E-02	5.73134171221E-02	-4.74166857281E-02	5.63888248592E-02	5.12647215701E-02	2.24995839258E-01
1.71350000000E+09	-6.46285844026E-02	5.67693934261E-02	-4.55404546943E-02	5.83020134968E-02	-4.61675836883E-02	5.73946287959E-02	5.64308528390E-02	2.25440260025E-01
1.71400000000E+09	-6.42613640157E-02	5.43347098467E-02	-4.42432311544E-02	5.92751623870E-02	-4.49025245214E-02	5.83766421430E-02	6.16463873940E-02	2.25729335256E-01
1.71450000000E+09	-6.40256063421E-02	5.18635579683E-02	-4.29296428732E-02	6.02097438565E-02	-4.36030534378E-02	5.93140702514E-02	6.68508245638E-02	2.25872017034E-01
1.71500000000E+09	-6.38700003496E-02	4.94062206912E-02	-4.15855518599E-02	6.11073225803E-02	-4.22910948846E-02	6.02306189135E-02	7.20386333785E-02	2.25848603488E-01
1.71550000000E+09	-6.38140107302E-02	4.69466417831E-02	-4.02346298811E-02	6.19886633212E-02	-4.09520545348E-02	6.11300249133E-02	7.72348413540E-02	2.25672892702E-01
1.71600000000E+09	-6.38771186546E-02	4.44759843825E-02	-3.88686090520E-02	6.28355676921E-02	-3.96078770501E-02	6.19910295390E-02	8.24296174016E-02	2.25342089282E-01
1.71650000000E+09	-6.40531862577E-02	4.20347850467E-02	-3.74809573253E-02	6.36498248165E-02	-3.82339746311E-02	6.28225037908E-02	8.76212722438E-02	2.24847430339E-01
1.71700000000E+09	-6.43098890425E-02	3.95849826126E-02	-3.60775964252E-02	6.44283690948E-02	-3.68451859576E-02	6.36221350958E-02	9.27914989709E-02	2.24223338662E-01
1.71750000000E+09	-6.46701567037E-02	3.71508168797E-02	-3.46504494801E-02	6.51732728665E-02	-3.54390444201E-02	6.43788398036E-02	9.79184832454E-02	2.23399259740E-01
1.71800000000E+09	-6.51227870867E-02	3.47439870837E-02	-3.32102966038E-02	6.58866955057E-02	-3.40149317282E-02	6.51164338226E-02	1.03047225698E-01	2.22435116970E-01
1.71850000000E+09	-6.56956193936E-02	3.23628318410E-02	-3.17561069881E-02	6.65759501675E-02	-3.25772095935E-02	6.58198389403E-02	1.08155978039E-01	2.21339680555E-01
1.71900000000E+09	-6.63371274159E-02	2.99980294902E-02	-3.02885876949E-02	6.72145308266E-02	-3.11212634566E-02	6.64882001889E-02	1.13208265122E-01	2.20075487061E-01
1.71950000000E+09	-6.70874978628E-02	2.76515454864E-02	-2.88182697483E-02	6.78324953044E-02	-2.96639266839E-02	6.71219278289E-02	1.18223643783E-01	2.18665193545E-01
1.72000000000E+09	-6.79321396145E-02	2.53321183610E-02	-2.73144396428E-02	6.84224031709E-02	-2.81877586527E-02	6.77174759337E-02	1.23193502653E-01	2.17088658471E-01
1.72050000000E+09	-6.88620406480E-02	2.30667515189E-02	-2.58087977908E-02	6.89649972765E-02	-2.67000642932E-02	6.82827943677E-02	1.28099911690E-01	2.15379786058E-01
1.72100000000E+09	-6.98553143640E-02	2.08211169808E-02	-2.43050060399E-02	6.94693100141E-02	-2.52020344178E-02	6.88114251693E-02	1.32982212526E-01	2.13530032208E-01
1.72150000000E+09	-7.09710843580E-02	1.86170062783E-02	-2.27779855392E-02	6.99537057851E-02	-2.36911110436E-02	6.93111827228E-02	1.37805509060E-01	2.11513054908E-01
1.72200000000E+09	-7.21517501749E-02	1.64473048140E-02	-2.12440381598E-02	7.03926534197E-02	-2.21745664961E-02	6.97748613301E-02	1.42539398644E-01	2.09366007477E-01
1.72250000000E+09	-7.34243357439E-02	1.43165643517E-02	-1.97154873542E-02	7.07992976749E-02	-2.06382474744E-02	7.02040848965E-02	1.47242878166E-01	2.07071695497E-01
1.72300000000E+09	-7.47678312101E-02	1.22462268637E-02	-1.81611513107E-02	7.11779770355E-02	-1.91092404375E-02	7.06090124699E-02	1.51872581861E-01	2.04630955058E-01
1.72350000000E+09	-7.62094708257E-02	1.02188918699E-02	-1.66058216392E-02	7.15195118162E-02	-1.75632011829E-02	7.09646162704E-02	1.56390216828E-01	2.02061590449E-01
1.72400000000E+09	-7.77298044772E-02	8.22567882519E-03	-1.50464305472E-02	7.18165553902E-02	-1.60138885418E-02	7.12855329969E-02	1.60867552666E-01	1.99359688073E-01
1.72450000000E+09	-7.93249342717E-02	6.28954975571E-03	-1.34776876105E-02	7.20910726503E-02	-1.44692639772E-02	7.15778095869E-02	1.65239684102E-01	1.96532599928E-01
1.72500000000E+09	-8.09969328602E-02	4.41767823692E-03	-1.19140405027E-02	7.23233116382E-02	-1.29050296721E-02	7.18382491824E-02	1.69540638237E-01	1.93551061602E-01
1.72550000000E+09	-8.27488619238E-02	2.58559778375E-03	-1.03546023207E-02	7.25312197441E-02	-1.13447328490E-02	7.20558644768E-02	1.73726367657E-01	1.90443397468E-01
1.72600000000E+09	-8.45539359059E-02	8.15922213400E-04	-8.76947840601E-03	7.26992469613E-02	-9.76782828614E-03	7.22467127790E-02	1.77849321569E-01	1.87202635281E-01
1.72650000000E+09	-8.64402406441E-02	-8.87228351051E-04	-7.19669477462E-03	7.28262415580E-02	-8.22366460945E-03	7.23916025883E-02	1.81850530839E-01	1.83867505319E-01
1.72700000000E+09	-8.84131196465E-02	-2.54456316929E-03	-5.61945093352E-03	7.29202965632E-02	-6.64772361188E-03	7.25171925370E-02	1.85770526256E-01	1.80397618973E-01
1.72750000000E+09	-9.04284759331E-02	-4.12355776545E-03	-4.04862245571E-03	7.29787854793E-02	-5.07981502299E-03	7.25989540687E-02	1.89584515159E-01	1.76789308186E-01
1.72800000000E+09	-9.25454610500E-02	-5.63208190465E-03	-2.46862608139E-03	7.30094391766E-02	-3.51086642398E-03	7.26405207047E-02	1.93273272374E-01	1.73091010810E-01
1.72850000000E+09	-9.46990788986E-02	-7.09574242882E-03	-8.98242472303E-04	7.30046702363E-02	-1.94625124088E-03	7.26596711261E-02	1.96847616745E-01	1.69266575897E-01
1.72900000000E+09	-9.69406309630E-02	-8.46834023604E-03	6.77427886466E-04	7.29562750944E-02	-3.80888604686E-04	7.26429147015E-02	2.00340791254E-01	1.65344751372E-01
1.72950000000E+09	-9.92322840829E-02	-9.77101487506E-03	2.24101699290E-03	7.28738066505E-02	1.17429095190E-03	7.25810815045E-02	2.03660142700E-01	1.61297611493E-01
1.73000000000E+09	-1.01591661086E-01	-1.09914509653E-02	3.80068035931E-03	7.27739129978E-02	2.74318299904E-03	7.24866472004E-02	2.06889491921E-01	1.57172798764E-01
1.73050000000E+09	-1.03996416713E-01	-1.21543176211E-02	5.36023214066E-03	7.26209730444E-02	4.29034959487E-03	7.23748349117E-02	2.09989862769E-01	1.52936985670E-01
1.73100000000E+09	-1.06472971701E-01	-1.32106339596E-02	6.91671036205E-03	7.24328336417E-02	5.84096190160E-03	7.22208806340E-02	2.12959926122E-01	1.48603580782E-01
1.73150000000E+09	-1.09002200625E-01	-1.42011987084E-02	8.45771882183E-03	7.22209718618E-02	7.38302733825E-03	7.20214791895E-02	2.15796213550E-01	1.44206295733E-01
1.73200000000E+09	-1.11592396200E-01	-1.50831070435E-02	9.99509466558E-03	7.19753369025E-02	8.91720826959E-03	7.18024331179E-02	2.18513111312E-01	1.39707884885E-01
1.73250000000E+09	-1.14212692208E-01	-1.58970436183E-02	1.15309660803E-02	7.17024010400E-02	1.04457720317E-02	7.15470353150E-02	2.21068440233E-01	1.35095312012E-01
1.73300000000E+09	-1.16910230216E-01	-1.66102416317E-02	1.30527726413E-02	7.13888147109E-02	1.19730644143E-02	7.12619920040E-02	2.23498534181E-01	1.30451206540E-01
1.73350000000E+09	-1.19610521294E-01	-1.72237154261E-02	1.45689657078E-02	7.10431746993E-02	1.34713600865E-02	7.09346385314E-02	2.25789932493E-01	1.25719629199E-01
1.73400000000E+09	-1.22408159324E-01	-1.77620292420E-02	1.60729801621E-02	7.06672091039E-02	1.49751569847E-02	7.05704792991E-02	2.27920706481E-01	1.20903324991E-01
1.73450000000E+09	-1.25211026760E-01	-1.81830092908E-02	1.75595628012E-02	7.02564060343E-02	1.64825930597E-02	7.01889984088E-02	2.29912272709E-01	1.15998087751E-01
1.73500000000E+09	-1.28055839797E-01	-1.84884580668E-02	1.90402750187E-02	6.98149891894E-02	1.79494948271E-02	6.97647591085E-02	2.31749164852E-01	1.11062797668E-01
1.73550000000E+09	-1.30943652658E-01	-1.87035592559E-02	2.05222861227E-02	6.93412747599E-02	1.94197399158E-02	6.93118530283E-02	2.33445303256E-01	1.06067330320E-01
1.73600000000E+09	-1.33853050432E-01	-1.88158736631E-02	2.19709605303E-02	6.88278514412E-02	2.08815360721E-02	6.88431786166E-02	2.34958334740E-01	1.01026578847E-01
1.73650000000E+09	-1.36785002363E-01	-1.88028441125E-02	2.34188081865E-02	6.83058744219E-02	2.23216049738E-02	6.83296666121E-02	2.36354975729E-01	9.59114171939E-02
1.73700000000E+09	-1.39752993506E-01	-1.86851490386E-02	2.48537951445E-02	6.77439914281E-02	2.37582895581E-02	6.77813495441E-02	2.37580182644E-01	9.07815704338E-02
1.73750000000E+09	-1.42709583870E-01	-1.84628495555E-02	2.62648199844E-02	6.71415011011E-02	2.51610835807E-02	6.72042094662E-02	2.38642466330E-01	8.55942233768E-02
1.73800000000E+09	-1.45695326423E-01	-1.81159233821E-02	2.76577362255E-02	6.65312911599E-02	2.65652594821E-02	6.66057381793E-02	2.39543839547E-01	8.03738046546E-02
1.73850000000E+09	-1.48695497533E-01	-1.76492540767E-02	2.90458347835E-02	6.58666526485E-02	2.79554134488E-02	6.59791647316E-02	2.40304878743E-01	7.51243768223E-02
1.73900000000E+09	-1.51696964258E-01	-1.70748640870E-02	3.04057053802E-02	6.51813331892E-02	2.93297698931E-02	6.53144104799E-02	2.40878291400E-01	6.98404020776E-02
1.73950000000E+09	-1.54691269988E-01	-1.63826476237E-02	3.17563008871E-02	6.44798311215E-02	3.06729741242E-02	6.46293672823E-02	2.41299348736E-01	6.45487920782E-02
1.74000000000E+09	-1.57701599683E-01	-1.55598488439E-02	3.30811377027E-02	6.37381533107E-02	3.20053344635E-02	6.39105031840E-02	2.41532811555E-01	5.92397393508E-02
1.74050000000E+09	-1.60669088364E-01	-1.46106192456E-02	3.43991272995E-02	6.29693700154E-02	3.33245020048E-02	6.31663075171E-02	2.41642293462E-01	5.39378421878E-02
1.74100000000E+09	-1.63658374730E-01	-1.35442985226E-02	3.56989094418E-02	6.21839308389E-02	3.46186593828E-02	6.24058899114E-02	2.41540024987E-01	4.85885286106E-02
1.74150000000E+09	-1.66602593644E-01	-1.23492514606E-02	3.69723878517E-02	6.13678107665E-02	3.59018207023E-02	6.16015419016E-02	2.41315464137E-01	4.32501924310E-02
1.74200000000E+09	-1.69524669889E-01	-1.10465668162E-02	3.82183497948E-02	6.05216434200E-02	3.71591088007E-02	6.07885482563E-02	2.40898827031E-01	3.79220476643E-02
1.74250000000E+09	-1.72419923344E-01	-9.60326218071E-03	3.94557718401E-02	5.96643228869E-02	3.83977532452E-02	5.99385321917E-02	2.40339211786E-01	3.26111250939E-02
1.74300000000E+09	-1.75283199425E-01	-8.04507794574E-03	4.06599222533E-02	5.87732325632E-02	3.96117490450E-02	5.90682058702E-02	2.39568986659E-01	2.73169583068E-02
1.74350000000E+09	-1.78105601135E-01	-6.35883888635E-03	4.18608220225E-02	5.78525536226E-02	4.08091684719E-02	5.81825010515E-02	2.38671770187E-01	2.20365096144E-02
1.74400000000E+09	-1.80863560243E-01	-4.55047686251E-03	4.30200067642E-02	5.69282374317E-02	4.19776244462E-02	5.72692512896E-02	2.37588924358E-01	1.67918045393E-02
1.74450000000E+09	-1.83583933258E-01	-2.59798351707E-03	4.41672117079E-02	5.59650515687E-02	4.31372536703E-02	5.63334330716E-02	2.36345181267E-01	1.15536731895E-02
1.74500000000E+09	-1.86267508868E-01	-5.57172414545E-04	4.52904439901E-02	5.49881171543E-02	4.42674046240E-02	5.53765408400E-02	2.34931253710E-01	6.35697446646E-03
1.74550000000E+09	-1.88847556372E-01	1.63346750444E-03	4.63899846842E-02	5.39847290656E-02	4.53652533000E-02	5.43954809473E-02	2.33353470827E-01	1.21543477872E-03
1.74600000000E+09	-1.91378871413E-01	3.93712660320E-03	4.74700924368E-02	5.29598881357E-02	4.64513905339E-02	5.33933766685E-02	2.31617603615E-01	-3.89731930602E-03
1.74650000000E+09	-1.93835984662E-01	6.35056196949E-03	4.85165788681E-02	5.19267469816E-02	4.75152186717E-02	5.23766025908E-02	2.29713082706E-01	-8.95472379618E-03
1.74700000000E+09	-1.96198010919E-01	8.89150099577E-03	4.95560139518E-02	5.08584457627E-02	4.85509673296E-02	5.13470857201E-02	2.27672085232E-01	-1.39411982929E-02
1.74750000000E+09	-1.98485393220E-01	1.15376596536E-02	5.05578588168E-02	4.97832399370E-02	4.95612065272E-02	5.02709433854E-02	2.25434681088E-01	-1.88858945269E-02
1.74800000000E+09	-2.00674752648E-01	1.43070397181E-02	5.15412202198E-02	4.86943884460E-02	5.05501864348E-02	4.91999178535E-02	2.23064731836E-01	-2.37562524424E-02
1.74850000000E+09	-2.02742233369E-01	1.71766230676E-02	5.24881354314E-02	4.75831927597E-02	5.15175106107E-02	4.81129705015E-02	2.20521565997E-01	-2.85492129685E-02
1.74900000000E+09	-2.04722869471E-01	2.01552219281E-02	5.34177741706E-02	4.64512243965E-02	5.24579346145E-02	4.70121966660E-02	2.17838214405E-01	-3.32905667909E-02
1.74950000000E+09	-2.06580341970E-01	2.32299070197E-02	5.43253274923E-02	4.53136139210E-02	5.33658040710E-02	4.58761335101E-02	2.14991133289E-01	-3.79166118719E-02
1.75000000000E+09	-2.08303240327E-01	2.64070360474E-02	5.52005362355E-02	4.41447968953E-02	5.42546236183E-02	4.47477107160E-02	2.11981051079E-01	-4.24858058404E-02
1.75050000000E+09	-2.09903634421E-01	2.96801798459E-02	5.60611465641E-02	4.29761818526E-02	5.51210838782E-02	4.35894481324E-02	2.08847136651E-01	-4.69387707604E-02
1.75100000000E+09	-2.11372917472E-01	3.30465488856E-02	5.68852922472E-02	4.17842107222E-02	5.59697560694E-02	4.24279971286E-02	2.05556272893E-01	-5.13034000309E-02
1.75150000000E+09	-2.12704366223E-01	3.64579703120E-02	5.77007602543E-02	4.05923157705E-02	5.67938329897E-02	4.12439443725E-02	2.02120737537E-01	-5.55803096970E-02
1.75200000000E+09	-2.13879196063E-01	3.99695261284E-02	5.84814292069E-02	3.93743364621E-02	5.75759069056E-02	4.00507855616E-02	1.98540300528E-01	-5.97577036745E-02
1.75250000000E+09	-2.14917013044E-01	4.35351352426E-02	5.92362034560E-02	3.81544907577E-02	5.83481732024E-02	3.88413827135E-02	1.94853856394E-01	-6.38029175713E-02
1.75300000000E+09	-2.15781932522E-01	4.71641758338E-02	5.99611970484E-02	3.69216161660E-02	5.90919760632E-02	3.76377511438E-02	1.90990897127E-01	-6.77516018032E-02
1.75350000000E+09	-2.16488406369E-01	5.08460451327E-02	6.06674448554E-02	3.56716381960E-02	5.98054477593E-02	3.63989402629E-02	1.87043017689E-01	-7.15723229465E-02
1.75400000000E+09	-2.17056408159E-01	5.45657788900E-02	6.13527902993E-02	3.44219689943E-02	6.05048288972E-02	3.51768652577E-02	1.82938825608E-01	-7.52634863847E-02
1.75450000000E+09	-2.17434784623E-01	5.83277668634E-02	6.20142635195E-02	3.31579309791E-02	6.11744948076E-02	3.39348829593E-02	1.78712908603E-01	-7.88231842530E-02
1.75500000000E+09	-2.17643974865E-01	6.21009157875E-02	6.26403406019E-02	3.18759889378E-02	6.18146878933E-02	3.26722188128E-02	1.74365354592E-01	-8.22717602481E-02
1.75550000000E+09	-2.17707829367E-01	6.59126849712E-02	6.32435852157E-02	3.05980932914E-02	6.24495683122E-02	3.14041674717E-02	1.69916827183E-01	-8.55634095073E-02
1.75600000000E+09	-2.17566004733E-01	6.97237105345E-02	6.38252986083E-02	2.93026079512E-02	6.30452129845E-02	3.01366463844E-02	1.65343529035E-01	-8.87304066528E-02
1.75650000000E+09	-2.17263070015E-01	7.35410201662E-02	6.43895466054E-02	2.80058422881E-02	6.36257579256E-02	2.88526864858E-02	1.60673415430E-01	-9.17364184339E-02
1.75700000000E+09	-2.16762032107E-01	7.73384925561E-02	6.49287083059E-02	2.66994024870E-02	6.41693623823E-02	2.75683997891E-02	1.55892933715E-01	-9.46142037654E-02
1.75750000000E+09	-2.16083384339E-01	8.11273212531E-02	6.54394523363E-02	2.53853283698E-02	6.46952164047E-02	2.62708240002E-02	1.51027213850E-01	-9.73390379053E-02
1.75800000000E+09	-2.15211888645E-01	8.48795409140E-02	6.59294033207E-02	2.40647196748E-02	6.52021140697E-02	2.49619356726E-02	1.46055006305E-01	-9.99105787032E-02
1.75850000000E+09	-2.14178897759E-01	8.85950028188E-02	6.63985520467E-02	2.27358382746E-02	6.56912882637E-02	2.36466909379E-02	1.40987929659E-01	-1.02308282404E-01
1.75900000000E+09	-2.12946972829E-01	9.22256839632E-02	6.68388694186E-02	2.13962789720E-02	6.61539779577E-02	2.23370409806E-02	1.35871372231E-01	-1.04560671668E-01
