# Hz S RI R 50
! CMT, CMT808U, 21440046, 21.4.3/4
! Date: 6/12/2026 9:28:41 AM
! Data: Format (Calibration Info)
! Freq	S11:Re/Im(F2)	S41:Re/Im(F2)	S14:Re/Im(F2)	S44:Re/Im(F2)
1.70000000000E+09	-1.11746445045E-01	1.00873920628E-01	-7.36222760396E-02	1.92284126346E-02	-7.35697579010E-02	1.81205341711E-02	-5.23062917189E-02	1.44816603069E-01
1.70050000000E+09	-1.09026989673E-01	1.00572908854E-01	-7.32141860775E-02	2.08224348913E-02	-7.31789686139E-02	1.97084735627E-02	-4.92359249878E-02	1.48557403219E-01
1.70100000000E+09	-1.06362241059E-01	1.00120564183E-01	-7.27715403588E-02	2.24002223793E-02	-7.27595407541E-02	2.12849161645E-02	-4.60424694913E-02	1.52195003867E-01
1.70150000000E+09	-1.03708406956E-01	9.95188807694E-02	-7.22846908739E-02	2.39790745731E-02	-7.22907032514E-02	2.28618341136E-02	-4.27299817377E-02	1.55731998177E-01
1.70200000000E+09	-1.01117419807E-01	9.87967511080E-02	-7.17735754470E-02	2.55434966993E-02	-7.18037161458E-02	2.44256284598E-02	-3.93082692204E-02	1.59138675083E-01
1.70250000000E+09	-9.85836915593E-02	9.79380714221E-02	-7.12174042285E-02	2.70998522277E-02	-7.12713910074E-02	2.59769361418E-02	-3.57672415642E-02	1.62454133578E-01
1.70300000000E+09	-9.61039323447E-02	9.69403145152E-02	-7.06309052793E-02	2.86322874171E-02	-7.07076191559E-02	2.75324917399E-02	-3.21334988697E-02	1.65678761639E-01
1.70350000000E+09	-9.37040431261E-02	9.58413896503E-02	-7.00105625990E-02	3.01781181555E-02	-7.01124331786E-02	2.90583926030E-02	-2.83833260190E-02	1.68788374916E-01
1.70400000000E+09	-9.13682932499E-02	9.45939058267E-02	-6.93423358660E-02	3.16923004230E-02	-6.94792825393E-02	3.05755167533E-02	-2.45679189780E-02	1.71750502596E-01
1.70450000000E+09	-8.90982945224E-02	9.32522598504E-02	-6.86443739978E-02	3.31993983650E-02	-6.88079618380E-02	3.20922970434E-02	-2.06128264694E-02	1.74617337276E-01
1.70500000000E+09	-8.69168732796E-02	9.18185855144E-02	-6.79180162588E-02	3.46872444801E-02	-6.81034532123E-02	3.35855475173E-02	-1.66093598781E-02	1.77369146810E-01
1.70550000000E+09	-8.48345398848E-02	9.02527285402E-02	-6.71665282920E-02	3.61613366366E-02	-6.73563911970E-02	3.50530262621E-02	-1.25007087751E-02	1.79967630623E-01
1.70600000000E+09	-8.28409080295E-02	8.86104882349E-02	-6.63593889387E-02	3.76179257993E-02	-6.65856717111E-02	3.65216885183E-02	-8.31244247008E-03	1.82453061069E-01
1.70650000000E+09	-8.09172350331E-02	8.68687132819E-02	-6.55229474739E-02	3.90617696575E-02	-6.57751631432E-02	3.79684326514E-02	-4.04139010559E-03	1.84818101335E-01
1.70700000000E+09	-7.91000733862E-02	8.50595755290E-02	-6.46609500959E-02	4.04875723106E-02	-6.49307265774E-02	3.93937162291E-02	2.97911819366E-04	1.87044658839E-01
1.70750000000E+09	-7.73801041382E-02	8.31456883181E-02	-6.37650165475E-02	4.18897662617E-02	-6.40578435604E-02	4.07995251131E-02	4.71199690687E-03	1.89110593332E-01
1.70800000000E+09	-7.57553120159E-02	8.11800452971E-02	-6.28345484111E-02	4.32612074785E-02	-6.31611863563E-02	4.21966790843E-02	9.18301149786E-03	1.91081171550E-01
1.70850000000E+09	-7.42473127761E-02	7.91345110049E-02	-6.18674593289E-02	4.46259947648E-02	-6.22189757827E-02	4.35578396801E-02	1.37313018618E-02	1.92876210843E-01
1.70900000000E+09	-7.28144865483E-02	7.70267278980E-02	-6.08867305349E-02	4.59679307951E-02	-6.12563570226E-02	4.49015502994E-02	1.83200814783E-02	1.94556218627E-01
1.70950000000E+09	-7.15230597968E-02	7.48632098704E-02	-5.98539397094E-02	4.72898413540E-02	-6.02489760671E-02	4.62304280181E-02	2.29627451303E-02	1.96073075431E-01
1.71000000000E+09	-7.03138035126E-02	7.26390022341E-02	-5.87983583240E-02	4.85871248803E-02	-5.92286849251E-02	4.75230087773E-02	2.76637967246E-02	1.97467965036E-01
1.71050000000E+09	-6.92217079643E-02	7.03745619607E-02	-5.77260597497E-02	4.98474846881E-02	-5.81636119201E-02	4.88057898516E-02	3.23979025209E-02	1.98693604817E-01
1.71100000000E+09	-6.82289043063E-02	6.80749008163E-02	-5.66021766554E-02	5.10918985436E-02	-5.70767446801E-02	5.00525364014E-02	3.71833763926E-02	1.99802276886E-01
1.71150000000E+09	-6.73453828682E-02	6.57276364226E-02	-5.54716127913E-02	5.23129675574E-02	-5.59589257998E-02	5.12853603956E-02	4.19854392693E-02	2.00751952666E-01
1.71200000000E+09	-6.65661946038E-02	6.33529078783E-02	-5.42956569683E-02	5.34964429885E-02	-5.48096590100E-02	5.24879848394E-02	4.68260915730E-02	2.01528641086E-01
1.71250000000E+09	-6.59197874005E-02	6.09547292717E-02	-5.31066338405E-02	5.46679566321E-02	-5.36441445134E-02	5.36618289082E-02	5.16997138761E-02	2.02196998303E-01
1.71300000000E+09	-6.53638895027E-02	5.85247251509E-02	-5.18864392568E-02	5.58020051971E-02	-5.24442327423E-02	5.48094858293E-02	5.65826286055E-02	2.02698525896E-01
1.71350000000E+09	-6.49286163993E-02	5.60792021070E-02	-5.06429943306E-02	5.69034462738E-02	-5.12195514779E-02	5.59337135562E-02	6.15012300717E-02	2.03048166660E-01
1.71400000000E+09	-6.45828624405E-02	5.36270195501E-02	-4.93636868085E-02	5.79901336449E-02	-4.99740134712E-02	5.70186896202E-02	6.64010779985E-02	2.03234695260E-01
1.71450000000E+09	-6.43731632392E-02	5.11756705373E-02	-4.80777969129E-02	5.90319187894E-02	-4.87051984296E-02	5.80809358824E-02	7.13311187561E-02	2.03277506408E-01
1.71500000000E+09	-6.42324118203E-02	4.87087112516E-02	-4.67565485423E-02	6.00494202746E-02	-4.74100020149E-02	5.91130207609E-02	7.62352543487E-02	2.03182599291E-01
1.71550000000E+09	-6.42169614146E-02	4.62487480985E-02	-4.54237210146E-02	6.10346566130E-02	-4.60913649514E-02	6.01184032156E-02	8.11587048794E-02	2.02925678223E-01
1.71600000000E+09	-6.43075847513E-02	4.37770466600E-02	-4.40655013655E-02	6.19778148771E-02	-4.47563078963E-02	6.10872568372E-02	8.60763882562E-02	2.02522038887E-01
1.71650000000E+09	-6.45018128315E-02	4.13407588862E-02	-4.26806276210E-02	6.28983741254E-02	-4.33916093053E-02	6.20206590561E-02	9.09793697672E-02	2.01966957063E-01
1.71700000000E+09	-6.47772858637E-02	3.89028406295E-02	-4.12781268190E-02	6.38069093174E-02	-4.20116875602E-02	6.29269711124E-02	9.58623720546E-02	2.01256367372E-01
1.71750000000E+09	-6.51640031408E-02	3.64721511505E-02	-3.98594457449E-02	6.46583422506E-02	-4.06147974987E-02	6.38074495504E-02	1.00727463366E-01	2.00397944858E-01
1.71800000000E+09	-6.56569479900E-02	3.40761957212E-02	-3.84298672250E-02	6.54779725407E-02	-3.91956504158E-02	6.46483350882E-02	1.05550237462E-01	1.99394615227E-01
1.71850000000E+09	-6.62410759708E-02	3.16981553230E-02	-3.69791874323E-02	6.62752689951E-02	-3.77567695013E-02	6.54499529875E-02	1.10375608785E-01	1.98233555901E-01
1.71900000000E+09	-6.69119601749E-02	2.93332778459E-02	-3.55051807513E-02	6.70336221145E-02	-3.63038790971E-02	6.62264397307E-02	1.15149728879E-01	1.96919306593E-01
1.71950000000E+09	-6.76760992857E-02	2.70040095063E-02	-3.40210307771E-02	6.77596397063E-02	-3.48426199812E-02	6.69662422050E-02	1.19869309507E-01	1.95467013260E-01
1.72000000000E+09	-6.85417920325E-02	2.47027810465E-02	-3.25280739243E-02	6.84485763339E-02	-3.33599051121E-02	6.76867831425E-02	1.24562383616E-01	1.93880926164E-01
1.72050000000E+09	-6.95037198957E-02	2.24453400672E-02	-3.10162119321E-02	6.91001351008E-02	-3.18652616333E-02	6.83487105100E-02	1.29196545438E-01	1.92152893718E-01
1.72100000000E+09	-7.05294620047E-02	2.02129166095E-02	-2.94849774191E-02	6.97203266578E-02	-3.03512823017E-02	6.89952951402E-02	1.33783455874E-01	1.90269478671E-01
1.72150000000E+09	-7.16587802113E-02	1.80241661712E-02	-2.79520095859E-02	7.03096241710E-02	-2.88315195326E-02	6.95928443399E-02	1.38314570827E-01	1.88239176485E-01
1.72200000000E+09	-7.28691728481E-02	1.58713455135E-02	-2.64050383371E-02	7.08626038964E-02	-2.73020821459E-02	7.01669206561E-02	1.42773458236E-01	1.86065388659E-01
1.72250000000E+09	-7.41418815656E-02	1.37615030684E-02	-2.48471192315E-02	7.13832365755E-02	-2.57602753327E-02	7.06992430104E-02	1.47186513259E-01	1.83778567193E-01
1.72300000000E+09	-7.55119963318E-02	1.16980239550E-02	-2.32771557974E-02	7.18424865293E-02	-2.42135928518E-02	7.12030986928E-02	1.51521911481E-01	1.81328705332E-01
1.72350000000E+09	-7.69629368061E-02	9.68087411157E-03	-2.17085860280E-02	7.22932746255E-02	-2.26470272400E-02	7.16657440804E-02	1.55775347813E-01	1.78771622254E-01
1.72400000000E+09	-7.85115876633E-02	7.71828498518E-03	-2.01301204357E-02	7.27036557480E-02	-2.10712805802E-02	7.20966111251E-02	1.59949382787E-01	1.76069018499E-01
1.72450000000E+09	-8.01164702044E-02	5.79215060092E-03	-1.85352175654E-02	7.30668416688E-02	-1.94975785693E-02	7.24872050188E-02	1.64047447587E-01	1.73256077892E-01
1.72500000000E+09	-8.18034229070E-02	3.94146109074E-03	-1.69293466362E-02	7.34099770645E-02	-1.79166270285E-02	7.28549640793E-02	1.68069423338E-01	1.70299967642E-01
1.72550000000E+09	-8.35503901370E-02	2.13542301748E-03	-1.53275900078E-02	7.37051160125E-02	-1.63221765720E-02	7.31703161584E-02	1.71982371167E-01	1.67218406554E-01
1.72600000000E+09	-8.53857667828E-02	3.91004332513E-04	-1.37304010639E-02	7.39780297581E-02	-1.47240191398E-02	7.34572593154E-02	1.75824774243E-01	1.64026352207E-01
1.72650000000E+09	-8.72852224631E-02	-1.29742127200E-03	-1.21285016558E-02	7.42143034103E-02	-1.31450053240E-02	7.37144374144E-02	1.79551805073E-01	1.60710007508E-01
1.72700000000E+09	-8.92663222191E-02	-2.92175485780E-03	-1.05122514980E-02	7.43947562521E-02	-1.15284288776E-02	7.39290972401E-02	1.83194567188E-01	1.57291773931E-01
1.72750000000E+09	-9.13002834207E-02	-4.49163548155E-03	-8.90597754541E-03	7.45599745430E-02	-9.92794263207E-03	7.41182186311E-02	1.86733143281E-01	1.53727207258E-01
1.72800000000E+09	-9.34129731095E-02	-5.98619393688E-03	-7.29177496362E-03	7.46784041678E-02	-8.33084599211E-03	7.42528823808E-02	1.90139035685E-01	1.50074734645E-01
1.72850000000E+09	-9.55822444089E-02	-7.41159395305E-03	-5.67851893779E-03	7.47640336392E-02	-6.72223885874E-03	7.43603311315E-02	1.93443226594E-01	1.46292804204E-01
1.72900000000E+09	-9.78144537905E-02	-8.76133125484E-03	-4.06761446566E-03	7.48195624106E-02	-5.11976189621E-03	7.44401528182E-02	1.96656341515E-01	1.42447933155E-01
1.72950000000E+09	-1.00115410687E-01	-1.00496269206E-02	-2.45658859590E-03	7.48343073430E-02	-3.51080849405E-03	7.44766953692E-02	1.99729450837E-01	1.38475041703E-01
1.73000000000E+09	-1.02479270976E-01	-1.12597878738E-02	-8.52539070198E-04	7.48215701685E-02	-1.89477683424E-03	7.44821330755E-02	2.02679044057E-01	1.34407358084E-01
1.73050000000E+09	-1.04897250616E-01	-1.23842377397E-02	7.55362895194E-04	7.47501768880E-02	-3.09114295718E-04	7.44420048617E-02	2.05524977201E-01	1.30252399543E-01
1.73100000000E+09	-1.07362504260E-01	-1.34223537838E-02	2.36101916710E-03	7.46708319604E-02	1.29197782927E-03	7.43741337279E-02	2.08221264853E-01	1.25995280166E-01
1.73150000000E+09	-1.09909307541E-01	-1.43803741555E-02	3.95941423322E-03	7.45428749494E-02	2.88134105374E-03	7.42694806418E-02	2.10801419036E-01	1.21684288071E-01
1.73200000000E+09	-1.12485555319E-01	-1.52471995457E-02	5.54760151266E-03	7.43794514432E-02	4.46210916569E-03	7.41355162139E-02	2.13251751941E-01	1.17255053072E-01
1.73250000000E+09	-1.15114685655E-01	-1.60354424188E-02	7.13909319306E-03	7.41877548526E-02	6.05116612484E-03	7.39642039379E-02	2.15555382295E-01	1.12764647907E-01
1.73300000000E+09	-1.17805538228E-01	-1.67348835046E-02	8.72183862193E-03	7.39593447422E-02	7.62791968568E-03	7.37578541202E-02	2.17723248000E-01	1.08208746887E-01
1.73350000000E+09	-1.20516467641E-01	-1.73363366791E-02	1.02861666864E-02	7.36928108644E-02	9.18285756477E-03	7.35161482233E-02	2.19769759805E-01	1.03586383888E-01
1.73400000000E+09	-1.23301047607E-01	-1.78227194513E-02	1.18365036300E-02	7.34019091780E-02	1.07500757558E-02	7.32395049191E-02	2.21655949870E-01	9.88889873865E-02
1.73450000000E+09	-1.26098204844E-01	-1.82270642368E-02	1.34014611621E-02	7.30638056689E-02	1.22996107438E-02	7.29392100874E-02	2.23399033629E-01	9.41123162517E-02
1.73500000000E+09	-1.28935349757E-01	-1.85262218934E-02	1.49384354717E-02	7.27168981698E-02	1.38401165704E-02	7.25909383122E-02	2.24993071393E-01	8.92893102979E-02
1.73550000000E+09	-1.31812616270E-01	-1.87191341468E-02	1.64645434717E-02	7.23228763902E-02	1.53619574893E-02	7.22276747613E-02	2.26453615438E-01	8.44230010027E-02
1.73600000000E+09	-1.34710639319E-01	-1.88077889748E-02	1.79890240137E-02	7.18814777522E-02	1.68787267828E-02	7.18271859201E-02	2.27755103384E-01	7.94990605095E-02
1.73650000000E+09	-1.37649602822E-01	-1.87810606595E-02	1.95001310115E-02	7.14317821230E-02	1.83926295471E-02	7.13824085238E-02	2.28899118112E-01	7.45353572258E-02
1.73700000000E+09	-1.40608178321E-01	-1.86324963680E-02	2.09948789191E-02	7.09419519985E-02	1.98813959902E-02	7.09110042621E-02	2.29879719207E-01	6.95440601558E-02
1.73750000000E+09	-1.43562414124E-01	-1.84105009480E-02	2.24768343594E-02	7.04216495778E-02	2.13566833660E-02	7.04129460481E-02	2.30744647566E-01	6.44917797341E-02
1.73800000000E+09	-1.46529699828E-01	-1.80401644177E-02	2.39367610954E-02	6.98678586080E-02	2.28289696977E-02	6.98883052575E-02	2.31412736641E-01	5.94187271009E-02
1.73850000000E+09	-1.49521573647E-01	-1.75630663916E-02	2.53882507445E-02	6.92862955519E-02	2.42790467476E-02	6.93336003992E-02	2.31952607447E-01	5.43225967612E-02
1.73900000000E+09	-1.52516234305E-01	-1.69579742868E-02	2.68244787783E-02	6.86730897972E-02	2.57126575701E-02	6.87349652265E-02	2.32320171815E-01	4.91908431399E-02
1.73950000000E+09	-1.55499208572E-01	-1.62419967520E-02	2.82381364767E-02	6.80352890761E-02	2.71366188076E-02	6.81134020014E-02	2.32520243996E-01	4.40622371826E-02
1.74000000000E+09	-1.58481530001E-01	-1.54049015292E-02	2.96462870004E-02	6.73635383676E-02	2.85376963268E-02	6.74693466340E-02	2.32563263322E-01	3.89257826797E-02
1.74050000000E+09	-1.61451898332E-01	-1.44390145809E-02	3.10245444991E-02	6.66644112357E-02	2.99297616591E-02	6.67955958546E-02	2.32454734938E-01	3.37804060628E-02
1.74100000000E+09	-1.64422699142E-01	-1.33619870668E-02	3.23900498469E-02	6.59436122967E-02	3.12983717111E-02	6.60879980405E-02	2.32180917090E-01	2.86196416090E-02
1.74150000000E+09	-1.67360075482E-01	-1.21513969538E-02	3.37404496645E-02	6.52048282139E-02	3.26527597587E-02	6.53529311202E-02	2.31760303029E-01	2.34574931850E-02
1.74200000000E+09	-1.70270747566E-01	-1.08273614052E-02	3.50671665295E-02	6.44143401848E-02	3.39811690003E-02	6.46054859382E-02	2.31163402196E-01	1.83191610620E-02
1.74250000000E+09	-1.73152231812E-01	-9.37880691794E-03	3.63872557506E-02	6.35982072055E-02	3.52901604978E-02	6.38158683568E-02	2.30404240855E-01	1.32149513478E-02
1.74300000000E+09	-1.75990341656E-01	-7.80232436470E-03	3.76743785710E-02	6.27671856312E-02	3.65885118424E-02	6.30096612410E-02	2.29487376954E-01	8.09382227331E-03
1.74350000000E+09	-1.78803395070E-01	-6.10219063994E-03	3.89295670131E-02	6.19160009416E-02	3.78654902682E-02	6.21738296584E-02	2.28412782977E-01	3.00082733123E-03
1.74400000000E+09	-1.81535573732E-01	-4.27853774134E-03	4.01906989247E-02	6.10379276189E-02	3.91055411340E-02	6.13199299810E-02	2.27164897273E-01	-2.05909252228E-03
1.74450000000E+09	-1.84250195678E-01	-2.31568881175E-03	4.14213082099E-02	6.01360316752E-02	4.03467405707E-02	6.04349281477E-02	2.25765174056E-01	-7.11338748594E-03
1.74500000000E+09	-1.86887532202E-01	-2.68395557747E-04	4.26124903998E-02	5.91987652858E-02	4.15553885641E-02	5.95361354778E-02	2.24200416703E-01	-1.20697026309E-02
1.74550000000E+09	-1.89458868037E-01	1.93261646037E-03	4.38063494392E-02	5.82569021182E-02	4.27451408103E-02	5.86003575106E-02	2.22484692154E-01	-1.70185222716E-02
1.74600000000E+09	-1.91974987975E-01	4.23748390453E-03	4.49647171154E-02	5.72838027442E-02	4.39131717175E-02	5.76497484323E-02	2.20603800307E-01	-2.19213731333E-02
1.74650000000E+09	-1.94412657765E-01	6.66695850044E-03	4.60983176296E-02	5.62973989306E-02	4.50488863441E-02	5.66851078779E-02	2.18553363722E-01	-2.67659672050E-02
1.74700000000E+09	-1.96754653579E-01	9.20580212686E-03	4.72183923498E-02	5.52831495279E-02	4.61669651546E-02	5.57025403236E-02	2.16383128857E-01	-3.15402004938E-02
1.74750000000E+09	-1.99013188532E-01	1.18594453818E-02	4.83025454074E-02	5.42519807155E-02	4.72699075051E-02	5.46801729811E-02	2.14033062868E-01	-3.62841382923E-02
1.74800000000E+09	-2.01182379083E-01	1.46354046508E-02	4.93681548799E-02	5.32063860486E-02	4.83466773315E-02	5.36619719683E-02	2.11544758817E-01	-4.09111697601E-02
1.74850000000E+09	-2.03247700998E-01	1.75158943671E-02	5.04146284314E-02	5.21343666767E-02	4.94049317853E-02	5.26123223545E-02	2.08909510011E-01	-4.54989843656E-02
1.74900000000E+09	-2.05194159193E-01	2.04938262109E-02	5.14434624101E-02	5.10549287297E-02	5.04214040361E-02	5.15488764904E-02	2.06116211552E-01	-5.00201908335E-02
1.74950000000E+09	-2.07016188255E-01	2.35724520361E-02	5.24404160563E-02	4.99406943238E-02	5.14371677118E-02	5.04682930744E-02	2.03165317640E-01	-5.44221893060E-02
1.75000000000E+09	-2.08731889132E-01	2.67545715690E-02	5.34096384312E-02	4.88255792369E-02	5.24107464191E-02	4.93684399762E-02	2.00075604814E-01	-5.87740174675E-02
1.75050000000E+09	-2.10301629553E-01	3.00224054882E-02	5.43478857941E-02	4.76895720031E-02	5.33680409345E-02	4.82457101764E-02	1.96871223082E-01	-6.30050319524E-02
1.75100000000E+09	-2.11761083012E-01	3.33808669410E-02	5.52786028934E-02	4.65359628168E-02	5.43079403695E-02	4.71254514203E-02	1.93500325517E-01	-6.71540920249E-02
1.75150000000E+09	-2.13062734507E-01	3.68125727340E-02	5.61773449125E-02	4.53708066593E-02	5.52111777586E-02	4.59762393586E-02	1.90001861170E-01	-7.12036046725E-02
1.75200000000E+09	-2.14210960413E-01	4.03067096584E-02	5.70480369490E-02	4.41890843767E-02	5.60916811975E-02	4.48141671587E-02	1.86353071140E-01	-7.51529515411E-02
1.75250000000E+09	-2.15232006730E-01	4.38812148510E-02	5.79065261215E-02	4.29965673825E-02	5.69619503016E-02	4.36413590147E-02	1.82610958382E-01	-7.89817449938E-02
1.75300000000E+09	-2.16068343099E-01	4.74971011959E-02	5.87297937302E-02	4.17936620624E-02	5.77985335886E-02	4.24553685972E-02	1.78700816533E-01	-8.26944274476E-02
1.75350000000E+09	-2.16763511937E-01	5.11785641337E-02	5.95340744399E-02	4.05807013128E-02	5.86108088923E-02	4.12573318987E-02	1.74712111979E-01	-8.62918762234E-02
1.75400000000E+09	-2.17291674880E-01	5.48850340002E-02	6.03150757189E-02	3.93460203594E-02	5.94021186177E-02	4.00390231921E-02	1.70586207818E-01	-8.97702461173E-02
1.75450000000E+09	-2.17653160217E-01	5.86346103673E-02	6.10659435953E-02	3.80977539876E-02	6.01697192444E-02	3.88245652546E-02	1.66338655169E-01	-9.31213471609E-02
1.75500000000E+09	-2.17857225029E-01	6.24080635908E-02	6.18059830243E-02	3.68574086921E-02	6.09172382223E-02	3.76001872065E-02	1.61978164575E-01	-9.63366043352E-02
1.75550000000E+09	-2.17876971212E-01	6.61948715288E-02	6.25086138742E-02	3.55909724182E-02	6.16341354626E-02	3.63412488722E-02	1.57509943441E-01	-9.94124578476E-02
1.75600000000E+09	-2.17733660547E-01	6.99977722232E-02	6.31864637626E-02	3.43112087147E-02	6.23355495061E-02	3.50888225165E-02	1.52948686475E-01	-1.02370457985E-01
1.75650000000E+09	-2.17390849619E-01	7.37892956106E-02	6.38401050773E-02	3.30265137021E-02	6.30133026994E-02	3.38284999540E-02	1.48279609747E-01	-1.05161398678E-01
1.75700000000E+09	-2.16874309917E-01	7.75736495114E-02	6.44898260946E-02	3.17305399963E-02	6.36673683807E-02	3.25564170598E-02	1.43500609614E-01	-1.07822619335E-01
1.75750000000E+09	-2.16184226802E-01	8.13467064259E-02	6.50939677512E-02	3.04302557876E-02	6.42895773130E-02	3.12741490679E-02	1.38651753574E-01	-1.10350451681E-01
1.75800000000E+09	-2.15307920348E-01	8.50820621564E-02	6.56851180144E-02	2.91100136439E-02	6.48881496915E-02	2.99756192106E-02	1.33723891696E-01	-1.12705679732E-01
1.75850000000E+09	-2.14250286618E-01	8.87776504004E-02	6.62626901286E-02	2.77915205434E-02	6.54814789094E-02	2.86725198506E-02	1.28692685856E-01	-1.14912556656E-01
1.75900000000E+09	-2.13001054775E-01	9.24025698738E-02	6.68018284369E-02	2.64610906370E-02	6.60478616467E-02	2.73594225186E-02	1.23592621433E-01	-1.16962451644E-01
