# Hz S RI R 50
! CMT, CMT808U, 21440046, 21.4.3/4
! Date: 6/12/2026 9:37:54 AM
! Data: Format (Calibration Info)
! Freq	S11:Re/Im(F2)	S41:Re/Im(F2)	S14:Re/Im(F2)	S44:Re/Im(F2)
1.70000000000E+09	-1.09968038450E-01	1.03421332219E-01	-6.91964581348E-02	2.23536321382E-02	-6.91998764602E-02	2.12718865155E-02	-8.01803503326E-02	1.47816088752E-01
1.70050000000E+09	-1.07135864379E-01	1.03063998579E-01	-6.87289922422E-02	2.38231385753E-02	-6.87517284057E-02	2.27372039441E-02	-7.69710770436E-02	1.52085286805E-01
1.70100000000E+09	-1.04357828773E-01	1.02545687927E-01	-6.82240751330E-02	2.52770820912E-02	-6.82659377116E-02	2.41911358211E-02	-7.36346295156E-02	1.56230961043E-01
1.70150000000E+09	-1.01610601837E-01	1.01876240708E-01	-6.76811912488E-02	2.67265062845E-02	-6.77566386827E-02	2.56558112381E-02	-7.01564812241E-02	1.60278347379E-01
1.70200000000E+09	-9.89181611512E-02	1.01082231170E-01	-6.71145662856E-02	2.81733594044E-02	-6.71989857633E-02	2.70980540894E-02	-6.65556021738E-02	1.64192210162E-01
1.70250000000E+09	-9.63012929726E-02	1.00140428235E-01	-6.65140262955E-02	2.96021290783E-02	-6.66324968610E-02	2.85209203570E-02	-6.28431297596E-02	1.68021863704E-01
1.70300000000E+09	-9.37298425893E-02	9.90552478886E-02	-6.58771133447E-02	3.10221966616E-02	-6.60228341975E-02	2.99438662168E-02	-5.90162169553E-02	1.71745426144E-01
1.70350000000E+09	-9.12533669166E-02	9.78665761771E-02	-6.52198875467E-02	3.24361347129E-02	-6.53858583708E-02	3.13540804839E-02	-5.50817154991E-02	1.75342315934E-01
1.70400000000E+09	-8.88536034825E-02	9.65354909949E-02	-6.45235710454E-02	3.38271777363E-02	-6.47171413148E-02	3.27545635919E-02	-5.10377213053E-02	1.78803938878E-01
1.70450000000E+09	-8.65234079203E-02	9.51044884760E-02	-6.38033407101E-02	3.52080874711E-02	-6.40099922689E-02	3.41367472743E-02	-4.68515089378E-02	1.82161596908E-01
1.70500000000E+09	-8.42968513771E-02	9.35623142569E-02	-6.30513503151E-02	3.65729533242E-02	-6.32808971233E-02	3.55060559147E-02	-4.25974422472E-02	1.85391164051E-01
1.70550000000E+09	-8.21516502304E-02	9.19093423214E-02	-6.22593343025E-02	3.79261653105E-02	-6.25213952316E-02	3.68664824370E-02	-3.82517927287E-02	1.88459528807E-01
1.70600000000E+09	-8.01228314691E-02	9.01707848917E-02	-6.14488369937E-02	3.92622885217E-02	-6.17215599162E-02	3.81981257313E-02	-3.37946605219E-02	1.91415342221E-01
1.70650000000E+09	-7.81596934433E-02	8.83449320188E-02	-6.06055810542E-02	4.05871094725E-02	-6.08974496542E-02	3.95258623616E-02	-2.92580841328E-02	1.94247331635E-01
1.70700000000E+09	-7.63272418416E-02	8.64239503918E-02	-5.97213831030E-02	4.18831289196E-02	-6.00464323483E-02	4.08336674576E-02	-2.46292694872E-02	1.96929929362E-01
1.70750000000E+09	-7.45805532152E-02	8.44318047764E-02	-5.88075583905E-02	4.31575226521E-02	-5.91677752872E-02	4.21211814179E-02	-1.99474847391E-02	1.99469667342E-01
1.70800000000E+09	-7.29435011660E-02	8.23626237367E-02	-5.78809252286E-02	4.44291274953E-02	-5.82473949391E-02	4.33897880952E-02	-1.51459885084E-02	2.01849456354E-01
1.70850000000E+09	-7.14104523551E-02	8.02284761382E-02	-5.69139567536E-02	4.56750604866E-02	-5.73110255231E-02	4.46461506696E-02	-1.02894937620E-02	2.04114590249E-01
1.70900000000E+09	-6.99811339719E-02	7.80324357960E-02	-5.59292616640E-02	4.68967757327E-02	-5.63447687627E-02	4.58763699715E-02	-5.36689937589E-03	2.06234993704E-01
1.70950000000E+09	-6.86678183511E-02	7.57814643790E-02	-5.49029758500E-02	4.80953501523E-02	-5.53431303351E-02	4.70880908498E-02	-3.99684410820E-04	2.08174251553E-01
1.71000000000E+09	-6.74660512785E-02	7.34816043757E-02	-5.38594755024E-02	4.92792937646E-02	-5.43195426943E-02	4.82779581207E-02	4.64482859958E-03	2.10000717024E-01
1.71050000000E+09	-6.63688652641E-02	7.11383260870E-02	-5.27833371998E-02	5.04294784217E-02	-5.32725908286E-02	4.94250616671E-02	9.73143922775E-03	2.11645740423E-01
1.71100000000E+09	-6.53959866084E-02	6.87448671997E-02	-5.16834381139E-02	5.15683801846E-02	-5.21892636664E-02	5.05864459774E-02	1.48624046021E-02	2.13160559505E-01
1.71150000000E+09	-6.45116853852E-02	6.63272275143E-02	-5.05563306876E-02	5.26769650901E-02	-5.10953139923E-02	5.16966027528E-02	2.00510486931E-02	2.14505285839E-01
1.71200000000E+09	-6.37539648339E-02	6.38785064696E-02	-4.94135639725E-02	5.37586855448E-02	-4.99588661718E-02	5.28107844568E-02	2.52804385497E-02	2.15688466824E-01
1.71250000000E+09	-6.31159742099E-02	6.13996598613E-02	-4.82403183047E-02	5.48167091274E-02	-4.88096577800E-02	5.38683312826E-02	3.05314702441E-02	2.16733689914E-01
1.71300000000E+09	-6.25809198259E-02	5.89094520047E-02	-4.70330517089E-02	5.58543349682E-02	-4.76343320685E-02	5.49133355996E-02	3.58255799586E-02	2.17597210086E-01
1.71350000000E+09	-6.21612741351E-02	5.63890051712E-02	-4.58211649743E-02	5.68521334335E-02	-4.64307610296E-02	5.59319525898E-02	4.11340881624E-02	2.18338719363E-01
1.71400000000E+09	-6.18399350711E-02	5.38684874541E-02	-4.45649206799E-02	5.78344230979E-02	-4.52102511739E-02	5.69241607987E-02	4.64640160652E-02	2.18893422686E-01
1.71450000000E+09	-6.16555200860E-02	5.13389887085E-02	-4.33024089795E-02	5.87736891602E-02	-4.39705780997E-02	5.78778393301E-02	5.18367983336E-02	2.19290208300E-01
1.71500000000E+09	-6.15533004103E-02	4.88296496089E-02	-4.20063949580E-02	5.97013012703E-02	-4.26955871865E-02	5.88215513813E-02	5.71724221839E-02	2.19536701401E-01
1.71550000000E+09	-6.15591439118E-02	4.62932124520E-02	-4.07079782146E-02	6.05985899271E-02	-4.14039804463E-02	5.97320348790E-02	6.25350709749E-02	2.19618067618E-01
1.71600000000E+09	-6.16770710517E-02	4.37753571489E-02	-3.93765567549E-02	6.14558015563E-02	-4.00978095818E-02	6.06035803872E-02	6.79189405715E-02	2.19539519508E-01
1.71650000000E+09	-6.19078379675E-02	4.12887966236E-02	-3.80211645951E-02	6.22809755481E-02	-3.87582749948E-02	6.14591479081E-02	7.32934011892E-02	2.19294584767E-01
1.71700000000E+09	-6.22129298576E-02	3.87994494615E-02	-3.66651095087E-02	6.30948197429E-02	-3.74239915496E-02	6.22765400110E-02	7.86434734977E-02	2.18905859622E-01
1.71750000000E+09	-6.26416110201E-02	3.63166391095E-02	-3.52792752222E-02	6.38584672886E-02	-3.60472741337E-02	6.30585176097E-02	8.39751137670E-02	2.18326934827E-01
1.71800000000E+09	-6.31620611420E-02	3.38606810437E-02	-3.38830372218E-02	6.46039193712E-02	-3.46688457985E-02	6.38170701900E-02	8.93039874004E-02	2.17602921156E-01
1.71850000000E+09	-6.37805663756E-02	3.14358897799E-02	-3.24623518353E-02	6.53151951704E-02	-3.32776255267E-02	6.45452834298E-02	9.46138743363E-02	2.16742171156E-01
1.71900000000E+09	-6.44841910358E-02	2.90382748919E-02	-3.10388809352E-02	6.59862058924E-02	-3.18577729888E-02	6.52414458326E-02	9.98802037671E-02	2.15708037554E-01
1.71950000000E+09	-6.52958241041E-02	2.66703818993E-02	-2.95879958979E-02	6.66263249600E-02	-3.04264104574E-02	6.58944334388E-02	1.05120145652E-01	2.14506275391E-01
1.72000000000E+09	-6.61876629532E-02	2.43181060001E-02	-2.81308437106E-02	6.72395440529E-02	-2.89942801463E-02	6.65268826579E-02	1.10338918753E-01	2.13161217471E-01
1.72050000000E+09	-6.71996765589E-02	2.20188573342E-02	-2.66525526972E-02	6.78164274217E-02	-2.75230080581E-02	6.71264859320E-02	1.15491364047E-01	2.11674056436E-01
1.72100000000E+09	-6.82628408389E-02	1.97481599577E-02	-2.51666288880E-02	6.83542637565E-02	-2.60575685853E-02	6.76841062081E-02	1.20622499098E-01	2.10017198031E-01
1.72150000000E+09	-6.94278161015E-02	1.75318193345E-02	-2.36777397721E-02	6.88726254387E-02	-2.45770852695E-02	6.82202739886E-02	1.25695274022E-01	2.08213212258E-01
1.72200000000E+09	-7.06775235571E-02	1.53365262985E-02	-2.21691136070E-02	6.93401301632E-02	-2.30817894903E-02	6.87124663429E-02	1.30721651062E-01	2.06243841881E-01
1.72250000000E+09	-7.20017394036E-02	1.31942201739E-02	-2.06561561131E-02	6.97827246250E-02	-2.15743109644E-02	6.91724201400E-02	1.35683759775E-01	2.04119962146E-01
1.72300000000E+09	-7.34171962197E-02	1.11064186185E-02	-1.91301406277E-02	7.01945201763E-02	-2.00701877354E-02	6.96005395225E-02	1.40581477961E-01	2.01875811507E-01
1.72350000000E+09	-7.49109985353E-02	9.05722869570E-03	-1.75973472730E-02	7.05745458639E-02	-1.85488063289E-02	6.99974130029E-02	1.45392058905E-01	1.99483115024E-01
1.72400000000E+09	-7.64937607987E-02	7.06488773812E-03	-1.60571093761E-02	7.09079009979E-02	-1.70246331044E-02	7.03596507440E-02	1.50154576085E-01	1.96934545315E-01
1.72450000000E+09	-7.81440479502E-02	5.11078217066E-03	-1.45154390223E-02	7.12109888246E-02	-1.54873672153E-02	7.06809661054E-02	1.54823451636E-01	1.94250153949E-01
1.72500000000E+09	-7.98814946397E-02	3.23669137993E-03	-1.29651064963E-02	7.14819583761E-02	-1.39571009252E-02	7.09818436309E-02	1.59413586535E-01	1.91421453128E-01
1.72550000000E+09	-8.16785875875E-02	1.40170107980E-03	-1.14143871074E-02	7.17174497392E-02	-1.24054344071E-02	7.12303201085E-02	1.63909755552E-01	1.88466543223E-01
1.72600000000E+09	-8.35442943552E-02	-3.73506874804E-04	-9.85329304573E-03	7.19153483227E-02	-1.08609732126E-02	7.14499898036E-02	1.68363696231E-01	1.85370998721E-01
1.72650000000E+09	-8.54988159548E-02	-2.07139286477E-03	-8.29563266167E-03	7.20687959189E-02	-9.30603773207E-03	7.16441727297E-02	1.72691541872E-01	1.82143516288E-01
1.72700000000E+09	-8.75230582259E-02	-3.72637864234E-03	-6.72654942087E-03	7.22116374418E-02	-7.75000448644E-03	7.17897050913E-02	1.76949282392E-01	1.78798986956E-01
1.72750000000E+09	-8.95947492494E-02	-5.30408751725E-03	-5.16350772643E-03	7.23075616482E-02	-6.18695686377E-03	7.19193213264E-02	1.81074185196E-01	1.75287898638E-01
1.72800000000E+09	-9.17624542292E-02	-6.81643479332E-03	-3.59770254039E-03	7.23658324834E-02	-4.63841422782E-03	7.19869680019E-02	1.85108825775E-01	1.71676020171E-01
1.72850000000E+09	-9.39766683958E-02	-8.26153629139E-03	-2.02833366356E-03	7.23907055381E-02	-3.07562724385E-03	7.20458498884E-02	1.89022955807E-01	1.67948021408E-01
1.72900000000E+09	-9.62717083974E-02	-9.62637866818E-03	-4.62058637750E-04	7.23744483706E-02	-1.52037543977E-03	7.20558587143E-02	1.92858452129E-01	1.64100138413E-01
1.72950000000E+09	-9.86032110826E-02	-1.09108120916E-02	1.09593307870E-03	7.23356714514E-02	3.89040287486E-05	7.20264901298E-02	1.96539383027E-01	1.60136362443E-01
1.73000000000E+09	-1.01026028107E-01	-1.21233928393E-02	2.65534079690E-03	7.22661316959E-02	1.59300603515E-03	7.19729459097E-02	2.00120026219E-01	1.56062654495E-01
1.73050000000E+09	-1.03488185397E-01	-1.32698985639E-02	4.20773089560E-03	7.21449450577E-02	3.13661907975E-03	7.18821798300E-02	2.03588685801E-01	1.51871702770E-01
1.73100000000E+09	-1.06014034932E-01	-1.43013173313E-02	5.75653762631E-03	7.19901828881E-02	4.68966014298E-03	7.17504355997E-02	2.06918194826E-01	1.47576189996E-01
1.73150000000E+09	-1.08596015661E-01	-1.52836343927E-02	7.30756008449E-03	7.18099931952E-02	6.22715550522E-03	7.15987729866E-02	2.10125037650E-01	1.43203308011E-01
1.73200000000E+09	-1.11223300574E-01	-1.61485933041E-02	8.84019326327E-03	7.15996130621E-02	7.77228077340E-03	7.14143055630E-02	2.13202561620E-01	1.38712989565E-01
1.73250000000E+09	-1.13914247293E-01	-1.69329899908E-02	1.03777399737E-02	7.13502666841E-02	9.28987156666E-03	7.11795805509E-02	2.16134909151E-01	1.34133048477E-01
1.73300000000E+09	-1.16641320314E-01	-1.76268949348E-02	1.18965531317E-02	7.10620597385E-02	1.08096360260E-02	7.09182086342E-02	2.18941816739E-01	1.29472265566E-01
1.73350000000E+09	-1.19399075151E-01	-1.82174426112E-02	1.34204713729E-02	7.07470221083E-02	1.23290714955E-02	7.06242888541E-02	2.21597671422E-01	1.24712556150E-01
1.73400000000E+09	-1.22238037326E-01	-1.87213973849E-02	1.49212399319E-02	7.03953453674E-02	1.38385407227E-02	7.02986149193E-02	2.24133952849E-01	1.19881156053E-01
1.73450000000E+09	-1.25082489683E-01	-1.91340895899E-02	1.64217526416E-02	7.00165496520E-02	1.53323752995E-02	6.99348260568E-02	2.26491739986E-01	1.14944723278E-01
1.73500000000E+09	-1.27970577378E-01	-1.94151157312E-02	1.79103533506E-02	6.95923926579E-02	1.68172693401E-02	6.95449787621E-02	2.28724215660E-01	1.09943945268E-01
1.73550000000E+09	-1.30902891120E-01	-1.96012538581E-02	1.93894561444E-02	6.91535976272E-02	1.82867862868E-02	6.91235846355E-02	2.30812671649E-01	1.04891424063E-01
1.73600000000E+09	-1.33857804827E-01	-1.96696572702E-02	2.08435737335E-02	6.86713441241E-02	1.97560077441E-02	6.86602425859E-02	2.32718286870E-01	9.97690235176E-02
1.73650000000E+09	-1.36826252721E-01	-1.96327720035E-02	2.22917303472E-02	6.81608563640E-02	2.11994304254E-02	6.81851090165E-02	2.34494981229E-01	9.45795188684E-02
1.73700000000E+09	-1.39830761825E-01	-1.94823897963E-02	2.37256815330E-02	6.76296765418E-02	2.26358594639E-02	6.76577359582E-02	2.36092411262E-01	8.93563845207E-02
1.73750000000E+09	-1.42842719013E-01	-1.92353074479E-02	2.51456856500E-02	6.70545684439E-02	2.40589542624E-02	6.71158972128E-02	2.37553351602E-01	8.40539854462E-02
1.73800000000E+09	-1.45853174248E-01	-1.88563878627E-02	2.65499759247E-02	6.64589873597E-02	2.54597313451E-02	6.65359370904E-02	2.38818967370E-01	7.87261594815E-02
1.73850000000E+09	-1.48909250775E-01	-1.83569364375E-02	2.79477453322E-02	6.58240756612E-02	2.68572659182E-02	6.59199182923E-02	2.39967741292E-01	7.33182697842E-02
1.73900000000E+09	-1.51934934748E-01	-1.77429829031E-02	2.93277423077E-02	6.51609731120E-02	2.82468139259E-02	6.52913187648E-02	2.40938169937E-01	6.79135952544E-02
1.73950000000E+09	-1.54971064592E-01	-1.70113804961E-02	3.06819733775E-02	6.44786659370E-02	2.95914384592E-02	6.46182508009E-02	2.41729476437E-01	6.24592771622E-02
1.74000000000E+09	-1.58007707214E-01	-1.61499483441E-02	3.20022066281E-02	6.37529853003E-02	3.09400980553E-02	6.39235582955E-02	2.42362734614E-01	5.69889103582E-02
1.74050000000E+09	-1.61013919352E-01	-1.51621620306E-02	3.33472652121E-02	6.30111396661E-02	3.22615827456E-02	6.31982830754E-02	2.42824795281E-01	5.14820683708E-02
1.74100000000E+09	-1.64038137073E-01	-1.40559502722E-02	3.46363928121E-02	6.22419930179E-02	3.35658345416E-02	6.24520715647E-02	2.43138537700E-01	4.59617464881E-02
1.74150000000E+09	-1.67021781776E-01	-1.28297099312E-02	3.59319007239E-02	6.14486553172E-02	3.48496218978E-02	6.16742331813E-02	2.43269482524E-01	4.04318522023E-02
1.74200000000E+09	-1.69966576950E-01	-1.14672083603E-02	3.71861094500E-02	6.06139478556E-02	3.61229931163E-02	6.08783354497E-02	2.43211876123E-01	3.48835907381E-02
1.74250000000E+09	-1.72911432423E-01	-9.98538124513E-03	3.84329452183E-02	5.97653857466E-02	3.73654358943E-02	6.00450201622E-02	2.43005381595E-01	2.93480894279E-02
1.74300000000E+09	-1.75805872493E-01	-8.37876330015E-03	3.96570656294E-02	5.88971097050E-02	3.85857987315E-02	5.91896637863E-02	2.42614621821E-01	2.37918957044E-02
1.74350000000E+09	-1.78657004626E-01	-6.65251584585E-03	4.08413081178E-02	5.79954347329E-02	3.97965469964E-02	5.83095921127E-02	2.42068678090E-01	1.82633922833E-02
1.74400000000E+09	-1.81435971441E-01	-4.78353124834E-03	4.20212363206E-02	5.70792434895E-02	4.09767893118E-02	5.74200675948E-02	2.41329945727E-01	1.27530437426E-02
1.74450000000E+09	-1.84195960307E-01	-2.79507665567E-03	4.31784224922E-02	5.61305321568E-02	4.21345491614E-02	5.64874279619E-02	2.40425655511E-01	7.24089742949E-03
1.74500000000E+09	-1.86895964079E-01	-6.95141398741E-04	4.43104927548E-02	5.51634026385E-02	4.32762383737E-02	5.55505757962E-02	2.39361901663E-01	1.75913310108E-03
1.74550000000E+09	-1.89506196315E-01	1.54230676500E-03	4.54235656824E-02	5.41805720398E-02	4.43855500413E-02	5.45853034865E-02	2.38124524368E-01	-3.67788123441E-03
1.74600000000E+09	-1.92070123675E-01	3.89671280502E-03	4.64969331327E-02	5.31780006084E-02	4.54794948317E-02	5.35883580932E-02	2.36713249148E-01	-9.09316576854E-03
1.74650000000E+09	-1.94535408623E-01	6.38105593567E-03	4.75642806007E-02	5.21486434809E-02	4.65424040737E-02	5.25949473654E-02	2.35120167265E-01	-1.44659325467E-02
1.74700000000E+09	-1.96927531607E-01	8.96392980439E-03	4.86068443143E-02	5.11002001509E-02	4.75897739780E-02	5.15660907132E-02	2.33380121687E-01	-1.97937357262E-02
1.74750000000E+09	-1.99227711216E-01	1.16878296567E-02	4.96196351017E-02	5.00333348826E-02	4.86171253757E-02	5.05178412180E-02	2.31465360112E-01	-2.50842673482E-02
1.74800000000E+09	-2.01429294239E-01	1.45099897821E-02	5.06065616009E-02	4.89531718850E-02	4.96172467475E-02	4.94502749159E-02	2.29398596834E-01	-3.03128264917E-02
1.74850000000E+09	-2.03537515137E-01	1.74418921171E-02	5.15608804205E-02	4.78442381368E-02	5.05846494664E-02	4.83744980523E-02	2.27151020429E-01	-3.54727406532E-02
1.74900000000E+09	-2.05514705918E-01	2.04819628319E-02	5.24957280913E-02	4.67335623399E-02	5.15314145324E-02	4.72815110137E-02	2.24740176401E-01	-4.05920428631E-02
1.74950000000E+09	-2.07390877099E-01	2.36372190504E-02	5.34110606980E-02	4.56045169925E-02	5.24452752565E-02	4.61696266672E-02	2.22149190010E-01	-4.56059739798E-02
1.75000000000E+09	-2.09133527787E-01	2.68839956435E-02	5.43014687420E-02	4.44546961048E-02	5.33428521480E-02	4.50328881873E-02	2.19420456990E-01	-5.05708795812E-02
1.75050000000E+09	-2.10741155941E-01	3.02252067423E-02	5.51674545943E-02	4.32918553264E-02	5.42231439883E-02	4.38891050934E-02	2.16531101483E-01	-5.54228337289E-02
1.75100000000E+09	-2.12214045988E-01	3.36551936395E-02	5.59927749218E-02	4.21118577354E-02	5.50639001042E-02	4.27457336147E-02	2.13486857373E-01	-6.02079558045E-02
1.75150000000E+09	-2.13547557480E-01	3.71387246841E-02	5.68128049135E-02	4.09270305041E-02	5.58858912916E-02	4.15771066143E-02	2.10293839260E-01	-6.49097316820E-02
1.75200000000E+09	-2.14740500903E-01	4.07284806610E-02	5.75994307293E-02	3.97252053884E-02	5.66843489758E-02	4.03954529725E-02	2.06931464846E-01	-6.95087696000E-02
1.75250000000E+09	-2.15770177153E-01	4.43700737377E-02	5.83600964112E-02	3.85198058131E-02	5.74556361768E-02	3.92071376532E-02	2.03449265153E-01	-7.39949782605E-02
1.75300000000E+09	-2.16635626512E-01	4.80809232873E-02	5.90897825153E-02	3.72877443696E-02	5.82071808062E-02	3.79972322109E-02	1.99797370242E-01	-7.83929190978E-02
1.75350000000E+09	-2.17359794824E-01	5.18363119727E-02	5.98043014788E-02	3.60588530332E-02	5.89398763203E-02	3.67847102241E-02	1.96023558985E-01	-8.26745543679E-02
1.75400000000E+09	-2.17888825694E-01	5.56380594987E-02	6.04950429660E-02	3.47973993188E-02	5.96278617891E-02	3.55590665591E-02	1.92107056380E-01	-8.68445762988E-02
1.75450000000E+09	-2.18283960456E-01	5.94711731383E-02	6.11560717635E-02	3.35610979502E-02	6.03106587898E-02	3.43214945445E-02	1.88043026035E-01	-9.08749987416E-02
1.75500000000E+09	-2.18472090992E-01	6.33499921647E-02	6.17884524530E-02	3.22845243972E-02	6.09589687846E-02	3.30745087451E-02	1.83838461554E-01	-9.47978767660E-02
1.75550000000E+09	-2.18514072279E-01	6.72321445136E-02	6.24020714928E-02	3.10196392947E-02	6.15957416670E-02	3.18241293964E-02	1.79546165293E-01	-9.85777208081E-02
1.75600000000E+09	-2.18358658456E-01	7.11481217237E-02	6.29874036192E-02	2.97388101960E-02	6.21908528361E-02	3.05596116550E-02	1.75100110362E-01	-1.02235217125E-01
1.75650000000E+09	-2.18021759815E-01	7.50514843815E-02	6.35595189245E-02	2.84388142094E-02	6.27776115425E-02	2.92898503851E-02	1.70534052924E-01	-1.05760307367E-01
1.75700000000E+09	-2.17498059962E-01	7.89469883579E-02	6.40993900740E-02	2.71460216279E-02	6.33347039566E-02	2.80083680590E-02	1.65853732178E-01	-1.09132320289E-01
1.75750000000E+09	-2.16791704634E-01	8.28400210539E-02	6.46157730642E-02	2.58431977289E-02	6.38594406524E-02	2.67265091453E-02	1.61074841595E-01	-1.12371486311E-01
1.75800000000E+09	-2.15882612163E-01	8.66778850454E-02	6.50938823154E-02	2.45244531303E-02	6.43763918241E-02	2.54352808384E-02	1.56184975628E-01	-1.15450966013E-01
1.75850000000E+09	-2.14787620410E-01	9.04904613393E-02	6.55760863687E-02	2.32208805313E-02	6.48628885293E-02	2.41296891987E-02	1.51184122726E-01	-1.18375762187E-01
1.75900000000E+09	-2.13512833891E-01	9.42197118014E-02	6.60189092603E-02	2.18932455896E-02	6.53233128811E-02	2.28234018856E-02	1.46109833942E-01	-1.21145276325E-01
