# Hz S RI R 50
! CMT, CMT808U, 21440046, 21.4.3/4
! Date: 6/12/2026 9:24:27 AM
! Data: Format (Calibration Info)
! Freq	S11:Re/Im(F2)	S41:Re/Im(F2)	S14:Re/Im(F2)	S44:Re/Im(F2)
1.70000000000E+09	-1.14883600436E-01	1.00655750946E-01	-7.12965756045E-02	2.93537742811E-02	-7.13962173226E-02	2.82490414239E-02	-3.24573170928E-02	1.71179807758E-01
1.70050000000E+09	-1.12146091096E-01	1.00500685591E-01	-7.06625670003E-02	3.08551768900E-02	-7.07739779960E-02	2.97520293218E-02	-2.87333176665E-02	1.74882564463E-01
1.70100000000E+09	-1.09444669409E-01	1.00202594547E-01	-6.99865131689E-02	3.23447175170E-02	-7.01200135048E-02	3.12333698335E-02	-2.48672985519E-02	1.78450405316E-01
1.70150000000E+09	-1.06765948654E-01	9.97563752850E-02	-6.92756491810E-02	3.38131056321E-02	-6.94366529469E-02	3.27226632878E-02	-2.08958774405E-02	1.81909494972E-01
1.70200000000E+09	-1.04127953066E-01	9.91856341260E-02	-6.85459455241E-02	3.52811808429E-02	-6.87242726685E-02	3.41824342360E-02	-1.68203462007E-02	1.85221568428E-01
1.70250000000E+09	-1.01529237392E-01	9.84730091991E-02	-6.77731106975E-02	3.67327872061E-02	-6.79780783215E-02	3.56381383029E-02	-1.26557925929E-02	1.88438595040E-01
1.70300000000E+09	-9.90037492511E-02	9.76001937545E-02	-6.69816342848E-02	3.81621175356E-02	-6.72064336028E-02	3.70695484524E-02	-8.40024778463E-03	1.91515963905E-01
1.70350000000E+09	-9.65336995659E-02	9.66338592659E-02	-6.61415174832E-02	3.95763696539E-02	-6.64050802010E-02	3.84943683978E-02	-4.03288786729E-03	1.94449069002E-01
1.70400000000E+09	-9.41393465833E-02	9.55164950860E-02	-6.52973161891E-02	4.09686858746E-02	-6.55623214595E-02	3.98880284912E-02	4.00849514331E-04	1.97251622452E-01
1.70450000000E+09	-9.17976336983E-02	9.42892228798E-02	-6.44062350257E-02	4.23549313706E-02	-6.47088106880E-02	4.12730680709E-02	4.93042390409E-03	1.99934831772E-01
1.70500000000E+09	-8.95612622204E-02	9.29714761354E-02	-6.34899057470E-02	4.37099169685E-02	-6.37970576354E-02	4.26471009501E-02	9.53633924153E-03	2.02446916769E-01
1.70550000000E+09	-8.73809172946E-02	9.15259068464E-02	-6.25342481016E-02	4.50580388597E-02	-6.28743376705E-02	4.39926132709E-02	1.41867583478E-02	2.04842063512E-01
1.70600000000E+09	-8.52960354940E-02	8.99758825844E-02	-6.15598699522E-02	4.63828917480E-02	-6.19215622640E-02	4.53179276046E-02	1.89462903461E-02	2.07075528799E-01
1.70650000000E+09	-8.32860390906E-02	8.83499930538E-02	-6.05535638043E-02	4.76824631204E-02	-6.09407999865E-02	4.66326837524E-02	2.37718802409E-02	2.09169888224E-01
1.70700000000E+09	-8.13813201038E-02	8.66128966741E-02	-5.95207843205E-02	4.89652518767E-02	-5.99247613979E-02	4.79200141541E-02	2.86550485488E-02	2.11134737078E-01
1.70750000000E+09	-7.95706601960E-02	8.48056921140E-02	-5.84517616526E-02	5.02257163543E-02	-5.88953845972E-02	4.91848075449E-02	3.35582314435E-02	2.12920756952E-01
1.70800000000E+09	-7.78557513593E-02	8.29113666960E-02	-5.73664027146E-02	5.14634725088E-02	-5.78172500218E-02	5.04349148168E-02	3.85505694520E-02	2.14575016151E-01
1.70850000000E+09	-7.62392735846E-02	8.09405766723E-02	-5.62463924999E-02	5.26773480603E-02	-5.67326239408E-02	5.16531659885E-02	4.35877894493E-02	2.16070714929E-01
1.70900000000E+09	-7.47247900369E-02	7.89014585699E-02	-5.51067996122E-02	5.38563090847E-02	-5.56109910706E-02	5.28521444991E-02	4.86382154620E-02	2.17424934976E-01
1.70950000000E+09	-7.33069186495E-02	7.68084215526E-02	-5.39378194674E-02	5.50236664991E-02	-5.44630421468E-02	5.40368527228E-02	5.37287460239E-02	2.18597322932E-01
1.71000000000E+09	-7.20028324094E-02	7.46539056835E-02	-5.27464712021E-02	5.61723737702E-02	-5.32893676734E-02	5.51907749116E-02	5.88765050457E-02	2.19655206281E-01
1.71050000000E+09	-7.08078142877E-02	7.24460592478E-02	-5.15224430723E-02	5.72756141948E-02	-5.20933715446E-02	5.63012852252E-02	6.40213280040E-02	2.20520941260E-01
1.71100000000E+09	-6.97172865942E-02	7.01826913048E-02	-5.02733043628E-02	5.83633102180E-02	-5.08708472812E-02	5.74132591992E-02	6.92187835444E-02	2.21268737705E-01
1.71150000000E+09	-6.87241295934E-02	6.78922214211E-02	-4.90140730039E-02	5.94342480394E-02	-4.96240098793E-02	5.84853840124E-02	7.44169717242E-02	2.21834191478E-01
1.71200000000E+09	-6.78515597923E-02	6.55677044636E-02	-4.77199468835E-02	6.04516845449E-02	-4.83500808603E-02	5.95323872687E-02	7.96336728740E-02	2.22244916937E-01
1.71250000000E+09	-6.70845239133E-02	6.31962530804E-02	-4.63965482274E-02	6.14599579253E-02	-4.70616321536E-02	6.05420851963E-02	8.48291829731E-02	2.22527747298E-01
1.71300000000E+09	-6.64298907422E-02	6.08048409440E-02	-4.50648795158E-02	6.24416495278E-02	-4.57432668029E-02	6.15187850045E-02	9.00540611425E-02	2.22610471774E-01
1.71350000000E+09	-6.58759884318E-02	5.83785925259E-02	-4.37175680366E-02	6.33835094679E-02	-4.44111770127E-02	6.24992265838E-02	9.52840403960E-02	2.22576402384E-01
1.71400000000E+09	-6.54358093422E-02	5.59597422527E-02	-4.23371101280E-02	6.43008526473E-02	-4.30578144446E-02	6.34271080741E-02	1.00494837660E-01	2.22365000709E-01
1.71450000000E+09	-6.51169705905E-02	5.35149008987E-02	-4.09340061082E-02	6.51901241408E-02	-4.16766737844E-02	6.43308751347E-02	1.05706692698E-01	2.21995097452E-01
1.71500000000E+09	-6.48838827315E-02	5.10658023623E-02	-3.95255437154E-02	6.60457282386E-02	-4.02702065833E-02	6.52041427078E-02	1.10894234704E-01	2.21483894435E-01
1.71550000000E+09	-6.47519928440E-02	4.86168516043E-02	-3.80808662706E-02	6.68619856581E-02	-3.88699844266E-02	6.60296493861E-02	1.16050157427E-01	2.20814727480E-01
1.71600000000E+09	-6.47396371105E-02	4.61548434310E-02	-3.66379057030E-02	6.76504149011E-02	-3.74311041556E-02	6.68341824111E-02	1.21195833245E-01	2.19986031827E-01
1.71650000000E+09	-6.48373279338E-02	4.37258450984E-02	-3.51607521465E-02	6.84111990121E-02	-3.59741397387E-02	6.76203991096E-02	1.26318901942E-01	2.19001057369E-01
1.71700000000E+09	-6.50198151708E-02	4.12788204900E-02	-3.36712416455E-02	6.91384862218E-02	-3.45083684025E-02	6.83655482906E-02	1.31382704930E-01	2.17883767795E-01
1.71750000000E+09	-6.53037049353E-02	3.88506118195E-02	-3.21747370182E-02	6.98323434641E-02	-3.30270782830E-02	6.90757536064E-02	1.36422305182E-01	2.16603884636E-01
1.71800000000E+09	-6.56867757648E-02	3.64370700516E-02	-3.06684407059E-02	7.04970948567E-02	-3.15216595159E-02	6.97492946082E-02	1.41412101399E-01	2.15189660182E-01
1.71850000000E+09	-6.61809133134E-02	3.40405063574E-02	-2.91377595235E-02	7.11176745938E-02	-3.00106153294E-02	7.03997859506E-02	1.46377958687E-01	2.13604277366E-01
1.71900000000E+09	-6.67621137822E-02	3.16844580537E-02	-2.75897997720E-02	7.17179747188E-02	-2.84886675203E-02	7.10112943184E-02	1.51274467686E-01	2.11907006989E-01
1.71950000000E+09	-6.74295573759E-02	2.93302161691E-02	-2.60464236874E-02	7.22752279738E-02	-2.69454057296E-02	7.15938530911E-02	1.56113865522E-01	2.10032662546E-01
1.72000000000E+09	-6.81977076740E-02	2.69997426582E-02	-2.44735875342E-02	7.28031645877E-02	-2.54054025526E-02	7.21375798948E-02	1.60888142658E-01	2.08034586318E-01
1.72050000000E+09	-6.90710647622E-02	2.47158093271E-02	-2.29057319473E-02	7.32881264503E-02	-2.38370348425E-02	7.26469584418E-02	1.65606856574E-01	2.05907495551E-01
1.72100000000E+09	-6.99963057679E-02	2.24464121286E-02	-2.13132884427E-02	7.37411068671E-02	-2.22604482565E-02	7.31086949012E-02	1.70250629507E-01	2.03622084990E-01
1.72150000000E+09	-7.10405495316E-02	2.02391614680E-02	-1.97213901328E-02	7.41609888442E-02	-2.06849518515E-02	7.35662269171E-02	1.74830403608E-01	2.01212213228E-01
1.72200000000E+09	-7.21609563894E-02	1.80561457191E-02	-1.81236129429E-02	7.45506766804E-02	-1.90890157281E-02	7.39585609540E-02	1.79336505613E-01	1.98659957698E-01
1.72250000000E+09	-7.33610771739E-02	1.59048805515E-02	-1.65137861314E-02	7.48895160394E-02	-1.75011795468E-02	7.43419663949E-02	1.83778122964E-01	1.95968020370E-01
1.72300000000E+09	-7.46466244278E-02	1.38044181292E-02	-1.49006500953E-02	7.52130252130E-02	-1.58975424987E-02	7.46732471191E-02	1.88097907645E-01	1.93151851859E-01
1.72350000000E+09	-7.60213221831E-02	1.17430420751E-02	-1.32797260982E-02	7.54809242478E-02	-1.42929967409E-02	7.49802781357E-02	1.92347352779E-01	1.90221443789E-01
1.72400000000E+09	-7.74861281229E-02	9.74165890805E-03	-1.16546296289E-02	7.57266655575E-02	-1.26609805664E-02	7.52379450123E-02	1.96513069840E-01	1.87158579568E-01
1.72450000000E+09	-7.90091513969E-02	7.77765544142E-03	-1.00249078044E-02	7.59357661787E-02	-1.10483335870E-02	7.54681310437E-02	2.00569116549E-01	1.83995063164E-01
1.72500000000E+09	-8.06127700804E-02	5.86837822641E-03	-8.38590345875E-03	7.61080128830E-02	-9.42363789719E-03	7.56660620408E-02	2.04528372550E-01	1.80692795594E-01
1.72550000000E+09	-8.22917079340E-02	4.01680726025E-03	-6.75890223213E-03	7.62471329571E-02	-7.79231058424E-03	7.58291810435E-02	2.08385087455E-01	1.77282509127E-01
1.72600000000E+09	-8.40573931252E-02	2.20761123484E-03	-5.11630395521E-03	7.63441025483E-02	-6.17232392757E-03	7.59544730308E-02	2.12149112289E-01	1.73767474444E-01
1.72650000000E+09	-8.58795087294E-02	4.64757488167E-04	-3.46758158175E-03	7.64161695267E-02	-4.54115956540E-03	7.60347413699E-02	2.15796625124E-01	1.70129750037E-01
1.72700000000E+09	-8.77844188476E-02	-1.22159368614E-03	-1.83688497261E-03	7.64483835549E-02	-2.90760154139E-03	7.60858096198E-02	2.19349506673E-01	1.66408205681E-01
1.72750000000E+09	-8.97500439998E-02	-2.85256182782E-03	-2.06373093809E-04	7.64350960021E-02	-1.27619426768E-03	7.61043120986E-02	2.22775700031E-01	1.62566768479E-01
1.72800000000E+09	-9.17977631560E-02	-4.40741512009E-03	1.43732927212E-03	7.64059453024E-02	3.52688706121E-04	7.60872145495E-02	2.26085405566E-01	1.58618020105E-01
1.72850000000E+09	-9.38982465221E-02	-5.90401689725E-03	3.06077965263E-03	7.63212689119E-02	1.98127669991E-03	7.60319484440E-02	2.29244140447E-01	1.54588792796E-01
1.72900000000E+09	-9.60914503142E-02	-7.32436043230E-03	4.70514333471E-03	7.61995871683E-02	3.60991814930E-03	7.59450478007E-02	2.32343613767E-01	1.50440996305E-01
1.72950000000E+09	-9.83238891042E-02	-8.66948450454E-03	6.32739057425E-03	7.60636426411E-02	5.22628651247E-03	7.58197857265E-02	2.35247869768E-01	1.46238004496E-01
1.73000000000E+09	-1.00627815769E-01	-9.94766861661E-03	7.94943196807E-03	7.58831827569E-02	6.84812732650E-03	7.56539956812E-02	2.38058070195E-01	1.41945613269E-01
1.73050000000E+09	-1.02989278640E-01	-1.11608928510E-02	9.57030268915E-03	7.56644157568E-02	8.46819534008E-03	7.54601053639E-02	2.40749431878E-01	1.37557205606E-01
1.73100000000E+09	-1.05401926879E-01	-1.22737726485E-02	1.11732157204E-02	7.53967035895E-02	1.00816450142E-02	7.52310796719E-02	2.43285480105E-01	1.33081869803E-01
1.73150000000E+09	-1.07903241241E-01	-1.33119210427E-02	1.27868553166E-02	7.51223820823E-02	1.16802719464E-02	7.49776182364E-02	2.45701156929E-01	1.28581568628E-01
1.73200000000E+09	-1.10437504413E-01	-1.42593334049E-02	1.43794547409E-02	7.47958750734E-02	1.32680907345E-02	7.46654012519E-02	2.47966221668E-01	1.23985848772E-01
1.73250000000E+09	-1.13014367515E-01	-1.51305821171E-02	1.59737664084E-02	7.44424833728E-02	1.48516128232E-02	7.43360494342E-02	2.50102271889E-01	1.19294759567E-01
1.73300000000E+09	-1.15661364731E-01	-1.59030031531E-02	1.75555874071E-02	7.40447785796E-02	1.64385726082E-02	7.39650162847E-02	2.52087263976E-01	1.14569622857E-01
1.73350000000E+09	-1.18342077120E-01	-1.65884428586E-02	1.91270860497E-02	7.36221258757E-02	1.80023489649E-02	7.35685102734E-02	2.53931523593E-01	1.09785777945E-01
1.73400000000E+09	-1.21083318998E-01	-1.71899042434E-02	2.06715580507E-02	7.31609752869E-02	1.95579724191E-02	7.31346426423E-02	2.55613208750E-01	1.04993261132E-01
1.73450000000E+09	-1.23849075179E-01	-1.76793553595E-02	2.22218321510E-02	7.26734421475E-02	2.11083605301E-02	7.26624082186E-02	2.57186323048E-01	1.00064208479E-01
1.73500000000E+09	-1.26667843964E-01	-1.80580835114E-02	2.37609600312E-02	7.21479946557E-02	2.26455891244E-02	7.21655148862E-02	2.58581611534E-01	9.51377456972E-02
1.73550000000E+09	-1.29503492739E-01	-1.83488407168E-02	2.52799077847E-02	7.15823825195E-02	2.41593813437E-02	7.16246298279E-02	2.59830776031E-01	9.01581417513E-02
1.73600000000E+09	-1.32392362984E-01	-1.85320488200E-02	2.67808785559E-02	7.10111170606E-02	2.56660741313E-02	7.10573919784E-02	2.60920865379E-01	8.51588290753E-02
1.73650000000E+09	-1.35302684671E-01	-1.86018110435E-02	2.82891211579E-02	7.03777448356E-02	2.71638723532E-02	7.04604732124E-02	2.61884249169E-01	8.01147555086E-02
1.73700000000E+09	-1.38240100196E-01	-1.85657193695E-02	2.97486725673E-02	6.97213762157E-02	2.86461981916E-02	6.98292321152E-02	2.62651427429E-01	7.50646825027E-02
1.73750000000E+09	-1.41189795688E-01	-1.84271745470E-02	3.12213889790E-02	6.90431298880E-02	3.01101118039E-02	6.91619709820E-02	2.63305406675E-01	6.99764462556E-02
1.73800000000E+09	-1.44149100237E-01	-1.81640137514E-02	3.26679967288E-02	6.83200860513E-02	3.15613821709E-02	6.84758772976E-02	2.63769380335E-01	6.48802312799E-02
1.73850000000E+09	-1.47141167553E-01	-1.77851134140E-02	3.40859067817E-02	6.75758799519E-02	3.29885406258E-02	6.77397677105E-02	2.64104887192E-01	5.97492153630E-02
1.73900000000E+09	-1.50118362299E-01	-1.72985374187E-02	3.54937405806E-02	6.67950047750E-02	3.43928307707E-02	6.69854889580E-02	2.64263395166E-01	5.46292709892E-02
1.73950000000E+09	-1.53116583659E-01	-1.66860170818E-02	3.68881487871E-02	6.60041475665E-02	3.57881546753E-02	6.62124674605E-02	2.64273829931E-01	4.94953208944E-02
1.74000000000E+09	-1.56103142209E-01	-1.59515701796E-02	3.82572761472E-02	6.51507351521E-02	3.71624807636E-02	6.53962910646E-02	2.64123731165E-01	4.43812959222E-02
1.74050000000E+09	-1.59086490101E-01	-1.51027977398E-02	3.96026369018E-02	6.42942665370E-02	3.85154447845E-02	6.45490018774E-02	2.63816262656E-01	3.92595300123E-02
1.74100000000E+09	-1.62075657949E-01	-1.41140866523E-02	4.09435664848E-02	6.34055635484E-02	3.98534394787E-02	6.36894159238E-02	2.63354156406E-01	3.41578089975E-02
1.74150000000E+09	-1.65028859583E-01	-1.30145275889E-02	4.22457634583E-02	6.24948936023E-02	4.11679606412E-02	6.27911461465E-02	2.62755508076E-01	2.90438402636E-02
1.74200000000E+09	-1.67956149236E-01	-1.17955012534E-02	4.35434718658E-02	6.15506567599E-02	4.24552805369E-02	6.18722302259E-02	2.61951150959E-01	2.39653329398E-02
1.74250000000E+09	-1.70874119940E-01	-1.04589194667E-02	4.47966883515E-02	6.05933015673E-02	4.37249309885E-02	6.09184359163E-02	2.61017998403E-01	1.89172371163E-02
1.74300000000E+09	-1.73747156968E-01	-8.98809739453E-03	4.60433873217E-02	5.95797014247E-02	4.49785528525E-02	5.99486966679E-02	2.59920371869E-01	1.39020670414E-02
1.74350000000E+09	-1.76592945136E-01	-7.39681954256E-03	4.72592252580E-02	5.85602796537E-02	4.62121855509E-02	5.89445570053E-02	2.58687810427E-01	8.91366239811E-03
1.74400000000E+09	-1.79388240145E-01	-5.68542489777E-03	4.84511370541E-02	5.75178336465E-02	4.74101220776E-02	5.79320925231E-02	2.57265785574E-01	3.96774231742E-03
1.74450000000E+09	-1.82145485539E-01	-3.83907687021E-03	4.96225006655E-02	5.64503173951E-02	4.85889129927E-02	5.68765459635E-02	2.55694500685E-01	-9.50548223658E-04
1.74500000000E+09	-1.84852567390E-01	-1.88913009171E-03	5.07659877190E-02	5.53584110381E-02	4.97326108154E-02	5.58113093060E-02	2.53989607388E-01	-5.80684441408E-03
1.74550000000E+09	-1.87475019173E-01	1.93689797033E-04	5.18924733105E-02	5.42447154695E-02	5.08711182639E-02	5.47123254894E-02	2.52124540633E-01	-1.06016227402E-02
1.74600000000E+09	-1.90055888778E-01	2.40867008948E-03	5.29825180525E-02	5.31100904644E-02	5.19619668649E-02	5.36062683761E-02	2.50109310213E-01	-1.53564935247E-02
1.74650000000E+09	-1.92572878270E-01	4.73879580459E-03	5.40398776035E-02	5.19529368193E-02	5.30436738100E-02	5.24684285870E-02	2.47922575818E-01	-2.00260973206E-02
1.74700000000E+09	-1.94998622557E-01	7.17274490079E-03	5.50975899389E-02	5.07809330371E-02	5.40917417768E-02	5.13204216426E-02	2.45632360272E-01	-2.46324892815E-02
1.74750000000E+09	-1.97334007643E-01	9.73752186321E-03	5.61150405266E-02	4.95915585927E-02	5.51166480070E-02	5.01493625149E-02	2.43159006116E-01	-2.91887937028E-02
1.74800000000E+09	-1.99583826715E-01	1.24031131899E-02	5.70960606116E-02	4.83782408300E-02	5.61174093168E-02	4.89615799661E-02	2.40567375947E-01	-3.36374769831E-02
1.74850000000E+09	-2.01745061145E-01	1.52073320376E-02	5.80561772765E-02	4.71464331653E-02	5.70916414488E-02	4.77455639765E-02	2.37810376783E-01	-3.80237561389E-02
1.74900000000E+09	-2.03791360611E-01	1.80927654093E-02	5.89944045511E-02	4.59059361600E-02	5.80299461530E-02	4.65254925182E-02	2.34936268891E-01	-4.23363471912E-02
1.74950000000E+09	-2.05733348148E-01	2.10936529234E-02	5.98975867308E-02	4.46417354749E-02	5.89484288262E-02	4.52763242183E-02	2.31899259567E-01	-4.65165880136E-02
1.75000000000E+09	-2.07545173731E-01	2.41932311608E-02	6.07846040666E-02	4.33554813136E-02	5.98407812922E-02	4.40255074281E-02	2.28739129977E-01	-5.06414129409E-02
1.75050000000E+09	-2.09243431315E-01	2.73881763714E-02	6.16285649887E-02	4.20658306966E-02	6.07086938038E-02	4.27550089909E-02	2.25458067709E-01	-5.46343680482E-02
1.75100000000E+09	-2.10816693637E-01	3.06595801678E-02	6.24450135898E-02	4.07499740958E-02	6.15417985231E-02	4.14675852321E-02	2.22039512210E-01	-5.85552513114E-02
1.75150000000E+09	-2.12239262239E-01	3.40266050488E-02	6.32543532133E-02	3.94426478229E-02	6.23460842806E-02	4.01575026440E-02	2.18483449431E-01	-6.23514854068E-02
1.75200000000E+09	-2.13535455017E-01	3.74588148633E-02	6.40154733076E-02	3.81064618761E-02	6.31289547412E-02	3.88542704090E-02	2.14819334404E-01	-6.60346884416E-02
1.75250000000E+09	-2.14682285456E-01	4.09797457007E-02	6.47634383931E-02	3.67491001864E-02	6.38821002179E-02	3.75212778069E-02	2.11039707439E-01	-6.96090235834E-02
1.75300000000E+09	-2.15670530711E-01	4.45592739618E-02	6.54673199171E-02	3.53919430024E-02	6.46092857294E-02	3.61739577378E-02	2.07120350964E-01	-7.30655097218E-02
1.75350000000E+09	-2.16505073426E-01	4.81868548135E-02	6.61531628630E-02	3.40323408086E-02	6.53187423492E-02	3.48347895613E-02	2.03118597890E-01	-7.63815246218E-02
1.75400000000E+09	-2.17190200303E-01	5.18614363468E-02	6.68156678579E-02	3.26430354201E-02	6.59714166887E-02	3.34722950128E-02	1.98995867552E-01	-7.95753847457E-02
1.75450000000E+09	-2.17709776624E-01	5.55886083788E-02	6.74477246807E-02	3.12542312446E-02	6.66244521016E-02	3.21000568026E-02	1.94770966787E-01	-8.26447090845E-02
1.75500000000E+09	-2.18054908002E-01	5.93415467816E-02	6.80352058588E-02	2.98518283594E-02	6.72441885876E-02	3.07197381645E-02	1.90436008264E-01	-8.55771735453E-02
1.75550000000E+09	-2.18245934232E-01	6.31200538095E-02	6.86151062093E-02	2.84528771411E-02	6.78420115431E-02	2.93274927781E-02	1.86013148694E-01	-8.83593977435E-02
1.75600000000E+09	-2.18255858259E-01	6.69326519330E-02	6.91704605929E-02	2.70381574680E-02	6.84039075467E-02	2.79266229290E-02	1.81489783401E-01	-9.09976912804E-02
1.75650000000E+09	-2.18069126423E-01	7.07325517003E-02	6.96790444251E-02	2.56109349751E-02	6.89375259516E-02	2.65336343934E-02	1.76881459068E-01	-9.35024516487E-02
1.75700000000E+09	-2.17725633194E-01	7.45298074045E-02	7.01789111394E-02	2.41733677189E-02	6.94505306628E-02	2.51133368061E-02	1.72190362811E-01	-9.58623587930E-02
1.75750000000E+09	-2.17202574748E-01	7.83314371785E-02	7.06489560342E-02	2.27390475208E-02	6.99382194295E-02	2.36881865196E-02	1.67436580420E-01	-9.80642383843E-02
1.75800000000E+09	-2.16488753245E-01	8.21017509877E-02	7.10786822429E-02	2.12992519382E-02	7.03984652514E-02	2.22627404264E-02	1.62596541115E-01	-1.00115352334E-01
1.75850000000E+09	-2.15600606770E-01	8.58351066933E-02	7.14882318325E-02	1.98445572081E-02	7.08247215874E-02	2.08230204802E-02	1.57678474542E-01	-1.02004911765E-01
1.75900000000E+09	-2.14529281218E-01	8.95212452040E-02	7.18909619148E-02	1.83847746003E-02	7.12310433231E-02	1.93852186218E-02	1.52707216852E-01	-1.03715043006E-01
