# Hz S RI R 50
! CMT, CMT808U, 21440046, 21.4.3/4
! Date: 6/12/2026 9:27:43 AM
! Data: Format (Calibration Info)
! Freq	S11:Re/Im(F2)	S41:Re/Im(F2)	S14:Re/Im(F2)	S44:Re/Im(F2)
1.70000000000E+09	-1.11875848821E-01	1.00684698213E-01	-7.37627279052E-02	1.75595424327E-02	-7.36864791878E-02	1.64625232122E-02	-7.12135301568E-02	1.35022940419E-01
1.70050000000E+09	-1.09176642972E-01	1.00387579862E-01	-7.33938206839E-02	1.91519675692E-02	-7.33347274958E-02	1.80437472771E-02	-6.86062651749E-02	1.39403633830E-01
1.70100000000E+09	-1.06509907574E-01	9.99427476123E-02	-7.29878115495E-02	2.07436971474E-02	-7.29420942122E-02	1.96306579844E-02	-6.58463829849E-02	1.43717086569E-01
1.70150000000E+09	-1.03888422917E-01	9.93623279680E-02	-7.25428824416E-02	2.23177407737E-02	-7.25173637658E-02	2.12170374920E-02	-6.29424543164E-02	1.47918986699E-01
1.70200000000E+09	-1.01299282060E-01	9.86472024235E-02	-7.20533835136E-02	2.39005644202E-02	-7.20678675748E-02	2.27881499894E-02	-5.99015901244E-02	1.52025282958E-01
1.70250000000E+09	-9.87645658074E-02	9.78021208200E-02	-7.15387977476E-02	2.54454916802E-02	-7.15693079733E-02	2.43533712362E-02	-5.67329041535E-02	1.56071479626E-01
1.70300000000E+09	-9.62882826325E-02	9.68126823977E-02	-7.09837262441E-02	2.70072231556E-02	-7.10369999509E-02	2.59069928568E-02	-5.34398571267E-02	1.60010774977E-01
1.70350000000E+09	-9.38981036902E-02	9.57152029521E-02	-7.03950598714E-02	2.85497247660E-02	-7.04718568061E-02	2.74444240586E-02	-5.00341796605E-02	1.63844933732E-01
1.70400000000E+09	-9.15774151815E-02	9.44803714779E-02	-6.97816992796E-02	3.00802251210E-02	-6.98789656835E-02	2.89834031752E-02	-4.65103002170E-02	1.67578918859E-01
1.70450000000E+09	-8.93044006624E-02	9.31530600623E-02	-6.90968743793E-02	3.16011519023E-02	-6.92305432308E-02	3.04950556335E-02	-4.28503053675E-02	1.71187788752E-01
1.70500000000E+09	-8.71471198656E-02	9.17213254687E-02	-6.84150922963E-02	3.31005512884E-02	-6.85594060050E-02	3.19999828039E-02	-3.90815852564E-02	1.74690798969E-01
1.70550000000E+09	-8.50543533171E-02	9.01758751399E-02	-6.76808325225E-02	3.45888138353E-02	-6.78549697839E-02	3.34917844229E-02	-3.52076472551E-02	1.78102921313E-01
1.70600000000E+09	-8.30517260809E-02	8.85522495992E-02	-6.69188413974E-02	3.60656454034E-02	-6.71052258627E-02	3.49522000457E-02	-3.12105831323E-02	1.81361981615E-01
1.70650000000E+09	-8.11387402474E-02	8.68278327692E-02	-6.61044718894E-02	3.75132631357E-02	-6.63336542351E-02	3.64199500984E-02	-2.71151116502E-02	1.84520080605E-01
1.70700000000E+09	-7.93270782420E-02	8.50138440720E-02	-6.52780702094E-02	3.89635575129E-02	-6.55170822613E-02	3.78743243330E-02	-2.29299927385E-02	1.87543960625E-01
1.70750000000E+09	-7.76004968367E-02	8.31245355207E-02	-6.43990708358E-02	4.03670501331E-02	-6.46804916520E-02	3.92905706159E-02	-1.86583879472E-02	1.90436804066E-01
1.70800000000E+09	-7.59830001184E-02	8.11663585443E-02	-6.34864512978E-02	4.17608132824E-02	-6.37913581509E-02	4.06821895015E-02	-1.42686074017E-02	1.93216880079E-01
1.70850000000E+09	-7.44619191088E-02	7.91258611792E-02	-6.25728163042E-02	4.31445472592E-02	-6.28851346873E-02	4.20682631256E-02	-9.80839241812E-03	1.95843717618E-01
1.70900000000E+09	-7.30572974566E-02	7.70310095219E-02	-6.15912705637E-02	4.44990624446E-02	-6.19435639111E-02	4.34215637868E-02	-5.25484323896E-03	1.98343102203E-01
1.70950000000E+09	-7.17439215023E-02	7.48713802137E-02	-6.05985270934E-02	4.58177654613E-02	-6.09586816857E-02	4.47633662448E-02	-6.51870556324E-04	2.00677505387E-01
1.71000000000E+09	-7.05390909424E-02	7.26810668725E-02	-5.95713669420E-02	4.71286065576E-02	-5.99730411699E-02	4.60768327514E-02	4.05366698110E-03	2.02903209231E-01
1.71050000000E+09	-6.94410336552E-02	7.04242329310E-02	-5.85109570697E-02	4.84190270903E-02	-5.89447642494E-02	4.73663823393E-02	8.82710840955E-03	2.04969839876E-01
1.71100000000E+09	-6.84467459280E-02	6.81270298560E-02	-5.74306897954E-02	4.96752500114E-02	-5.78611879581E-02	4.86324376824E-02	1.36493350098E-02	2.06882472023E-01
1.71150000000E+09	-6.75629848394E-02	6.58030758815E-02	-5.63054975438E-02	5.09021070449E-02	-5.67721924985E-02	4.98735892170E-02	1.85565792152E-02	2.08666743700E-01
1.71200000000E+09	-6.67729723650E-02	6.34420159122E-02	-5.51603544085E-02	5.21009802133E-02	-5.56498100829E-02	5.10915578528E-02	2.34878415438E-02	2.10321166901E-01
1.71250000000E+09	-6.61126324711E-02	6.10404494265E-02	-5.39863463718E-02	5.32872649532E-02	-5.45103813716E-02	5.22756777606E-02	2.84857058151E-02	2.11785650081E-01
1.71300000000E+09	-6.55551163792E-02	5.86345874190E-02	-5.27934441224E-02	5.44369053645E-02	-5.33278092807E-02	5.34398163302E-02	3.35563242681E-02	2.13101582902E-01
1.71350000000E+09	-6.50942921635E-02	5.62007554431E-02	-5.15716526176E-02	5.55462132932E-02	-5.21197695151E-02	5.45746366971E-02	3.86241948850E-02	2.14277862293E-01
1.71400000000E+09	-6.47538495427E-02	5.37603923921E-02	-5.03093339779E-02	5.66436185441E-02	-5.09007068501E-02	5.56758694727E-02	4.37731919804E-02	2.15270976131E-01
1.71450000000E+09	-6.45184037475E-02	5.13003060830E-02	-4.90434745075E-02	5.77048345941E-02	-4.96584841344E-02	5.67473544879E-02	4.89310510950E-02	2.16136972444E-01
1.71500000000E+09	-6.43853626095E-02	4.88497792714E-02	-4.77568133051E-02	5.87386356899E-02	-4.83843023832E-02	5.77908820331E-02	5.40988000684E-02	2.16841690021E-01
1.71550000000E+09	-6.43594641552E-02	4.63874874026E-02	-4.64377151631E-02	5.97256396475E-02	-4.70781613872E-02	5.88030276650E-02	5.93039126351E-02	2.17387975985E-01
1.71600000000E+09	-6.44287969757E-02	4.39332580886E-02	-4.50937538637E-02	6.06921806912E-02	-4.57599076260E-02	5.97789079193E-02	6.45288321368E-02	2.17758018660E-01
1.71650000000E+09	-6.46174683152E-02	4.15042993545E-02	-4.37398162521E-02	6.16297539329E-02	-4.44230880563E-02	6.07343575539E-02	6.97721708706E-02	2.17993575052E-01
1.71700000000E+09	-6.48805811480E-02	3.90700013209E-02	-4.23718067026E-02	6.25359821857E-02	-4.30666450014E-02	6.16528246257E-02	7.50244445560E-02	2.18069687785E-01
1.71750000000E+09	-6.52592199398E-02	3.66392581127E-02	-4.09567374537E-02	6.34029231876E-02	-4.16921205191E-02	6.25454904084E-02	8.02603357425E-02	2.17947666433E-01
1.71800000000E+09	-6.57389303824E-02	3.42446315345E-02	-3.95423307272E-02	6.42424207099E-02	-4.02924654410E-02	6.33904006046E-02	8.55153512523E-02	2.17699754755E-01
1.71850000000E+09	-6.63152021456E-02	3.18700450381E-02	-3.81200449671E-02	6.50504798976E-02	-3.88746960958E-02	6.42198378600E-02	9.07654111577E-02	2.17296712497E-01
1.71900000000E+09	-6.69714058887E-02	2.95184856190E-02	-3.66707116412E-02	6.58194906482E-02	-3.74408298447E-02	6.50029940173E-02	9.59974411690E-02	2.16706071648E-01
1.71950000000E+09	-6.77311083793E-02	2.71861536632E-02	-3.52009889533E-02	6.65479801977E-02	-3.59963682068E-02	6.57539007978E-02	1.01204086187E-01	2.15963766777E-01
1.72000000000E+09	-6.85876162253E-02	2.48870998388E-02	-3.37191346256E-02	6.72559416732E-02	-3.45381003512E-02	6.64791197296E-02	1.06402413044E-01	2.15067174073E-01
1.72050000000E+09	-6.95264900853E-02	2.26278051168E-02	-3.22369490765E-02	6.79196446892E-02	-3.30624689866E-02	6.71607066250E-02	1.11568159592E-01	2.14025333109E-01
1.72100000000E+09	-7.05387337930E-02	2.03989029863E-02	-3.07384493342E-02	6.85458041175E-02	-3.15850219418E-02	6.78204160706E-02	1.16695016223E-01	2.12827524454E-01
1.72150000000E+09	-7.16461609482E-02	1.81983667302E-02	-2.92139112419E-02	6.91552682024E-02	-3.00851154748E-02	6.84332810324E-02	1.21794490466E-01	2.11456425199E-01
1.72200000000E+09	-7.28467273212E-02	1.60484311174E-02	-2.76964163713E-02	6.97202269339E-02	-2.85721001107E-02	6.90016530457E-02	1.26851977607E-01	2.09921143013E-01
1.72250000000E+09	-7.41282796250E-02	1.39336251709E-02	-2.61579439782E-02	7.02357317786E-02	-2.70375964984E-02	6.95588024720E-02	1.31871720348E-01	2.08248827115E-01
1.72300000000E+09	-7.54874765005E-02	1.18592386554E-02	-2.46164951870E-02	7.07204271513E-02	-2.55223273284E-02	7.00710081215E-02	1.36830138886E-01	2.06424045526E-01
1.72350000000E+09	-7.69253240662E-02	9.85471394483E-03	-2.30632017604E-02	7.11886287810E-02	-2.39833259225E-02	7.05514110421E-02	1.41742987740E-01	2.04436122856E-01
1.72400000000E+09	-7.84573968050E-02	7.87966121521E-03	-2.15050208107E-02	7.16030373523E-02	-2.24338023137E-02	7.09870642745E-02	1.46604105388E-01	2.02304080130E-01
1.72450000000E+09	-8.00552823951E-02	5.95348589378E-03	-1.99426310375E-02	7.19918100520E-02	-2.08774377358E-02	7.13957112285E-02	1.51362463268E-01	2.00032276101E-01
1.72500000000E+09	-8.17363768397E-02	4.09171053419E-03	-1.83670757897E-02	7.23411090081E-02	-1.93183756293E-02	7.17644785956E-02	1.56087641416E-01	1.97621210171E-01
1.72550000000E+09	-8.34740936862E-02	2.26369382213E-03	-1.67985084129E-02	7.26581529405E-02	-1.77530855529E-02	7.21078491362E-02	1.60730669693E-01	1.95031659226E-01
1.72600000000E+09	-8.52941372245E-02	5.19233537578E-04	-1.52252352994E-02	7.29413819500E-02	-1.61922607455E-02	7.24010655141E-02	1.65299712227E-01	1.92337173110E-01
1.72650000000E+09	-8.71914253461E-02	-1.17849300401E-03	-1.36393888261E-02	7.31747874379E-02	-1.46193854251E-02	7.26577560722E-02	1.69792176376E-01	1.89472501009E-01
1.72700000000E+09	-8.91560112495E-02	-2.82279306603E-03	-1.20453901502E-02	7.33842428160E-02	-1.30497834046E-02	7.28965796923E-02	1.74194782576E-01	1.86490412761E-01
1.72750000000E+09	-9.11778878998E-02	-4.38572284332E-03	-1.04642591598E-02	7.35546500684E-02	-1.14583177779E-02	7.30870857048E-02	1.78508610525E-01	1.83360334374E-01
1.72800000000E+09	-9.33001952924E-02	-5.89174264113E-03	-8.87990989380E-03	7.37035808723E-02	-9.88971758115E-03	7.32551227451E-02	1.82742361790E-01	1.80131846100E-01
1.72850000000E+09	-9.54591107518E-02	-7.32920174344E-03	-7.29868035671E-03	7.37970116974E-02	-8.31389381634E-03	7.33780068606E-02	1.86842999658E-01	1.76722618559E-01
1.72900000000E+09	-9.76901996772E-02	-8.68903982379E-03	-5.71350198547E-03	7.38731573245E-02	-6.73476157231E-03	7.34610532918E-02	1.90879651933E-01	1.73201118608E-01
1.72950000000E+09	-9.99756958390E-02	-9.98886858798E-03	-4.13181664254E-03	7.38964000403E-02	-5.16603070253E-03	7.35176449962E-02	1.94773728684E-01	1.69567997839E-01
1.73000000000E+09	-1.02342861618E-01	-1.11998802076E-02	-2.55550819273E-03	7.38967538220E-02	-3.58243017629E-03	7.35345633573E-02	1.98572273859E-01	1.65809186179E-01
1.73050000000E+09	-1.04752787351E-01	-1.23466620422E-02	-9.81236314071E-04	7.38720485579E-02	-2.01721335519E-03	7.35174327292E-02	2.02274071328E-01	1.61934744379E-01
1.73100000000E+09	-1.07228191521E-01	-1.33855209286E-02	5.90271412457E-04	7.37990089329E-02	-4.54707944408E-04	7.34798454509E-02	2.05833046127E-01	1.57926459035E-01
1.73150000000E+09	-1.09764990242E-01	-1.43620537873E-02	2.16202857176E-03	7.36952105043E-02	1.10614891411E-03	7.33923693398E-02	2.09297448726E-01	1.53836258248E-01
1.73200000000E+09	-1.12341411355E-01	-1.52356964443E-02	3.72711886821E-03	7.35558265401E-02	2.65878629481E-03	7.32875979645E-02	2.12617757084E-01	1.49639073296E-01
1.73250000000E+09	-1.14967951267E-01	-1.60234685086E-02	5.27542725261E-03	7.33819689411E-02	4.21503949878E-03	7.31321617427E-02	2.15825150298E-01	1.45303067490E-01
1.73300000000E+09	-1.17643155849E-01	-1.67372784051E-02	6.82944646827E-03	7.31740493080E-02	5.75924304020E-03	7.29488140910E-02	2.18899673956E-01	1.40903260009E-01
1.73350000000E+09	-1.20367059043E-01	-1.73504976040E-02	8.35841755775E-03	7.29423541773E-02	7.28751074988E-03	7.27288823691E-02	2.21829826344E-01	1.36382388678E-01
1.73400000000E+09	-1.23148513841E-01	-1.78641419069E-02	9.88676498847E-03	7.26742365791E-02	8.81474246837E-03	7.24834230812E-02	2.24635634645E-01	1.31791479915E-01
1.73450000000E+09	-1.25950748284E-01	-1.82748061778E-02	1.14141757337E-02	7.23663042903E-02	1.03352111023E-02	7.22122766421E-02	2.27284195524E-01	1.27071825151E-01
1.73500000000E+09	-1.28805691365E-01	-1.85824698867E-02	1.29188580627E-02	7.20378396829E-02	1.18457622824E-02	7.18992024666E-02	2.29802536799E-01	1.22284591721E-01
1.73550000000E+09	-1.31684644067E-01	-1.87859380360E-02	1.44310597476E-02	7.16721916687E-02	1.33354196625E-02	7.15520886785E-02	2.32174738016E-01	1.17430380571E-01
1.73600000000E+09	-1.34590058568E-01	-1.88821669478E-02	1.59120713578E-02	7.12759952070E-02	1.48300063280E-02	7.11811911311E-02	2.34389652477E-01	1.12496884747E-01
1.73650000000E+09	-1.37526575808E-01	-1.88524811143E-02	1.73862853560E-02	7.08455633143E-02	1.63014953220E-02	7.07767910287E-02	2.36468203995E-01	1.07497442037E-01
1.73700000000E+09	-1.40481754284E-01	-1.87303211456E-02	1.88314544643E-02	7.03957815478E-02	1.77625250449E-02	7.03419652690E-02	2.38376450312E-01	1.02431649604E-01
1.73750000000E+09	-1.43453192461E-01	-1.84991820783E-02	2.02949673811E-02	6.99047376874E-02	1.92008335608E-02	6.98793944836E-02	2.40130512775E-01	9.72859143149E-02
1.73800000000E+09	-1.46425518152E-01	-1.81362801955E-02	2.17264885188E-02	6.93871589276E-02	2.06411538780E-02	6.93734292473E-02	2.41727954130E-01	9.20772055090E-02
1.73850000000E+09	-1.49436005510E-01	-1.76590989814E-02	2.31520227863E-02	6.88454803746E-02	2.20585956075E-02	6.88590035103E-02	2.43181221706E-01	8.68248819856E-02
1.73900000000E+09	-1.52424597982E-01	-1.70762135485E-02	2.45513816313E-02	6.82786488112E-02	2.34643015865E-02	6.83045005187E-02	2.44456485717E-01	8.15194780037E-02
1.73950000000E+09	-1.55416184835E-01	-1.63623518756E-02	2.59434061048E-02	6.76838343677E-02	2.48522348284E-02	6.77299723751E-02	2.45582658619E-01	7.61740540703E-02
1.74000000000E+09	-1.58416312668E-01	-1.55319966238E-02	2.73139122128E-02	6.70425348202E-02	2.62283656814E-02	6.71223045513E-02	2.46519345377E-01	7.07931406287E-02
1.74050000000E+09	-1.61393333967E-01	-1.45747331958E-02	2.86668285669E-02	6.63945704341E-02	2.75863656857E-02	6.64859570138E-02	2.47313516205E-01	6.53753831526E-02
1.74100000000E+09	-1.64373919586E-01	-1.34933534915E-02	3.00038391887E-02	6.57141605312E-02	2.89253865007E-02	6.58236326303E-02	2.47936630612E-01	5.99275848926E-02
1.74150000000E+09	-1.67313352500E-01	-1.22826137754E-02	3.13250254284E-02	6.50027862835E-02	3.02466799740E-02	6.51456106248E-02	2.48392585630E-01	5.44551070814E-02
1.74200000000E+09	-1.70237369266E-01	-1.09606664292E-02	3.26210266227E-02	6.42741887673E-02	3.15505618860E-02	6.44385062798E-02	2.48665778158E-01	4.89514013166E-02
1.74250000000E+09	-1.73124493391E-01	-9.51036767819E-03	3.38966014585E-02	6.35187524671E-02	3.28354142902E-02	6.36975331375E-02	2.48771619530E-01	4.34695605861E-02
1.74300000000E+09	-1.75993941724E-01	-7.94573066570E-03	3.51758914603E-02	6.27377354773E-02	3.41010305863E-02	6.29394861997E-02	2.48703846889E-01	3.79308986187E-02
1.74350000000E+09	-1.78800484870E-01	-6.23683382902E-03	3.64117526416E-02	6.19367460657E-02	3.53346408502E-02	6.21536358072E-02	2.48469528295E-01	3.24179752856E-02
1.74400000000E+09	-1.81548069185E-01	-4.41824779664E-03	3.76434403448E-02	6.11026788393E-02	3.65763994903E-02	6.13540335740E-02	2.48061233150E-01	2.68915425127E-02
1.74450000000E+09	-1.84276165598E-01	-2.45933699871E-03	3.88436218719E-02	6.02622213329E-02	3.77843174849E-02	6.05255859022E-02	2.47474405538E-01	2.13666488828E-02
1.74500000000E+09	-1.86929327851E-01	-4.04604630698E-04	4.00247492507E-02	5.93977915837E-02	3.89685408714E-02	5.96695661206E-02	2.46708045162E-01	1.58734576352E-02
1.74550000000E+09	-1.89510287072E-01	1.79821574339E-03	4.11812732051E-02	5.85081787164E-02	4.01317689900E-02	5.88187852062E-02	2.45788049965E-01	1.03937422726E-02
1.74600000000E+09	-1.92040899516E-01	4.11665114469E-03	4.23174516935E-02	5.75998738909E-02	4.12812648498E-02	5.79164821599E-02	2.44672529831E-01	4.93360298097E-03
1.74650000000E+09	-1.94484379071E-01	6.55364651589E-03	4.34415619260E-02	5.66745068640E-02	4.24017398131E-02	5.70123342882E-02	2.43387234516E-01	-5.01878864544E-04
1.74700000000E+09	-1.96822905478E-01	9.08060103419E-03	4.45409902537E-02	5.57183938352E-02	4.35038509375E-02	5.60870208349E-02	2.41963875248E-01	-5.89686503062E-03
1.74750000000E+09	-1.99095931820E-01	1.17685944326E-02	4.56122994044E-02	5.47538843971E-02	4.45878824432E-02	5.51343617735E-02	2.40326808330E-01	-1.12693026349E-02
1.74800000000E+09	-2.01275996822E-01	1.45384684236E-02	4.66761437820E-02	5.37734811023E-02	4.56476267895E-02	5.41863960461E-02	2.38556693912E-01	-1.65555250891E-02
1.74850000000E+09	-2.03333428188E-01	1.74199840469E-02	4.77030747164E-02	5.27611982387E-02	4.66780874777E-02	5.31989661636E-02	2.36595014665E-01	-2.18269491182E-02
1.74900000000E+09	-2.05300292554E-01	2.04143713805E-02	4.87086964687E-02	5.17509915701E-02	4.77091038531E-02	5.22019785245E-02	2.34450230686E-01	-2.70604068129E-02
1.74950000000E+09	-2.07144335757E-01	2.35023841627E-02	4.96938681746E-02	5.07257255407E-02	4.86921259007E-02	5.11855596850E-02	2.32134461730E-01	-3.21897253449E-02
1.75000000000E+09	-2.08847840000E-01	2.66903439711E-02	5.06607610759E-02	4.96716309888E-02	4.96593049292E-02	5.01725214377E-02	2.29664175209E-01	-3.72697084935E-02
1.75050000000E+09	-2.10429432813E-01	2.99755722568E-02	5.15973169816E-02	4.86148542889E-02	5.06224918483E-02	4.91170259098E-02	2.27042951663E-01	-4.22776776357E-02
1.75100000000E+09	-2.11880511472E-01	3.33598141888E-02	5.25195849179E-02	4.75344863713E-02	5.15525667700E-02	4.80591413013E-02	2.24249951475E-01	-4.72153742273E-02
1.75150000000E+09	-2.13186226480E-01	3.67929899122E-02	5.34193859929E-02	4.64398426566E-02	5.24600450664E-02	4.69927447317E-02	2.21294231435E-01	-5.20766453394E-02
1.75200000000E+09	-2.14347210068E-01	4.03077839587E-02	5.42998533167E-02	4.53444383669E-02	5.33359896406E-02	4.59189735926E-02	2.18168956797E-01	-5.68405804346E-02
1.75250000000E+09	-2.15358604135E-01	4.38802392586E-02	5.51550527428E-02	4.42357618820E-02	5.42117555449E-02	4.48229299247E-02	2.14937427431E-01	-6.15165953760E-02
1.75300000000E+09	-2.16196092688E-01	4.75211777297E-02	5.59905561557E-02	4.31024305220E-02	5.50479368955E-02	4.37128512436E-02	2.11489461224E-01	-6.60949008672E-02
1.75350000000E+09	-2.16884106487E-01	5.12192904162E-02	5.68006029610E-02	4.19637460154E-02	5.58820243128E-02	4.25914398941E-02	2.07928872043E-01	-7.05561925700E-02
1.75400000000E+09	-2.17414053269E-01	5.49354722142E-02	5.75969663677E-02	4.08167865888E-02	5.66730394029E-02	4.14616528894E-02	2.04200316057E-01	-7.49219722421E-02
1.75450000000E+09	-2.17766098732E-01	5.86974617619E-02	5.83584595171E-02	3.96550381333E-02	5.74629779405E-02	4.03197847104E-02	2.00347339814E-01	-7.91730605394E-02
1.75500000000E+09	-2.17951091811E-01	6.24852840191E-02	5.91047883623E-02	3.84801460151E-02	5.82232971442E-02	3.91671632607E-02	1.96336453998E-01	-8.33159495451E-02
1.75550000000E+09	-2.17961300236E-01	6.62761237429E-02	5.98394345948E-02	3.72989204858E-02	5.89505152382E-02	3.80085660436E-02	1.92207733007E-01	-8.73260535966E-02
1.75600000000E+09	-2.17793858171E-01	7.00922301688E-02	6.05386963340E-02	3.61132044944E-02	5.96922677030E-02	3.68320383409E-02	1.87938433968E-01	-9.12157274857E-02
1.75650000000E+09	-2.17458353381E-01	7.39052383527E-02	6.12346489289E-02	3.49079843592E-02	6.03821219759E-02	3.56603454622E-02	1.83518140890E-01	-9.49583639476E-02
1.75700000000E+09	-2.16927525908E-01	7.76960772755E-02	6.19022472887E-02	3.36966463889E-02	6.10639487280E-02	3.44662705302E-02	1.78992687746E-01	-9.85973699478E-02
1.75750000000E+09	-2.16222240586E-01	8.14731434258E-02	6.25467374397E-02	3.24742890528E-02	6.17305104546E-02	3.32664481698E-02	1.74349306560E-01	-1.02071984149E-01
1.75800000000E+09	-2.15314874709E-01	8.52101522070E-02	6.31707415466E-02	3.12322682029E-02	6.23760584161E-02	3.20412568706E-02	1.69569562082E-01	-1.05402121249E-01
1.75850000000E+09	-2.14246457267E-01	8.89047744566E-02	6.37914127493E-02	3.00001040298E-02	6.29841158054E-02	3.08263162469E-02	1.64676664116E-01	-1.08577991221E-01
1.75900000000E+09	-2.12982219672E-01	9.25437926259E-02	6.43796036081E-02	2.87409718553E-02	6.35944947403E-02	2.95984897889E-02	1.59697405772E-01	-1.11619508107E-01
