# Hz S RI R 50
! CMT, CMT808U, 21440046, 21.4.3/4
! Date: 6/12/2026 9:23:09 AM
! Data: Format (Calibration Info)
! Freq	S11:Re/Im(F2)	S41:Re/Im(F2)	S14:Re/Im(F2)	S44:Re/Im(F2)
1.70000000000E+09	-1.12352507120E-01	1.00328582083E-01	-7.15496122489E-02	2.57879347096E-02	-7.15937526522E-02	2.47025282581E-02	1.05274144978E-02	1.56447743652E-01
1.70050000000E+09	-1.09648835101E-01	1.00078641096E-01	-7.09883080579E-02	2.73067368748E-02	-7.10594504445E-02	2.62126517071E-02	1.38156628200E-02	1.59614937754E-01
1.70100000000E+09	-1.06993386592E-01	9.96632221323E-02	-7.04002834157E-02	2.88048088799E-02	-7.04830765380E-02	2.77210222461E-02	1.71843706320E-02	1.62700038993E-01
1.70150000000E+09	-1.04368851323E-01	9.91027679033E-02	-6.97632735692E-02	3.02867906769E-02	-6.98841876731E-02	2.92071188926E-02	2.06738427255E-02	1.65669885855E-01
1.70200000000E+09	-1.01780059442E-01	9.84266093045E-02	-6.91010817549E-02	3.17745516513E-02	-6.92358571777E-02	3.06786761255E-02	2.42564350043E-02	1.68516527821E-01
1.70250000000E+09	-9.92539617897E-02	9.76012297550E-02	-6.84048604319E-02	3.32272014798E-02	-6.85709462185E-02	3.21450538499E-02	2.79315878539E-02	1.71269848458E-01
1.70300000000E+09	-9.67881780140E-02	9.66442050508E-02	-6.76842095957E-02	3.46789794234E-02	-6.78656410899E-02	3.35996684207E-02	3.16889119281E-02	1.73930041177E-01
1.70350000000E+09	-9.43874694902E-02	9.55859671670E-02	-6.69232968753E-02	3.61118166328E-02	-6.71382573319E-02	3.50333761738E-02	3.55296092834E-02	1.76472646559E-01
1.70400000000E+09	-9.20538745219E-02	9.43804147618E-02	-6.61491309511E-02	3.75328526339E-02	-6.63702631735E-02	3.64536753347E-02	3.94409508812E-02	1.78877578650E-01
1.70450000000E+09	-8.97857977681E-02	9.30730699197E-02	-6.53331402179E-02	3.89361406332E-02	-6.55683743316E-02	3.78633084876E-02	4.34625414271E-02	1.81179738157E-01
1.70500000000E+09	-8.76197463479E-02	9.16690803868E-02	-6.44788736213E-02	4.03211351569E-02	-6.47507206489E-02	3.92582277595E-02	4.75179475717E-02	1.83359608625E-01
1.70550000000E+09	-8.55193631157E-02	9.01550781324E-02	-6.36027312030E-02	4.16818146596E-02	-6.38947694277E-02	4.06215154558E-02	5.16728798435E-02	1.85423525045E-01
1.70600000000E+09	-8.35148418182E-02	8.85399544460E-02	-6.26883498738E-02	4.30371615492E-02	-6.30114647982E-02	4.19802217930E-02	5.58857588640E-02	1.87357340119E-01
1.70650000000E+09	-8.15848637104E-02	8.68372862744E-02	-6.17534935171E-02	4.43629020909E-02	-6.20872685956E-02	4.33034084482E-02	6.01620237223E-02	1.89178700454E-01
1.70700000000E+09	-7.97627766005E-02	8.50461119375E-02	-6.07842531016E-02	4.56727648186E-02	-6.11573480150E-02	4.46216180988E-02	6.45049467373E-02	1.90851956109E-01
1.70750000000E+09	-7.80313324281E-02	8.31822945255E-02	-5.97889072787E-02	4.69562813293E-02	-6.01770285359E-02	4.59219103165E-02	6.88883635148E-02	1.92395215994E-01
1.70800000000E+09	-7.64025030922E-02	8.12391973995E-02	-5.87654700832E-02	4.82272596072E-02	-5.91790882199E-02	4.71892461428E-02	7.33333322664E-02	1.93815124789E-01
1.70850000000E+09	-7.48748976076E-02	7.92222200584E-02	-5.77082781706E-02	4.94685878338E-02	-5.81346555467E-02	4.84555515247E-02	7.78134026633E-02	1.95090423991E-01
1.70900000000E+09	-7.34397716165E-02	7.71386564498E-02	-5.66293971550E-02	5.06820415003E-02	-5.70868722058E-02	4.96786251289E-02	8.23571023098E-02	1.96260071440E-01
1.70950000000E+09	-7.21194478783E-02	7.50073129487E-02	-5.55186509666E-02	5.18777663323E-02	-5.59992264464E-02	5.08899767027E-02	8.69050599714E-02	1.97244835408E-01
1.71000000000E+09	-7.08967638354E-02	7.28022663223E-02	-5.43919040044E-02	5.30537796575E-02	-5.48849676077E-02	5.20697187842E-02	9.15202007998E-02	1.98153895928E-01
1.71050000000E+09	-6.97933426591E-02	7.05765053700E-02	-5.32320788395E-02	5.42087982431E-02	-5.37534401586E-02	5.32234402890E-02	9.61372028560E-02	1.98878836726E-01
1.71100000000E+09	-6.87764695140E-02	6.82807356246E-02	-5.20464160478E-02	5.53300013109E-02	-5.25852499684E-02	5.43628402010E-02	1.00802676298E-01	1.99474635211E-01
1.71150000000E+09	-6.78848722268E-02	6.59637070935E-02	-5.08378824488E-02	5.64256539039E-02	-5.14096283617E-02	5.54660041739E-02	1.05467506121E-01	1.99948702853E-01
1.71200000000E+09	-6.70887658336E-02	6.36216916613E-02	-4.96112818963E-02	5.74942551678E-02	-5.01803635724E-02	5.65461258529E-02	1.10171456255E-01	2.00250713544E-01
1.71250000000E+09	-6.64222917908E-02	6.12340613807E-02	-4.83458726057E-02	5.85355355007E-02	-4.89503234341E-02	5.76035471771E-02	1.14884717676E-01	2.00443542800E-01
1.71300000000E+09	-6.58522504147E-02	5.88293087310E-02	-4.70652599311E-02	5.95437946870E-02	-4.76962291243E-02	5.86356138375E-02	1.19614004336E-01	2.00473270760E-01
1.71350000000E+09	-6.53895805764E-02	5.63997457947E-02	-4.57756611607E-02	6.05275882134E-02	-4.64067362897E-02	5.96312201613E-02	1.24315164122E-01	2.00376882149E-01
1.71400000000E+09	-6.50297115576E-02	5.39698663566E-02	-4.44422839555E-02	6.14920802630E-02	-4.51044179381E-02	6.06074042884E-02	1.29055673464E-01	2.00131662501E-01
1.71450000000E+09	-6.47824718367E-02	5.15224906038E-02	-4.30986614141E-02	6.24015570649E-02	-4.37856934901E-02	6.15469653902E-02	1.33786692790E-01	1.99744547822E-01
1.71500000000E+09	-6.46473745623E-02	4.90722173529E-02	-4.17363291669E-02	6.33098620222E-02	-4.24428234802E-02	6.24569313714E-02	1.38477135015E-01	1.99220819087E-01
1.71550000000E+09	-6.46026523156E-02	4.66220279093E-02	-4.03437166447E-02	6.41733069750E-02	-4.10741276477E-02	6.33427020639E-02	1.43187200807E-01	1.98560129241E-01
1.71600000000E+09	-6.46632508522E-02	4.41711400069E-02	-3.89492054604E-02	6.50048218635E-02	-3.96896659765E-02	6.41844706792E-02	1.47869927936E-01	1.97741464256E-01
1.71650000000E+09	-6.48452199471E-02	4.17444187596E-02	-3.75289189274E-02	6.58171919922E-02	-3.82892598321E-02	6.50053740587E-02	1.52531943904E-01	1.96794848654E-01
1.71700000000E+09	-6.51120524596E-02	3.93201766234E-02	-3.61038535844E-02	6.65860592684E-02	-3.68686828616E-02	6.57917799528E-02	1.57165244164E-01	1.95711308832E-01
1.71750000000E+09	-6.54764921608E-02	3.68995339679E-02	-3.46450658097E-02	6.73128579731E-02	-3.54429524282E-02	6.65500419970E-02	1.61754916142E-01	1.94469081922E-01
1.71800000000E+09	-6.59434589943E-02	3.45018896312E-02	-3.31814956487E-02	6.80149882209E-02	-3.39917982074E-02	6.72630243425E-02	1.66319724455E-01	1.93104752352E-01
1.71850000000E+09	-6.65121987139E-02	3.21276234720E-02	-3.16947088483E-02	6.87000126161E-02	-3.25211423155E-02	6.79492793127E-02	1.70857286448E-01	1.91599561212E-01
1.71900000000E+09	-6.71618026360E-02	2.97854595368E-02	-3.02034814374E-02	6.93389605007E-02	-3.10384510104E-02	6.86099951742E-02	1.75360604310E-01	1.89958372277E-01
1.71950000000E+09	-6.79146788521E-02	2.74611453645E-02	-2.86883319966E-02	6.99405036686E-02	-2.95541702139E-02	6.92339923929E-02	1.79810753089E-01	1.88190131530E-01
1.72000000000E+09	-6.87563325045E-02	2.51663693898E-02	-2.71623823737E-02	7.05099823740E-02	-2.80436526135E-02	6.98255270564E-02	1.84195330457E-01	1.86267937170E-01
1.72050000000E+09	-6.96955678953E-02	2.29115300393E-02	-2.56364698269E-02	7.10459121425E-02	-2.65209029776E-02	7.03784290185E-02	1.88538893598E-01	1.84236517299E-01
1.72100000000E+09	-7.06999271070E-02	2.06868156880E-02	-2.40967980814E-02	7.15379331911E-02	-2.49938834200E-02	7.08978013825E-02	1.92830100497E-01	1.82044278322E-01
1.72150000000E+09	-7.18151537189E-02	1.85051234305E-02	-2.25427775784E-02	7.20087232047E-02	-2.34523768032E-02	7.13895181539E-02	1.97041797429E-01	1.79754396248E-01
1.72200000000E+09	-7.29918779816E-02	1.63531964585E-02	-2.09782233456E-02	7.24492299985E-02	-2.18966524997E-02	7.18426350860E-02	2.01209989385E-01	1.77327821313E-01
1.72250000000E+09	-7.42573133358E-02	1.42522878154E-02	-1.94114342157E-02	7.28463758178E-02	-2.03501198662E-02	7.22686038150E-02	2.05309113274E-01	1.74767383581E-01
1.72300000000E+09	-7.56123798294E-02	1.21907071958E-02	-1.78345724322E-02	7.32098981146E-02	-1.87906260666E-02	7.26485081161E-02	2.09327468559E-01	1.72090462341E-01
1.72350000000E+09	-7.70508105411E-02	1.01824483236E-02	-1.62517900960E-02	7.35420769442E-02	-1.72190212603E-02	7.29950039994E-02	2.13242145490E-01	1.69292668908E-01
1.72400000000E+09	-7.85616659395E-02	8.21545076064E-03	-1.46665795803E-02	7.38457034125E-02	-1.56396728887E-02	7.33131506903E-02	2.17110190090E-01	1.66368837284E-01
1.72450000000E+09	-8.01506807449E-02	6.29349653360E-03	-1.30662042472E-02	7.40836895913E-02	-1.40612058597E-02	7.35951874573E-02	2.20867249870E-01	1.63337960386E-01
1.72500000000E+09	-8.18112927142E-02	4.44071349811E-03	-1.14881903220E-02	7.43189576829E-02	-1.24636218583E-02	7.38367901404E-02	2.24563038332E-01	1.60194017078E-01
1.72550000000E+09	-8.35499829845E-02	2.62998630559E-03	-9.88825174524E-03	7.44998677845E-02	-1.08753020674E-02	7.40488968779E-02	2.28122521851E-01	1.56929943972E-01
1.72600000000E+09	-8.53487953690E-02	8.81106216840E-04	-8.27439175393E-03	7.46544046533E-02	-9.29135602541E-03	7.42208735777E-02	2.31646282938E-01	1.53548490408E-01
1.72650000000E+09	-8.72271374149E-02	-8.05127776964E-04	-6.67881199198E-03	7.47656629320E-02	-7.69037499759E-03	7.43534357822E-02	2.35030628238E-01	1.50072199322E-01
1.72700000000E+09	-8.91841695379E-02	-2.44442939259E-03	-5.07002494303E-03	7.48567135691E-02	-6.09673659110E-03	7.44606499050E-02	2.38327581868E-01	1.46489009652E-01
1.72750000000E+09	-9.11965336709E-02	-4.00840856681E-03	-3.46828921599E-03	7.49023231675E-02	-4.50436063685E-03	7.45372580542E-02	2.41534821309E-01	1.42799077942E-01
1.72800000000E+09	-9.32971696436E-02	-5.50519587818E-03	-1.86805494131E-03	7.49151490388E-02	-2.90187290592E-03	7.45662167029E-02	2.44621581261E-01	1.39012566169E-01
1.72850000000E+09	-9.54389605111E-02	-6.93291385931E-03	-2.60816151198E-04	7.48929592071E-02	-1.30951978155E-03	7.45605841988E-02	2.47575168041E-01	1.35140737154E-01
1.72900000000E+09	-9.76620589959E-02	-8.30575483117E-03	1.33631428314E-03	7.48302263267E-02	2.83638029683E-04	7.45291938362E-02	2.50445424068E-01	1.31154231566E-01
1.72950000000E+09	-9.99448229974E-02	-9.59687950125E-03	2.92852196382E-03	7.47364055201E-02	1.87673123387E-03	7.44645898691E-02	2.53180747746E-01	1.27108968199E-01
1.73000000000E+09	-1.02282221773E-01	-1.08050978567E-02	4.51527282370E-03	7.46112293151E-02	3.45499895790E-03	7.43482428626E-02	2.55807778002E-01	1.22955775551E-01
1.73050000000E+09	-1.04687133504E-01	-1.19454913710E-02	6.11166067354E-03	7.44420532012E-02	5.03325955017E-03	7.42076182092E-02	2.58309784702E-01	1.18725283416E-01
1.73100000000E+09	-1.07140975439E-01	-1.29946445126E-02	7.68583007815E-03	7.42594255660E-02	6.61476578454E-03	7.40288039592E-02	2.60670316548E-01	1.14420324542E-01
1.73150000000E+09	-1.09653037439E-01	-1.39723336973E-02	9.25583313550E-03	7.40217301948E-02	8.18804597053E-03	7.38284518523E-02	2.62924707755E-01	1.10043892980E-01
1.73200000000E+09	-1.12220292467E-01	-1.48479677940E-02	1.08255045449E-02	7.37541453211E-02	9.74947802178E-03	7.35842366556E-02	2.65053586339E-01	1.05591498502E-01
1.73250000000E+09	-1.14828880233E-01	-1.56463670822E-02	1.23830300482E-02	7.34585457579E-02	1.13102810128E-02	7.33124394213E-02	2.67033304760E-01	1.01052907087E-01
1.73300000000E+09	-1.17498248343E-01	-1.63511869524E-02	1.39211639400E-02	7.31226031223E-02	1.28496958251E-02	7.29981037534E-02	2.68857681118E-01	9.64948760313E-02
1.73350000000E+09	-1.20199819979E-01	-1.69621582185E-02	1.54690356052E-02	7.27618398897E-02	1.43929039162E-02	7.26529410702E-02	2.70595402392E-01	9.18328733617E-02
1.73400000000E+09	-1.22966244181E-01	-1.74858476939E-02	1.69986728683E-02	7.23581220088E-02	1.59182061613E-02	7.22819337830E-02	2.72174792125E-01	8.71441420955E-02
1.73450000000E+09	-1.25748043813E-01	-1.78929428011E-02	1.85221190209E-02	7.19322349062E-02	1.74349094124E-02	7.18742271704E-02	2.73616617194E-01	8.23706293626E-02
1.73500000000E+09	-1.28592200946E-01	-1.82043835218E-02	2.00180568189E-02	7.14671470856E-02	1.89329138877E-02	7.14316630402E-02	2.74889762567E-01	7.75727778019E-02
1.73550000000E+09	-1.31437105276E-01	-1.84099132593E-02	2.15185948792E-02	7.09693773334E-02	2.04293466940E-02	7.09477407763E-02	2.76040197864E-01	7.27311433105E-02
1.73600000000E+09	-1.34337701606E-01	-1.85183317387E-02	2.29837680716E-02	7.04430933988E-02	2.19137068547E-02	7.04560766414E-02	2.77026067334E-01	6.78466673112E-02
1.73650000000E+09	-1.37248372746E-01	-1.85055522056E-02	2.44608893435E-02	6.98906469928E-02	2.33801154501E-02	6.99123530707E-02	2.77888169701E-01	6.29129927091E-02
1.73700000000E+09	-1.40195552202E-01	-1.83722504326E-02	2.59147178896E-02	6.93001613108E-02	2.48251646675E-02	6.93448013090E-02	2.78586292756E-01	5.79851845374E-02
1.73750000000E+09	-1.43143384122E-01	-1.81622998036E-02	2.73493265652E-02	6.86728147994E-02	2.62588462531E-02	6.87505987941E-02	2.79145427512E-01	5.30122460520E-02
1.73800000000E+09	-1.46108306640E-01	-1.78080426898E-02	2.87514756878E-02	6.80275706450E-02	2.76766064517E-02	6.81259645571E-02	2.79555973477E-01	4.80102043503E-02
1.73850000000E+09	-1.49088204766E-01	-1.73522243410E-02	3.01652383318E-02	6.73627679527E-02	2.90933250066E-02	6.74696191238E-02	2.79808585710E-01	4.29741319367E-02
1.73900000000E+09	-1.52062248895E-01	-1.67726754116E-02	3.15434987841E-02	6.66565445637E-02	3.04747661629E-02	6.67892535043E-02	2.79903761114E-01	3.79513811015E-02
1.73950000000E+09	-1.55058601787E-01	-1.60735319051E-02	3.29149264622E-02	6.59305179337E-02	3.18367688510E-02	6.60726320057E-02	2.79857598200E-01	3.29209179600E-02
1.74000000000E+09	-1.58033420041E-01	-1.52473225680E-02	3.42593605227E-02	6.51511111905E-02	3.31893842047E-02	6.53397005394E-02	2.79640846214E-01	2.78781649631E-02
1.74050000000E+09	-1.60996377936E-01	-1.43055569562E-02	3.55913102100E-02	6.43715916132E-02	3.45196821929E-02	6.45663732463E-02	2.79274587354E-01	2.28458606173E-02
1.74100000000E+09	-1.63949727491E-01	-1.32372111134E-02	3.69027181754E-02	6.35586135672E-02	3.58361741668E-02	6.37735106053E-02	2.78751303570E-01	1.78085262054E-02
1.74150000000E+09	-1.66879976038E-01	-1.20540597447E-02	3.81843912869E-02	6.27179240485E-02	3.71261582737E-02	6.29569885243E-02	2.78102147769E-01	1.27844600499E-02
1.74200000000E+09	-1.69783206416E-01	-1.07476910203E-02	3.94536960879E-02	6.18486489701E-02	3.83961729084E-02	6.21072001039E-02	2.77255273329E-01	7.75233797229E-03
1.74250000000E+09	-1.72667286299E-01	-9.30749307772E-03	4.06999581398E-02	6.09698183694E-02	3.96526493906E-02	6.12331654545E-02	2.76276547485E-01	2.76907102002E-03
1.74300000000E+09	-1.75497825087E-01	-7.75775782642E-03	4.19248542818E-02	6.00563403505E-02	4.08826222065E-02	6.03514485350E-02	2.75141866147E-01	-2.18328630558E-03
1.74350000000E+09	-1.78304488187E-01	-6.08355492738E-03	4.31208517370E-02	5.91078161910E-02	4.20862196892E-02	5.94393764555E-02	2.73861339650E-01	-7.11857336870E-03
1.74400000000E+09	-1.81044021411E-01	-4.27940749087E-03	4.42957920460E-02	5.81539254049E-02	4.32644674459E-02	5.84990212952E-02	2.72399961812E-01	-1.20250641042E-02
1.74450000000E+09	-1.83749904871E-01	-2.34655490143E-03	4.54611518723E-02	5.71692311423E-02	4.44309476603E-02	5.75358887994E-02	2.70789142882E-01	-1.68996154738E-02
1.74500000000E+09	-1.86405720126E-01	-3.13760211916E-04	4.65943906790E-02	5.61706012829E-02	4.55658056083E-02	5.65531016014E-02	2.69044188168E-01	-2.17209664079E-02
1.74550000000E+09	-1.88975382327E-01	1.86299563032E-03	4.77082155120E-02	5.51435348873E-02	4.66887862350E-02	5.55563519239E-02	2.67144234156E-01	-2.64791562315E-02
1.74600000000E+09	-1.91499286612E-01	4.15489575563E-03	4.88047812502E-02	5.41068123696E-02	4.77864303741E-02	5.45361512666E-02	2.65108364017E-01	-3.12037017200E-02
1.74650000000E+09	-1.93929337664E-01	6.56415399520E-03	4.98624146200E-02	5.30372225455E-02	4.88608380410E-02	5.34966666280E-02	2.62886701572E-01	-3.58716052535E-02
1.74700000000E+09	-1.96287245225E-01	9.08155279330E-03	5.08981696537E-02	5.19676409997E-02	4.98966645485E-02	5.24326390371E-02	2.60543476141E-01	-4.04619071478E-02
1.74750000000E+09	-1.98546165646E-01	1.17205453827E-02	5.19103193095E-02	5.08556399853E-02	5.09259057372E-02	5.13510854145E-02	2.58033657719E-01	-4.50084481320E-02
1.74800000000E+09	-2.00707134950E-01	1.44730622101E-02	5.29057929626E-02	4.97513515275E-02	5.19197850222E-02	5.02593233181E-02	2.55410392166E-01	-4.94572542430E-02
1.74850000000E+09	-2.02775944549E-01	1.73363499511E-02	5.38681124036E-02	4.86280880953E-02	5.28967659793E-02	4.91482318737E-02	2.52639182125E-01	-5.38438950961E-02
1.74900000000E+09	-2.04740523124E-01	2.02878264641E-02	5.48040521967E-02	4.74665323625E-02	5.38428608843E-02	4.80247108807E-02	2.49702777363E-01	-5.81752073582E-02
1.74950000000E+09	-2.06574985977E-01	2.33501307749E-02	5.57181028246E-02	4.63090053976E-02	5.47665167796E-02	4.68754241891E-02	2.46645955533E-01	-6.23608433847E-02
1.75000000000E+09	-2.08284460887E-01	2.65128433362E-02	5.65986254665E-02	4.51313731319E-02	5.56753691882E-02	4.57307413609E-02	2.43450101004E-01	-6.65042407173E-02
1.75050000000E+09	-2.09880184771E-01	2.97674227170E-02	5.74734397512E-02	4.39564034164E-02	5.65413280338E-02	4.45520315507E-02	2.40123496656E-01	-7.05231182750E-02
1.75100000000E+09	-2.11336529397E-01	3.31085595813E-02	5.83192240527E-02	4.27476216152E-02	5.73983644072E-02	4.33788952356E-02	2.36669258372E-01	-7.44550141529E-02
1.75150000000E+09	-2.12643183045E-01	3.65071465506E-02	5.91307073751E-02	4.15174295970E-02	5.82174423464E-02	4.21713397143E-02	2.33078393585E-01	-7.82820035946E-02
1.75200000000E+09	-2.13798909606E-01	4.00052076836E-02	5.99344299334E-02	4.02858899183E-02	5.90349082500E-02	4.09630752113E-02	2.29354279422E-01	-8.20154236872E-02
1.75250000000E+09	-2.14833798713E-01	4.35453062674E-02	6.06987989299E-02	3.90495876128E-02	5.98049667021E-02	3.97388122611E-02	2.25543014382E-01	-8.56205141305E-02
1.75300000000E+09	-2.15693634130E-01	4.71464454379E-02	6.14310220579E-02	3.77977997856E-02	6.05653851811E-02	3.85089858019E-02	2.21579233682E-01	-8.91196327964E-02
1.75350000000E+09	-2.16391823833E-01	5.08118281167E-02	6.21532432980E-02	3.65339151424E-02	6.13004636259E-02	3.72670476925E-02	2.17530540454E-01	-9.24920970748E-02
1.75400000000E+09	-2.16945977281E-01	5.44909074848E-02	6.28565076187E-02	3.52727793478E-02	6.20097803915E-02	3.60090581214E-02	2.13344750674E-01	-9.57412956723E-02
1.75450000000E+09	-2.17309823129E-01	5.82454810955E-02	6.35232235363E-02	3.39837275766E-02	6.26971955621E-02	3.47550457303E-02	2.09072958104E-01	-9.88586954184E-02
1.75500000000E+09	-2.17514955367E-01	6.19869632906E-02	6.41604400689E-02	3.26805051187E-02	6.33523497415E-02	3.34693837325E-02	2.04677933023E-01	-1.01851196296E-01
1.75550000000E+09	-2.17565036878E-01	6.57687831431E-02	6.47955621906E-02	3.13883483916E-02	6.39867921538E-02	3.21785194951E-02	2.00197350186E-01	-1.04705282413E-01
1.75600000000E+09	-2.17413408359E-01	6.95501011946E-02	6.53956931388E-02	3.00693449670E-02	6.46098389112E-02	3.08910677537E-02	1.95608045429E-01	-1.07428870125E-01
1.75650000000E+09	-2.17102973978E-01	7.33293945044E-02	6.59733333423E-02	2.87471839364E-02	6.52031885635E-02	2.95874572710E-02	1.90945731525E-01	-1.10008354650E-01
1.75700000000E+09	-2.16608201189E-01	7.70962548491E-02	6.65189038782E-02	2.74125159544E-02	6.57694726304E-02	2.82753190531E-02	1.86173269655E-01	-1.12432718134E-01
1.75750000000E+09	-2.15936017731E-01	8.08554568694E-02	6.70594292109E-02	2.60852845935E-02	6.63203970208E-02	2.69517684736E-02	1.81348887720E-01	-1.14710924745E-01
1.75800000000E+09	-2.15064405676E-01	8.45706202772E-02	6.75533940514E-02	2.47277570844E-02	6.68374861026E-02	2.56219966881E-02	1.76421845597E-01	-1.16839711459E-01
1.75850000000E+09	-2.14028024653E-01	8.82507554515E-02	6.80462745492E-02	2.33696881741E-02	6.73458903139E-02	2.42837233961E-02	1.71421971516E-01	-1.18827044032E-01
1.75900000000E+09	-2.12806499306E-01	9.18503941711E-02	6.85002053533E-02	2.20098691603E-02	6.78282939823E-02	2.29276443065E-02	1.66380173971E-01	-1.20645464583E-01
