# Hz S RI R 50
! CMT, CMT808U, 21440046, 21.4.3/4
! Date: 6/12/2026 9:26:21 AM
! Data: Format (Calibration Info)
! Freq	S11:Re/Im(F2)	S41:Re/Im(F2)	S14:Re/Im(F2)	S44:Re/Im(F2)
1.70000000000E+09	-1.14486722615E-01	1.00660614181E-01	-6.89271314621E-02	2.87673772539E-02	-6.90229459351E-02	2.76924600894E-02	-4.48721331412E-02	1.57553307430E-01
1.70050000000E+09	-1.11751927200E-01	1.00513236753E-01	-6.83166292233E-02	3.02293392508E-02	-6.84236239807E-02	2.91387996969E-02	-4.13598139862E-02	1.61737800713E-01
1.70100000000E+09	-1.09063603618E-01	1.00197888333E-01	-6.76742152177E-02	3.16588889986E-02	-6.77932154494E-02	3.05910655342E-02	-3.77093578586E-02	1.65795299399E-01
1.70150000000E+09	-1.06386022414E-01	9.97209644658E-02	-6.69763157945E-02	3.30813391805E-02	-6.71454501914E-02	3.20041725791E-02	-3.39451642782E-02	1.69733325616E-01
1.70200000000E+09	-1.03761167929E-01	9.91435428379E-02	-6.62703373481E-02	3.45079234844E-02	-6.64539246289E-02	3.34239562625E-02	-3.00303240165E-02	1.73527255439E-01
1.70250000000E+09	-1.01181499702E-01	9.84080059705E-02	-6.55324114377E-02	3.58957293803E-02	-6.57379612912E-02	3.48316846126E-02	-2.60364057752E-02	1.77276520339E-01
1.70300000000E+09	-9.86546708444E-02	9.75360720353E-02	-6.47672417014E-02	3.72812887510E-02	-6.49870475769E-02	3.62268317258E-02	-2.18846704142E-02	1.80857588653E-01
1.70350000000E+09	-9.61941823536E-02	9.65547356857E-02	-6.39585915874E-02	3.86435780854E-02	-6.42139128451E-02	3.75940372704E-02	-1.76571598588E-02	1.84304569775E-01
1.70400000000E+09	-9.38107132970E-02	9.54207236657E-02	-6.31386480662E-02	4.00096984408E-02	-6.34156799762E-02	3.89437680499E-02	-1.33190685318E-02	1.87638358461E-01
1.70450000000E+09	-9.14735596156E-02	9.41984389037E-02	-6.22702856285E-02	4.13471676622E-02	-6.25760004918E-02	4.02873720219E-02	-8.85179304536E-03	1.90830346043E-01
1.70500000000E+09	-8.92373463801E-02	9.28557441606E-02	-6.13886681733E-02	4.26574517000E-02	-6.17107628966E-02	4.16154172054E-02	-4.31132241128E-03	1.93891209474E-01
1.70550000000E+09	-8.70641927396E-02	9.13885406199E-02	-6.04658227542E-02	4.39640308864E-02	-6.08157488702E-02	4.29313758172E-02	3.36625589641E-04	1.96820197814E-01
1.70600000000E+09	-8.49990373641E-02	8.98486621812E-02	-5.95344987502E-02	4.52513986054E-02	-5.98832104520E-02	4.42131975222E-02	5.06919532029E-03	1.99584104769E-01
1.70650000000E+09	-8.29954010333E-02	8.82083068850E-02	-5.85496126072E-02	4.65209533743E-02	-5.89328546851E-02	4.54852608430E-02	9.88559047068E-03	2.02232179784E-01
1.70700000000E+09	-8.11092629829E-02	8.64637290783E-02	-5.75445872180E-02	4.77579496977E-02	-5.79539979642E-02	4.67413661522E-02	1.47848804093E-02	2.04685993056E-01
1.70750000000E+09	-7.93000392573E-02	8.46508779993E-02	-5.65205887783E-02	4.89888908022E-02	-5.69522583702E-02	4.79705885840E-02	1.97497908479E-02	2.07036197500E-01
1.70800000000E+09	-7.75952217683E-02	8.27507687606E-02	-5.54644138607E-02	5.01888574698E-02	-5.59125213425E-02	4.91727601335E-02	2.47920291908E-02	2.09216670553E-01
1.70850000000E+09	-7.59813492547E-02	8.07751599028E-02	-5.43720080092E-02	5.13617598098E-02	-5.48496968556E-02	5.03648329326E-02	2.99138632210E-02	2.11241050234E-01
1.70900000000E+09	-7.44694997922E-02	7.87368283674E-02	-5.32691913332E-02	5.25163439843E-02	-5.37554574527E-02	5.15276857672E-02	3.50869976314E-02	2.13128340926E-01
1.70950000000E+09	-7.30719277668E-02	7.66383560195E-02	-5.21271369646E-02	5.36519554206E-02	-5.26349201348E-02	5.26728875292E-02	4.03072542556E-02	2.14821293900E-01
1.71000000000E+09	-7.17775676593E-02	7.44798992144E-02	-5.09674665491E-02	5.47511980003E-02	-5.14996967380E-02	5.38002218603E-02	4.55888794447E-02	2.16407206738E-01
1.71050000000E+09	-7.05849340424E-02	7.22591398583E-02	-4.97668941451E-02	5.58404796416E-02	-5.03417981675E-02	5.48897545355E-02	5.09007731298E-02	2.17802689115E-01
1.71100000000E+09	-6.94998325303E-02	7.00071751793E-02	-4.85617851027E-02	5.68941378296E-02	-4.91469993295E-02	5.59497478662E-02	5.62779418744E-02	2.19022990282E-01
1.71150000000E+09	-6.85211308031E-02	6.77042762835E-02	-4.73257249373E-02	5.79279397140E-02	-4.79330771173E-02	5.70009867651E-02	6.16878552324E-02	2.20108499604E-01
1.71200000000E+09	-6.76446418866E-02	6.53645724173E-02	-4.60629234037E-02	5.89260006223E-02	-4.66889765254E-02	5.80133557222E-02	6.71123204804E-02	2.21022694599E-01
1.71250000000E+09	-6.68894915065E-02	6.29935991102E-02	-4.47807772492E-02	5.98955633860E-02	-4.54315478457E-02	5.90003382624E-02	7.25751566098E-02	2.21784829624E-01
1.71300000000E+09	-6.62423507445E-02	6.06017362316E-02	-4.34904511784E-02	6.08435473646E-02	-4.41494208216E-02	5.99585108749E-02	7.80588644012E-02	2.22373739362E-01
1.71350000000E+09	-6.56994629233E-02	5.81873301153E-02	-4.21567384667E-02	6.17694424429E-02	-4.28394437863E-02	6.08931861560E-02	8.35502357964E-02	2.22795417109E-01
1.71400000000E+09	-6.52595551659E-02	5.57497181328E-02	-4.08135358898E-02	6.26500346655E-02	-4.15252793564E-02	6.17935785365E-02	8.90622160215E-02	2.23043987441E-01
1.71450000000E+09	-6.49478045489E-02	5.32987132832E-02	-3.94473895879E-02	6.34937516912E-02	-4.01840590547E-02	6.26673954760E-02	9.45832674345E-02	2.23145431708E-01
1.71500000000E+09	-6.47153420494E-02	5.08571571654E-02	-3.80695019907E-02	6.43439968316E-02	-3.88035625599E-02	6.35140867757E-02	1.00100691559E-01	2.23077062473E-01
1.71550000000E+09	-6.46006638658E-02	4.83891677807E-02	-3.66627704546E-02	6.51367249339E-02	-3.74265069112E-02	6.43186124731E-02	1.05600901825E-01	2.22830919941E-01
1.71600000000E+09	-6.45789478328E-02	4.59310319713E-02	-3.52475018600E-02	6.59042746470E-02	-3.60366610779E-02	6.51057787758E-02	1.11099421882E-01	2.22444555649E-01
1.71650000000E+09	-6.46826312863E-02	4.34889757142E-02	-3.38199604150E-02	6.66335390413E-02	-3.46069126730E-02	6.58689316587E-02	1.16610033405E-01	2.21868961748E-01
1.71700000000E+09	-6.48651524894E-02	4.10466781853E-02	-3.23694919356E-02	6.73438926295E-02	-3.31776483642E-02	6.65801473558E-02	1.22072260591E-01	2.21153507976E-01
1.71750000000E+09	-6.51603999384E-02	3.86074815503E-02	-3.08940917563E-02	6.80046596137E-02	-3.17315638506E-02	6.72669842767E-02	1.27506658820E-01	2.20249215415E-01
1.71800000000E+09	-6.55540538143E-02	3.62025027212E-02	-2.94180607145E-02	6.86364283688E-02	-3.02676866721E-02	6.79190446091E-02	1.32944929631E-01	2.19188677873E-01
1.71850000000E+09	-6.60510338869E-02	3.38063322808E-02	-2.79272563399E-02	6.92355362491E-02	-2.87860314911E-02	6.85409924481E-02	1.38335743998E-01	2.17966562910E-01
1.71900000000E+09	-6.66331584266E-02	3.14241518855E-02	-2.64244013256E-02	6.98046284266E-02	-2.72871720709E-02	6.91296136792E-02	1.43687072633E-01	2.16593789515E-01
1.71950000000E+09	-6.73154099340E-02	2.90785683088E-02	-2.49002049096E-02	7.03421643300E-02	-2.57904738562E-02	6.96821419286E-02	1.48992717957E-01	2.15047385811E-01
1.72000000000E+09	-6.81005369880E-02	2.67488136141E-02	-2.33690041432E-02	7.08328871573E-02	-2.42774457815E-02	7.01996364342E-02	1.54258288998E-01	2.13362508341E-01
1.72050000000E+09	-6.89680880186E-02	2.44548840239E-02	-2.18372916358E-02	7.13107615764E-02	-2.27583887532E-02	7.06916958428E-02	1.59437985091E-01	2.11534442733E-01
1.72100000000E+09	-6.99063649240E-02	2.21902615147E-02	-2.02812644710E-02	7.17383127490E-02	-2.12169302823E-02	7.11413637410E-02	1.64605590135E-01	2.09519321593E-01
1.72150000000E+09	-7.09589608458E-02	1.99671894234E-02	-1.87320463814E-02	7.21391822585E-02	-1.96736936099E-02	7.15634615125E-02	1.69691861564E-01	2.07378707198E-01
1.72200000000E+09	-7.20873835705E-02	1.77844825830E-02	-1.71604888153E-02	7.24964362236E-02	-1.81184483561E-02	7.19470277220E-02	1.74708136310E-01	2.05066053301E-01
1.72250000000E+09	-7.32978802012E-02	1.56258474264E-02	-1.56025872353E-02	7.28367671672E-02	-1.65610878363E-02	7.22927781733E-02	1.79674570160E-01	2.02603488634E-01
1.72300000000E+09	-7.45868140801E-02	1.35226783804E-02	-1.40149224915E-02	7.31272073942E-02	-1.49951867683E-02	7.26083454160E-02	1.84563353299E-01	2.00007997534E-01
1.72350000000E+09	-7.59721638750E-02	1.14644047957E-02	-1.24262134971E-02	7.33878955429E-02	-1.34237534477E-02	7.28907490415E-02	1.89371634315E-01	1.97268803104E-01
1.72400000000E+09	-7.74340489725E-02	9.44652600441E-03	-1.08443904400E-02	7.36108463073E-02	-1.18393931265E-02	7.31329863251E-02	1.94095882403E-01	1.94384209357E-01
1.72450000000E+09	-7.89797679249E-02	7.47454580481E-03	-9.24627440496E-03	7.37947709435E-02	-1.02618181513E-02	7.33448313581E-02	1.98719417655E-01	1.91353998908E-01
1.72500000000E+09	-8.05950806524E-02	5.56746776258E-03	-7.65675614630E-03	7.39384542370E-02	-8.67613704440E-03	7.35212748034E-02	2.03253114504E-01	1.88198940315E-01
1.72550000000E+09	-8.22753066203E-02	3.69901999964E-03	-6.06333090860E-03	7.40641021472E-02	-7.08278848736E-03	7.36509592598E-02	2.07693563005E-01	1.84894359340E-01
1.72600000000E+09	-8.40520755245E-02	1.88861084088E-03	-4.46027092310E-03	7.41541194235E-02	-5.49623542873E-03	7.37582009178E-02	2.12051345238E-01	1.81484885020E-01
1.72650000000E+09	-8.58955264665E-02	1.47383389516E-04	-2.86940597598E-03	7.41869056384E-02	-3.91276912296E-03	7.38370020384E-02	2.16313257691E-01	1.77933210230E-01
1.72700000000E+09	-8.78115465768E-02	-1.54470073894E-03	-1.27702863506E-03	7.42054745165E-02	-2.32390589566E-03	7.38656756302E-02	2.20447808980E-01	1.74255756996E-01
1.72750000000E+09	-8.97962468575E-02	-3.17083982568E-03	3.29312870884E-04	7.41792597991E-02	-7.23376828490E-04	7.38545057757E-02	2.24487357700E-01	1.70440023261E-01
1.72800000000E+09	-9.18503109844E-02	-4.73240187558E-03	1.92032938526E-03	7.41240821586E-02	8.52080915331E-04	7.38224189495E-02	2.28396096395E-01	1.66518337864E-01
1.72850000000E+09	-9.39774474453E-02	-6.23862669705E-03	3.50096265184E-03	7.40247879328E-02	2.43992573283E-03	7.37570584731E-02	2.32179308137E-01	1.62481925352E-01
1.72900000000E+09	-9.61714305068E-02	-7.65184707439E-03	5.09347692949E-03	7.39010262310E-02	4.02635281171E-03	7.36488452395E-02	2.35908675357E-01	1.58329742099E-01
1.72950000000E+09	-9.84298626885E-02	-8.99981257763E-03	6.67047288786E-03	7.37271005696E-02	5.59408628418E-03	7.34877502733E-02	2.39429651103E-01	1.54076879636E-01
1.73000000000E+09	-1.00746372268E-01	-1.02777123614E-02	8.25752867172E-03	7.35371209466E-02	7.17513409062E-03	7.33195052050E-02	2.42872872771E-01	1.49705986241E-01
1.73050000000E+09	-1.03132156307E-01	-1.14844864842E-02	9.82046548357E-03	7.32988027818E-02	8.73473145230E-03	7.31126666416E-02	2.46176584184E-01	1.45240308192E-01
1.73100000000E+09	-1.05569555462E-01	-1.25833757136E-02	1.13780798853E-02	7.30338999932E-02	1.03038873226E-02	7.28652397901E-02	2.49340784440E-01	1.40657093294E-01
1.73150000000E+09	-1.08077629800E-01	-1.36405891927E-02	1.29351508242E-02	7.27260891292E-02	1.18597290410E-02	7.25873764404E-02	2.52374655344E-01	1.36011760436E-01
1.73200000000E+09	-1.10631010283E-01	-1.45671883378E-02	1.44864782695E-02	7.23867989518E-02	1.33982243524E-02	7.22875427795E-02	2.55284194771E-01	1.31270801239E-01
1.73250000000E+09	-1.13237883963E-01	-1.54296684796E-02	1.60232601032E-02	7.20242236805E-02	1.49369660557E-02	7.19333026160E-02	2.58026148050E-01	1.26401660415E-01
1.73300000000E+09	-1.15891898923E-01	-1.62050086898E-02	1.75468779084E-02	7.16237520982E-02	1.64654189631E-02	7.15554786824E-02	2.60639562351E-01	1.21508022167E-01
1.73350000000E+09	-1.18582550377E-01	-1.68811063844E-02	1.90730048051E-02	7.11952453947E-02	1.79779298074E-02	7.11373525989E-02	2.63106818969E-01	1.16493290174E-01
1.73400000000E+09	-1.21347826172E-01	-1.74586927348E-02	2.05758129612E-02	7.07262570634E-02	1.94844666154E-02	7.06853565088E-02	2.65414615308E-01	1.11448171741E-01
1.73450000000E+09	-1.24130843318E-01	-1.79368179027E-02	2.20638674409E-02	7.02074190192E-02	2.09771826962E-02	7.02174631746E-02	2.67577743260E-01	1.06284745276E-01
1.73500000000E+09	-1.26962603699E-01	-1.83149845324E-02	2.35533636112E-02	6.96886779032E-02	2.24531901722E-02	6.96989269543E-02	2.69580981286E-01	1.01074833653E-01
1.73550000000E+09	-1.29814417237E-01	-1.85889181617E-02	2.50121056492E-02	6.91301895470E-02	2.39226364623E-02	6.91584673565E-02	2.71443347866E-01	9.57904032005E-02
1.73600000000E+09	-1.32715137406E-01	-1.87608601350E-02	2.64664755418E-02	6.85197260443E-02	2.53795679294E-02	6.85783931312E-02	2.73130123423E-01	9.04745586380E-02
1.73650000000E+09	-1.35632798393E-01	-1.88096287519E-02	2.78978732539E-02	6.78892971621E-02	2.68139236215E-02	6.79726841044E-02	2.74671637909E-01	8.50849405438E-02
1.73700000000E+09	-1.38578320324E-01	-1.87575943800E-02	2.93245615673E-02	6.72374951059E-02	2.82353903145E-02	6.73438490752E-02	2.76039145216E-01	7.96723245249E-02
1.73750000000E+09	-1.41544630231E-01	-1.86088168484E-02	3.07215231598E-02	6.65388192364E-02	2.96486988111E-02	6.66813196138E-02	2.77249314068E-01	7.41904173844E-02
1.73800000000E+09	-1.44527167095E-01	-1.83055454385E-02	3.21132278487E-02	6.58335821705E-02	3.10319117575E-02	6.59844396441E-02	2.78301433217E-01	6.86992960125E-02
1.73850000000E+09	-1.47527331240E-01	-1.79205023608E-02	3.34870723393E-02	6.50896389000E-02	3.24027199924E-02	6.52578730523E-02	2.79203836998E-01	6.31279007771E-02
1.73900000000E+09	-1.50521045399E-01	-1.74059110721E-02	3.48290126856E-02	6.43076056251E-02	3.37540918212E-02	6.45041373007E-02	2.79904094151E-01	5.75735034806E-02
1.73950000000E+09	-1.53509718255E-01	-1.67840874661E-02	3.61589501445E-02	6.35101102161E-02	3.50900856566E-02	6.37224918795E-02	2.80457388805E-01	5.19565748727E-02
1.74000000000E+09	-1.56519803433E-01	-1.60260963265E-02	3.74705565406E-02	6.26752563215E-02	3.63963753326E-02	6.29158244000E-02	2.80837989017E-01	4.63573834059E-02
1.74050000000E+09	-1.59505067412E-01	-1.51471194990E-02	3.87522063212E-02	6.18193696647E-02	3.76897617065E-02	6.20780796139E-02	2.81048448919E-01	4.07306265986E-02
1.74100000000E+09	-1.62496201644E-01	-1.41440475042E-02	4.00204157860E-02	6.09386665696E-02	3.89691763965E-02	6.12176173869E-02	2.81086915651E-01	3.50928728002E-02
1.74150000000E+09	-1.65456791772E-01	-1.30337499450E-02	4.12668241184E-02	6.00236651981E-02	4.02169035652E-02	6.03279081052E-02	2.80974838622E-01	2.94369374998E-02
1.74200000000E+09	-1.68396109241E-01	-1.17884083391E-02	4.24945504381E-02	5.90886088506E-02	4.14535642062E-02	5.94084929741E-02	2.80656994421E-01	2.37730029568E-02
1.74250000000E+09	-1.71314249125E-01	-1.04211754006E-02	4.36941353403E-02	5.81265932398E-02	4.26519933407E-02	5.84690801648E-02	2.80197999987E-01	1.81548016956E-02
1.74300000000E+09	-1.74197523034E-01	-8.92834550895E-03	4.48644958845E-02	5.71524905757E-02	4.38378557560E-02	5.75165929342E-02	2.79535401818E-01	1.25096198927E-02
1.74350000000E+09	-1.77035685672E-01	-7.31813188879E-03	4.60236940807E-02	5.61467615757E-02	4.49980090161E-02	5.65368846850E-02	2.78747545018E-01	6.90833527828E-03
1.74400000000E+09	-1.79829505769E-01	-5.57706693658E-03	4.71543866195E-02	5.51185510311E-02	4.61278384971E-02	5.55262728894E-02	2.77740815341E-01	1.31825873922E-03
1.74450000000E+09	-1.82577248085E-01	-3.70396031769E-03	4.82515721546E-02	5.40686844324E-02	4.72462708245E-02	5.44884077740E-02	2.76580245857E-01	-4.26533137190E-03
1.74500000000E+09	-1.85285972830E-01	-1.73268031152E-03	4.93328335333E-02	5.30016725166E-02	4.83338221718E-02	5.34417923696E-02	2.75259315780E-01	-9.81842703888E-03
1.74550000000E+09	-1.87918892264E-01	3.88842843648E-04	5.03883775733E-02	5.19051810148E-02	4.93907145654E-02	5.23823040969E-02	2.73762735102E-01	-1.53030371442E-02
1.74600000000E+09	-1.90493034680E-01	2.62504723703E-03	5.14126631278E-02	5.08003098716E-02	5.04267846682E-02	5.12884352637E-02	2.72092624141E-01	-2.07729035098E-02
1.74650000000E+09	-1.92990355408E-01	4.97472817916E-03	5.24188948991E-02	4.96759401788E-02	5.14376665916E-02	5.01799427529E-02	2.70243383537E-01	-2.61757445060E-02
1.74700000000E+09	-1.95406000074E-01	7.44494177870E-03	5.33952917207E-02	4.85293164312E-02	5.24172348371E-02	4.90512081674E-02	2.68251324271E-01	-3.15397015381E-02
1.74750000000E+09	-1.97731758762E-01	1.00300756828E-02	5.43381928643E-02	4.73581752573E-02	5.33785740064E-02	4.79087077636E-02	2.66073758274E-01	-3.68548145725E-02
1.74800000000E+09	-1.99970627975E-01	1.27262566540E-02	5.52703866962E-02	4.61875675878E-02	5.43111507181E-02	4.67545527092E-02	2.63754341958E-01	-4.20943039022E-02
1.74850000000E+09	-2.02115814040E-01	1.55436094934E-02	5.61541243960E-02	4.49887360855E-02	5.52241679809E-02	4.55830093241E-02	2.61253549051E-01	-4.72618310636E-02
1.74900000000E+09	-2.04152857710E-01	1.84556883398E-02	5.70267297806E-02	4.37859087280E-02	5.60898531775E-02	4.43816098632E-02	2.58593021037E-01	-5.23980430424E-02
1.74950000000E+09	-2.06075404736E-01	2.14700049833E-02	5.78670809097E-02	4.25632314012E-02	5.69517102066E-02	4.31907865733E-02	2.55766490284E-01	-5.73964631935E-02
1.75000000000E+09	-2.07861701712E-01	2.46116271945E-02	5.86772494319E-02	4.13230781443E-02	5.77734720611E-02	4.19661299058E-02	2.52776747730E-01	-6.23637062409E-02
1.75050000000E+09	-2.09527531621E-01	2.78200428341E-02	5.94612009473E-02	4.00715716632E-02	5.85656384589E-02	4.07291341882E-02	2.49642526374E-01	-6.72030338087E-02
1.75100000000E+09	-2.11078506102E-01	3.11309133068E-02	6.02237834043E-02	3.88152169135E-02	5.93513554810E-02	3.94969387951E-02	2.46351269476E-01	-7.19813617279E-02
1.75150000000E+09	-2.12501655124E-01	3.45185547069E-02	6.09666029950E-02	3.75353906970E-02	6.00810458023E-02	3.82324448791E-02	2.42917411805E-01	-7.66551615764E-02
1.75200000000E+09	-2.13751235204E-01	3.79681921841E-02	6.16617253761E-02	3.62653307585E-02	6.08103379218E-02	3.69762351442E-02	2.39334212065E-01	-8.12313833105E-02
1.75250000000E+09	-2.14877742711E-01	4.14960621677E-02	6.23402553494E-02	3.49554799266E-02	6.14908956546E-02	3.57054473462E-02	2.35609972469E-01	-8.56836729610E-02
1.75300000000E+09	-2.15842712740E-01	4.50821262640E-02	6.29908187981E-02	3.36584714273E-02	6.21671831373E-02	3.44266258942E-02	2.31710435575E-01	-9.00443073033E-02
1.75350000000E+09	-2.16640749497E-01	4.87322520990E-02	6.36167987995E-02	3.23630051382E-02	6.28090174537E-02	3.31417978588E-02	2.27730410487E-01	-9.42781554089E-02
1.75400000000E+09	-2.17295643492E-01	5.24291894626E-02	6.42162180640E-02	3.10375573051E-02	6.34143860429E-02	3.18335166480E-02	2.23554911091E-01	-9.83798187678E-02
1.75450000000E+09	-2.17779601938E-01	5.61577740910E-02	6.47850745372E-02	2.97144775634E-02	6.40028938702E-02	3.05288062106E-02	2.19276242661E-01	-1.02368621623E-01
1.75500000000E+09	-2.18098756841E-01	5.99198071218E-02	6.53302693727E-02	2.83741095677E-02	6.45562319847E-02	2.92093522192E-02	2.14847647423E-01	-1.06235641973E-01
1.75550000000E+09	-2.18254211497E-01	6.37087859263E-02	6.58556875216E-02	2.70390186039E-02	6.50955664145E-02	2.78907968870E-02	2.10317979224E-01	-1.09957297438E-01
1.75600000000E+09	-2.18230386506E-01	6.75153546966E-02	6.63427005779E-02	2.56849268302E-02	6.56143683154E-02	2.65616934641E-02	2.05652035162E-01	-1.13549403118E-01
1.75650000000E+09	-2.18022576528E-01	7.13208950388E-02	6.68088234758E-02	2.43435593313E-02	6.60934529785E-02	2.52248600681E-02	2.00867279270E-01	-1.16984683764E-01
1.75700000000E+09	-2.17631808696E-01	7.51215368591E-02	6.72568069333E-02	2.29878057148E-02	6.65604765646E-02	2.38931405926E-02	1.95977680875E-01	-1.20291618700E-01
1.75750000000E+09	-2.17072666273E-01	7.89232036629E-02	6.76856194836E-02	2.16245008660E-02	6.69926754326E-02	2.25504295722E-02	1.90964206287E-01	-1.23453331543E-01
1.75800000000E+09	-2.16333089696E-01	8.26876597359E-02	6.80771899021E-02	2.02667248652E-02	6.74090293775E-02	2.11969240813E-02	1.85873583663E-01	-1.26445494095E-01
1.75850000000E+09	-2.15409872623E-01	8.64212303590E-02	6.84538530527E-02	1.88998333084E-02	6.77977260959E-02	1.98456519173E-02	1.80650959716E-01	-1.29277679980E-01
1.75900000000E+09	-2.14294909799E-01	9.00840608053E-02	6.87885716064E-02	1.75266837222E-02	6.81571891947E-02	1.84917335210E-02	1.75359377661E-01	-1.31944884511E-01
