# Hz S RI R 50
! CMT, CMT808U, 21440046, 21.4.3/4
! Date: 3/28/2026 4:54:47 PM
! Data: Format (Calibration Info)
! Freq	S11:Re/Im(F2)	S41:Re/Im(F2)	S14:Re/Im(F2)	S44:Re/Im(F2)
1.90000000000E+09	3.97771376689E-02	2.50916975406E-01	4.92368345797E-02	4.45351977660E-02	4.89092602459E-02	4.47167191523E-02	-9.69596785138E-02	1.68636723761E-01
1.90030000000E+09	4.14278321370E-02	2.50836886827E-01	4.97536814809E-02	4.39576742128E-02	4.94234908044E-02	4.40949737419E-02	-9.42798330850E-02	1.71697634955E-01
1.90060000000E+09	4.31296397511E-02	2.50584632850E-01	5.02354622290E-02	4.33581425687E-02	4.99373105057E-02	4.34783559733E-02	-9.15823479993E-02	1.74824798936E-01
1.90090000000E+09	4.48096974879E-02	2.50468815451E-01	5.07507540287E-02	4.27377590345E-02	5.04135962642E-02	4.28743536672E-02	-8.87179511357E-02	1.77790181022E-01
1.90120000000E+09	4.65184634985E-02	2.50258018160E-01	5.12497176310E-02	4.21023759977E-02	5.09177912992E-02	4.22544173266E-02	-8.58892883381E-02	1.80773273415E-01
1.90150000000E+09	4.82086220887E-02	2.49941412057E-01	5.17136480887E-02	4.14957401650E-02	5.14083325996E-02	4.16557916804E-02	-8.29824174905E-02	1.83672009041E-01
1.90180000000E+09	4.99361421348E-02	2.49688481319E-01	5.21776853341E-02	4.08393419813E-02	5.18769661860E-02	4.10286144427E-02	-8.00541701180E-02	1.86501143786E-01
1.90210000000E+09	5.15881204215E-02	2.49433475878E-01	5.26377819020E-02	4.02255654054E-02	5.23453932967E-02	4.03964154267E-02	-7.70552452195E-02	1.89295563434E-01
1.90240000000E+09	5.33631731855E-02	2.49112172715E-01	5.31161113206E-02	3.95934687475E-02	5.27971427608E-02	3.97369366460E-02	-7.39923964889E-02	1.91982877668E-01
1.90270000000E+09	5.49619494534E-02	2.48696582530E-01	5.35594842789E-02	3.89798897909E-02	5.32343544373E-02	3.91131878908E-02	-7.08840830827E-02	1.94693631722E-01
1.90300000000E+09	5.66576736031E-02	2.48358700443E-01	5.39788097621E-02	3.83083559035E-02	5.36811320597E-02	3.84504753010E-02	-6.77633340693E-02	1.97277153258E-01
1.90330000000E+09	5.83850467939E-02	2.47937638020E-01	5.44171703164E-02	3.76604393220E-02	5.41246545341E-02	3.78319773474E-02	-6.45865831712E-02	1.99855199638E-01
1.90360000000E+09	6.00787617601E-02	2.47525658813E-01	5.48686471257E-02	3.69744478912E-02	5.45586731680E-02	3.71576014022E-02	-6.13842600294E-02	2.02267350149E-01
1.90390000000E+09	6.17662272721E-02	2.47057908392E-01	5.53026142204E-02	3.63341358793E-02	5.49724274311E-02	3.64974742736E-02	-5.80600110323E-02	2.04684827600E-01
1.90420000000E+09	6.34941160372E-02	2.46590659197E-01	5.56656540180E-02	3.56585311177E-02	5.54110234457E-02	3.58558575610E-02	-5.48097676912E-02	2.07035404631E-01
1.90450000000E+09	6.51202995417E-02	2.46051310034E-01	5.61034619447E-02	3.50022254423E-02	5.58014895745E-02	3.51979577212E-02	-5.14504953658E-02	2.09310583827E-01
1.90480000000E+09	6.68596000598E-02	2.45522144209E-01	5.64796574484E-02	3.43341412149E-02	5.61748735755E-02	3.45195362108E-02	-4.80572777946E-02	2.11464594790E-01
1.90510000000E+09	6.85506228992E-02	2.44948269328E-01	5.68974143053E-02	3.36438365362E-02	5.65950277150E-02	3.38595487490E-02	-4.46489575503E-02	2.13710901396E-01
1.90540000000E+09	7.01768371498E-02	2.44327925506E-01	5.72247059363E-02	3.29690070543E-02	5.69842538362E-02	3.31918684385E-02	-4.12337652228E-02	2.15828519867E-01
1.90570000000E+09	7.18741441713E-02	2.43729433806E-01	5.76464161542E-02	3.22737984647E-02	5.73584533106E-02	3.24917732552E-02	-3.76564421267E-02	2.17712187121E-01
1.90600000000E+09	7.35497758911E-02	2.43020596982E-01	5.79972311337E-02	3.16049988315E-02	5.77498412212E-02	3.18111850508E-02	-3.41568882116E-02	2.19671570743E-01
1.90630000000E+09	7.52075347208E-02	2.42362409103E-01	5.83992560130E-02	3.09071903803E-02	5.81057517338E-02	3.11338283893E-02	-3.05910671807E-02	2.21597611436E-01
1.90660000000E+09	7.68520821019E-02	2.41585317495E-01	5.87190277824E-02	3.02222438494E-02	5.84440875482E-02	3.04492099633E-02	-2.69861541872E-02	2.23426637514E-01
1.90690000000E+09	7.85585040217E-02	2.40886256479E-01	5.90777537762E-02	2.95273577736E-02	5.88003508583E-02	2.97696112471E-02	-2.34317092366E-02	2.25143599036E-01
1.90720000000E+09	8.01066879055E-02	2.40043987792E-01	5.94058100089E-02	2.88280242830E-02	5.91619017675E-02	2.90687339584E-02	-1.97886272450E-02	2.26819499190E-01
1.90750000000E+09	8.17527526668E-02	2.39298832115E-01	5.97527574883E-02	2.81409356552E-02	5.94610531476E-02	2.83685673275E-02	-1.61709452362E-02	2.28382826004E-01
1.90780000000E+09	8.33390645630E-02	2.38356894131E-01	6.00497482987E-02	2.74199508638E-02	5.98401446031E-02	2.76730271356E-02	-1.24660426962E-02	2.29965838195E-01
1.90810000000E+09	8.49263244607E-02	2.37522761505E-01	6.03871310740E-02	2.67206249195E-02	6.01575852345E-02	2.69493873373E-02	-8.72161154924E-03	2.31400176542E-01
1.90840000000E+09	8.65037098610E-02	2.36678649379E-01	6.06855194374E-02	2.60126468054E-02	6.04392090163E-02	2.62381359112E-02	-4.95715875651E-03	2.32740641846E-01
1.90870000000E+09	8.80884210695E-02	2.35707159570E-01	6.09948744700E-02	2.52765834844E-02	6.07534719133E-02	2.55408138007E-02	-1.24537278639E-03	2.34070643718E-01
1.90900000000E+09	8.96706206073E-02	2.34703011764E-01	6.13135583953E-02	2.45518469218E-02	6.10433556119E-02	2.48286974529E-02	2.55721130823E-03	2.35366317462E-01
1.90930000000E+09	9.12448507105E-02	2.33830508611E-01	6.15903520819E-02	2.38530666807E-02	6.13522865157E-02	2.40872505577E-02	6.30680988466E-03	2.36415672901E-01
1.90960000000E+09	9.26632074777E-02	2.32720362375E-01	6.18415755463E-02	2.31001651895E-02	6.16392371898E-02	2.33862960459E-02	1.01188077696E-02	2.37574352875E-01
1.90990000000E+09	9.42497283397E-02	2.31713287837E-01	6.21687993741E-02	2.24030950133E-02	6.19121503786E-02	2.26728316619E-02	1.39002547015E-02	2.38583660034E-01
1.91020000000E+09	9.56404406063E-02	2.30633691383E-01	6.24192625612E-02	2.16415503584E-02	6.21774323257E-02	2.19410393628E-02	1.76955436226E-02	2.39611850887E-01
1.91050000000E+09	9.71612697315E-02	2.29575776617E-01	6.26524244474E-02	2.09138099140E-02	6.24369008686E-02	2.12092484974E-02	2.15697920083E-02	2.40410282184E-01
1.91080000000E+09	9.86296415988E-02	2.28453349938E-01	6.28939392176E-02	2.02013333027E-02	6.26957156206E-02	2.04801007950E-02	2.54265256777E-02	2.41231715749E-01
1.91110000000E+09	1.00025446262E-01	2.27316534819E-01	6.31732385418E-02	1.94541257935E-02	6.29265580731E-02	1.97284294352E-02	2.93082681758E-02	2.41950700480E-01
1.91140000000E+09	1.01466055488E-01	2.26129083713E-01	6.34036135431E-02	1.87124209324E-02	6.31794368246E-02	1.89930292510E-02	3.31855539832E-02	2.42620662005E-01
1.91170000000E+09	1.02844523790E-01	2.24899784131E-01	6.35901520853E-02	1.79751795227E-02	6.34262758834E-02	1.82310176394E-02	3.70750557601E-02	2.43249878027E-01
1.91200000000E+09	1.04230405718E-01	2.23773989176E-01	6.38613390353E-02	1.72204969723E-02	6.36648359120E-02	1.74990782078E-02	4.10082561610E-02	2.43741166332E-01
1.91230000000E+09	1.05531860975E-01	2.22499047912E-01	6.40624241805E-02	1.64897993384E-02	6.38544945672E-02	1.67392693615E-02	4.48432483521E-02	2.44196877312E-01
1.91260000000E+09	1.06872758579E-01	2.21204474989E-01	6.42568843273E-02	1.57006509872E-02	6.40631434414E-02	1.59913409758E-02	4.87094291250E-02	2.44585050667E-01
1.91290000000E+09	1.08185173672E-01	2.19980337765E-01	6.44637962326E-02	1.49525346294E-02	6.42765402131E-02	1.52332708882E-02	5.26208635404E-02	2.44800427169E-01
1.91320000000E+09	1.09408332233E-01	2.18599361615E-01	6.46315841654E-02	1.41948763663E-02	6.45000183686E-02	1.44753969553E-02	5.65675195872E-02	2.45067696523E-01
1.91350000000E+09	1.10729672733E-01	2.17327486946E-01	6.48476171443E-02	1.34142187184E-02	6.46663629500E-02	1.37137838260E-02	6.03836300107E-02	2.45228163702E-01
1.91380000000E+09	1.11947959942E-01	2.15876795793E-01	6.50088340104E-02	1.26535742938E-02	6.48315969268E-02	1.29521641326E-02	6.42687623356E-02	2.45294900102E-01
1.91410000000E+09	1.13141047599E-01	2.14559770740E-01	6.51812036122E-02	1.18781660101E-02	6.49949780891E-02	1.21796272963E-02	6.81649008834E-02	2.45318224666E-01
1.91440000000E+09	1.14291719996E-01	2.13095486782E-01	6.53173449289E-02	1.11155544722E-02	6.51601273495E-02	1.14330805671E-02	7.19748215221E-02	2.45280346223E-01
1.91470000000E+09	1.15487860234E-01	2.11678520231E-01	6.54973390295E-02	1.03289689012E-02	6.53174816427E-02	1.06398748642E-02	7.59284367778E-02	2.45086017987E-01
1.91500000000E+09	1.16566112488E-01	2.10179414408E-01	6.56085729372E-02	9.58756323025E-03	6.54430259990E-02	9.84922707312E-03	7.98191510174E-02	2.44915208971E-01
1.91530000000E+09	1.17683147956E-01	2.08663836945E-01	6.57833586854E-02	8.79560892342E-03	6.56064336446E-02	9.11058114575E-03	8.36558888905E-02	2.44638569197E-01
1.91560000000E+09	1.18730466881E-01	2.07228006491E-01	6.58812390575E-02	8.00266150620E-03	6.57150911216E-02	8.34305461759E-03	8.74308393745E-02	2.44207547745E-01
1.91590000000E+09	1.19787155725E-01	2.05690599567E-01	6.60168907149E-02	7.24336814400E-03	6.58637441289E-02	7.50139300922E-03	9.13101914464E-02	2.43793207152E-01
1.91620000000E+09	1.20718670677E-01	2.04106526902E-01	6.61172487600E-02	6.43357708836E-03	6.59601298345E-02	6.75398924058E-03	9.50616599992E-02	2.43385820137E-01
1.91650000000E+09	1.21681939023E-01	2.02557978963E-01	6.62375895380E-02	5.64275522561E-03	6.60911706976E-02	5.98135602932E-03	9.88593539019E-02	2.42802880031E-01
1.91680000000E+09	1.22610799228E-01	2.00917207919E-01	6.62866376652E-02	4.83172198179E-03	6.62031645352E-02	5.17931229389E-03	1.02687483018E-01	2.42172826771E-01
1.91710000000E+09	1.23497460239E-01	1.99411447824E-01	6.64023461027E-02	4.04041743708E-03	6.62702501587E-02	4.34182610240E-03	1.06394361838E-01	2.41431598337E-01
1.91740000000E+09	1.24331991869E-01	1.97725068933E-01	6.64628888511E-02	3.25918554124E-03	6.63360223646E-02	3.56024566144E-03	1.10172091269E-01	2.40676655639E-01
1.91770000000E+09	1.25168615305E-01	1.96118443620E-01	6.65541876312E-02	2.46827906180E-03	6.64239209539E-02	2.77638745057E-03	1.13894125265E-01	2.39794552384E-01
1.91800000000E+09	1.25856590111E-01	1.94384385831E-01	6.65689631419E-02	1.62340824937E-03	6.64689485906E-02	1.98798300819E-03	1.17648229780E-01	2.38982887051E-01
1.91830000000E+09	1.26641160516E-01	1.92812048479E-01	6.66794310743E-02	8.45901418969E-04	6.65161039782E-02	1.17254995285E-03	1.21263606221E-01	2.37873192453E-01
1.91860000000E+09	1.27279537941E-01	1.91075313256E-01	6.66870945474E-02	5.60119007375E-05	6.65704333658E-02	3.58124305453E-04	1.24988996549E-01	2.36894588643E-01
1.91890000000E+09	1.27932822615E-01	1.89377588057E-01	6.67315251520E-02	-7.71808916063E-04	6.66184819661E-02	-4.44445851743E-04	1.28593294640E-01	2.35836181924E-01
1.91920000000E+09	1.28535729361E-01	1.87687904328E-01	6.67435819680E-02	-1.58560005259E-03	6.66262105511E-02	-1.25398142260E-03	1.32250282014E-01	2.34590502332E-01
1.91950000000E+09	1.29103482110E-01	1.85964735128E-01	6.67602165210E-02	-2.37892189654E-03	6.66426887056E-02	-2.05239110614E-03	1.35799121307E-01	2.33291759846E-01
1.91980000000E+09	1.29494145482E-01	1.84242384212E-01	6.67608449378E-02	-3.18107426530E-03	6.66492964854E-02	-2.85564958728E-03	1.39347189756E-01	2.32095282915E-01
1.92010000000E+09	1.29998690686E-01	1.82531729496E-01	6.67361975055E-02	-4.00583028410E-03	6.66742566428E-02	-3.69582734356E-03	1.42898165418E-01	2.30683966028E-01
1.92040000000E+09	1.30376509031E-01	1.80732581097E-01	6.67119515832E-02	-4.83971139083E-03	6.66355977692E-02	-4.50119712189E-03	1.46367380726E-01	2.29262780739E-01
1.92070000000E+09	1.30734951462E-01	1.79099743060E-01	6.66938245602E-02	-5.65479762081E-03	6.66198344611E-02	-5.30397583667E-03	1.49823246793E-01	2.27691768920E-01
1.92100000000E+09	1.30978480333E-01	1.77323136632E-01	6.66503683306E-02	-6.46906684810E-03	6.65731147345E-02	-6.10889576064E-03	1.53256777980E-01	2.26189176520E-01
1.92130000000E+09	1.31292031105E-01	1.75623474525E-01	6.66222443261E-02	-7.31753888595E-03	6.65359443235E-02	-6.97696387102E-03	1.56652352262E-01	2.24551616983E-01
1.92160000000E+09	1.31439591430E-01	1.73861321530E-01	6.65580289486E-02	-8.12901382260E-03	6.64778352470E-02	-7.75488329102E-03	1.59995360170E-01	2.22869892039E-01
1.92190000000E+09	1.31623714252E-01	1.72207053522E-01	6.65072821804E-02	-8.93832426984E-03	6.64056790350E-02	-8.60945268530E-03	1.63309967425E-01	2.21154059251E-01
1.92220000000E+09	1.31654339278E-01	1.70517339295E-01	6.64193119725E-02	-9.76655838974E-03	6.63752841809E-02	-9.39103523112E-03	1.66636380335E-01	2.19337183224E-01
1.92250000000E+09	1.31752019694E-01	1.68832904120E-01	6.63479321584E-02	-1.06035889773E-02	6.62726960278E-02	-1.02624219705E-02	1.69891450439E-01	2.17494298808E-01
1.92280000000E+09	1.31724915504E-01	1.67146228547E-01	6.62329557209E-02	-1.14072672623E-02	6.61677676541E-02	-1.10706814586E-02	1.73062377471E-01	2.15490030708E-01
1.92310000000E+09	1.31711044062E-01	1.65513766687E-01	6.61049438429E-02	-1.22425209590E-02	6.60853960116E-02	-1.18952052179E-02	1.76252974216E-01	2.13507727378E-01
1.92340000000E+09	1.31615222105E-01	1.63856691326E-01	6.60080515484E-02	-1.30702035588E-02	6.59376393159E-02	-1.27224850993E-02	1.79412220232E-01	2.11556341914E-01
1.92370000000E+09	1.31476713719E-01	1.62285243332E-01	6.58951353449E-02	-1.38856836856E-02	6.58255608926E-02	-1.35476368705E-02	1.82457767022E-01	2.09480876377E-01
1.92400000000E+09	1.31292035339E-01	1.60692313052E-01	6.57151925840E-02	-1.46967107543E-02	6.57018952593E-02	-1.43985381334E-02	1.85477788565E-01	2.07296585812E-01
1.92430000000E+09	1.31058428974E-01	1.59183797952E-01	6.56025709955E-02	-1.55711823583E-02	6.55516197741E-02	-1.52038515579E-02	1.88562017592E-01	2.05084974012E-01
1.92460000000E+09	1.30792057550E-01	1.57599770084E-01	6.54141717188E-02	-1.63795598536E-02	6.53899351234E-02	-1.60234407333E-02	1.91462563938E-01	2.02829861736E-01
1.92490000000E+09	1.30545178617E-01	1.56095335942E-01	6.52552340546E-02	-1.72153744435E-02	6.52045357361E-02	-1.68633462984E-02	1.94413511462E-01	2.00480998363E-01
1.92520000000E+09	1.30097370898E-01	1.54627273167E-01	6.50415170219E-02	-1.80252307373E-02	6.50388790549E-02	-1.76902430475E-02	1.97243425385E-01	1.98163870473E-01
1.92550000000E+09	1.29780283856E-01	1.53117790849E-01	6.48542219748E-02	-1.88770813192E-02	6.48506248004E-02	-1.85226845757E-02	2.00116001812E-01	1.95751824085E-01
1.92580000000E+09	1.29271111578E-01	1.51714536287E-01	6.46547079725E-02	-1.96803993016E-02	6.46403074646E-02	-1.93752710759E-02	2.02828354773E-01	1.93306681833E-01
1.92610000000E+09	1.28796758510E-01	1.50320138652E-01	6.44190418255E-02	-2.05357471357E-02	6.44421471082E-02	-2.01654968709E-02	2.05594507989E-01	1.90767973682E-01
1.92640000000E+09	1.28264915137E-01	1.49059697254E-01	6.41979414956E-02	-2.13115972975E-02	6.41952576921E-02	-2.09958081513E-02	2.08244784512E-01	1.88187457787E-01
1.92670000000E+09	1.27781635576E-01	1.47733451207E-01	6.39526312446E-02	-2.21691240021E-02	6.39776193800E-02	-2.17941131099E-02	2.10850286309E-01	1.85576629404E-01
1.92700000000E+09	1.27147949989E-01	1.46497338018E-01	6.37118281984E-02	-2.29826978666E-02	6.36891661743E-02	-2.26143018958E-02	2.13398416773E-01	1.82927372723E-01
1.92730000000E+09	1.26514267240E-01	1.45236228353E-01	6.34277882322E-02	-2.37757084426E-02	6.34349996096E-02	-2.34370143535E-02	2.15944518297E-01	1.80276907839E-01
1.92760000000E+09	1.25874349518E-01	1.44025798884E-01	6.31455354420E-02	-2.46167444009E-02	6.31743397698E-02	-2.42687373486E-02	2.18372974716E-01	1.77479170629E-01
1.92790000000E+09	1.25239762157E-01	1.42913290262E-01	6.28708705412E-02	-2.54167525409E-02	6.28631282659E-02	-2.51000728786E-02	2.20812634489E-01	1.74685350828E-01
1.92820000000E+09	1.24487890761E-01	1.41842123750E-01	6.25580116180E-02	-2.62302252327E-02	6.25757289508E-02	-2.58831383888E-02	2.23137872419E-01	1.71855945761E-01
1.92850000000E+09	1.23789611407E-01	1.40812985561E-01	6.22632077501E-02	-2.70119693399E-02	6.22389357838E-02	-2.66859165204E-02	2.25422736838E-01	1.68927535279E-01
1.92880000000E+09	1.22989247169E-01	1.39855473598E-01	6.19148679441E-02	-2.78263521202E-02	6.19442769663E-02	-2.74732640844E-02	2.27597668382E-01	1.66132616951E-01
1.92910000000E+09	1.22244098112E-01	1.38897579826E-01	6.15835955922E-02	-2.86445673214E-02	6.15931240049E-02	-2.82815557958E-02	2.29777449471E-01	1.63093361095E-01
1.92940000000E+09	1.21435501117E-01	1.37989337015E-01	6.12189523256E-02	-2.94104939277E-02	6.12752245576E-02	-2.90831028216E-02	2.31939264325E-01	1.60160101886E-01
1.92970000000E+09	1.20611713002E-01	1.37148997374E-01	6.08759428999E-02	-3.02204220835E-02	6.08929632527E-02	-2.98586186617E-02	2.33995526968E-01	1.57129403421E-01
1.93000000000E+09	1.19828012551E-01	1.36386098634E-01	6.04824665784E-02	-3.09816426826E-02	6.05361825199E-02	-3.06381239723E-02	2.35948716699E-01	1.54045706311E-01
1.93030000000E+09	1.19000338125E-01	1.35704915523E-01	6.01020390181E-02	-3.17553018456E-02	6.01381011745E-02	-3.14376977341E-02	2.37908499581E-01	1.50888513667E-01
1.93060000000E+09	1.18145388773E-01	1.34986348271E-01	5.97179704061E-02	-3.25641534423E-02	5.97533461080E-02	-3.22183051316E-02	2.39825658695E-01	1.47836222827E-01
1.93090000000E+09	1.17307839970E-01	1.34377944851E-01	5.92946101275E-02	-3.33072224346E-02	5.93488793273E-02	-3.29857066656E-02	2.41632053929E-01	1.44654691157E-01
1.93120000000E+09	1.16469231886E-01	1.33795765659E-01	5.89086338238E-02	-3.40978099931E-02	5.89673303295E-02	-3.37795919831E-02	2.43392509305E-01	1.41469702032E-01
1.93150000000E+09	1.15611929486E-01	1.33294924218E-01	5.84653302373E-02	-3.48609196618E-02	5.84935615225E-02	-3.45162197913E-02	2.45054101536E-01	1.38233421809E-01
1.93180000000E+09	1.14784074990E-01	1.32836824966E-01	5.79813018981E-02	-3.56026887758E-02	5.80854091494E-02	-3.52361963944E-02	2.46661679978E-01	1.34999640585E-01
1.93210000000E+09	1.13956072195E-01	1.32419880601E-01	5.75651334601E-02	-3.63631900374E-02	5.76464244954E-02	-3.60298719157E-02	2.48239354318E-01	1.31707370078E-01
1.93240000000E+09	1.13118656691E-01	1.32007348373E-01	5.70627671509E-02	-3.70848937410E-02	5.71667288547E-02	-3.67699205171E-02	2.49749773456E-01	1.28450087598E-01
1.93270000000E+09	1.12273611860E-01	1.31757123657E-01	5.66305929101E-02	-3.78439781800E-02	5.66967905539E-02	-3.74861519584E-02	2.51218988595E-01	1.25047870804E-01
1.93300000000E+09	1.11468430098E-01	1.31513041102E-01	5.61187400259E-02	-3.85386822148E-02	5.62257490331E-02	-3.82375012358E-02	2.52522685102E-01	1.21740121808E-01
1.93330000000E+09	1.10673589129E-01	1.31262026254E-01	5.56110949771E-02	-3.92488671913E-02	5.57496325010E-02	-3.89219678541E-02	2.53915750954E-01	1.18355155012E-01
1.93360000000E+09	1.09928295150E-01	1.31156977986E-01	5.51417303964E-02	-3.99680847641E-02	5.52233412357E-02	-3.96573851422E-02	2.55041204019E-01	1.14916044060E-01
1.93390000000E+09	1.09136236642E-01	1.31020392860E-01	5.46268183692E-02	-4.07027096143E-02	5.47298524242E-02	-4.03390734736E-02	2.56223470911E-01	1.11532501902E-01
1.93420000000E+09	1.08422885178E-01	1.30962232983E-01	5.41102911689E-02	-4.14018831893E-02	5.42129351618E-02	-4.10769163442E-02	2.57380454154E-01	1.08058171134E-01
1.93450000000E+09	1.07703729942E-01	1.30896317408E-01	5.35623252392E-02	-4.20786606372E-02	5.36653220579E-02	-4.17691461447E-02	2.58354708834E-01	1.04621007185E-01
1.93480000000E+09	1.07026323210E-01	1.30943537462E-01	5.30124282594E-02	-4.27474104344E-02	5.31127153601E-02	-4.24214485757E-02	2.59380485236E-01	1.01116620909E-01
1.93510000000E+09	1.06332499507E-01	1.30979797395E-01	5.24634814681E-02	-4.34560756497E-02	5.25856283363E-02	-4.31070307761E-02	2.60251159508E-01	9.76165177865E-02
1.93540000000E+09	1.05718589651E-01	1.31085474446E-01	5.19062308267E-02	-4.40852279817E-02	5.20221616937E-02	-4.37703836196E-02	2.61068717560E-01	9.41175790655E-02
1.93570000000E+09	1.05085700568E-01	1.31239607673E-01	5.13545295559E-02	-4.47712196712E-02	5.14641470845E-02	-4.44291236815E-02	2.61835473609E-01	9.05808854755E-02
