# Hz S RI R 50
! CMT, CMT808U, 21440046, 21.4.3/4
! Date: 3/28/2026 5:06:58 PM
! Data: Format (Calibration Info)
! Freq	S11:Re/Im(F2)	S41:Re/Im(F2)	S14:Re/Im(F2)	S44:Re/Im(F2)
1.90000000000E+09	3.79660195760E-02	2.51164625143E-01	5.23674618020E-02	3.49420064073E-02	5.20714096709E-02	3.51337489421E-02	-1.07995145278E-01	1.73504452486E-01
1.90030000000E+09	3.96573248030E-02	2.51093774459E-01	5.27498580765E-02	3.42593080824E-02	5.24262891640E-02	3.45139304654E-02	-1.05525011517E-01	1.76663395168E-01
1.90060000000E+09	4.13516482512E-02	2.50979472933E-01	5.31757380561E-02	3.36003890053E-02	5.28511854022E-02	3.38187968441E-02	-1.03104910994E-01	1.79852333115E-01
1.90090000000E+09	4.30294697780E-02	2.50785822815E-01	5.34957138361E-02	3.29338597072E-02	5.32246719277E-02	3.31599398419E-02	-1.00447223506E-01	1.82924849529E-01
1.90120000000E+09	4.47166696106E-02	2.50648453315E-01	5.38612981867E-02	3.22595504640E-02	5.35670890241E-02	3.24740451247E-02	-9.79198873221E-02	1.85962235824E-01
1.90150000000E+09	4.64437431080E-02	2.50423047957E-01	5.42251768526E-02	3.15911291128E-02	5.39361378598E-02	3.18199173412E-02	-9.52172421918E-02	1.88946470607E-01
1.90180000000E+09	4.81643584311E-02	2.50269462582E-01	5.45705391777E-02	3.09533273094E-02	5.43051237504E-02	3.11512890975E-02	-9.25646791997E-02	1.91988363975E-01
1.90210000000E+09	4.98748193785E-02	2.49927274549E-01	5.48942069919E-02	3.02328908891E-02	5.46264403240E-02	3.04761211624E-02	-8.97877805663E-02	1.94793975735E-01
1.90240000000E+09	5.16395944156E-02	2.49721307149E-01	5.52571839513E-02	2.95843157886E-02	5.49641724529E-02	2.98114139858E-02	-8.70091231822E-02	1.97641881115E-01
1.90270000000E+09	5.33159207778E-02	2.49362717802E-01	5.55580582053E-02	2.88587365182E-02	5.52712223939E-02	2.91030423576E-02	-8.41465608904E-02	2.00436324594E-01
1.90300000000E+09	5.50128112083E-02	2.49075308213E-01	5.58765795129E-02	2.81756688846E-02	5.56085238207E-02	2.84165863589E-02	-8.12771720157E-02	2.03173796878E-01
1.90330000000E+09	5.67476740770E-02	2.48631853688E-01	5.61948235431E-02	2.74802440750E-02	5.59382756839E-02	2.77415559017E-02	-7.83211547746E-02	2.05878947834E-01
1.90360000000E+09	5.84560319779E-02	2.48343838608E-01	5.64884629530E-02	2.67949648600E-02	5.62396525487E-02	2.70506733993E-02	-7.53129255502E-02	2.08475638323E-01
1.90390000000E+09	6.01574995876E-02	2.47791517070E-01	5.67640648570E-02	2.60868715087E-02	5.64893812728E-02	2.63521025099E-02	-7.22150765279E-02	2.11012723946E-01
1.90420000000E+09	6.19019516260E-02	2.47494212298E-01	5.70868212626E-02	2.53768704032E-02	5.68152473125E-02	2.56602947624E-02	-6.91783313323E-02	2.13489259055E-01
1.90450000000E+09	6.36306626602E-02	2.47000912778E-01	5.73584487831E-02	2.47152973641E-02	5.70675582483E-02	2.49445912592E-02	-6.60420477281E-02	2.15982151149E-01
1.90480000000E+09	6.53172030512E-02	2.46451739614E-01	5.75928227842E-02	2.39837523088E-02	5.73463477189E-02	2.42659097906E-02	-6.28217969475E-02	2.18307960402E-01
1.90510000000E+09	6.70676370067E-02	2.45926480201E-01	5.78590001564E-02	2.33150530514E-02	5.76085962727E-02	2.35730672180E-02	-5.96771050653E-02	2.20666873185E-01
1.90540000000E+09	6.87594923407E-02	2.45415512952E-01	5.81136138942E-02	2.25844465197E-02	5.78571802913E-02	2.28704444348E-02	-5.63741098565E-02	2.22946653945E-01
1.90570000000E+09	7.04664224502E-02	2.44786780140E-01	5.83311997090E-02	2.18959776968E-02	5.81103330833E-02	2.21860380369E-02	-5.30185257039E-02	2.25049591536E-01
1.90600000000E+09	7.21612742122E-02	2.44144236547E-01	5.85884435059E-02	2.11876227203E-02	5.83465304705E-02	2.14545709728E-02	-4.97300146382E-02	2.27158330930E-01
1.90630000000E+09	7.38935181915E-02	2.43465689225E-01	5.88007292669E-02	2.04678533869E-02	5.85556345359E-02	2.07904134846E-02	-4.63672004298E-02	2.29333843574E-01
1.90660000000E+09	7.55573358712E-02	2.42783704362E-01	5.90146977119E-02	1.97363472416E-02	5.88062497702E-02	2.00652271506E-02	-4.29155989687E-02	2.31340733005E-01
1.90690000000E+09	7.72260116856E-02	2.42026507511E-01	5.91903355201E-02	1.90513815213E-02	5.90028886582E-02	1.93412295883E-02	-3.95258645775E-02	2.33243956733E-01
1.90720000000E+09	7.88653409330E-02	2.41376876747E-01	5.94579493703E-02	1.83463961794E-02	5.92259476800E-02	1.86224974465E-02	-3.60339538153E-02	2.35124309703E-01
1.90750000000E+09	8.05166115369E-02	2.40513780252E-01	5.96251184375E-02	1.75948004136E-02	5.93863595203E-02	1.78914751930E-02	-3.25312646401E-02	2.36928893581E-01
1.90780000000E+09	8.21499312816E-02	2.39749743551E-01	5.98050912746E-02	1.68930289463E-02	5.95864720824E-02	1.71991641911E-02	-2.90385775712E-02	2.38698817885E-01
1.90810000000E+09	8.38103176605E-02	2.38877505980E-01	5.99874997376E-02	1.61712999126E-02	5.97557101177E-02	1.64890356581E-02	-2.54660571397E-02	2.40340907196E-01
1.90840000000E+09	8.54046435507E-02	2.38047606462E-01	6.01423439531E-02	1.54517762248E-02	5.99506535920E-02	1.57496071320E-02	-2.18234185255E-02	2.41956798109E-01
1.90870000000E+09	8.69991188166E-02	2.37087868569E-01	6.03140000365E-02	1.47015482798E-02	6.01182283118E-02	1.50384465045E-02	-1.82275389667E-02	2.43493378903E-01
1.90900000000E+09	8.86686674275E-02	2.36145361951E-01	6.05055958448E-02	1.40197510365E-02	6.02683379651E-02	1.43158599801E-02	-1.46208476345E-02	2.44976406487E-01
1.90930000000E+09	9.02475884378E-02	2.35286304558E-01	6.06292867533E-02	1.32882796668E-02	6.04253434172E-02	1.35942147725E-02	-1.09122378424E-02	2.46368679722E-01
1.90960000000E+09	9.17443459779E-02	2.34283410902E-01	6.07539928336E-02	1.25455228725E-02	6.05709183951E-02	1.28805708710E-02	-7.33546688045E-03	2.47692555115E-01
1.90990000000E+09	9.33090973341E-02	2.33215709966E-01	6.08901540118E-02	1.18118500149E-02	6.06893480356E-02	1.21636695228E-02	-3.56834164833E-03	2.48938529353E-01
1.91020000000E+09	9.47989744198E-02	2.32261345887E-01	6.10059843030E-02	1.11162128814E-02	6.08330232388E-02	1.14019854199E-02	1.70634734668E-04	2.50187222059E-01
1.91050000000E+09	9.63165453684E-02	2.31110163055E-01	6.11091520098E-02	1.03931455004E-02	6.09372464094E-02	1.06926122889E-02	3.91457510034E-03	2.51247866412E-01
1.91080000000E+09	9.78463815141E-02	2.30077191068E-01	6.12469393883E-02	9.65055793835E-03	6.10367105886E-02	9.99935278025E-03	7.67325584011E-03	2.52320747951E-01
1.91110000000E+09	9.92897356379E-02	2.28935255008E-01	6.13042905580E-02	8.89965499984E-03	6.11484527803E-02	9.24479111196E-03	1.14703309866E-02	2.53281451291E-01
1.91140000000E+09	1.00776462332E-01	2.27828498957E-01	6.14277141097E-02	8.20935682149E-03	6.12643246571E-02	8.48707712215E-03	1.52629273412E-02	2.54233430104E-01
1.91170000000E+09	1.02195300461E-01	2.26657233561E-01	6.15018294852E-02	7.46358297616E-03	6.13505260702E-02	7.79066272548E-03	1.90495905371E-02	2.55102503494E-01
1.91200000000E+09	1.03621147540E-01	2.25474394330E-01	6.15724594807E-02	6.74566721011E-03	6.14172451183E-02	7.06012389169E-03	2.29058094756E-02	2.55841598762E-01
1.91230000000E+09	1.05006036979E-01	2.24252924472E-01	6.16614788810E-02	6.03581587360E-03	6.14916598975E-02	6.33170416383E-03	2.67240742239E-02	2.56596838784E-01
1.91260000000E+09	1.06410891706E-01	2.23033904523E-01	6.16921049334E-02	5.28641397205E-03	6.15236641900E-02	5.59929762824E-03	3.05520454132E-02	2.57264877540E-01
1.91290000000E+09	1.07732887336E-01	2.21819954749E-01	6.17565971074E-02	4.54680590349E-03	6.16169604566E-02	4.89958951736E-03	3.43988349568E-02	2.57782692266E-01
1.91320000000E+09	1.09079807838E-01	2.20428373157E-01	6.18188489298E-02	3.80214869599E-03	6.16567913025E-02	4.15671870412E-03	3.82131737662E-02	2.58307635835E-01
1.91350000000E+09	1.10410793111E-01	2.19110119466E-01	6.18434646496E-02	3.06934555152E-03	6.17154822267E-02	3.45189626594E-03	4.21258011535E-02	2.58688797056E-01
1.91380000000E+09	1.11702995808E-01	2.17837807203E-01	6.18785907617E-02	2.35774470155E-03	6.17415168776E-02	2.69882554519E-03	4.60250183051E-02	2.59133440740E-01
1.91410000000E+09	1.12916137478E-01	2.16388685667E-01	6.18950203749E-02	1.63702875544E-03	6.17628069926E-02	1.97050095545E-03	4.98522851670E-02	2.59339702658E-01
1.91440000000E+09	1.14166819478E-01	2.14961574342E-01	6.19117035113E-02	9.31603329543E-04	6.17723139936E-02	1.24332903477E-03	5.37090121282E-02	2.59574825834E-01
1.91470000000E+09	1.15393437525E-01	2.13585556291E-01	6.19203354111E-02	1.62417319801E-04	6.18077281362E-02	5.08199982388E-04	5.76131848483E-02	2.59711977653E-01
1.91500000000E+09	1.16540315264E-01	2.12135603290E-01	6.19240224166E-02	-5.73092188476E-04	6.18012013048E-02	-2.21959524248E-04	6.14860722936E-02	2.59813380088E-01
1.91530000000E+09	1.17728522918E-01	2.10628261911E-01	6.19419619975E-02	-1.32054012193E-03	6.18017494880E-02	-9.82945030084E-04	6.53688032842E-02	2.59804750268E-01
1.91560000000E+09	1.18773975627E-01	2.09201391555E-01	6.18826350342E-02	-2.04386990004E-03	6.17887480185E-02	-1.68118579115E-03	6.91438677993E-02	2.59718581055E-01
1.91590000000E+09	1.19893694928E-01	2.07607168054E-01	6.18699293157E-02	-2.76979477526E-03	6.17751520264E-02	-2.42646498048E-03	7.30789379709E-02	2.59540589149E-01
1.91620000000E+09	1.20964694846E-01	2.06095089994E-01	6.18493701529E-02	-3.49839295260E-03	6.17380188134E-02	-3.14417428511E-03	7.68970948370E-02	2.59355950050E-01
1.91650000000E+09	1.21983003867E-01	2.04530664601E-01	6.18341140823E-02	-4.26340003475E-03	6.17269254308E-02	-3.89287062385E-03	8.07674263122E-02	2.59080591215E-01
1.91680000000E+09	1.23024032516E-01	2.02940521860E-01	6.17815277089E-02	-4.95483594422E-03	6.16796154168E-02	-4.61149744042E-03	8.45748149951E-02	2.58715305077E-01
1.91710000000E+09	1.23884061170E-01	2.01341259310E-01	6.16963648047E-02	-5.67370064351E-03	6.16380920281E-02	-5.36693008403E-03	8.83739556827E-02	2.58319638143E-01
1.91740000000E+09	1.24867848239E-01	1.99682732684E-01	6.16245158693E-02	-6.41231371514E-03	6.15845131121E-02	-6.08249948733E-03	9.23041806393E-02	2.57917914543E-01
1.91770000000E+09	1.25705161640E-01	1.98090089710E-01	6.15514539141E-02	-7.16763117208E-03	6.15179345469E-02	-6.81027926099E-03	9.60199421334E-02	2.57270517466E-01
1.91800000000E+09	1.26544508286E-01	1.96388860052E-01	6.14981498008E-02	-7.90275291722E-03	6.14412624268E-02	-7.56837802990E-03	9.98632908224E-02	2.56753505557E-01
1.91830000000E+09	1.27334342158E-01	1.94769893854E-01	6.14340931928E-02	-8.62852211039E-03	6.13718944742E-02	-8.28416128011E-03	1.03631349968E-01	2.55900337468E-01
1.91860000000E+09	1.28087476778E-01	1.93011870126E-01	6.13160146740E-02	-9.34544414606E-03	6.13028058582E-02	-9.02073686158E-03	1.07380071166E-01	2.55229531106E-01
1.91890000000E+09	1.28839566229E-01	1.91306518044E-01	6.12293484435E-02	-1.00722556593E-02	6.11929147100E-02	-9.74039174746E-03	1.11163591922E-01	2.54437217442E-01
1.91920000000E+09	1.29549993870E-01	1.89595308514E-01	6.11401531702E-02	-1.08400424485E-02	6.11142786590E-02	-1.04732548258E-02	1.14887467408E-01	2.53512466120E-01
1.91950000000E+09	1.30157660832E-01	1.87835153875E-01	6.10235011979E-02	-1.15671895862E-02	6.09954709656E-02	-1.12219142496E-02	1.18564007582E-01	2.52462855804E-01
1.91980000000E+09	1.30661751177E-01	1.86077223250E-01	6.09081771132E-02	-1.23121684011E-02	6.08465053074E-02	-1.19181181819E-02	1.22248328438E-01	2.51492545477E-01
1.92010000000E+09	1.31208471900E-01	1.84393210469E-01	6.07972915076E-02	-1.30347142914E-02	6.07557152188E-02	-1.26987346600E-02	1.25911484811E-01	2.50425726777E-01
1.92040000000E+09	1.31664171372E-01	1.82584854557E-01	6.06423179224E-02	-1.37814787645E-02	6.06058104686E-02	-1.33923583688E-02	1.29599299887E-01	2.49279321379E-01
1.92070000000E+09	1.32059152124E-01	1.80817962389E-01	6.04932357159E-02	-1.44802714917E-02	6.04930935913E-02	-1.41181831625E-02	1.33168893551E-01	2.47973726560E-01
1.92100000000E+09	1.32445477974E-01	1.79053219685E-01	6.03630555375E-02	-1.52362695627E-02	6.03400603188E-02	-1.48647828881E-02	1.36825305331E-01	2.46853360294E-01
1.92130000000E+09	1.32825911658E-01	1.77338147889E-01	6.01829290892E-02	-1.59722267472E-02	6.01750152123E-02	-1.56000675216E-02	1.40366634303E-01	2.45359940989E-01
1.92160000000E+09	1.33050086835E-01	1.75534055047E-01	5.99808305704E-02	-1.67166001229E-02	6.00297911922E-02	-1.63110265584E-02	1.43909680816E-01	2.44099878437E-01
1.92190000000E+09	1.33267924124E-01	1.73782426017E-01	5.98559446532E-02	-1.74121951188E-02	5.98175904798E-02	-1.70595113224E-02	1.47447598308E-01	2.42574287588E-01
1.92220000000E+09	1.33389284425E-01	1.72067072022E-01	5.96676571246E-02	-1.81410433762E-02	5.96684611055E-02	-1.77826595365E-02	1.50947001293E-01	2.41026939413E-01
1.92250000000E+09	1.33531629466E-01	1.70306463174E-01	5.94572777781E-02	-1.88667888905E-02	5.94617731411E-02	-1.85156051305E-02	1.54449855661E-01	2.39456008033E-01
1.92280000000E+09	1.33604174544E-01	1.68627034085E-01	5.92448125308E-02	-1.96018277316E-02	5.92831087090E-02	-1.92181717043E-02	1.57781460490E-01	2.37754680062E-01
1.92310000000E+09	1.33624322760E-01	1.66894570113E-01	5.90399346547E-02	-2.03367039629E-02	5.90392855587E-02	-1.99812043608E-02	1.61187545238E-01	2.35949761304E-01
1.92340000000E+09	1.33595070321E-01	1.65151124063E-01	5.88342842733E-02	-2.10718946738E-02	5.88511521866E-02	-2.06903970414E-02	1.64565669762E-01	2.34286482087E-01
1.92370000000E+09	1.33565647225E-01	1.63590069491E-01	5.86187481726E-02	-2.18008762774E-02	5.86454121543E-02	-2.14179981050E-02	1.67878291579E-01	2.32447869964E-01
1.92400000000E+09	1.33472233736E-01	1.61933607054E-01	5.83786151888E-02	-2.24990380408E-02	5.84096751534E-02	-2.21569539855E-02	1.71256925402E-01	2.30564058751E-01
1.92430000000E+09	1.33204482589E-01	1.60276033020E-01	5.81290183545E-02	-2.32296765790E-02	5.81286752786E-02	-2.28849857339E-02	1.74450110745E-01	2.28519267936E-01
1.92460000000E+09	1.33095369409E-01	1.58651584714E-01	5.79045312517E-02	-2.39543929777E-02	5.79159832087E-02	-2.35987228525E-02	1.77687200104E-01	2.26587580420E-01
1.92490000000E+09	1.32816737564E-01	1.57088797899E-01	5.76062375391E-02	-2.46657014940E-02	5.76601740867E-02	-2.43303368824E-02	1.80889482865E-01	2.24505736467E-01
1.92520000000E+09	1.32489074112E-01	1.55535733958E-01	5.73518429745E-02	-2.54187713549E-02	5.73719452799E-02	-2.50123445447E-02	1.84012342740E-01	2.22398439563E-01
1.92550000000E+09	1.32173310584E-01	1.53930747110E-01	5.70386217933E-02	-2.60976699503E-02	5.71021069270E-02	-2.57666089404E-02	1.87142722391E-01	2.20158485253E-01
1.92580000000E+09	1.31751262733E-01	1.52454426377E-01	5.67679066240E-02	-2.68259842607E-02	5.68320739233E-02	-2.64621248151E-02	1.90156743041E-01	2.18024232812E-01
1.92610000000E+09	1.31310949948E-01	1.50932348095E-01	5.64864010631E-02	-2.75615749046E-02	5.65100432528E-02	-2.71998443761E-02	1.93233719393E-01	2.15659261498E-01
1.92640000000E+09	1.30771688168E-01	1.49607691395E-01	5.61530501651E-02	-2.82794686843E-02	5.62341675875E-02	-2.78857999906E-02	1.96172441646E-01	2.13350548792E-01
1.92670000000E+09	1.30352325739E-01	1.48149736388E-01	5.58428795914E-02	-2.89864354973E-02	5.58846757522E-02	-2.86021705943E-02	1.99071203627E-01	2.10882799687E-01
1.92700000000E+09	1.29745780901E-01	1.46820076079E-01	5.55156398070E-02	-2.96772769497E-02	5.55846885155E-02	-2.93201608300E-02	2.01969268582E-01	2.08431935904E-01
1.92730000000E+09	1.29168852892E-01	1.45509066030E-01	5.51462458204E-02	-3.03869314221E-02	5.52209101679E-02	-3.00591700943E-02	2.04868654273E-01	2.05966248180E-01
1.92760000000E+09	1.28527492028E-01	1.44187161501E-01	5.48324576894E-02	-3.11036893419E-02	5.49254603162E-02	-3.07504786451E-02	2.07656535303E-01	2.03414730422E-01
1.92790000000E+09	1.27861974391E-01	1.43016767776E-01	5.44794503677E-02	-3.17750801164E-02	5.45378497583E-02	-3.14656778242E-02	2.10386858319E-01	2.00781251865E-01
1.92820000000E+09	1.27188761711E-01	1.41815449470E-01	5.40907999300E-02	-3.24880720802E-02	5.41926240635E-02	-3.21216998823E-02	2.13067790710E-01	1.98202739923E-01
1.92850000000E+09	1.26490768753E-01	1.40665181868E-01	5.37143151415E-02	-3.31891555276E-02	5.38002677925E-02	-3.28323169471E-02	2.15733439971E-01	1.95438117182E-01
1.92880000000E+09	1.25723824147E-01	1.39570418548E-01	5.33333848476E-02	-3.38783536941E-02	5.34219205887E-02	-3.35531714286E-02	2.18334673938E-01	1.92792933900E-01
1.92910000000E+09	1.24963508973E-01	1.38558881310E-01	5.29463258807E-02	-3.45462754557E-02	5.30331587893E-02	-3.42172416374E-02	2.20802335168E-01	1.89961086333E-01
1.92940000000E+09	1.24200991699E-01	1.37548413658E-01	5.25246760004E-02	-3.52524339447E-02	5.26308251644E-02	-3.49298053852E-02	2.23428118280E-01	1.87164419967E-01
1.92970000000E+09	1.23367782198E-01	1.36594240250E-01	5.21174064623E-02	-3.59331151211E-02	5.22155639625E-02	-3.55948987202E-02	2.25820888102E-01	1.84226634332E-01
1.93000000000E+09	1.22537300203E-01	1.35722081672E-01	5.16711454368E-02	-3.66267806901E-02	5.17856777181E-02	-3.62823980531E-02	2.28235478605E-01	1.81363179908E-01
1.93030000000E+09	1.21701130346E-01	1.34931968126E-01	5.12425882713E-02	-3.73085335026E-02	5.13463378836E-02	-3.69418156360E-02	2.30519356918E-01	1.78346654965E-01
1.93060000000E+09	1.20828384712E-01	1.34126463734E-01	5.08018431867E-02	-3.79629895065E-02	5.09190764523E-02	-3.76089477059E-02	2.32903019705E-01	1.75375645707E-01
1.93090000000E+09	1.19948427646E-01	1.33422816107E-01	5.03291545766E-02	-3.86053714327E-02	5.04146025226E-02	-3.82803997166E-02	2.35099627897E-01	1.72320896962E-01
1.93120000000E+09	1.19120014370E-01	1.32778371192E-01	4.98687577520E-02	-3.92737400858E-02	5.00002277112E-02	-3.89465517727E-02	2.37276230793E-01	1.69232080769E-01
1.93150000000E+09	1.18207199333E-01	1.32114664640E-01	4.93706736686E-02	-3.99381117343E-02	4.95031974522E-02	-3.96159347644E-02	2.39352522495E-01	1.66170172594E-01
1.93180000000E+09	1.17350752554E-01	1.31593075505E-01	4.88797528556E-02	-4.05966140096E-02	4.90023925675E-02	-4.02580664473E-02	2.41441676224E-01	1.62990342493E-01
1.93210000000E+09	1.16482726963E-01	1.31084217559E-01	4.84034812527E-02	-4.12208893460E-02	4.85339861093E-02	-4.09174866278E-02	2.43474096769E-01	1.59778147344E-01
1.93240000000E+09	1.15594747535E-01	1.30628355838E-01	4.78881790608E-02	-4.18708726476E-02	4.80330665763E-02	-4.15571327602E-02	2.45456188131E-01	1.56597839636E-01
1.93270000000E+09	1.14685958205E-01	1.30257207994E-01	4.73559333303E-02	-4.24830280003E-02	4.74955104388E-02	-4.21832322809E-02	2.47283063164E-01	1.53304499142E-01
1.93300000000E+09	1.13892428056E-01	1.29893608538E-01	4.68343772690E-02	-4.31205743849E-02	4.69958908640E-02	-4.28053644267E-02	2.49104364905E-01	1.50029846096E-01
1.93330000000E+09	1.13016860220E-01	1.29593420875E-01	4.63175821896E-02	-4.37272933350E-02	4.64744775130E-02	-4.34446269944E-02	2.50960633773E-01	1.46689836963E-01
1.93360000000E+09	1.12257181877E-01	1.29379693325E-01	4.57653450173E-02	-4.43519528676E-02	4.59322772153E-02	-4.40411384072E-02	2.52563900594E-01	1.43360514720E-01
1.93390000000E+09	1.11418548937E-01	1.29177717350E-01	4.51931265641E-02	-4.49784085088E-02	4.53680472522E-02	-4.46422516034E-02	2.54226800515E-01	1.39986376581E-01
1.93420000000E+09	1.10617461598E-01	1.29025081436E-01	4.46044940850E-02	-4.55843979221E-02	4.48197021589E-02	-4.52321964768E-02	2.55873700831E-01	1.36623228402E-01
1.93450000000E+09	1.09839955846E-01	1.28919763235E-01	4.40764869631E-02	-4.61381998648E-02	4.42313381988E-02	-4.58516776900E-02	2.57290840913E-01	1.33086472315E-01
1.93480000000E+09	1.09121711499E-01	1.28887309371E-01	4.34912629956E-02	-4.67090944656E-02	4.36443406860E-02	-4.64137460936E-02	2.58835990534E-01	1.29660123771E-01
1.93510000000E+09	1.08392861110E-01	1.28800961753E-01	4.28523598578E-02	-4.72755979199E-02	4.30740224803E-02	-4.69980630513E-02	2.60230189948E-01	1.26159124391E-01
1.93540000000E+09	1.07683984294E-01	1.28861541513E-01	4.22626092216E-02	-4.78787607150E-02	4.24609148270E-02	-4.75593984020E-02	2.61564727655E-01	1.22641857714E-01
1.93570000000E+09	1.06961424337E-01	1.28928437588E-01	4.16546168591E-02	-4.84579301863E-02	4.18672934701E-02	-4.81116614666E-02	2.62787067069E-01	1.19083646024E-01
