# Hz S RI R 50
! CMT, CMT808U, 21440046, 21.4.3/4
! Date: 3/28/2026 5:05:22 PM
! Data: Format (Calibration Info)
! Freq	S11:Re/Im(F2)	S41:Re/Im(F2)	S14:Re/Im(F2)	S44:Re/Im(F2)
1.90000000000E+09	3.80022062751E-02	2.51487437652E-01	4.84837992618E-02	4.16653386246E-02	4.81199235772E-02	4.18239593181E-02	-9.06004233679E-02	1.84584061097E-01
1.90030000000E+09	3.96285015930E-02	2.51366251677E-01	4.89339386097E-02	4.10692044384E-02	4.86204061771E-02	4.12026954141E-02	-8.78312954859E-02	1.87584344038E-01
1.90060000000E+09	4.13152288170E-02	2.51194377804E-01	4.93862641771E-02	4.04578429450E-02	4.90657816026E-02	4.06191106346E-02	-8.52050894585E-02	1.90758071006E-01
1.90090000000E+09	4.30228100892E-02	2.51015859058E-01	4.98566152273E-02	3.98306781599E-02	4.95188945732E-02	3.99981091827E-02	-8.23822308799E-02	1.93745028293E-01
1.90120000000E+09	4.46823031836E-02	2.50846105026E-01	5.02749303220E-02	3.92125292386E-02	4.99742733118E-02	3.93919535042E-02	-7.95920085493E-02	1.96715734431E-01
1.90150000000E+09	4.64538294411E-02	2.50617719022E-01	5.07526077531E-02	3.85883546255E-02	5.04305557879E-02	3.87878000085E-02	-7.68000385792E-02	1.99643532686E-01
1.90180000000E+09	4.81374009602E-02	2.50372811172E-01	5.11631463941E-02	3.79658487914E-02	5.08436579853E-02	3.81658172740E-02	-7.38859990341E-02	2.02505377401E-01
1.90210000000E+09	4.98421658590E-02	2.50039466417E-01	5.15975333924E-02	3.73391716197E-02	5.12598820241E-02	3.75521347908E-02	-7.09328584242E-02	2.05279026462E-01
1.90240000000E+09	5.16162217468E-02	2.49777867383E-01	5.20022579119E-02	3.67020459478E-02	5.16928904277E-02	3.68953071113E-02	-6.79155177919E-02	2.08004162157E-01
1.90270000000E+09	5.32283248209E-02	2.49393824839E-01	5.24159836681E-02	3.60645442118E-02	5.21075572864E-02	3.62630670083E-02	-6.48396141635E-02	2.10720188304E-01
1.90300000000E+09	5.49407996105E-02	2.49026992673E-01	5.28147422800E-02	3.54129611266E-02	5.25329724188E-02	3.56207629856E-02	-6.17450304890E-02	2.13329976181E-01
1.90330000000E+09	5.66717827123E-02	2.48623648566E-01	5.32024435533E-02	3.48095567299E-02	5.29137637852E-02	3.49866042582E-02	-5.86069336857E-02	2.15925955222E-01
1.90360000000E+09	5.83639315119E-02	2.48256458443E-01	5.35757256026E-02	3.41513109362E-02	5.33027289145E-02	3.43619820220E-02	-5.54210136869E-02	2.18405674457E-01
1.90390000000E+09	6.00398703866E-02	2.47765003638E-01	5.39775003406E-02	3.34924061405E-02	5.36913983462E-02	3.37087355303E-02	-5.21644293489E-02	2.20846967259E-01
1.90420000000E+09	6.18059324060E-02	2.47290196976E-01	5.43325806626E-02	3.28630361725E-02	5.40638368951E-02	3.30559240255E-02	-4.88900010227E-02	2.23193196719E-01
1.90450000000E+09	6.34968829742E-02	2.46796707937E-01	5.46889286814E-02	3.21836318675E-02	5.44470800543E-02	3.24226304541E-02	-4.55241601150E-02	2.25538374057E-01
1.90480000000E+09	6.51707474013E-02	2.46219165996E-01	5.50868213513E-02	3.15166932561E-02	5.47987539749E-02	3.17581679310E-02	-4.21707152839E-02	2.27714220186E-01
1.90510000000E+09	6.68818958046E-02	2.45725089957E-01	5.54166664822E-02	3.08722957879E-02	5.51446449537E-02	3.10747631508E-02	-3.88006425730E-02	2.29970589432E-01
1.90540000000E+09	6.85699439401E-02	2.45122504847E-01	5.57734264461E-02	3.02108992537E-02	5.54828141326E-02	3.04459817312E-02	-3.53416724300E-02	2.32081277186E-01
1.90570000000E+09	7.02651868672E-02	2.44464042946E-01	5.60840250974E-02	2.95282185907E-02	5.58334774221E-02	2.97817647792E-02	-3.18487673195E-02	2.34033225926E-01
1.90600000000E+09	7.19503155296E-02	2.43807316668E-01	5.64267549942E-02	2.88749780859E-02	5.61283914785E-02	2.90852748082E-02	-2.83506750108E-02	2.36047704212E-01
1.90630000000E+09	7.36272934748E-02	2.43158882038E-01	5.67440123944E-02	2.82078806383E-02	5.64888993460E-02	2.84318079851E-02	-2.47069502504E-02	2.38037504452E-01
1.90660000000E+09	7.52871456211E-02	2.42383365670E-01	5.70567057067E-02	2.75010107356E-02	5.68127083605E-02	2.77591826415E-02	-2.11455760180E-02	2.39895948410E-01
1.90690000000E+09	7.69743953615E-02	2.41659172337E-01	5.73697693721E-02	2.68231642550E-02	5.71007408746E-02	2.70749339135E-02	-1.75673182389E-02	2.41661794749E-01
1.90720000000E+09	7.85686753349E-02	2.40894420925E-01	5.76501738885E-02	2.61613617839E-02	5.74014782901E-02	2.63941660449E-02	-1.39001154620E-02	2.43393694903E-01
1.90750000000E+09	8.02040357607E-02	2.40074163936E-01	5.79524065956E-02	2.54592854069E-02	5.77119269518E-02	2.57200104428E-02	-1.02681684998E-02	2.45002966461E-01
1.90780000000E+09	8.18127362753E-02	2.39275056572E-01	5.82259134280E-02	2.47404077903E-02	5.79898240909E-02	2.50458443748E-02	-6.57244267698E-03	2.46639597104E-01
1.90810000000E+09	8.34653386061E-02	2.38355467633E-01	5.85135804087E-02	2.40640228965E-02	5.82803614050E-02	2.43134045904E-02	-2.83613903054E-03	2.48092801324E-01
1.90840000000E+09	8.50066159092E-02	2.37450720129E-01	5.87699741025E-02	2.33649973861E-02	5.85245053457E-02	2.36300589607E-02	9.32437242327E-04	2.49486986494E-01
1.90870000000E+09	8.65757384209E-02	2.36583596280E-01	5.90453834063E-02	2.26547091477E-02	5.88505596344E-02	2.29569161564E-02	4.71636413279E-03	2.50931089595E-01
1.90900000000E+09	8.82072666310E-02	2.35588528284E-01	5.93115345000E-02	2.19568852639E-02	5.90839132256E-02	2.22272987319E-02	8.51679202363E-03	2.52150944720E-01
1.90930000000E+09	8.97155407006E-02	2.34659454366E-01	5.95410173124E-02	2.12966619326E-02	5.93110046240E-02	2.15731878325E-02	1.23413350745E-02	2.53320761905E-01
1.90960000000E+09	9.11712888801E-02	2.33625116224E-01	5.97752153699E-02	2.06038523613E-02	5.96011586007E-02	2.08487829073E-02	1.61869571067E-02	2.54600389164E-01
1.90990000000E+09	9.27408709681E-02	2.32604301671E-01	6.00160138424E-02	1.98602295908E-02	5.98065305997E-02	2.01933297995E-02	2.00379776710E-02	2.55589251954E-01
1.91020000000E+09	9.41731736342E-02	2.31575384497E-01	6.02444487814E-02	1.91681015280E-02	6.00236252098E-02	1.94635990407E-02	2.38542483854E-02	2.56621428440E-01
1.91050000000E+09	9.56873713592E-02	2.30478982276E-01	6.04660987366E-02	1.84702187143E-02	6.02426518979E-02	1.87614777401E-02	2.77789131305E-02	2.57521777630E-01
1.91080000000E+09	9.71872129113E-02	2.29378576982E-01	6.06616337247E-02	1.77603491446E-02	6.04861895949E-02	1.80437499091E-02	3.16987544642E-02	2.58454910542E-01
1.91110000000E+09	9.85445633000E-02	2.28200783290E-01	6.08659534152E-02	1.70419320086E-02	6.06908323444E-02	1.73250031027E-02	3.56387854242E-02	2.59159976045E-01
1.91140000000E+09	1.00025595777E-01	2.27099344609E-01	6.10897177682E-02	1.63192666747E-02	6.08694205376E-02	1.66177507371E-02	3.95451549288E-02	2.59909351809E-01
1.91170000000E+09	1.01412940452E-01	2.25915436697E-01	6.12584032603E-02	1.56338211439E-02	6.10582928567E-02	1.59134727273E-02	4.34983636930E-02	2.60521220408E-01
1.91200000000E+09	1.02802542371E-01	2.24688376847E-01	6.14511138591E-02	1.48741428381E-02	6.12610823073E-02	1.51858619911E-02	4.74501381604E-02	2.61070313511E-01
1.91230000000E+09	1.04139788673E-01	2.23443575818E-01	6.16184279577E-02	1.41723608138E-02	6.14143201438E-02	1.44643914568E-02	5.13791199684E-02	2.61606776680E-01
1.91260000000E+09	1.05466742008E-01	2.22242673162E-01	6.17746361956E-02	1.34480396348E-02	6.15840180402E-02	1.37222231450E-02	5.53560730658E-02	2.62024893853E-01
1.91290000000E+09	1.06768454355E-01	2.20957887663E-01	6.19382044588E-02	1.27396176125E-02	6.17620163009E-02	1.30152852800E-02	5.93013061543E-02	2.62326337403E-01
1.91320000000E+09	1.08051596762E-01	2.19677136352E-01	6.20953528143E-02	1.19625078141E-02	6.19026028730E-02	1.22910822240E-02	6.32948518078E-02	2.62679495870E-01
1.91350000000E+09	1.09400811814E-01	2.18323338139E-01	6.22402471897E-02	1.12277640952E-02	6.20637318859E-02	1.15749438839E-02	6.72690171075E-02	2.62811931389E-01
1.91380000000E+09	1.10632093376E-01	2.16941875677E-01	6.23824326797E-02	1.05032980442E-02	6.22017889317E-02	1.08436952313E-02	7.12371453092E-02	2.62986577936E-01
1.91410000000E+09	1.11803743914E-01	2.15571205684E-01	6.25185319894E-02	9.79719579514E-03	6.23569593031E-02	1.01037162606E-02	7.52205581799E-02	2.62990574622E-01
1.91440000000E+09	1.12983752969E-01	2.14183122774E-01	6.26299681795E-02	9.06116348981E-03	6.24832176143E-02	9.37225750633E-03	7.92426575440E-02	2.63068440603E-01
1.91470000000E+09	1.14207174020E-01	2.12750494231E-01	6.27472523127E-02	8.30193972184E-03	6.26030434969E-02	8.63245898285E-03	8.32004202540E-02	2.62929920318E-01
1.91500000000E+09	1.15281369239E-01	2.11269022213E-01	6.28520659444E-02	7.56185655122E-03	6.27049520625E-02	7.91191621421E-03	8.71171163871E-02	2.62773139491E-01
1.91530000000E+09	1.16387860062E-01	2.09775831910E-01	6.29276777207E-02	6.87078424116E-03	6.27899543680E-02	7.16532285305E-03	9.10837456302E-02	2.62565991602E-01
1.91560000000E+09	1.17454968528E-01	2.08347904956E-01	6.30351693970E-02	6.08761906991E-03	6.28937537008E-02	6.44944868936E-03	9.49708000338E-02	2.62235749094E-01
1.91590000000E+09	1.18498756940E-01	2.06805659956E-01	6.31393760911E-02	5.32932878519E-03	6.29946157343E-02	5.68095516713E-03	9.89733450281E-02	2.61800887770E-01
1.91620000000E+09	1.19504886976E-01	2.05287764460E-01	6.32159920539E-02	4.60058097086E-03	6.30611236901E-02	4.93933863120E-03	1.02895047114E-01	2.61340197990E-01
1.91650000000E+09	1.20471524553E-01	2.03752349083E-01	6.32737149760E-02	3.86179467814E-03	6.31296313473E-02	4.18802461751E-03	1.06815776883E-01	2.60802055033E-01
1.91680000000E+09	1.21471809726E-01	2.02156591028E-01	6.33347579732E-02	3.15825898325E-03	6.32056144528E-02	3.42477165269E-03	1.10738678273E-01	2.60265877410E-01
1.91710000000E+09	1.22320689548E-01	2.00587669646E-01	6.33856645709E-02	2.37655146465E-03	6.32816492490E-02	2.70807392121E-03	1.14622857362E-01	2.59584771935E-01
1.91740000000E+09	1.23215443831E-01	1.98935987113E-01	6.34454092220E-02	1.61118828300E-03	6.33252178789E-02	1.91532134433E-03	1.18535138625E-01	2.58836355501E-01
1.91770000000E+09	1.24059050220E-01	1.97367930419E-01	6.34790722860E-02	8.64342702682E-04	6.33706396895E-02	1.19976855405E-03	1.22324261082E-01	2.58032301447E-01
1.91800000000E+09	1.24840518253E-01	1.95671921255E-01	6.35060326554E-02	1.11132807006E-04	6.34021335785E-02	4.70723780673E-04	1.26185772818E-01	2.57223714369E-01
1.91830000000E+09	1.25573120628E-01	1.94036923540E-01	6.35000711027E-02	-6.55185795403E-04	6.34182414691E-02	-3.27885336979E-04	1.30030423777E-01	2.56149099703E-01
1.91860000000E+09	1.26274076548E-01	1.92350812163E-01	6.35772576158E-02	-1.40724665652E-03	6.34464406073E-02	-1.07175181957E-03	1.33811574023E-01	2.55181924571E-01
1.91890000000E+09	1.26943774741E-01	1.90698704200E-01	6.35727915478E-02	-2.13844412385E-03	6.34520827690E-02	-1.80087164135E-03	1.37614136013E-01	2.54200571643E-01
1.91920000000E+09	1.27613228471E-01	1.88942048149E-01	6.35308037231E-02	-2.92845075701E-03	6.34706093558E-02	-2.58103318150E-03	1.41361449237E-01	2.52985877279E-01
1.91950000000E+09	1.28205924401E-01	1.87259864775E-01	6.35573205999E-02	-3.68074159295E-03	6.34554753674E-02	-3.30546790562E-03	1.45129178067E-01	2.51703417953E-01
1.91980000000E+09	1.28675822480E-01	1.85539443136E-01	6.35176915136E-02	-4.43835179414E-03	6.34587910754E-02	-4.07501502424E-03	1.48845292688E-01	2.50477703160E-01
1.92010000000E+09	1.29191982223E-01	1.83796202944E-01	6.34955591229E-02	-5.21925861759E-03	6.34341162195E-02	-4.86856076322E-03	1.52559479641E-01	2.49109867469E-01
1.92040000000E+09	1.29578528556E-01	1.82111250709E-01	6.34609172953E-02	-5.97419470476E-03	6.33978057373E-02	-5.61123132294E-03	1.56256908505E-01	2.47737846783E-01
1.92070000000E+09	1.29966686814E-01	1.80373777132E-01	6.34138481893E-02	-6.74597305877E-03	6.33482214608E-02	-6.37284824510E-03	1.59758544438E-01	2.46169966682E-01
1.92100000000E+09	1.30293143298E-01	1.78647400378E-01	6.33662362859E-02	-7.52378360961E-03	6.33336670890E-02	-7.14618033679E-03	1.63424728003E-01	2.44680385782E-01
1.92130000000E+09	1.30624047605E-01	1.76925527167E-01	6.33280069087E-02	-8.27234175466E-03	6.32688367873E-02	-7.93948511329E-03	1.67003560437E-01	2.42986366303E-01
1.92160000000E+09	1.30855347024E-01	1.75174385562E-01	6.32338524856E-02	-9.05303944276E-03	6.31741505910E-02	-8.67937583251E-03	1.70537383468E-01	2.41418653882E-01
1.92190000000E+09	1.30999061628E-01	1.73480955816E-01	6.31547931185E-02	-9.79608751135E-03	6.31333786763E-02	-9.45746418604E-03	1.74103816878E-01	2.39631843294E-01
1.92220000000E+09	1.31151892194E-01	1.71795028157E-01	6.30858572987E-02	-1.05748615282E-02	6.30080920909E-02	-1.02368077067E-02	1.77542416497E-01	2.37853278536E-01
1.92250000000E+09	1.31235218165E-01	1.70102580591E-01	6.29965440607E-02	-1.13482301285E-02	6.29822778547E-02	-1.09989964338E-02	1.81024397547E-01	2.35974646104E-01
1.92280000000E+09	1.31257887793E-01	1.68439318507E-01	6.28722017019E-02	-1.21344370375E-02	6.28303519114E-02	-1.17598152402E-02	1.84375751754E-01	2.34052404838E-01
1.92310000000E+09	1.31293181548E-01	1.66790708065E-01	6.27650315431E-02	-1.29281433851E-02	6.27194709915E-02	-1.25426143403E-02	1.87801962028E-01	2.31983364975E-01
1.92340000000E+09	1.31213504840E-01	1.65107954622E-01	6.26515177677E-02	-1.36726340681E-02	6.26101311000E-02	-1.33458793180E-02	1.91091596739E-01	2.30045245966E-01
1.92370000000E+09	1.31150981172E-01	1.63480126667E-01	6.25134212038E-02	-1.44609964734E-02	6.24946542224E-02	-1.41047885989E-02	1.94362456483E-01	2.27944752083E-01
1.92400000000E+09	1.31005662296E-01	1.61908851634E-01	6.23694941595E-02	-1.52268726598E-02	6.23642598620E-02	-1.48865480598E-02	1.97630977953E-01	2.25788482705E-01
1.92430000000E+09	1.30810237512E-01	1.60315367666E-01	6.22103471010E-02	-1.60113197975E-02	6.22045623346E-02	-1.56292263017E-02	2.00860008213E-01	2.23502618191E-01
1.92460000000E+09	1.30573489473E-01	1.58765875677E-01	6.20502903005E-02	-1.67752896846E-02	6.20744335666E-02	-1.64248377782E-02	2.04038812397E-01	2.21269761412E-01
1.92490000000E+09	1.30301368472E-01	1.57229625102E-01	6.18725819388E-02	-1.75433094673E-02	6.18739975160E-02	-1.71999944074E-02	2.07212586364E-01	2.18865187066E-01
1.92520000000E+09	1.29986671116E-01	1.55737856249E-01	6.17017684767E-02	-1.83136437036E-02	6.16999060300E-02	-1.79774384398E-02	2.10215278810E-01	2.16518025102E-01
1.92550000000E+09	1.29621844553E-01	1.54172938223E-01	6.14922078758E-02	-1.90818629760E-02	6.15180589254E-02	-1.87611163469E-02	2.13360204888E-01	2.14089151820E-01
1.92580000000E+09	1.29220609370E-01	1.52771516336E-01	6.13204676479E-02	-1.98525488402E-02	6.13152654284E-02	-1.95330059413E-02	2.16273290667E-01	2.11617735720E-01
1.92610000000E+09	1.28766437827E-01	1.51350455042E-01	6.11084106780E-02	-2.06651370384E-02	6.10895068724E-02	-2.02787702299E-02	2.19234168482E-01	2.08983797194E-01
1.92640000000E+09	1.28240794951E-01	1.50008522819E-01	6.08684262582E-02	-2.14094767802E-02	6.08816900336E-02	-2.10842850181E-02	2.22148842614E-01	2.06430913192E-01
1.92670000000E+09	1.27779918773E-01	1.48650620213E-01	6.06176810615E-02	-2.21994057799E-02	6.06646681626E-02	-2.18294399585E-02	2.24952787790E-01	2.03717221380E-01
1.92700000000E+09	1.27172301371E-01	1.47392604434E-01	6.03857201027E-02	-2.29753449773E-02	6.04128082758E-02	-2.26093906911E-02	2.27768435657E-01	2.00972816063E-01
1.92730000000E+09	1.26561163475E-01	1.46133286141E-01	6.01420083442E-02	-2.37173171970E-02	6.01588636925E-02	-2.33893927933E-02	2.30568530434E-01	1.98240486918E-01
1.92760000000E+09	1.25930054303E-01	1.44874014475E-01	5.98847926656E-02	-2.45031364181E-02	5.98937612500E-02	-2.41393952211E-02	2.33240619591E-01	1.95454063874E-01
1.92790000000E+09	1.25284476573E-01	1.43721969587E-01	5.96067050457E-02	-2.52491105768E-02	5.96187883866E-02	-2.49125964027E-02	2.35869173055E-01	1.92567842092E-01
1.92820000000E+09	1.24595770524E-01	1.42603630403E-01	5.92817312454E-02	-2.60402413201E-02	5.93383637312E-02	-2.56594799502E-02	2.38469481649E-01	1.89683170466E-01
1.92850000000E+09	1.23904180583E-01	1.41552277240E-01	5.89926499317E-02	-2.67783084281E-02	5.90565010518E-02	-2.64605498420E-02	2.41049177135E-01	1.86702502027E-01
1.92880000000E+09	1.23183144821E-01	1.40516982198E-01	5.87250992926E-02	-2.75509174631E-02	5.87522404718E-02	-2.71654207179E-02	2.43445595203E-01	1.83748007913E-01
1.92910000000E+09	1.22408128334E-01	1.39511692356E-01	5.83658399710E-02	-2.83283925540E-02	5.84154496925E-02	-2.80006066808E-02	2.45878344043E-01	1.80652030085E-01
1.92940000000E+09	1.21669892628E-01	1.38559884318E-01	5.80214784055E-02	-2.90695736828E-02	5.81151347369E-02	-2.87484693833E-02	2.48343825267E-01	1.77637448870E-01
1.92970000000E+09	1.20836147486E-01	1.37698076280E-01	5.77040952635E-02	-2.98221523756E-02	5.77413330088E-02	-2.94745338037E-02	2.50637753669E-01	1.74446270853E-01
1.93000000000E+09	1.20040668298E-01	1.36883014005E-01	5.73562101038E-02	-3.05424523020E-02	5.73999261560E-02	-3.02206343386E-02	2.52892713559E-01	1.71324364168E-01
1.93030000000E+09	1.19193593615E-01	1.36151440848E-01	5.69551802493E-02	-3.12980139183E-02	5.70088427822E-02	-3.09725532651E-02	2.55065452374E-01	1.68037943857E-01
1.93060000000E+09	1.18390854420E-01	1.35404140840E-01	5.65793329884E-02	-3.20396895944E-02	5.66535554736E-02	-3.16895821827E-02	2.57246194033E-01	1.64895390073E-01
1.93090000000E+09	1.17530578721E-01	1.34766189866E-01	5.61829650494E-02	-3.27737289943E-02	5.62948401119E-02	-3.24316837975E-02	2.59332221685E-01	1.61586211814E-01
1.93120000000E+09	1.16719533290E-01	1.34169427359E-01	5.57933930259E-02	-3.35179174905E-02	5.58816908202E-02	-3.31543561455E-02	2.61363126609E-01	1.58273482758E-01
1.93150000000E+09	1.15828657570E-01	1.33602212793E-01	5.54032711352E-02	-3.42510699415E-02	5.54726925877E-02	-3.39004370997E-02	2.63291048258E-01	1.54898670961E-01
1.93180000000E+09	1.15042579290E-01	1.33142001231E-01	5.49729360475E-02	-3.49680689016E-02	5.50697246657E-02	-3.46121093870E-02	2.65177541496E-01	1.51490309273E-01
1.93210000000E+09	1.14178893304E-01	1.32684432152E-01	5.45312225323E-02	-3.57017888906E-02	5.46238523242E-02	-3.53504089341E-02	2.67016418733E-01	1.48056196972E-01
1.93240000000E+09	1.13394782087E-01	1.32276018254E-01	5.41022257529E-02	-3.63843152402E-02	5.41792140685E-02	-3.60414109197E-02	2.68822339432E-01	1.44586759430E-01
1.93270000000E+09	1.12539592303E-01	1.31966540597E-01	5.36161567385E-02	-3.70807805562E-02	5.37513748761E-02	-3.67430447012E-02	2.70525336382E-01	1.41074154653E-01
1.93300000000E+09	1.11767056139E-01	1.31692464566E-01	5.31842769896E-02	-3.78053582499E-02	5.32550902275E-02	-3.74625635579E-02	2.72141999236E-01	1.37581776379E-01
1.93330000000E+09	1.10996984612E-01	1.31417893995E-01	5.27068039057E-02	-3.84930555835E-02	5.28019514245E-02	-3.81522306024E-02	2.73758123676E-01	1.34013332992E-01
1.93360000000E+09	1.10216238698E-01	1.31224629193E-01	5.22058992760E-02	-3.91539041613E-02	5.23136682406E-02	-3.88409449384E-02	2.75271453744E-01	1.30465489824E-01
1.93390000000E+09	1.09482166822E-01	1.31078488785E-01	5.17002510144E-02	-3.98205611699E-02	5.18227837360E-02	-3.95173442645E-02	2.76673639202E-01	1.26870472969E-01
1.93420000000E+09	1.08731417063E-01	1.30943885449E-01	5.12022876026E-02	-4.05045547628E-02	5.13153909812E-02	-4.01728659711E-02	2.78092584324E-01	1.23249069023E-01
1.93450000000E+09	1.08076033811E-01	1.30876772822E-01	5.06812216670E-02	-4.11640638371E-02	5.08304697854E-02	-4.08460021494E-02	2.79381108914E-01	1.19619122306E-01
1.93480000000E+09	1.07350385956E-01	1.30859943613E-01	5.01593251240E-02	-4.18221110210E-02	5.03267111305E-02	-4.14982223694E-02	2.80673956898E-01	1.15941331699E-01
1.93510000000E+09	1.06691262562E-01	1.30831985559E-01	4.96213813083E-02	-4.24982988717E-02	4.97409844958E-02	-4.21579007695E-02	2.81831816012E-01	1.12175337274E-01
1.93540000000E+09	1.06043652841E-01	1.30921996631E-01	4.90680326771E-02	-4.30962308060E-02	4.92091891434E-02	-4.28151430157E-02	2.82954601966E-01	1.08455054746E-01
1.93570000000E+09	1.05394544582E-01	1.30996396822E-01	4.85221181333E-02	-4.37560133375E-02	4.86555648783E-02	-4.34195170863E-02	2.84034260305E-01	1.04735464035E-01
