# Hz S RI R 50
! CMT, CMT808U, 21440046, 21.4.3/4
! Date: 3/28/2026 5:04:28 PM
! Data: Format (Calibration Info)
! Freq	S11:Re/Im(F2)	S41:Re/Im(F2)	S14:Re/Im(F2)	S44:Re/Im(F2)
1.90000000000E+09	4.28746884510E-02	2.52843766521E-01	4.86762757679E-02	4.33379813278E-02	4.83356594006E-02	4.34408794317E-02	-1.07759664804E-01	1.69715210421E-01
1.90030000000E+09	4.45939990197E-02	2.52679014247E-01	4.91881596245E-02	4.26541738953E-02	4.88665080492E-02	4.28317000180E-02	-1.05286556156E-01	1.72785040972E-01
1.90060000000E+09	4.63229908355E-02	2.52411729027E-01	4.97142842639E-02	4.20066271804E-02	4.93731197884E-02	4.22002471698E-02	-1.02823660159E-01	1.75958574630E-01
1.90090000000E+09	4.80299409745E-02	2.52169238970E-01	5.02044073744E-02	4.13975686804E-02	4.98732938516E-02	4.15262000298E-02	-1.00216591010E-01	1.78944581747E-01
1.90120000000E+09	4.98055124130E-02	2.51912106487E-01	5.07071357903E-02	4.07059182165E-02	5.03575610217E-02	4.08796062357E-02	-9.76185686522E-02	1.81923996258E-01
1.90150000000E+09	5.15677601813E-02	2.51486228376E-01	5.11773816490E-02	4.00691722384E-02	5.08907408691E-02	4.02222414563E-02	-9.49653082614E-02	1.84926719638E-01
1.90180000000E+09	5.32732691871E-02	2.51204288652E-01	5.16338916679E-02	3.93839235229E-02	5.13262182809E-02	3.95816029920E-02	-9.22566055623E-02	1.87760612637E-01
1.90210000000E+09	5.49955940296E-02	2.50894573267E-01	5.21060239598E-02	3.87006052678E-02	5.17792388012E-02	3.88783193371E-02	-8.94923042128E-02	1.90525710784E-01
1.90240000000E+09	5.67889226825E-02	2.50478354314E-01	5.25473583088E-02	3.80424279009E-02	5.22534503476E-02	3.82220777177E-02	-8.66563250043E-02	1.93325169484E-01
1.90270000000E+09	5.84699144466E-02	2.50001440802E-01	5.29861846951E-02	3.73513702406E-02	5.26781266741E-02	3.75670139696E-02	-8.37861042144E-02	1.96099579933E-01
1.90300000000E+09	6.02183501049E-02	2.49592636557E-01	5.34193740368E-02	3.66804515568E-02	5.31383264255E-02	3.68716926444E-02	-8.08641729261E-02	1.98727817796E-01
1.90330000000E+09	6.19405095823E-02	2.49052316509E-01	5.38511018371E-02	3.59618537407E-02	5.35342727459E-02	3.61641403992E-02	-7.79336814458E-02	2.01375429226E-01
1.90360000000E+09	6.36378513877E-02	2.48640890463E-01	5.42720760523E-02	3.52855979507E-02	5.39809569993E-02	3.55290621454E-02	-7.49157322471E-02	2.03883619308E-01
1.90390000000E+09	6.53644895139E-02	2.47996298054E-01	5.46539151889E-02	3.45863341950E-02	5.43556401753E-02	3.47758864787E-02	-7.17761811238E-02	2.06330495269E-01
1.90420000000E+09	6.71096259073E-02	2.47525869850E-01	5.50484293889E-02	3.38838671468E-02	5.47777364124E-02	3.41159551770E-02	-6.87375951759E-02	2.08757371269E-01
1.90450000000E+09	6.88565407361E-02	2.46966802795E-01	5.54822105566E-02	3.31823856417E-02	5.51764915553E-02	3.33865500347E-02	-6.56042595114E-02	2.11166785936E-01
1.90480000000E+09	7.05519331496E-02	2.46289307352E-01	5.58371796243E-02	3.24690325482E-02	5.55439877372E-02	3.26737597787E-02	-6.23571135161E-02	2.13408649280E-01
1.90510000000E+09	7.23012462741E-02	2.45620777552E-01	5.62134477480E-02	3.17489270340E-02	5.59306936477E-02	3.19567137574E-02	-5.91684962014E-02	2.15697153933E-01
1.90540000000E+09	7.39486013283E-02	2.44961476523E-01	5.65613806799E-02	3.10228285344E-02	5.62939414932E-02	3.12616544714E-02	-5.59059274735E-02	2.17904503739E-01
1.90570000000E+09	7.56993439833E-02	2.44253170273E-01	5.69159138117E-02	3.03107317631E-02	5.66575928461E-02	3.05466962058E-02	-5.25010180700E-02	2.19936584162E-01
1.90600000000E+09	7.74003508445E-02	2.43520014027E-01	5.72651172307E-02	2.95867950001E-02	5.69718452500E-02	2.98293593769E-02	-4.92933670183E-02	2.21994646869E-01
1.90630000000E+09	7.90544456428E-02	2.42724989784E-01	5.75858138754E-02	2.88686578484E-02	5.73083211820E-02	2.91029688355E-02	-4.58457223600E-02	2.24054791055E-01
1.90660000000E+09	8.07228434355E-02	2.41908003402E-01	5.79353286523E-02	2.81590576418E-02	5.75948268247E-02	2.83954339494E-02	-4.24355616539E-02	2.25965008722E-01
1.90690000000E+09	8.23836136804E-02	2.41061085152E-01	5.82124132655E-02	2.74217478632E-02	5.79639627820E-02	2.76663498053E-02	-3.89943216588E-02	2.27798675897E-01
1.90720000000E+09	8.40284384260E-02	2.40217690123E-01	5.85160623040E-02	2.67032158342E-02	5.82776303863E-02	2.69455819176E-02	-3.54515910211E-02	2.29559090672E-01
1.90750000000E+09	8.56279514427E-02	2.39315547269E-01	5.88303726521E-02	2.59527601519E-02	5.85616341199E-02	2.61993514657E-02	-3.20266049349E-02	2.31271584005E-01
1.90780000000E+09	8.72360477674E-02	2.38403022402E-01	5.91063163180E-02	2.52016215686E-02	5.88334540476E-02	2.54606686703E-02	-2.85011568900E-02	2.32978350688E-01
1.90810000000E+09	8.89075132099E-02	2.37411653403E-01	5.93689663335E-02	2.44561352524E-02	5.91024168195E-02	2.47452537054E-02	-2.49030025248E-02	2.34503567111E-01
1.90840000000E+09	9.04884966829E-02	2.36467232935E-01	5.96252122291E-02	2.37315273603E-02	5.93877870675E-02	2.39629068721E-02	-2.12567084887E-02	2.36004086958E-01
1.90870000000E+09	9.20639299938E-02	2.35436505893E-01	5.98978004582E-02	2.29675379405E-02	5.96596909825E-02	2.32701805600E-02	-1.77260406071E-02	2.37440819684E-01
1.90900000000E+09	9.36820805960E-02	2.34339332198E-01	6.01350769672E-02	2.21926665746E-02	5.98964156460E-02	2.25227432568E-02	-1.40286046364E-02	2.38862602819E-01
1.90930000000E+09	9.52109672521E-02	2.33397545061E-01	6.03926024406E-02	2.14926685378E-02	6.01271082511E-02	2.17739629410E-02	-1.03733468588E-02	2.40117873129E-01
1.90960000000E+09	9.66830818973E-02	2.32265468771E-01	6.06021718221E-02	2.07352314956E-02	6.03861177109E-02	2.10057286444E-02	-6.67645591263E-03	2.41419625546E-01
1.90990000000E+09	9.81481614065E-02	2.31106980143E-01	6.08167893312E-02	1.99723721424E-02	6.05927919369E-02	2.02822452912E-02	-2.95700293187E-03	2.42577840821E-01
1.91020000000E+09	9.96529602323E-02	2.29982950350E-01	6.10083228932E-02	1.92413694657E-02	6.08164642279E-02	1.95252286245E-02	6.68311516551E-04	2.43693158685E-01
1.91050000000E+09	1.01101874654E-01	2.28793053084E-01	6.12372722207E-02	1.84966981516E-02	6.10190794698E-02	1.87776550685E-02	4.49791709699E-03	2.44693729078E-01
1.91080000000E+09	1.02595242253E-01	2.27618911532E-01	6.14268973039E-02	1.77297633102E-02	6.12095819087E-02	1.80110825610E-02	8.23059403464E-03	2.45662048627E-01
1.91110000000E+09	1.03968557228E-01	2.26378262006E-01	6.16184386546E-02	1.69322504209E-02	6.14168742281E-02	1.72368210156E-02	1.20355382701E-02	2.46520840269E-01
1.91140000000E+09	1.05417254003E-01	2.25151432122E-01	6.17784885785E-02	1.62030335402E-02	6.16064966804E-02	1.64931800527E-02	1.57560253782E-02	2.47356079207E-01
1.91170000000E+09	1.06818573236E-01	2.23866079216E-01	6.19648520349E-02	1.54358470479E-02	6.17600239082E-02	1.57620699720E-02	1.95840006153E-02	2.48114700678E-01
1.91200000000E+09	1.08153802801E-01	2.22602798590E-01	6.21112349653E-02	1.46839943579E-02	6.19329642003E-02	1.49659144410E-02	2.34228300713E-02	2.48802020862E-01
1.91230000000E+09	1.09484944450E-01	2.21262010390E-01	6.22838979794E-02	1.39325035360E-02	6.20607725887E-02	1.42404605989E-02	2.72244318665E-02	2.49413369269E-01
1.91260000000E+09	1.10811396291E-01	2.19844117058E-01	6.24417826850E-02	1.31478417554E-02	6.22206729138E-02	1.34667908872E-02	3.10469038156E-02	2.49973690803E-01
1.91290000000E+09	1.12086238626E-01	2.18560987377E-01	6.25313337774E-02	1.24012454524E-02	6.23540171394E-02	1.26934588658E-02	3.48358552378E-02	2.50372130683E-01
1.91320000000E+09	1.13342970642E-01	2.17106677504E-01	6.26506365424E-02	1.16242482116E-02	6.24881817643E-02	1.19670632519E-02	3.87376593482E-02	2.50843671306E-01
1.91350000000E+09	1.14639929116E-01	2.15696583668E-01	6.27624333506E-02	1.08734098260E-02	6.26055525805E-02	1.11957891583E-02	4.25621383191E-02	2.51115021020E-01
1.91380000000E+09	1.15849349174E-01	2.14231962683E-01	6.29019063449E-02	1.00934978327E-02	6.27194997461E-02	1.04090211256E-02	4.64530033905E-02	2.51374327478E-01
1.91410000000E+09	1.17012920264E-01	2.12796599367E-01	6.29728885105E-02	9.33896293628E-03	6.28349977639E-02	9.66008406853E-03	5.02639218292E-02	2.51553067747E-01
1.91440000000E+09	1.18132927615E-01	2.11217428044E-01	6.30672848412E-02	8.60134321751E-03	6.29079067117E-02	8.87296977175E-03	5.41214824736E-02	2.51652395870E-01
1.91470000000E+09	1.19300191796E-01	2.09778413514E-01	6.31638863421E-02	7.83642574654E-03	6.30108129651E-02	8.13782865809E-03	5.80005353628E-02	2.51652451126E-01
1.91500000000E+09	1.20351162999E-01	2.08164332779E-01	6.32240442740E-02	7.05083257722E-03	6.30753906443E-02	7.36559295706E-03	6.18132165494E-02	2.51677554270E-01
1.91530000000E+09	1.21470682248E-01	2.06582248752E-01	6.32857553492E-02	6.28776876017E-03	6.31428039383E-02	6.59636096040E-03	6.56118981256E-02	2.51575150750E-01
1.91560000000E+09	1.22482100823E-01	2.05067302476E-01	6.33308093586E-02	5.51898283295E-03	6.31889816189E-02	5.84796975937E-03	6.94283721913E-02	2.51361311964E-01
1.91590000000E+09	1.23522386653E-01	2.03396585398E-01	6.33583658475E-02	4.73358164976E-03	6.32569029459E-02	5.08728165759E-03	7.33064310589E-02	2.51093312162E-01
1.91620000000E+09	1.24427188309E-01	2.01769677627E-01	6.34236318248E-02	3.98606871084E-03	6.32933817697E-02	4.31507931440E-03	7.71145023261E-02	2.50818650389E-01
1.91650000000E+09	1.25386151025E-01	2.00115286701E-01	6.34574802732E-02	3.20723854460E-03	6.33332965494E-02	3.52670636248E-03	8.09478564352E-02	2.50427993500E-01
1.91680000000E+09	1.26271248351E-01	1.98447161915E-01	6.34786947919E-02	2.49866518897E-03	6.33785852836E-02	2.79870147537E-03	8.47402593825E-02	2.49961078082E-01
1.91710000000E+09	1.27152291980E-01	1.96766837571E-01	6.34752691489E-02	1.68452359750E-03	6.33610012036E-02	2.02047572627E-03	8.85422751226E-02	2.49411463669E-01
1.91740000000E+09	1.27934230505E-01	1.95022043747E-01	6.34727168818E-02	9.54634855011E-04	6.33795526889E-02	1.28190102643E-03	9.23570419191E-02	2.48845364337E-01
1.91770000000E+09	1.28745325413E-01	1.93289464342E-01	6.34865572473E-02	1.51705698659E-04	6.33581575080E-02	4.99305313577E-04	9.60296330970E-02	2.48105934331E-01
1.91800000000E+09	1.29435610723E-01	1.91512675907E-01	6.34475131076E-02	-5.83801727488E-04	6.33779878834E-02	-2.49824260288E-04	9.98251581212E-02	2.47511832404E-01
1.91830000000E+09	1.30129675919E-01	1.89820383823E-01	6.34485379646E-02	-1.34894260115E-03	6.33550029959E-02	-1.02470786351E-03	1.03523781379E-01	2.46567945277E-01
1.91860000000E+09	1.30731649070E-01	1.87961952466E-01	6.33987900658E-02	-2.11276403894E-03	6.33000704075E-02	-1.77529032488E-03	1.07289169762E-01	2.45747660437E-01
1.91890000000E+09	1.31351540716E-01	1.86209543128E-01	6.33827403763E-02	-2.89506138343E-03	6.32686736811E-02	-2.54683281874E-03	1.10953607829E-01	2.44877526972E-01
1.91920000000E+09	1.31914285324E-01	1.84421485105E-01	6.33236767142E-02	-3.64530562859E-03	6.32495881620E-02	-3.30524435949E-03	1.14638504175E-01	2.43792659367E-01
1.91950000000E+09	1.32416000769E-01	1.82575265043E-01	6.32804151774E-02	-4.40745359868E-03	6.31950920318E-02	-4.07993270887E-03	1.18300548863E-01	2.42727327759E-01
1.91980000000E+09	1.32797828039E-01	1.80700720683E-01	6.32160269494E-02	-5.15715745164E-03	6.31289864612E-02	-4.82831967367E-03	1.21946209431E-01	2.41654872627E-01
1.92010000000E+09	1.33239301382E-01	1.78943210173E-01	6.31449277749E-02	-5.93058015859E-03	6.30521009017E-02	-5.60324596876E-03	1.25533813125E-01	2.40400458734E-01
1.92040000000E+09	1.33535317009E-01	1.77070253378E-01	6.30511846790E-02	-6.71820207316E-03	6.29857407432E-02	-6.36519505135E-03	1.29132443643E-01	2.39144078828E-01
1.92070000000E+09	1.33832688811E-01	1.75300880367E-01	6.29425919085E-02	-7.44725107664E-03	6.28884828710E-02	-7.06618715999E-03	1.32554548661E-01	2.37696911610E-01
1.92100000000E+09	1.34025233081E-01	1.73461372149E-01	6.28792620046E-02	-8.19981695997E-03	6.28345149062E-02	-7.84742657873E-03	1.36210011984E-01	2.36429538895E-01
1.92130000000E+09	1.34251978999E-01	1.71691443282E-01	6.27576692569E-02	-8.93500966321E-03	6.27055479330E-02	-8.60346428742E-03	1.39685358904E-01	2.34858471802E-01
1.92160000000E+09	1.34319273748E-01	1.69812638144E-01	6.26597007001E-02	-9.72032278456E-03	6.26102487895E-02	-9.35936696158E-03	1.43195576876E-01	2.33459888129E-01
1.92190000000E+09	1.34412823290E-01	1.68039705020E-01	6.25300114950E-02	-1.04404769873E-02	6.24946393557E-02	-1.01043680807E-02	1.46600349180E-01	2.31777113248E-01
1.92220000000E+09	1.34384744471E-01	1.66227375470E-01	6.23871861169E-02	-1.12281020423E-02	6.23701687880E-02	-1.08900273069E-02	1.49982107878E-01	2.30158883017E-01
1.92250000000E+09	1.34357306292E-01	1.64463412705E-01	6.22572020654E-02	-1.19837604590E-02	6.22287240601E-02	-1.16310969372E-02	1.53395985307E-01	2.28438304234E-01
1.92280000000E+09	1.34287139755E-01	1.62703849795E-01	6.21258522994E-02	-1.27172908570E-02	6.21049586615E-02	-1.23527216791E-02	1.56736805986E-01	2.26630563650E-01
1.92310000000E+09	1.34171954477E-01	1.60979785346E-01	6.19709780601E-02	-1.34687937579E-02	6.19240684119E-02	-1.30975806345E-02	1.60013231061E-01	2.24815903486E-01
1.92340000000E+09	1.33954650605E-01	1.59258134206E-01	6.18074325383E-02	-1.41824312508E-02	6.17838655074E-02	-1.38742392314E-02	1.63319996610E-01	2.22975061495E-01
1.92370000000E+09	1.33714873446E-01	1.57606232072E-01	6.16219974014E-02	-1.49557715620E-02	6.16166030751E-02	-1.45897775242E-02	1.66544586170E-01	2.21041453523E-01
1.92400000000E+09	1.33437554236E-01	1.55877056209E-01	6.14410698741E-02	-1.56804004918E-02	6.14482566284E-02	-1.53302741082E-02	1.69736543683E-01	2.19044877500E-01
1.92430000000E+09	1.33053671642E-01	1.54254002000E-01	6.12613870540E-02	-1.64180529402E-02	6.12652313735E-02	-1.60971961872E-02	1.72908875228E-01	2.16947007264E-01
1.92460000000E+09	1.32675494971E-01	1.52621766445E-01	6.10854259062E-02	-1.71737759669E-02	6.10535889708E-02	-1.68433658122E-02	1.76013704603E-01	2.14816395005E-01
1.92490000000E+09	1.32320417690E-01	1.51059331024E-01	6.08893886546E-02	-1.79017665227E-02	6.08673502550E-02	-1.75613365071E-02	1.79130175995E-01	2.12596157939E-01
1.92520000000E+09	1.31752473838E-01	1.49513004427E-01	6.06355509040E-02	-1.86394594062E-02	6.06599559954E-02	-1.83211981697E-02	1.82162147111E-01	2.10415127307E-01
1.92550000000E+09	1.31299357963E-01	1.47951100396E-01	6.04368082622E-02	-1.93845436523E-02	6.04512477439E-02	-1.90530373313E-02	1.85100002863E-01	2.08144906794E-01
1.92580000000E+09	1.30683494538E-01	1.46464364007E-01	6.02165293867E-02	-2.01052991161E-02	6.02118384707E-02	-1.98010866835E-02	1.88072880902E-01	2.05800154672E-01
1.92610000000E+09	1.30047193739E-01	1.44972898056E-01	5.99929048155E-02	-2.08694345302E-02	5.99891345162E-02	-2.05003560854E-02	1.91046914841E-01	2.03412316328E-01
1.92640000000E+09	1.29376876246E-01	1.43651163001E-01	5.97312218965E-02	-2.15588145389E-02	5.97552838658E-02	-2.12227042311E-02	1.93877952966E-01	2.00965303997E-01
1.92670000000E+09	1.28732100713E-01	1.42256857289E-01	5.94767451455E-02	-2.23282477877E-02	5.95038931820E-02	-2.19309343162E-02	1.96658639695E-01	1.98377775393E-01
1.92700000000E+09	1.27939346241E-01	1.40957352333E-01	5.92185918701E-02	-2.30155331079E-02	5.92429863800E-02	-2.26881115215E-02	1.99421011314E-01	1.95892108041E-01
1.92730000000E+09	1.27205222118E-01	1.39712278351E-01	5.89382733233E-02	-2.37421517833E-02	5.89580788568E-02	-2.34269280338E-02	2.02151143503E-01	1.93361432775E-01
1.92760000000E+09	1.26386687253E-01	1.38418426276E-01	5.86767158501E-02	-2.44865495587E-02	5.87114536683E-02	-2.41389519574E-02	2.04836248222E-01	1.90678082273E-01
1.92790000000E+09	1.25573269908E-01	1.37277516304E-01	5.83727301988E-02	-2.52131197630E-02	5.84043756214E-02	-2.48665797331E-02	2.07494821967E-01	1.87950365319E-01
1.92820000000E+09	1.24668278768E-01	1.36152810707E-01	5.80950181632E-02	-2.58910442073E-02	5.81088719541E-02	-2.55571775847E-02	2.10058259759E-01	1.85289252796E-01
1.92850000000E+09	1.23815666252E-01	1.35095781357E-01	5.77693710779E-02	-2.66352512853E-02	5.78188399214E-02	-2.62664942446E-02	2.12534937992E-01	1.82472296537E-01
1.92880000000E+09	1.22861175408E-01	1.34064218213E-01	5.74446823768E-02	-2.73160508128E-02	5.75125702825E-02	-2.70065684919E-02	2.14981280388E-01	1.79671875244E-01
1.92910000000E+09	1.21935111736E-01	1.33144390962E-01	5.71220994152E-02	-2.80399550056E-02	5.72237083565E-02	-2.76999740446E-02	2.17388740041E-01	1.76808876277E-01
1.92940000000E+09	1.20961114792E-01	1.32196376832E-01	5.67935322550E-02	-2.87253105649E-02	5.68595781381E-02	-2.84055230560E-02	2.19854643699E-01	1.73879332195E-01
1.92970000000E+09	1.19983220125E-01	1.31373017876E-01	5.64749394413E-02	-2.94461765779E-02	5.65119139307E-02	-2.91133135035E-02	2.22080087281E-01	1.70907128375E-01
1.93000000000E+09	1.19012793059E-01	1.30583283286E-01	5.60997522092E-02	-3.01416746148E-02	5.61928748574E-02	-2.98151837602E-02	2.24256086790E-01	1.67927910869E-01
1.93030000000E+09	1.17992678959E-01	1.29892893906E-01	5.57576563392E-02	-3.08135390897E-02	5.58417530734E-02	-3.04767949241E-02	2.26543307854E-01	1.64866084483E-01
1.93060000000E+09	1.16950382314E-01	1.29198826540E-01	5.53683783086E-02	-3.15285522832E-02	5.54705737264E-02	-3.11853788734E-02	2.28704966370E-01	1.61837909542E-01
1.93090000000E+09	1.15933871447E-01	1.28602135801E-01	5.50223033011E-02	-3.22159348806E-02	5.50974578513E-02	-3.19021996766E-02	2.30731959327E-01	1.58707514568E-01
1.93120000000E+09	1.14922189085E-01	1.28093654329E-01	5.46559144920E-02	-3.28996758666E-02	5.47063525016E-02	-3.25924602839E-02	2.32836174944E-01	1.55552351582E-01
1.93150000000E+09	1.13874555632E-01	1.27583975274E-01	5.42363354622E-02	-3.35716105093E-02	5.43339945553E-02	-3.32326726746E-02	2.34791087082E-01	1.52389251369E-01
1.93180000000E+09	1.12900800011E-01	1.27199164344E-01	5.38578701269E-02	-3.42558898365E-02	5.39189361914E-02	-3.39399915043E-02	2.36707143489E-01	1.49151308251E-01
1.93210000000E+09	1.11823422797E-01	1.26819455788E-01	5.34093653862E-02	-3.49267570041E-02	5.35149754007E-02	-3.46116156855E-02	2.38542403256E-01	1.45890485565E-01
1.93240000000E+09	1.10856602543E-01	1.26453845034E-01	5.30099139036E-02	-3.56007427299E-02	5.31161093355E-02	-3.52665923917E-02	2.40346836032E-01	1.42595735609E-01
1.93270000000E+09	1.09839038794E-01	1.26281433513E-01	5.25863782558E-02	-3.62474024338E-02	5.26835982378E-02	-3.59418622843E-02	2.42068622798E-01	1.39291699978E-01
1.93300000000E+09	1.08850320457E-01	1.26105460006E-01	5.21453518268E-02	-3.69040629115E-02	5.22531254077E-02	-3.66015553848E-02	2.43711450699E-01	1.35988860102E-01
1.93330000000E+09	1.07883918648E-01	1.25942357068E-01	5.16760765741E-02	-3.75871012429E-02	5.18125945160E-02	-3.72566331117E-02	2.45388429826E-01	1.32582696455E-01
1.93360000000E+09	1.06963839066E-01	1.25888876596E-01	5.12538143008E-02	-3.82484880604E-02	5.13540710441E-02	-3.78819627448E-02	2.46905795295E-01	1.29156039366E-01
1.93390000000E+09	1.06031514162E-01	1.25863282046E-01	5.07892868418E-02	-3.88846075527E-02	5.08698954900E-02	-3.85326296380E-02	2.48319343103E-01	1.25751601673E-01
1.93420000000E+09	1.05107254036E-01	1.25867008797E-01	5.03097828708E-02	-3.94811303477E-02	5.04286841045E-02	-3.91809500871E-02	2.49791116352E-01	1.22330430077E-01
1.93450000000E+09	1.04249809839E-01	1.25951536411E-01	4.98222066844E-02	-4.01254921780E-02	4.99439052678E-02	-3.97995402712E-02	2.51106801802E-01	1.18862974310E-01
1.93480000000E+09	1.03455183037E-01	1.26065764309E-01	4.93346733925E-02	-4.07617223248E-02	4.94670048457E-02	-4.04669877163E-02	2.52449477489E-01	1.15324894419E-01
1.93510000000E+09	1.02611399982E-01	1.26179558117E-01	4.88398007344E-02	-4.13887718599E-02	4.89681358180E-02	-4.10427655064E-02	2.53636509541E-01	1.11822469835E-01
1.93540000000E+09	1.01815777176E-01	1.26434253871E-01	4.83278160787E-02	-4.20076096286E-02	4.85054470900E-02	-4.16797726546E-02	2.54815444560E-01	1.08254590637E-01
1.93570000000E+09	1.01006807850E-01	1.26651897530E-01	4.78244555674E-02	-4.26313343829E-02	4.79667356285E-02	-4.22883992901E-02	2.55850561032E-01	1.04673201649E-01
