# Hz S RI R 50
! CMT, CMT808U, 21440046, 21.4.3/4
! Date: 3/28/2026 5:07:46 PM
! Data: Format (Calibration Info)
! Freq	S11:Re/Im(F2)	S41:Re/Im(F2)	S14:Re/Im(F2)	S44:Re/Im(F2)
1.90000000000E+09	3.89488369529E-02	2.50628165180E-01	5.05890440598E-02	3.73006772683E-02	5.02210095145E-02	3.74824222597E-02	-1.33146479723E-01	1.42989781907E-01
1.90030000000E+09	4.06411285056E-02	2.50518155019E-01	5.09747628374E-02	3.66640596380E-02	5.06358400771E-02	3.68938872266E-02	-1.30997454821E-01	1.46287280373E-01
1.90060000000E+09	4.23218910403E-02	2.50375810713E-01	5.13813029327E-02	3.60541047530E-02	5.10555654742E-02	3.62274763993E-02	-1.28880996929E-01	1.49633022755E-01
1.90090000000E+09	4.40234425137E-02	2.50206457187E-01	5.18123882165E-02	3.53864573984E-02	5.14426724969E-02	3.56135603042E-02	-1.26651706057E-01	1.52849730839E-01
1.90120000000E+09	4.56994413075E-02	2.50015008746E-01	5.21742226766E-02	3.47209852820E-02	5.18869898916E-02	3.49433871418E-02	-1.24386710914E-01	1.56077075960E-01
1.90150000000E+09	4.74269972627E-02	2.49771608945E-01	5.25643131083E-02	3.40796752326E-02	5.22798833354E-02	3.43194153969E-02	-1.22073113512E-01	1.59245635539E-01
1.90180000000E+09	4.91290019093E-02	2.49601080301E-01	5.29832068894E-02	3.34440977454E-02	5.26381271714E-02	3.36601882408E-02	-1.19682456980E-01	1.62313930526E-01
1.90210000000E+09	5.08490731683E-02	2.49364383398E-01	5.33582736831E-02	3.27918952860E-02	5.30112723596E-02	3.30060866493E-02	-1.17163994231E-01	1.65401871289E-01
1.90240000000E+09	5.25862982861E-02	2.49066057716E-01	5.37319863430E-02	3.21182962332E-02	5.33859659641E-02	3.23423087029E-02	-1.14676608269E-01	1.68368992560E-01
1.90270000000E+09	5.42186902179E-02	2.48650365817E-01	5.40533395751E-02	3.14575525223E-02	5.37585021903E-02	3.16698960809E-02	-1.12148349983E-01	1.71407188715E-01
1.90300000000E+09	5.59903658172E-02	2.48383044978E-01	5.43943242720E-02	3.08100788490E-02	5.41145694687E-02	3.10476016626E-02	-1.09481057285E-01	1.74273593097E-01
1.90330000000E+09	5.76933390716E-02	2.47972105219E-01	5.47369551695E-02	3.01117421799E-02	5.44422681184E-02	3.03597715467E-02	-1.06881138071E-01	1.77223752163E-01
1.90360000000E+09	5.93624545241E-02	2.47633599492E-01	5.50635796738E-02	2.94554074151E-02	5.47661905321E-02	2.97020657587E-02	-1.04091139309E-01	1.79984937861E-01
1.90390000000E+09	6.10752984848E-02	2.47134291897E-01	5.53957778932E-02	2.87435586354E-02	5.51371798204E-02	2.90368840879E-02	-1.01347463624E-01	1.82752427503E-01
1.90420000000E+09	6.28130629460E-02	2.46718733288E-01	5.56927146317E-02	2.81213366785E-02	5.54085073574E-02	2.83540853830E-02	-9.85569141081E-02	1.85451900133E-01
1.90450000000E+09	6.45145257364E-02	2.46255171887E-01	5.60538918363E-02	2.74308435720E-02	5.57529150590E-02	2.76693847862E-02	-9.56661910778E-02	1.88114131855E-01
1.90480000000E+09	6.62141195922E-02	2.45700355420E-01	5.63435335543E-02	2.67591022700E-02	5.60580788895E-02	2.69975325206E-02	-9.27537272773E-02	1.90682163327E-01
1.90510000000E+09	6.79420744912E-02	2.45115709224E-01	5.66209917242E-02	2.60281846346E-02	5.63456525199E-02	2.63100590273E-02	-8.98242031710E-02	1.93248174714E-01
1.90540000000E+09	6.95918336892E-02	2.44628812292E-01	5.69330093009E-02	2.53896383790E-02	5.66253665111E-02	2.56248227269E-02	-8.67603940069E-02	1.95739961462E-01
1.90570000000E+09	7.13415472426E-02	2.44016764865E-01	5.71839450199E-02	2.46737058760E-02	5.69169550198E-02	2.49335949162E-02	-8.37222861374E-02	1.98089295103E-01
1.90600000000E+09	7.29972021413E-02	2.43349878640E-01	5.74693253689E-02	2.39923628393E-02	5.71802842101E-02	2.42728512776E-02	-8.06228655282E-02	2.00426376977E-01
1.90630000000E+09	7.46641321069E-02	2.42663829822E-01	5.77274480375E-02	2.33092197722E-02	5.74496037639E-02	2.35609547715E-02	-7.75369981119E-02	2.02838119460E-01
1.90660000000E+09	7.63592327876E-02	2.41942611843E-01	5.80025874720E-02	2.26002388236E-02	5.77141562046E-02	2.28771206069E-02	-7.42677205082E-02	2.05041101093E-01
1.90690000000E+09	7.80182187346E-02	2.41252787883E-01	5.81983828778E-02	2.19367446203E-02	5.79532051785E-02	2.21896703069E-02	-7.11395146871E-02	2.07285116712E-01
1.90720000000E+09	7.96314603876E-02	2.40531588305E-01	5.84704577151E-02	2.12173048418E-02	5.82125976343E-02	2.15234501711E-02	-6.78384373249E-02	2.09347698677E-01
1.90750000000E+09	8.12846890107E-02	2.39686621951E-01	5.86739673321E-02	2.05222930139E-02	5.84221876822E-02	2.08138760953E-02	-6.45948991220E-02	2.11441957889E-01
1.90780000000E+09	8.28835664206E-02	2.38899582436E-01	5.89432506963E-02	1.98073829442E-02	5.86604248093E-02	2.01083662592E-02	-6.12532111530E-02	2.13428175370E-01
1.90810000000E+09	8.45441944020E-02	2.38060716355E-01	5.91089730863E-02	1.91177487499E-02	5.88901090533E-02	1.93906616174E-02	-5.79139651555E-02	2.15287376259E-01
1.90840000000E+09	8.61234406414E-02	2.37181404361E-01	5.93422135138E-02	1.83977383966E-02	5.90753463646E-02	1.86935109241E-02	-5.45128386765E-02	2.17217164838E-01
1.90870000000E+09	8.77050200220E-02	2.36242245926E-01	5.95223001788E-02	1.76658668850E-02	5.92998505369E-02	1.79768266271E-02	-5.11405776195E-02	2.19055522468E-01
1.90900000000E+09	8.93299811160E-02	2.35310742471E-01	5.97294091833E-02	1.69721841729E-02	5.95092953483E-02	1.72682353704E-02	-4.76112505047E-02	2.20742169373E-01
1.90930000000E+09	9.08869357672E-02	2.34391282346E-01	5.99642350400E-02	1.62874069102E-02	5.97223298078E-02	1.65382758871E-02	-4.41530421775E-02	2.22345304038E-01
1.90960000000E+09	9.24729569960E-02	2.33334437968E-01	6.00668812485E-02	1.55342315848E-02	5.98891232349E-02	1.58611640122E-02	-4.06753159614E-02	2.24014296196E-01
1.90990000000E+09	9.40213928371E-02	2.32332217955E-01	6.02538567818E-02	1.48318672886E-02	6.00474896654E-02	1.51456634011E-02	-3.71029455187E-02	2.25526459598E-01
1.91020000000E+09	9.54803393580E-02	2.31238881446E-01	6.03838645655E-02	1.41024384949E-02	6.01998972468E-02	1.44209466741E-02	-3.35998732299E-02	2.27018229769E-01
1.91050000000E+09	9.70182401340E-02	2.30212553080E-01	6.05668369175E-02	1.33975538741E-02	6.03798342290E-02	1.37260066057E-02	-3.00065604055E-02	2.28370796940E-01
1.91080000000E+09	9.85193726571E-02	2.29083148270E-01	6.07264129544E-02	1.26643444607E-02	6.05290449823E-02	1.29882484654E-02	-2.63699875148E-02	2.29730347478E-01
1.91110000000E+09	9.99380099529E-02	2.28031265138E-01	6.08600722438E-02	1.19582079447E-02	6.06313719168E-02	1.22887614482E-02	-2.27542745030E-02	2.30952593757E-01
1.91140000000E+09	1.01420094635E-01	2.26866858785E-01	6.09987759465E-02	1.12291662077E-02	6.08167542294E-02	1.15510983522E-02	-1.91170380410E-02	2.32235993138E-01
1.91170000000E+09	1.02819724867E-01	2.25706112147E-01	6.11166658421E-02	1.05201427285E-02	6.09503349947E-02	1.08366509536E-02	-1.53981098582E-02	2.33362911597E-01
1.91200000000E+09	1.04241361142E-01	2.24563713848E-01	6.12378877512E-02	9.79597951740E-03	6.10632789689E-02	1.01122342874E-02	-1.17186698807E-02	2.34406251222E-01
1.91230000000E+09	1.05578240761E-01	2.23311937685E-01	6.13114908528E-02	9.07725909863E-03	6.11779086762E-02	9.38759132177E-03	-7.97975112086E-03	2.35376431713E-01
1.91260000000E+09	1.06961647003E-01	2.22026516353E-01	6.14374199177E-02	8.35213823060E-03	6.12763816380E-02	8.65646478882E-03	-4.33544102729E-03	2.36343848073E-01
1.91290000000E+09	1.08309924396E-01	2.20803037099E-01	6.15259919926E-02	7.62287233916E-03	6.13901515943E-02	7.97020239985E-03	-5.77137085614E-04	2.37138952798E-01
1.91320000000E+09	1.09642229038E-01	2.19471140932E-01	6.15886144068E-02	6.89963043459E-03	6.14872327201E-02	7.24334619357E-03	3.16486382222E-03	2.38032280243E-01
1.91350000000E+09	1.10964157379E-01	2.18226785684E-01	6.17042567674E-02	6.14684749399E-03	6.15629204569E-02	6.50481893454E-03	6.93222936831E-03	2.38663201723E-01
1.91380000000E+09	1.12159404874E-01	2.16834797225E-01	6.17715872396E-02	5.45519491719E-03	6.16342034299E-02	5.80663974731E-03	1.06955557191E-02	2.39327727728E-01
1.91410000000E+09	1.13419930630E-01	2.15483706280E-01	6.18291096084E-02	4.72982241076E-03	6.16784297329E-02	5.02927187928E-03	1.45045815132E-02	2.39877892055E-01
1.91440000000E+09	1.14623302338E-01	2.14027080011E-01	6.18752337458E-02	3.97218493108E-03	6.17593321043E-02	4.33268385443E-03	1.82442944384E-02	2.40464776856E-01
1.91470000000E+09	1.15872866117E-01	2.12690999806E-01	6.19700656918E-02	3.24328441763E-03	6.18032826214E-02	3.56413192029E-03	2.20998931083E-02	2.40820549372E-01
1.91500000000E+09	1.16982280062E-01	2.11128902602E-01	6.19595512551E-02	2.51946152384E-03	6.18395521425E-02	2.83292612222E-03	2.58609530763E-02	2.41220866733E-01
1.91530000000E+09	1.18176967248E-01	2.09680391646E-01	6.20390697629E-02	1.76544994322E-03	6.19023187753E-02	2.12921778890E-03	2.96756438157E-02	2.41499945780E-01
1.91560000000E+09	1.19213733210E-01	2.08228854398E-01	6.20391489786E-02	1.05343996630E-03	6.19244550289E-02	1.40286863765E-03	3.33704198059E-02	2.41688472965E-01
1.91590000000E+09	1.20322111728E-01	2.06735031961E-01	6.20655602656E-02	3.12734104197E-04	6.19471887270E-02	6.62478250290E-04	3.72760447792E-02	2.41865248372E-01
1.91620000000E+09	1.21302096634E-01	2.05131130267E-01	6.20786644140E-02	-4.47980613079E-04	6.19794754542E-02	-8.03736553406E-05	4.10432207819E-02	2.41965200746E-01
1.91650000000E+09	1.22335258867E-01	2.03612330196E-01	6.21054950200E-02	-1.15102335312E-03	6.19643214975E-02	-7.96545698767E-04	4.48528528639E-02	2.41969491810E-01
1.91680000000E+09	1.23309107038E-01	2.02008632881E-01	6.20853928791E-02	-1.88683420914E-03	6.19887203632E-02	-1.49878017184E-03	4.86330681186E-02	2.41907672183E-01
1.91710000000E+09	1.24276645337E-01	2.00487922339E-01	6.20810009912E-02	-2.60243061812E-03	6.19885841498E-02	-2.27144445871E-03	5.23716107462E-02	2.41770337257E-01
1.91740000000E+09	1.25159665603E-01	1.98780316670E-01	6.20320486301E-02	-3.35040966696E-03	6.19670847475E-02	-2.99426034727E-03	5.62253028424E-02	2.41577773341E-01
1.91770000000E+09	1.26052151522E-01	1.97183239286E-01	6.20314847073E-02	-4.10686035147E-03	6.19241049060E-02	-3.72942726222E-03	5.99832582569E-02	2.41280147235E-01
1.91800000000E+09	1.26802642928E-01	1.95468217690E-01	6.19809929873E-02	-4.82116689319E-03	6.19150532663E-02	-4.45762840641E-03	6.37154988911E-02	2.41022257297E-01
1.91830000000E+09	1.27589746868E-01	1.93847453051E-01	6.19481926263E-02	-5.57392294732E-03	6.18543052292E-02	-5.20199262734E-03	6.74658943228E-02	2.40475379362E-01
1.91860000000E+09	1.28288956618E-01	1.92107559698E-01	6.19199261113E-02	-6.29959910139E-03	6.18491386711E-02	-5.94664411845E-03	7.12621155249E-02	2.40092259859E-01
1.91890000000E+09	1.28979594696E-01	1.90388257853E-01	6.18525509985E-02	-7.01746191346E-03	6.17879778997E-02	-6.67834386880E-03	7.50194072092E-02	2.39622411033E-01
1.91920000000E+09	1.29620936282E-01	1.88754162103E-01	6.17852950186E-02	-7.76764975107E-03	6.17587575673E-02	-7.42733135135E-03	7.87494453537E-02	2.38979503233E-01
1.91950000000E+09	1.30306747402E-01	1.87018711365E-01	6.17272318820E-02	-8.51638934407E-03	6.16396196271E-02	-8.15968649141E-03	8.24703718346E-02	2.38195389927E-01
1.91980000000E+09	1.30774560538E-01	1.85277843680E-01	6.16409886400E-02	-9.22662801911E-03	6.15771215694E-02	-8.91257865239E-03	8.61606287640E-02	2.37455984383E-01
1.92010000000E+09	1.31275575837E-01	1.83500731860E-01	6.15402705757E-02	-1.00019545550E-02	6.15197460347E-02	-9.63495486279E-03	8.98579953236E-02	2.36741650582E-01
1.92040000000E+09	1.31722760289E-01	1.81742266415E-01	6.14698721163E-02	-1.07490303335E-02	6.14388663377E-02	-1.03462573477E-02	9.34999557159E-02	2.35900175172E-01
1.92070000000E+09	1.32123986631E-01	1.80047783683E-01	6.13549095155E-02	-1.14636833421E-02	6.13115838042E-02	-1.11123362526E-02	9.71580436454E-02	2.34824103233E-01
1.92100000000E+09	1.32430741481E-01	1.78269110572E-01	6.12445713949E-02	-1.22086175510E-02	6.12190063274E-02	-1.18562485496E-02	1.00737555148E-01	2.33902448276E-01
1.92130000000E+09	1.32789293136E-01	1.76568495965E-01	6.11379868350E-02	-1.29319859877E-02	6.11028720364E-02	-1.25861265776E-02	1.04364160027E-01	2.32724264280E-01
1.92160000000E+09	1.32982847221E-01	1.74767892949E-01	6.10049526703E-02	-1.37060732838E-02	6.09881105186E-02	-1.33312561248E-02	1.07996801182E-01	2.31650336582E-01
1.92190000000E+09	1.33194521528E-01	1.73033903423E-01	6.08820234264E-02	-1.44734195731E-02	6.08457701115E-02	-1.40598835476E-02	1.11526829539E-01	2.30394941996E-01
1.92220000000E+09	1.33339546775E-01	1.71341599279E-01	6.07357214901E-02	-1.51931282043E-02	6.07146775247E-02	-1.48248675187E-02	1.15046958145E-01	2.29141483141E-01
1.92250000000E+09	1.33414514377E-01	1.69630089339E-01	6.05718756054E-02	-1.59646821333E-02	6.05595449322E-02	-1.55596177909E-02	1.18609445231E-01	2.27799054527E-01
1.92280000000E+09	1.33488127804E-01	1.67927736709E-01	6.04143266138E-02	-1.66611255429E-02	6.04224702344E-02	-1.63113785632E-02	1.22057640374E-01	2.26402365509E-01
1.92310000000E+09	1.33515261928E-01	1.66267311232E-01	6.02537688203E-02	-1.74226103704E-02	6.02358106909E-02	-1.70396066551E-02	1.25480347822E-01	2.24878272259E-01
1.92340000000E+09	1.33434006123E-01	1.64597876198E-01	6.00837640909E-02	-1.81538223041E-02	6.00910599373E-02	-1.78152196520E-02	1.28903614993E-01	2.23433680209E-01
1.92370000000E+09	1.33333195492E-01	1.62952244317E-01	5.98935336648E-02	-1.89032737456E-02	5.98895394397E-02	-1.85478955008E-02	1.32275593102E-01	2.21841310196E-01
1.92400000000E+09	1.33218910299E-01	1.61362986575E-01	5.96767096387E-02	-1.96250926950E-02	5.97077138691E-02	-1.92811321811E-02	1.35658248457E-01	2.20221368889E-01
1.92430000000E+09	1.33044967298E-01	1.59772931141E-01	5.94815419892E-02	-2.03898296454E-02	5.95056108166E-02	-2.00129100801E-02	1.38982181298E-01	2.18429568663E-01
1.92460000000E+09	1.32790990380E-01	1.58150163835E-01	5.92657932207E-02	-2.11186391506E-02	5.93091172451E-02	-2.07548001371E-02	1.42238213956E-01	2.16720405077E-01
1.92490000000E+09	1.32565053313E-01	1.56647130142E-01	5.90795493057E-02	-2.18535007972E-02	5.90701700310E-02	-2.14860683789E-02	1.45573678510E-01	2.14830553806E-01
1.92520000000E+09	1.32184074386E-01	1.55102215427E-01	5.88070998551E-02	-2.25883051778E-02	5.88387807653E-02	-2.22336673375E-02	1.48772437540E-01	2.12981955081E-01
1.92550000000E+09	1.31886236461E-01	1.53575909702E-01	5.85726715075E-02	-2.33250540104E-02	5.85981235403E-02	-2.29924284226E-02	1.51967404418E-01	2.10980934654E-01
1.92580000000E+09	1.31453586722E-01	1.52101488924E-01	5.83187291717E-02	-2.40877736714E-02	5.83756767914E-02	-2.37134650581E-02	1.55109341402E-01	2.09024821277E-01
1.92610000000E+09	1.30986481452E-01	1.50632553835E-01	5.80352063129E-02	-2.48148391602E-02	5.81182832956E-02	-2.44635480651E-02	1.58199814445E-01	2.06965129805E-01
1.92640000000E+09	1.30475992673E-01	1.49299123596E-01	5.78089169222E-02	-2.55568384687E-02	5.78481434410E-02	-2.51967686252E-02	1.61305989252E-01	2.04825194726E-01
1.92670000000E+09	1.30002965033E-01	1.47943477566E-01	5.75332482500E-02	-2.62676012452E-02	5.75460315876E-02	-2.59363084742E-02	1.64286919171E-01	2.02568881266E-01
1.92700000000E+09	1.29402325948E-01	1.46623329999E-01	5.72262749654E-02	-2.70384349294E-02	5.72652261947E-02	-2.66718585951E-02	1.67337767257E-01	2.00426475526E-01
1.92730000000E+09	1.28797792201E-01	1.45364275530E-01	5.69057752711E-02	-2.77209358040E-02	5.70048827039E-02	-2.74120002479E-02	1.70269656505E-01	1.98186838072E-01
1.92760000000E+09	1.28211146199E-01	1.44118782780E-01	5.66182414236E-02	-2.84527157197E-02	5.66523398378E-02	-2.81126616199E-02	1.73160787987E-01	1.95822797869E-01
1.92790000000E+09	1.27549099836E-01	1.42949748239E-01	5.62819490598E-02	-2.92128256444E-02	5.63534442552E-02	-2.88361056689E-02	1.76043768605E-01	1.93412059543E-01
1.92820000000E+09	1.26854721443E-01	1.41772078833E-01	5.59414762740E-02	-2.99361908060E-02	5.60168250669E-02	-2.95702014511E-02	1.78832556377E-01	1.90998012960E-01
1.92850000000E+09	1.26204679662E-01	1.40717021354E-01	5.55971113014E-02	-3.06515997038E-02	5.56940643006E-02	-3.03035839477E-02	1.81586401767E-01	1.88439992607E-01
1.92880000000E+09	1.25395981784E-01	1.39663006101E-01	5.52512550195E-02	-3.13571732469E-02	5.53360836993E-02	-3.10040846403E-02	1.84298172241E-01	1.86002201733E-01
1.92910000000E+09	1.24676793782E-01	1.38667910852E-01	5.49014019525E-02	-3.20822024637E-02	5.49698560375E-02	-3.17297931645E-02	1.86941430240E-01	1.83363113889E-01
1.92940000000E+09	1.23920216150E-01	1.37688532086E-01	5.44952331502E-02	-3.27969351589E-02	5.46140083782E-02	-3.24688314126E-02	1.89646218705E-01	1.80712557474E-01
1.92970000000E+09	1.23086662926E-01	1.36785703106E-01	5.41142739412E-02	-3.35203228852E-02	5.42357765042E-02	-3.31515754127E-02	1.92167485326E-01	1.77993454364E-01
1.93000000000E+09	1.22305963787E-01	1.35948193375E-01	5.37257515873E-02	-3.42370593519E-02	5.38419239218E-02	-3.38755316525E-02	1.94717955868E-01	1.75325679446E-01
1.93030000000E+09	1.21468361188E-01	1.35217771122E-01	5.33155361172E-02	-3.49407069204E-02	5.34327278686E-02	-3.45528172225E-02	1.97171936450E-01	1.72449518517E-01
1.93060000000E+09	1.20622622845E-01	1.34457905018E-01	5.29344125181E-02	-3.56472200906E-02	5.29990212990E-02	-3.52720096874E-02	1.99650505783E-01	1.69697276248E-01
1.93090000000E+09	1.19769361688E-01	1.33830846128E-01	5.24598770948E-02	-3.63168850127E-02	5.25804295980E-02	-3.59519226217E-02	2.01931333260E-01	1.66798273563E-01
1.93120000000E+09	1.18931537477E-01	1.33166586426E-01	5.20245333849E-02	-3.69931343129E-02	5.21855145505E-02	-3.66868747869E-02	2.04314425817E-01	1.63895383525E-01
1.93150000000E+09	1.18105911260E-01	1.32607691965E-01	5.16026360914E-02	-3.77037174419E-02	5.17298642154E-02	-3.73346438037E-02	2.06466454908E-01	1.60991192321E-01
1.93180000000E+09	1.17226737252E-01	1.32059269679E-01	5.11273018346E-02	-3.83565237756E-02	5.12484284290E-02	-3.80557900968E-02	2.08739842590E-01	1.57945384307E-01
1.93210000000E+09	1.16417972354E-01	1.31629901821E-01	5.06865897304E-02	-3.90664882046E-02	5.07840254206E-02	-3.87253590184E-02	2.10862495841E-01	1.54935344773E-01
1.93240000000E+09	1.15587709282E-01	1.31122689394E-01	5.01928026548E-02	-3.97354388755E-02	5.03055411198E-02	-3.93643256971E-02	2.13013417709E-01	1.51924953934E-01
1.93270000000E+09	1.14737388295E-01	1.30828940366E-01	4.96973251364E-02	-4.03687048377E-02	4.98388324396E-02	-4.00330812570E-02	2.14958961165E-01	1.48773538797E-01
1.93300000000E+09	1.13938147553E-01	1.30511047423E-01	4.92096101807E-02	-4.10464372348E-02	4.93303643407E-02	-4.06715792532E-02	2.16919198630E-01	1.45653297400E-01
1.93330000000E+09	1.13131805452E-01	1.30202189792E-01	4.87125345117E-02	-4.16586188366E-02	4.88438225784E-02	-4.13219617835E-02	2.18904874767E-01	1.42500837075E-01
1.93360000000E+09	1.12354097542E-01	1.29996154697E-01	4.81641896723E-02	-4.23235392672E-02	4.83403829895E-02	-4.19943823224E-02	2.20737373715E-01	1.39264947774E-01
1.93390000000E+09	1.11626162796E-01	1.29852277148E-01	4.76353620682E-02	-4.29705006724E-02	4.77677403646E-02	-4.26294926145E-02	2.22512334261E-01	1.36032814553E-01
1.93420000000E+09	1.10813227651E-01	1.29697381913E-01	4.71081434115E-02	-4.35742013214E-02	4.72495301023E-02	-4.32595264805E-02	2.24236744800E-01	1.32754312990E-01
1.93450000000E+09	1.10123231221E-01	1.29620000706E-01	4.65179043001E-02	-4.42070591023E-02	4.66730570545E-02	-4.38973626026E-02	2.25882990639E-01	1.29412102511E-01
1.93480000000E+09	1.09385695123E-01	1.29530419123E-01	4.59731493330E-02	-4.48464095237E-02	4.61387913231E-02	-4.45145626151E-02	2.27536401517E-01	1.26100512450E-01
1.93510000000E+09	1.08704100893E-01	1.29550269072E-01	4.53865695126E-02	-4.54480995065E-02	4.55738657624E-02	-4.51127073131E-02	2.29039873005E-01	1.22726116809E-01
1.93540000000E+09	1.08019512164E-01	1.29567862802E-01	4.48254949760E-02	-4.60358367869E-02	4.50151459951E-02	-4.57226972479E-02	2.30537481040E-01	1.19375623124E-01
1.93570000000E+09	1.07375509316E-01	1.29672397869E-01	4.42804254401E-02	-4.66409693632E-02	4.44215101707E-02	-4.62924085189E-02	2.31913883073E-01	1.15920867238E-01
