# Hz S RI R 50
! CMT, CMT808U, 21440046, 21.4.3/4
! Date: 3/28/2026 5:03:37 PM
! Data: Format (Calibration Info)
! Freq	S11:Re/Im(F2)	S41:Re/Im(F2)	S14:Re/Im(F2)	S44:Re/Im(F2)
1.90000000000E+09	3.95089095593E-02	2.50617531717E-01	5.42800631203E-02	3.89933441412E-02	5.39534923413E-02	3.91983186894E-02	-7.69439281674E-02	1.60254039797E-01
1.90030000000E+09	4.11430494665E-02	2.50516819130E-01	5.47306728768E-02	3.82880978980E-02	5.44244634525E-02	3.84722359401E-02	-7.46723275141E-02	1.63029742870E-01
1.90060000000E+09	4.28221359159E-02	2.50308709020E-01	5.51813860987E-02	3.75377337047E-02	5.48691211698E-02	3.77854924525E-02	-7.23823574971E-02	1.65939198736E-01
1.90090000000E+09	4.44956877801E-02	2.50149510403E-01	5.56193991946E-02	3.68223342643E-02	5.53102884216E-02	3.70319600812E-02	-6.99342354052E-02	1.68637666878E-01
1.90120000000E+09	4.62022758856E-02	2.49957039929E-01	5.60708907466E-02	3.61024920225E-02	5.57417064589E-02	3.62846473059E-02	-6.75330436883E-02	1.71388199488E-01
1.90150000000E+09	4.78953105369E-02	2.49667129717E-01	5.64913633296E-02	3.53509009854E-02	5.61946669260E-02	3.55695787482E-02	-6.51032470238E-02	1.74045116731E-01
1.90180000000E+09	4.95828524509E-02	2.49417103346E-01	5.69005042955E-02	3.45825792497E-02	5.65990534102E-02	3.48192946964E-02	-6.25852804894E-02	1.76707213889E-01
1.90210000000E+09	5.12800737442E-02	2.49166651169E-01	5.73077460277E-02	3.38484626956E-02	5.70071529548E-02	3.40600793663E-02	-5.99872719194E-02	1.79232107175E-01
1.90240000000E+09	5.30235186606E-02	2.48880509504E-01	5.77061175476E-02	3.31097039466E-02	5.73691906470E-02	3.33266769742E-02	-5.74016667814E-02	1.81765048096E-01
1.90270000000E+09	5.46444125971E-02	2.48478797418E-01	5.80700193744E-02	3.23582850658E-02	5.77691029414E-02	3.25731010124E-02	-5.47375450386E-02	1.84274723773E-01
1.90300000000E+09	5.64007748043E-02	2.48122385445E-01	5.84029612468E-02	3.15977416736E-02	5.81412260471E-02	3.18190894324E-02	-5.20143297046E-02	1.86688586553E-01
1.90330000000E+09	5.80576490351E-02	2.47725992583E-01	5.87780492434E-02	3.08325322335E-02	5.84982601807E-02	3.10483496070E-02	-4.93311214198E-02	1.89047509504E-01
1.90360000000E+09	5.97561330778E-02	2.47336704487E-01	5.91385194853E-02	3.00574975472E-02	5.88622875591E-02	3.03000397790E-02	-4.65589436125E-02	1.91387592560E-01
1.90390000000E+09	6.14422441358E-02	2.46857276743E-01	5.94647689039E-02	2.93077639646E-02	5.91968376249E-02	2.95169510385E-02	-4.36880941716E-02	1.93608744534E-01
1.90420000000E+09	6.31828210433E-02	2.46405015624E-01	5.98024872777E-02	2.85172847561E-02	5.95348388540E-02	2.87686866759E-02	-4.08555433040E-02	1.95825873341E-01
1.90450000000E+09	6.48637424169E-02	2.45911660557E-01	6.01180737337E-02	2.77148849751E-02	5.98309907161E-02	2.79938193271E-02	-3.79594450970E-02	1.97990348389E-01
1.90480000000E+09	6.65378828324E-02	2.45369165659E-01	6.04333324801E-02	2.69682787077E-02	6.01241949215E-02	2.72283182938E-02	-3.49259859565E-02	2.00015670585E-01
1.90510000000E+09	6.82883698474E-02	2.44791242308E-01	6.07250940377E-02	2.61903740602E-02	6.04555956134E-02	2.64414110863E-02	-3.20333770772E-02	2.02139964249E-01
1.90540000000E+09	6.99012083767E-02	2.44191761926E-01	6.09966179642E-02	2.54081834121E-02	6.07382812604E-02	2.56528980870E-02	-2.90239211161E-02	2.04086782561E-01
1.90570000000E+09	7.16107992198E-02	2.43628093191E-01	6.12781754158E-02	2.46138596644E-02	6.10173507821E-02	2.49047587635E-02	-2.58932436295E-02	2.05950684336E-01
1.90600000000E+09	7.32609952320E-02	2.42922228816E-01	6.15483727121E-02	2.38598484197E-02	6.12922465757E-02	2.40946619066E-02	-2.28659321769E-02	2.07821845805E-01
1.90630000000E+09	7.49101184513E-02	2.42238629625E-01	6.18208510100E-02	2.30481102489E-02	6.15606770650E-02	2.33245892886E-02	-1.97582621762E-02	2.09697492958E-01
1.90660000000E+09	7.66471690048E-02	2.41444348163E-01	6.20266823136E-02	2.22478098110E-02	6.17786406805E-02	2.25068002869E-02	-1.66015269939E-02	2.11429562354E-01
1.90690000000E+09	7.82745987913E-02	2.40758710057E-01	6.22697521454E-02	2.14455388315E-02	6.20313473184E-02	2.17211735772E-02	-1.34528364728E-02	2.13134753959E-01
1.90720000000E+09	7.98741920432E-02	2.39965031431E-01	6.24809172900E-02	2.06824756890E-02	6.22632572774E-02	2.09406973733E-02	-1.01591562809E-02	2.14706848658E-01
1.90750000000E+09	8.14729658923E-02	2.39205205195E-01	6.27022430558E-02	1.98835882261E-02	6.24747516750E-02	2.01619289515E-02	-7.00709959896E-03	2.16287419183E-01
1.90780000000E+09	8.30895380703E-02	2.38367809661E-01	6.29248820687E-02	1.91011637542E-02	6.26828552613E-02	1.93721206936E-02	-3.77804450699E-03	2.17811334850E-01
1.90810000000E+09	8.47139117085E-02	2.37446938688E-01	6.30744227090E-02	1.83031482532E-02	6.28917997601E-02	1.85770258778E-02	-4.22754760302E-04	2.19211189729E-01
1.90840000000E+09	8.62903091448E-02	2.36598851855E-01	6.32958368105E-02	1.74774342908E-02	6.30933072758E-02	1.78057011821E-02	2.84472018810E-03	2.20573595792E-01
1.90870000000E+09	8.78533828995E-02	2.35634899955E-01	6.34575645132E-02	1.66907367980E-02	6.32632900221E-02	1.69820423767E-02	6.17548616798E-03	2.21890361190E-01
1.90900000000E+09	8.93918790862E-02	2.34646023028E-01	6.36141576156E-02	1.58872015256E-02	6.34050519148E-02	1.62026545721E-02	9.55715467498E-03	2.23103264241E-01
1.90930000000E+09	9.10227957222E-02	2.33739536678E-01	6.37936353729E-02	1.50960819379E-02	6.35828117322E-02	1.53990026564E-02	1.28782341632E-02	2.24279104729E-01
1.90960000000E+09	9.24622027610E-02	2.32734658521E-01	6.39350541884E-02	1.43488084639E-02	6.37388983217E-02	1.46467523343E-02	1.62539263050E-02	2.25434837563E-01
1.90990000000E+09	9.39990646609E-02	2.31731447672E-01	6.40653493345E-02	1.35234351529E-02	6.38355537854E-02	1.37786499785E-02	1.96952775725E-02	2.26458077619E-01
1.91020000000E+09	9.54512762610E-02	2.30641183060E-01	6.41993341722E-02	1.27039922007E-02	6.39769235848E-02	1.30138392980E-02	2.30275720507E-02	2.27491685095E-01
1.91050000000E+09	9.69768341711E-02	2.29578396262E-01	6.43123641893E-02	1.19044255358E-02	6.40744918953E-02	1.22073794104E-02	2.64949409924E-02	2.28384170692E-01
1.91080000000E+09	9.83922677250E-02	2.28450813551E-01	6.43806990243E-02	1.11096643549E-02	6.42108052301E-02	1.14131599345E-02	2.99388857853E-02	2.29248352453E-01
1.91110000000E+09	9.98325936291E-02	2.27322788974E-01	6.45039772984E-02	1.03046609705E-02	6.42981299216E-02	1.06236970593E-02	3.34563801544E-02	2.30051136854E-01
1.91140000000E+09	1.01286874759E-01	2.26140145812E-01	6.46043225316E-02	9.50326825039E-03	6.44139796723E-02	9.81839622979E-03	3.69085156633E-02	2.30827670333E-01
1.91170000000E+09	1.02647405160E-01	2.24958351465E-01	6.46736145060E-02	8.70815721275E-03	6.45107954350E-02	9.03614912588E-03	4.03983381896E-02	2.31466884374E-01
1.91200000000E+09	1.04037488532E-01	2.23804326469E-01	6.47283963388E-02	7.89837091454E-03	6.45749740068E-02	8.21966936921E-03	4.38987647087E-02	2.32047926308E-01
1.91230000000E+09	1.05375289697E-01	2.22481732943E-01	6.47825399573E-02	7.08812831281E-03	6.46163346146E-02	7.43864501924E-03	4.73759341919E-02	2.32575737184E-01
1.91260000000E+09	1.06737122375E-01	2.21259522780E-01	6.48374043897E-02	6.28604805520E-03	6.46776730760E-02	6.63899213446E-03	5.09049710692E-02	2.33130889356E-01
1.91290000000E+09	1.08026061118E-01	2.20065280626E-01	6.48692943192E-02	5.54672834756E-03	6.47293735658E-02	5.83945829361E-03	5.43992127274E-02	2.33461169291E-01
1.91320000000E+09	1.09316428068E-01	2.18697716569E-01	6.49145259598E-02	4.72260834972E-03	6.47665321531E-02	5.04720312239E-03	5.79163553753E-02	2.33882771138E-01
1.91350000000E+09	1.10646589274E-01	2.17358111505E-01	6.49215616798E-02	3.89808645619E-03	6.47908501649E-02	4.23770499080E-03	6.14554658223E-02	2.34100501503E-01
1.91380000000E+09	1.11829960373E-01	2.15987664005E-01	6.49270991552E-02	3.13572054053E-03	6.48283799633E-02	3.46801371570E-03	6.49803586699E-02	2.34362568199E-01
1.91410000000E+09	1.13049907379E-01	2.14631735799E-01	6.49478717326E-02	2.33590040504E-03	6.47968222592E-02	2.68305770129E-03	6.84753743469E-02	2.34444810207E-01
1.91440000000E+09	1.14186808203E-01	2.13172218780E-01	6.49131857105E-02	1.52897601254E-03	6.48078775062E-02	1.89264025490E-03	7.19923566085E-02	2.34591402537E-01
1.91470000000E+09	1.15368542482E-01	2.11803314312E-01	6.49459931696E-02	7.66599611213E-04	6.47808450195E-02	1.08256460320E-03	7.55274460922E-02	2.34562353931E-01
1.91500000000E+09	1.16462397047E-01	2.10233696700E-01	6.48871551379E-02	-6.81883743577E-05	6.47803359629E-02	2.94672129578E-04	7.90749457803E-02	2.34545291042E-01
1.91530000000E+09	1.17566598117E-01	2.08744361608E-01	6.48524294319E-02	-8.26935205273E-04	6.47350446426E-02	-4.73694217486E-04	8.25906222076E-02	2.34427464019E-01
1.91560000000E+09	1.18685330084E-01	2.07354314795E-01	6.48348858819E-02	-1.61123487750E-03	6.47045877854E-02	-1.29406927494E-03	8.60334106288E-02	2.34189527691E-01
1.91590000000E+09	1.19729964709E-01	2.05780114344E-01	6.47898925917E-02	-2.42373774988E-03	6.46562746733E-02	-2.06821497793E-03	8.96294260385E-02	2.33994639513E-01
1.91620000000E+09	1.20671061677E-01	2.04242341209E-01	6.47227324238E-02	-3.17531396670E-03	6.46160694984E-02	-2.85262153050E-03	9.30918048940E-02	2.33690988636E-01
1.91650000000E+09	1.21673425383E-01	2.02689696828E-01	6.46817062217E-02	-3.96957419281E-03	6.45493307557E-02	-3.64945051928E-03	9.65746869216E-02	2.33290385947E-01
1.91680000000E+09	1.22595573189E-01	2.01059381365E-01	6.45771832216E-02	-4.74510728028E-03	6.44823723923E-02	-4.41849158181E-03	1.00028200749E-01	2.32861053217E-01
1.91710000000E+09	1.23523149047E-01	1.99511421566E-01	6.44527434429E-02	-5.53906368854E-03	6.43874266547E-02	-5.21675297266E-03	1.03491571781E-01	2.32345064986E-01
1.91740000000E+09	1.24335073386E-01	1.97867838315E-01	6.43730002262E-02	-6.32457284706E-03	6.43146078795E-02	-5.96390354157E-03	1.06990124730E-01	2.31804276407E-01
1.91770000000E+09	1.25247899564E-01	1.96255319233E-01	6.42793355611E-02	-7.09798401040E-03	6.42378529229E-02	-6.74285372287E-03	1.10397905542E-01	2.31207654095E-01
1.91800000000E+09	1.25909541460E-01	1.94542296989E-01	6.41775849422E-02	-7.88335021380E-03	6.40929134217E-02	-7.51569147937E-03	1.13775175244E-01	2.30555130723E-01
1.91830000000E+09	1.26721529406E-01	1.92945773134E-01	6.40759328470E-02	-8.63420224710E-03	6.40187902991E-02	-8.28087145633E-03	1.17217892202E-01	2.29715580470E-01
1.91860000000E+09	1.27405503416E-01	1.91176889961E-01	6.39498415424E-02	-9.43306209832E-03	6.38471953644E-02	-9.08721378841E-03	1.20646248411E-01	2.28985713119E-01
1.91890000000E+09	1.28059201808E-01	1.89460973404E-01	6.37878100586E-02	-1.02085616376E-02	6.37578237705E-02	-9.85230876091E-03	1.24006262701E-01	2.28136460303E-01
1.91920000000E+09	1.28691369196E-01	1.87801726403E-01	6.36567075845E-02	-1.09599102869E-02	6.36165156709E-02	-1.06326259679E-02	1.27387217514E-01	2.27146479799E-01
1.91950000000E+09	1.29252400628E-01	1.86066734797E-01	6.35097716574E-02	-1.17355542704E-02	6.34748644920E-02	-1.13834840058E-02	1.30701128278E-01	2.26156053753E-01
1.91980000000E+09	1.29713239659E-01	1.84303569094E-01	6.33365468215E-02	-1.24864810323E-02	6.32838988497E-02	-1.21439996812E-02	1.33996391649E-01	2.25126618688E-01
1.92010000000E+09	1.30219745067E-01	1.82601655618E-01	6.31600877170E-02	-1.32806903465E-02	6.31176868112E-02	-1.29268654244E-02	1.37342967727E-01	2.23990597788E-01
1.92040000000E+09	1.30565438274E-01	1.80820891679E-01	6.29977620390E-02	-1.40245056478E-02	6.30043953789E-02	-1.36709335192E-02	1.40623945739E-01	2.22926525155E-01
1.92070000000E+09	1.30948636755E-01	1.79142665352E-01	6.28173685525E-02	-1.47796704615E-02	6.27841512356E-02	-1.44461951109E-02	1.43796752512E-01	2.21574924042E-01
1.92100000000E+09	1.31221426471E-01	1.77348346250E-01	6.26076880690E-02	-1.55237433708E-02	6.25882027756E-02	-1.51832436245E-02	1.47090476821E-01	2.20385649042E-01
1.92130000000E+09	1.31546584631E-01	1.75675628292E-01	6.24336094095E-02	-1.63181578353E-02	6.23874023149E-02	-1.59312277012E-02	1.50233775328E-01	2.19007552091E-01
1.92160000000E+09	1.31679506054E-01	1.73877035005E-01	6.22221808301E-02	-1.70642684693E-02	6.21881759927E-02	-1.66785438786E-02	1.53396533085E-01	2.17640205746E-01
1.92190000000E+09	1.31906073092E-01	1.72190811895E-01	6.20084924650E-02	-1.78170866044E-02	6.19453071767E-02	-1.74468969765E-02	1.56599562839E-01	2.16154308115E-01
1.92220000000E+09	1.31939591472E-01	1.70459243129E-01	6.17420481750E-02	-1.85497665684E-02	6.17305476322E-02	-1.81923517012E-02	1.59677645577E-01	2.14665409665E-01
1.92250000000E+09	1.32034891778E-01	1.68754717180E-01	6.15006490839E-02	-1.92804160948E-02	6.14945975011E-02	-1.89337526419E-02	1.62809561839E-01	2.13095573680E-01
1.92280000000E+09	1.32043495193E-01	1.67081837498E-01	6.12599075028E-02	-2.00433390743E-02	6.12867786003E-02	-1.96882737319E-02	1.65822092004E-01	2.11447416227E-01
1.92310000000E+09	1.32008248674E-01	1.65438445773E-01	6.10254492352E-02	-2.07683831568E-02	6.10391341572E-02	-2.04271812426E-02	1.68898545083E-01	2.09725696212E-01
1.92340000000E+09	1.31921986270E-01	1.63722894235E-01	6.07595806152E-02	-2.14884232764E-02	6.07497925618E-02	-2.11636841809E-02	1.71849940135E-01	2.08139591083E-01
1.92370000000E+09	1.31772688988E-01	1.62193921985E-01	6.04773479265E-02	-2.22316912274E-02	6.04923478673E-02	-2.18596032566E-02	1.74748879966E-01	2.06272306545E-01
1.92400000000E+09	1.31607918076E-01	1.60571159425E-01	6.01972830304E-02	-2.29518613007E-02	6.02570414396E-02	-2.26174191057E-02	1.77735868173E-01	2.04455291688E-01
1.92430000000E+09	1.31348549900E-01	1.58980152292E-01	5.99255269385E-02	-2.37153774402E-02	5.99526103182E-02	-2.33111226848E-02	1.80581204913E-01	2.02576985579E-01
1.92460000000E+09	1.31076304007E-01	1.57422082592E-01	5.96335312654E-02	-2.44066223109E-02	5.96570051633E-02	-2.40719934996E-02	1.83426597234E-01	2.00646149882E-01
1.92490000000E+09	1.30811584270E-01	1.55903356662E-01	5.93259041894E-02	-2.51287324710E-02	5.93405093239E-02	-2.47764033331E-02	1.86273666042E-01	1.98606126288E-01
1.92520000000E+09	1.30413118919E-01	1.54414858224E-01	5.90168140171E-02	-2.58340364567E-02	5.90637974481E-02	-2.55025525269E-02	1.89014883273E-01	1.96654992761E-01
1.92550000000E+09	1.30047707738E-01	1.52886126455E-01	5.86809300166E-02	-2.65599554740E-02	5.87347239329E-02	-2.62310220626E-02	1.91775872996E-01	1.94485609799E-01
1.92580000000E+09	1.29570907158E-01	1.51503544219E-01	5.83566141700E-02	-2.72711003177E-02	5.83807115865E-02	-2.69294004451E-02	1.94408324516E-01	1.92417310523E-01
1.92610000000E+09	1.29074032191E-01	1.50057882946E-01	5.80098623790E-02	-2.79740949485E-02	5.80564845703E-02	-2.76342971125E-02	1.97122061983E-01	1.90211885898E-01
1.92640000000E+09	1.28537946245E-01	1.48739523355E-01	5.76786853743E-02	-2.86792359532E-02	5.77263256352E-02	-2.83385940650E-02	1.99727156025E-01	1.87991309534E-01
1.92670000000E+09	1.28020209362E-01	1.47407890023E-01	5.73422076187E-02	-2.93827470099E-02	5.73865271675E-02	-2.90577294238E-02	2.02295194814E-01	1.85727225999E-01
1.92700000000E+09	1.27348598704E-01	1.46147190846E-01	5.69757225453E-02	-3.00686336576E-02	5.70437182118E-02	-2.97076584979E-02	2.04854126924E-01	1.83390197711E-01
1.92730000000E+09	1.26747649092E-01	1.44933165547E-01	5.65911268448E-02	-3.07921630301E-02	5.66847661743E-02	-3.03952251620E-02	2.07337304911E-01	1.81061158390E-01
1.92760000000E+09	1.26067336911E-01	1.43701518612E-01	5.62207948226E-02	-3.14563885956E-02	5.62714307257E-02	-3.11309516194E-02	2.09782397396E-01	1.78631393772E-01
1.92790000000E+09	1.25413422962E-01	1.42608680212E-01	5.58731039842E-02	-3.21343389686E-02	5.59117566206E-02	-3.18038925052E-02	2.12196003309E-01	1.76171835210E-01
1.92820000000E+09	1.24679698397E-01	1.41504478932E-01	5.54615418588E-02	-3.28163518378E-02	5.54986707999E-02	-3.24894622394E-02	2.14480644214E-01	1.73710030730E-01
1.92850000000E+09	1.23943829994E-01	1.40449783111E-01	5.50633380146E-02	-3.34813584614E-02	5.51189265019E-02	-3.31847755578E-02	2.16849425442E-01	1.71097799571E-01
1.92880000000E+09	1.23150960542E-01	1.39473525702E-01	5.46391716839E-02	-3.41811192354E-02	5.47212948905E-02	-3.38178795852E-02	2.19080296729E-01	1.68596303316E-01
1.92910000000E+09	1.22370369738E-01	1.38538359976E-01	5.42343135864E-02	-3.48347509053E-02	5.43412326061E-02	-3.44967088296E-02	2.21271556886E-01	1.65935138776E-01
1.92940000000E+09	1.21583841226E-01	1.37591955979E-01	5.37881726802E-02	-3.54827604349E-02	5.38758236773E-02	-3.51918890358E-02	2.23491769689E-01	1.63308075404E-01
1.92970000000E+09	1.20741227673E-01	1.36759168583E-01	5.33671008053E-02	-3.61394169625E-02	5.34487450289E-02	-3.58193764525E-02	2.25556273685E-01	1.60598088050E-01
1.93000000000E+09	1.19938851979E-01	1.35985738058E-01	5.28894381208E-02	-3.68232266266E-02	5.29965612267E-02	-3.64848490469E-02	2.27616272514E-01	1.57870130549E-01
1.93030000000E+09	1.19096035664E-01	1.35297509596E-01	5.24956483102E-02	-3.74619291195E-02	5.25644163462E-02	-3.71285353800E-02	2.29546632654E-01	1.55099127053E-01
1.93060000000E+09	1.18180044755E-01	1.34592237300E-01	5.20018281365E-02	-3.81022953235E-02	5.21143041549E-02	-3.77648751523E-02	2.31639973040E-01	1.52319449449E-01
1.93090000000E+09	1.17343511131E-01	1.33993642278E-01	5.15150261871E-02	-3.87225676852E-02	5.16561371328E-02	-3.84006512715E-02	2.33521853595E-01	1.49538211482E-01
1.93120000000E+09	1.16475083529E-01	1.33464991239E-01	5.10723934891E-02	-3.93515262173E-02	5.11961657496E-02	-3.90509445716E-02	2.35400241200E-01	1.46622270226E-01
1.93150000000E+09	1.15597923114E-01	1.32898127492E-01	5.05965378325E-02	-4.00025201555E-02	5.06897627696E-02	-3.96504238629E-02	2.37132552493E-01	1.43766110319E-01
1.93180000000E+09	1.14808265477E-01	1.32476586688E-01	5.01176539724E-02	-4.05941981454E-02	5.02213522128E-02	-4.02661790415E-02	2.38885946547E-01	1.40796974286E-01
1.93210000000E+09	1.13917735542E-01	1.32086689102E-01	4.96040248832E-02	-4.12598034378E-02	4.97056949109E-02	-4.09069073030E-02	2.40627632780E-01	1.37859201720E-01
1.93240000000E+09	1.13084417696E-01	1.31714203593E-01	4.90979958302E-02	-4.18654300197E-02	4.92479148072E-02	-4.15070916843E-02	2.42301163960E-01	1.34894545898E-01
1.93270000000E+09	1.12227307436E-01	1.31460148481E-01	4.86059408260E-02	-4.24304466501E-02	4.87162236351E-02	-4.21358980277E-02	2.43816700909E-01	1.31858194289E-01
1.93300000000E+09	1.11435922971E-01	1.31207799696E-01	4.80838468423E-02	-4.30494876390E-02	4.82125678426E-02	-4.27343715385E-02	2.45371039747E-01	1.28832166906E-01
1.93330000000E+09	1.10622640918E-01	1.30994152264E-01	4.75560895013E-02	-4.36432051317E-02	4.76880114097E-02	-4.33343545996E-02	2.46953878448E-01	1.25759336025E-01
1.93360000000E+09	1.09882147359E-01	1.30852937751E-01	4.70089561874E-02	-4.42211538335E-02	4.71486279934E-02	-4.39217369184E-02	2.48228588395E-01	1.22660507657E-01
1.93390000000E+09	1.09094645938E-01	1.30746582045E-01	4.64825400152E-02	-4.48267777126E-02	4.66188991057E-02	-4.45078512396E-02	2.49615358309E-01	1.19547425871E-01
1.93420000000E+09	1.08344919868E-01	1.30667778276E-01	4.59184932841E-02	-4.54024692159E-02	4.60662564017E-02	-4.50669690044E-02	2.50981916194E-01	1.16451687402E-01
1.93450000000E+09	1.07640854777E-01	1.30676383492E-01	4.53742362865E-02	-4.59119834896E-02	4.55113394399E-02	-4.56585110619E-02	2.52172554602E-01	1.13250104314E-01
1.93480000000E+09	1.06980268811E-01	1.30714810654E-01	4.47971078727E-02	-4.65412486384E-02	4.49622295882E-02	-4.61989735126E-02	2.53391576590E-01	1.10044083515E-01
1.93510000000E+09	1.06320134685E-01	1.30756095333E-01	4.42707770658E-02	-4.70605904249E-02	4.43963792851E-02	-4.67717446200E-02	2.54556565459E-01	1.06839617510E-01
1.93540000000E+09	1.05648087233E-01	1.30870082279E-01	4.36675063438E-02	-4.76054341428E-02	4.38211377069E-02	-4.73160727709E-02	2.55645149101E-01	1.03666976242E-01
1.93570000000E+09	1.05000629207E-01	1.31043118556E-01	4.30792311269E-02	-4.81454693161E-02	4.32476642811E-02	-4.78652823868E-02	2.56645662971E-01	1.00385510352E-01
