# Hz S RI R 50
! CMT, CMT808U, 21440046, 21.4.3/4
! Date: 3/28/2026 5:00:51 PM
! Data: Format (Calibration Info)
! Freq	S11:Re/Im(F2)	S41:Re/Im(F2)	S14:Re/Im(F2)	S44:Re/Im(F2)
1.90000000000E+09	4.02540343193E-02	2.49486228956E-01	5.13881436272E-02	4.11536389044E-02	5.10916840388E-02	4.13176322975E-02	-6.83585544012E-02	1.99695634452E-01
1.90030000000E+09	4.19029851717E-02	2.49374414370E-01	5.18432800927E-02	4.04825135925E-02	5.15311383869E-02	4.06760120641E-02	-6.52291455517E-02	2.02460157239E-01
1.90060000000E+09	4.35507552716E-02	2.49184161708E-01	5.22930447979E-02	3.98121874434E-02	5.20085349185E-02	4.00121546337E-02	-6.21062494283E-02	2.05336784012E-01
1.90090000000E+09	4.52181291616E-02	2.49074973673E-01	5.27593366100E-02	3.91369844224E-02	5.24620160111E-02	3.93288152112E-02	-5.88925922988E-02	2.08020645217E-01
1.90120000000E+09	4.69280101357E-02	2.48857309440E-01	5.31898544110E-02	3.84924558314E-02	5.29193066473E-02	3.86676274688E-02	-5.56977374135E-02	2.10689610517E-01
1.90150000000E+09	4.86093933244E-02	2.48612039671E-01	5.36226391408E-02	3.78291772998E-02	5.33415402912E-02	3.79915885585E-02	-5.24787119461E-02	2.13326464955E-01
1.90180000000E+09	5.02862472690E-02	2.48373539385E-01	5.40362699297E-02	3.71180939812E-02	5.37570714988E-02	3.73249415159E-02	-4.91090294635E-02	2.15872765632E-01
1.90210000000E+09	5.19663798576E-02	2.48103828247E-01	5.44443445197E-02	3.64283912499E-02	5.41735135956E-02	3.66455430646E-02	-4.57132430856E-02	2.18264058313E-01
1.90240000000E+09	5.36879625540E-02	2.47794826765E-01	5.48542840972E-02	3.57299783171E-02	5.46019631919E-02	3.59466701206E-02	-4.23622221695E-02	2.20779934870E-01
1.90270000000E+09	5.53224051728E-02	2.47465063394E-01	5.52466104215E-02	3.50998415169E-02	5.49858562254E-02	3.52694943286E-02	-3.88609346337E-02	2.23112552111E-01
1.90300000000E+09	5.70140191682E-02	2.47115337507E-01	5.56370127283E-02	3.43803178638E-02	5.53770865104E-02	3.45639826297E-02	-3.54149771828E-02	2.25391405549E-01
1.90330000000E+09	5.87301881170E-02	2.46724489853E-01	5.60345993270E-02	3.36612803334E-02	5.57459258580E-02	3.38969297586E-02	-3.19034812706E-02	2.27602194403E-01
1.90360000000E+09	6.03628464029E-02	2.46345644830E-01	5.64097206753E-02	3.29713079901E-02	5.61517597630E-02	3.32111296207E-02	-2.83547764371E-02	2.29769085863E-01
1.90390000000E+09	6.20707209624E-02	2.45871006862E-01	5.67724914242E-02	3.22683167346E-02	5.65021625782E-02	3.24688763820E-02	-2.46850085744E-02	2.31774941442E-01
1.90420000000E+09	6.37849445302E-02	2.45405021990E-01	5.71078597050E-02	3.15583752037E-02	5.68494805709E-02	3.17855925745E-02	-2.10983319637E-02	2.33819753357E-01
1.90450000000E+09	6.54268500041E-02	2.44933513019E-01	5.74659394083E-02	3.08402673211E-02	5.72213608377E-02	3.11071408596E-02	-1.74549242509E-02	2.35794728818E-01
1.90480000000E+09	6.70874176296E-02	2.44425509931E-01	5.77951364285E-02	3.01441799819E-02	5.75477837192E-02	3.03784147967E-02	-1.36721189211E-02	2.37610128370E-01
1.90510000000E+09	6.88092799425E-02	2.43817291389E-01	5.81408118750E-02	2.94548661635E-02	5.78778219552E-02	2.96799195579E-02	-9.98638993017E-03	2.39412971126E-01
1.90540000000E+09	7.04355739486E-02	2.43297407538E-01	5.84409897447E-02	2.87364013434E-02	5.81969338238E-02	2.89723115940E-02	-6.23219249148E-03	2.41155221306E-01
1.90570000000E+09	7.21589097606E-02	2.42656555209E-01	5.87671199861E-02	2.79863014960E-02	5.85081485657E-02	2.82021187823E-02	-2.37502950783E-03	2.42694929690E-01
1.90600000000E+09	7.37761554169E-02	2.41970400232E-01	5.90400766580E-02	2.72700415470E-02	5.88448736546E-02	2.75339889477E-02	1.36643103714E-03	2.44307365642E-01
1.90630000000E+09	7.54473409942E-02	2.41349032311E-01	5.94012558453E-02	2.65714188639E-02	5.91306723997E-02	2.67818288287E-02	5.26824748972E-03	2.45864898101E-01
1.90660000000E+09	7.70806474216E-02	2.40633387448E-01	5.96459813525E-02	2.58138717627E-02	5.93955567834E-02	2.60913382841E-02	9.08195558802E-03	2.47318838135E-01
1.90690000000E+09	7.87585219545E-02	2.39949460126E-01	5.98934866493E-02	2.51290609404E-02	5.96681739748E-02	2.53532543155E-02	1.29859781562E-02	2.48651990502E-01
1.90720000000E+09	8.03255585405E-02	2.39192215016E-01	6.01947565546E-02	2.43772117108E-02	5.99649324436E-02	2.46345617957E-02	1.69324797763E-02	2.49946217857E-01
1.90750000000E+09	8.19695084956E-02	2.38411244560E-01	6.04611070659E-02	2.36396864306E-02	6.01875295267E-02	2.38755432396E-02	2.07840447127E-02	2.51116898425E-01
1.90780000000E+09	8.35667041173E-02	2.37576563334E-01	6.07001232287E-02	2.29334360188E-02	6.04533122273E-02	2.31647526170E-02	2.47116208749E-02	2.52286620946E-01
1.90810000000E+09	8.51086929302E-02	2.36670916220E-01	6.08977666984E-02	2.21272901262E-02	6.07110447204E-02	2.24165001357E-02	2.86618014851E-02	2.53322479705E-01
1.90840000000E+09	8.67046757538E-02	2.35860525931E-01	6.11928407858E-02	2.14130315973E-02	6.09727941651E-02	2.16960252014E-02	3.26586710320E-02	2.54283675507E-01
1.90870000000E+09	8.82582086099E-02	2.35008951986E-01	6.13949408481E-02	2.07049603252E-02	6.12090910864E-02	2.09654235982E-02	3.66327662602E-02	2.55216796278E-01
1.90900000000E+09	8.98239037669E-02	2.33984542635E-01	6.16007515609E-02	1.99336149276E-02	6.13771710020E-02	2.02217153906E-02	4.06846316634E-02	2.56061871101E-01
1.90930000000E+09	9.13820161682E-02	2.33071392079E-01	6.18339271498E-02	1.92017749050E-02	6.16199622649E-02	1.94706264586E-02	4.46951351430E-02	2.56718136178E-01
1.90960000000E+09	9.28645100677E-02	2.32085594701E-01	6.20308786719E-02	1.84478333941E-02	6.18445739932E-02	1.87355617158E-02	4.86830858741E-02	2.57462885212E-01
1.90990000000E+09	9.44185702273E-02	2.31083228485E-01	6.22423394580E-02	1.76995903766E-02	6.20283176790E-02	1.80052972399E-02	5.27661229797E-02	2.58074914634E-01
1.91020000000E+09	9.58142221236E-02	2.30061002808E-01	6.23854497974E-02	1.69752919217E-02	6.21963782183E-02	1.72410013117E-02	5.67145893612E-02	2.58632026265E-01
1.91050000000E+09	9.73188584009E-02	2.29030770766E-01	6.25780877639E-02	1.62242201849E-02	6.23896397816E-02	1.65147250889E-02	6.08451486560E-02	2.59083231564E-01
1.91080000000E+09	9.87656907397E-02	2.27902896120E-01	6.27504895292E-02	1.54631560800E-02	6.25609530276E-02	1.57562813011E-02	6.48793349477E-02	2.59436371022E-01
1.91110000000E+09	1.00176606648E-01	2.26795408674E-01	6.29064142940E-02	1.47207838271E-02	6.27195264030E-02	1.49960959509E-02	6.89422427703E-02	2.59719399058E-01
1.91140000000E+09	1.01593220322E-01	2.25657332014E-01	6.30594157269E-02	1.39675093963E-02	6.28616378436E-02	1.42528655643E-02	7.29400437493E-02	2.60042216226E-01
1.91170000000E+09	1.02979113120E-01	2.24509951995E-01	6.32109779576E-02	1.32120188954E-02	6.30241739290E-02	1.35113927033E-02	7.70560520404E-02	2.60161376828E-01
1.91200000000E+09	1.04369454724E-01	2.23341888725E-01	6.33134509012E-02	1.24590490392E-02	6.31718069807E-02	1.27704937234E-02	8.10772508112E-02	2.60230067309E-01
1.91230000000E+09	1.05747570240E-01	2.22141621979E-01	6.34803964580E-02	1.17311656319E-02	6.33184754033E-02	1.20101022392E-02	8.51287506577E-02	2.60227389357E-01
1.91260000000E+09	1.07073539424E-01	2.20892180835E-01	6.35960354808E-02	1.09491726864E-02	6.34375400833E-02	1.12505127641E-02	8.91738942710E-02	2.60191773524E-01
1.91290000000E+09	1.08385440281E-01	2.19648608741E-01	6.36584555922E-02	1.01885958100E-02	6.35463521839E-02	1.05079345640E-02	9.32090684779E-02	2.60028118527E-01
1.91320000000E+09	1.09657936088E-01	2.18347984456E-01	6.38051131559E-02	9.44193344378E-03	6.36352031944E-02	9.76736763183E-03	9.72366763930E-02	2.59892139167E-01
1.91350000000E+09	1.10957606860E-01	2.17116454930E-01	6.39138537361E-02	8.65750734379E-03	6.37489829378E-02	8.94560852410E-03	1.01265147920E-01	2.59478662855E-01
1.91380000000E+09	1.12204740192E-01	2.15686575888E-01	6.39895194401E-02	7.95509461661E-03	6.38440090640E-02	8.23511616612E-03	1.05275338657E-01	2.59219550242E-01
1.91410000000E+09	1.13421262202E-01	2.14428384291E-01	6.40931291334E-02	7.15295278412E-03	6.39148614984E-02	7.49030360145E-03	1.09264348997E-01	2.58729160809E-01
1.91440000000E+09	1.14538186984E-01	2.12981972004E-01	6.41192468893E-02	6.43443074969E-03	6.40077682030E-02	6.72197302455E-03	1.13245529737E-01	2.58269775034E-01
1.91470000000E+09	1.15789600927E-01	2.11614045729E-01	6.42145805851E-02	5.67299835626E-03	6.40512736225E-02	5.97714377945E-03	1.17260327438E-01	2.57591828592E-01
1.91500000000E+09	1.16897443799E-01	2.10148947141E-01	6.42605940971E-02	4.92474360963E-03	6.41304952986E-02	5.23167180352E-03	1.21208201892E-01	2.57085235095E-01
1.91530000000E+09	1.17992695884E-01	2.08682029662E-01	6.43178495122E-02	4.14511866169E-03	6.41905306336E-02	4.47487988100E-03	1.25142365925E-01	2.56342722521E-01
1.91560000000E+09	1.19037488066E-01	2.07252015528E-01	6.43551981353E-02	3.35671399665E-03	6.42593436704E-02	3.70947724537E-03	1.29013077956E-01	2.55476589915E-01
1.91590000000E+09	1.20140389380E-01	2.05741110679E-01	6.43872600422E-02	2.62774346342E-03	6.42700570168E-02	2.94078077294E-03	1.32983544823E-01	2.54603811010E-01
1.91620000000E+09	1.21121440990E-01	2.04236304667E-01	6.44126279214E-02	1.85863601922E-03	6.42901976734E-02	2.21358789550E-03	1.36813988671E-01	2.53731897237E-01
1.91650000000E+09	1.22087638539E-01	2.02688993877E-01	6.44319863374E-02	1.13128241791E-03	6.43254543524E-02	1.41246328813E-03	1.40753301032E-01	2.52688142567E-01
1.91680000000E+09	1.23076121640E-01	2.01092720702E-01	6.44359334997E-02	3.84231440449E-04	6.43593019579E-02	6.87567700297E-04	1.44558172887E-01	2.51591057810E-01
1.91710000000E+09	1.23937003524E-01	1.99596807203E-01	6.44281253075E-02	-3.76396599792E-04	6.43289930851E-02	-7.23953735046E-05	1.48304190783E-01	2.50412119163E-01
1.91740000000E+09	1.24839707833E-01	1.97936076110E-01	6.44210086932E-02	-1.17818955366E-03	6.43107451689E-02	-8.48876063017E-04	1.52226483543E-01	2.49275485762E-01
1.91770000000E+09	1.25711969314E-01	1.96370965201E-01	6.44180908401E-02	-1.91981901397E-03	6.43374482774E-02	-1.59562253838E-03	1.55920317286E-01	2.47915488508E-01
1.91800000000E+09	1.26457105475E-01	1.94675359261E-01	6.43912529172E-02	-2.68305617978E-03	6.43174810803E-02	-2.35031174815E-03	1.59658887894E-01	2.46672802703E-01
1.91830000000E+09	1.27227235134E-01	1.93061967314E-01	6.43738429416E-02	-3.45226452249E-03	6.42791469167E-02	-3.09542109673E-03	1.63341288400E-01	2.45146940080E-01
1.91860000000E+09	1.27924009083E-01	1.91394585794E-01	6.42889130751E-02	-4.18369279853E-03	6.42434526182E-02	-3.86884673786E-03	1.67133611262E-01	2.43729961215E-01
1.91890000000E+09	1.28628501693E-01	1.89690070545E-01	6.42769448158E-02	-4.95396150411E-03	6.42189913566E-02	-4.62922615965E-03	1.70740488359E-01	2.42248303243E-01
1.91920000000E+09	1.29269414179E-01	1.88041846127E-01	6.42167455921E-02	-5.74241078039E-03	6.41475784322E-02	-5.38488748396E-03	1.74455484208E-01	2.40575420774E-01
1.91950000000E+09	1.29838114355E-01	1.86342971921E-01	6.41710681114E-02	-6.46288375063E-03	6.40943541960E-02	-6.14619651977E-03	1.77946843799E-01	2.38867589421E-01
1.91980000000E+09	1.30324300651E-01	1.84644388809E-01	6.41035539859E-02	-7.22169176830E-03	6.40301844600E-02	-6.90424200111E-03	1.81471626673E-01	2.37117633263E-01
1.92010000000E+09	1.30787587213E-01	1.82953151515E-01	6.40175757493E-02	-7.97542272259E-03	6.39878512978E-02	-7.65475663130E-03	1.85112061231E-01	2.35374381127E-01
1.92040000000E+09	1.31257394368E-01	1.81216497926E-01	6.39522373243E-02	-8.75389544583E-03	6.38892012847E-02	-8.38570288555E-03	1.88521043034E-01	2.33545253997E-01
1.92070000000E+09	1.31632898604E-01	1.79553701941E-01	6.38165572293E-02	-9.52501771257E-03	6.37766158144E-02	-9.17757696945E-03	1.91970047922E-01	2.31503974878E-01
1.92100000000E+09	1.31939138309E-01	1.77812436955E-01	6.37734195628E-02	-1.02333035415E-02	6.37174643420E-02	-9.92100358778E-03	1.95415651223E-01	2.29621150099E-01
1.92130000000E+09	1.32311633617E-01	1.76109975752E-01	6.36447074123E-02	-1.10375945965E-02	6.35804900534E-02	-1.06906803849E-02	1.98741605463E-01	2.27459060545E-01
1.92160000000E+09	1.32478027791E-01	1.74395264149E-01	6.35254793175E-02	-1.17755010374E-02	6.35001839622E-02	-1.14280249296E-02	2.02110114488E-01	2.25436111293E-01
1.92190000000E+09	1.32688839694E-01	1.72721206375E-01	6.34269106044E-02	-1.25356433301E-02	6.33734364926E-02	-1.22191899739E-02	2.05367260925E-01	2.23247686216E-01
1.92220000000E+09	1.32821787065E-01	1.71026865060E-01	6.32906797180E-02	-1.32982099489E-02	6.32740593590E-02	-1.29596341378E-02	2.08646252199E-01	2.21082836930E-01
1.92250000000E+09	1.32904123390E-01	1.69352886868E-01	6.31452869359E-02	-1.40376445039E-02	6.31430029479E-02	-1.37359291108E-02	2.11873197618E-01	2.18753682403E-01
1.92280000000E+09	1.32934703463E-01	1.67728943482E-01	6.29895860015E-02	-1.47847738322E-02	6.30110511138E-02	-1.44787997188E-02	2.15008726967E-01	2.16423758750E-01
1.92310000000E+09	1.32969295011E-01	1.66084801457E-01	6.28270934399E-02	-1.55449340156E-02	6.28120079821E-02	-1.52154387279E-02	2.18110512567E-01	2.13952014115E-01
1.92340000000E+09	1.32869487734E-01	1.64399459906E-01	6.26796689631E-02	-1.63259753945E-02	6.26825808409E-02	-1.59827256175E-02	2.21244309592E-01	2.11629091058E-01
1.92370000000E+09	1.32814646919E-01	1.62831844644E-01	6.24843100824E-02	-1.70548758473E-02	6.24877170279E-02	-1.67480927581E-02	2.24195736905E-01	2.09105155134E-01
1.92400000000E+09	1.32684541349E-01	1.61260880849E-01	6.23153284676E-02	-1.77882624319E-02	6.23626004078E-02	-1.74905239262E-02	2.27195608953E-01	2.06547683425E-01
1.92430000000E+09	1.32492400499E-01	1.59720310313E-01	6.21388920911E-02	-1.85703280390E-02	6.21660692496E-02	-1.82393038549E-02	2.30121401780E-01	2.03932333992E-01
1.92460000000E+09	1.32272014426E-01	1.58152172372E-01	6.19386888536E-02	-1.93269582055E-02	6.19331506719E-02	-1.89599864427E-02	2.32920123423E-01	2.01318283903E-01
1.92490000000E+09	1.32050671035E-01	1.56674051830E-01	6.17442862984E-02	-2.00773613849E-02	6.17285273160E-02	-1.97588860842E-02	2.35854424761E-01	1.98549561187E-01
1.92520000000E+09	1.31683041349E-01	1.55186295319E-01	6.15269237612E-02	-2.08381502612E-02	6.15484737365E-02	-2.05087700695E-02	2.38606136946E-01	1.95838188899E-01
1.92550000000E+09	1.31380736348E-01	1.53679443581E-01	6.12977048058E-02	-2.15950977936E-02	6.13183974721E-02	-2.12742511252E-02	2.41355551235E-01	1.93044502844E-01
1.92580000000E+09	1.30932249935E-01	1.52298477009E-01	6.10743337172E-02	-2.23408541711E-02	6.10966402798E-02	-2.19921525237E-02	2.43952151074E-01	1.90242514161E-01
1.92610000000E+09	1.30509820483E-01	1.50855398787E-01	6.08263287464E-02	-2.31035203565E-02	6.08346368454E-02	-2.27705620969E-02	2.46634675358E-01	1.87265905352E-01
1.92640000000E+09	1.30011806693E-01	1.49548481348E-01	6.05978875629E-02	-2.37981086012E-02	6.06304045637E-02	-2.35016884085E-02	2.49269728900E-01	1.84331702341E-01
1.92670000000E+09	1.29562291946E-01	1.48217939187E-01	6.03291616137E-02	-2.45624106786E-02	6.03541362291E-02	-2.42521028420E-02	2.51695208622E-01	1.81335698388E-01
1.92700000000E+09	1.28967491441E-01	1.46966300594E-01	6.00744687640E-02	-2.52875497931E-02	6.00886022711E-02	-2.49889275997E-02	2.54152130403E-01	1.78319015124E-01
1.92730000000E+09	1.28354169565E-01	1.45732385455E-01	5.98138524522E-02	-2.60392037219E-02	5.98352318765E-02	-2.57089637596E-02	2.56547378896E-01	1.75281769499E-01
1.92760000000E+09	1.27809515999E-01	1.44514755312E-01	5.94905523081E-02	-2.68143071510E-02	5.95699801743E-02	-2.64835587133E-02	2.58882180877E-01	1.72186360801E-01
1.92790000000E+09	1.27167873846E-01	1.43350684966E-01	5.92077281547E-02	-2.75424917235E-02	5.92022386716E-02	-2.72186863436E-02	2.61191305065E-01	1.68973045054E-01
1.92820000000E+09	1.26486283773E-01	1.42267173027E-01	5.89095775234E-02	-2.82676663125E-02	5.89980107707E-02	-2.79563524621E-02	2.63433033522E-01	1.65863031329E-01
1.92850000000E+09	1.25869253279E-01	1.41195726838E-01	5.85749660965E-02	-2.90578360389E-02	5.86625782120E-02	-2.87245421019E-02	2.65570045350E-01	1.62543500251E-01
1.92880000000E+09	1.25126015752E-01	1.40208513894E-01	5.82684280985E-02	-2.97512706938E-02	5.83265949345E-02	-2.94434099095E-02	2.67659134512E-01	1.59344275572E-01
1.92910000000E+09	1.24420831592E-01	1.39210875829E-01	5.79318964487E-02	-3.04958197077E-02	5.79930765430E-02	-3.01809019652E-02	2.69690406453E-01	1.56007575997E-01
1.92940000000E+09	1.23658619073E-01	1.38313357838E-01	5.76064227655E-02	-3.12250911913E-02	5.76733596622E-02	-3.08896429471E-02	2.71739301819E-01	1.52759359566E-01
1.92970000000E+09	1.22887709437E-01	1.37425436709E-01	5.72594807926E-02	-3.19724746985E-02	5.73033207857E-02	-3.16339195073E-02	2.73610835192E-01	1.49320382165E-01
1.93000000000E+09	1.22140000706E-01	1.36627257958E-01	5.68755953048E-02	-3.26923114768E-02	5.69330947168E-02	-3.23660430927E-02	2.75482165387E-01	1.45899688091E-01
1.93030000000E+09	1.21358407908E-01	1.35927972278E-01	5.65211246323E-02	-3.34193043344E-02	5.66034886054E-02	-3.30936636207E-02	2.77263652861E-01	1.42399155380E-01
1.93060000000E+09	1.20539516827E-01	1.35174931186E-01	5.61468036748E-02	-3.41128065264E-02	5.62148498909E-02	-3.38059053929E-02	2.79063848065E-01	1.39038133223E-01
1.93090000000E+09	1.19778183105E-01	1.34496503361E-01	5.57400237128E-02	-3.48592708129E-02	5.58346832301E-02	-3.45524854631E-02	2.80721518682E-01	1.35526017779E-01
1.93120000000E+09	1.18963333365E-01	1.33920998043E-01	5.53459369826E-02	-3.55398246495E-02	5.54263401347E-02	-3.52321014607E-02	2.82317013831E-01	1.32010895115E-01
1.93150000000E+09	1.18132710032E-01	1.33365254167E-01	5.49343384158E-02	-3.62714182489E-02	5.50131353405E-02	-3.59679471782E-02	2.83877030498E-01	1.28428840526E-01
1.93180000000E+09	1.17346753993E-01	1.32872633133E-01	5.45229296943E-02	-3.69718848947E-02	5.45727631325E-02	-3.66918725876E-02	2.85293798861E-01	1.24805910688E-01
1.93210000000E+09	1.16533245555E-01	1.32373929859E-01	5.40586853578E-02	-3.76819304430E-02	5.41663007935E-02	-3.73581731159E-02	2.86700414245E-01	1.21266574069E-01
1.93240000000E+09	1.15753191324E-01	1.31950287668E-01	5.35883545460E-02	-3.83678209728E-02	5.37102037781E-02	-3.80732514094E-02	2.88113093149E-01	1.17609042803E-01
1.93270000000E+09	1.14929489042E-01	1.31619005017E-01	5.31633490664E-02	-3.90761574670E-02	5.32854759614E-02	-3.87741886969E-02	2.89388293794E-01	1.13982771272E-01
1.93300000000E+09	1.14166399984E-01	1.31341851291E-01	5.27175552627E-02	-3.97802880383E-02	5.28106621692E-02	-3.94593114639E-02	2.90528517570E-01	1.10349633738E-01
1.93330000000E+09	1.13390163512E-01	1.31049025500E-01	5.21939801220E-02	-4.04569893286E-02	5.23348043002E-02	-4.01390373884E-02	2.91806560612E-01	1.06615548311E-01
1.93360000000E+09	1.12691261583E-01	1.30850856551E-01	5.17366013980E-02	-4.11380196471E-02	5.18897333357E-02	-4.08125124972E-02	2.92813691279E-01	1.02932881433E-01
1.93390000000E+09	1.11949556315E-01	1.30689216557E-01	5.12444567132E-02	-4.18002633695E-02	5.13408900467E-02	-4.14972060030E-02	2.93794473953E-01	9.92179758972E-02
1.93420000000E+09	1.11241543524E-01	1.30516395243E-01	5.07476874554E-02	-4.24870219658E-02	5.08622322475E-02	-4.21632808311E-02	2.94789169942E-01	9.54662404697E-02
1.93450000000E+09	1.10531435896E-01	1.30449234328E-01	5.02409720221E-02	-4.31111508934E-02	5.03350567287E-02	-4.28430508559E-02	2.95638972488E-01	9.16411366662E-02
1.93480000000E+09	1.09865363934E-01	1.30377884139E-01	4.97369386733E-02	-4.38142552182E-02	4.98155077219E-02	-4.35032366835E-02	2.96471575669E-01	8.79098718140E-02
1.93510000000E+09	1.09172926620E-01	1.30341785519E-01	4.91874412047E-02	-4.44396861498E-02	4.93033854602E-02	-4.41549564889E-02	2.97204657314E-01	8.40850227182E-02
1.93540000000E+09	1.08503660153E-01	1.30374075067E-01	4.86004052277E-02	-4.50745761413E-02	4.87498887157E-02	-4.48013371594E-02	2.97886195875E-01	8.03163396896E-02
1.93570000000E+09	1.07945774408E-01	1.30479711540E-01	4.80469407667E-02	-4.57475248037E-02	4.82254236120E-02	-4.54487334645E-02	2.98450138520E-01	7.64569428014E-02
