# Hz S RI R 50
! CMT, CMT808U, 21440046, 21.4.3/4
! Date: 3/28/2026 4:57:45 PM
! Data: Format (Calibration Info)
! Freq	S11:Re/Im(F2)	S41:Re/Im(F2)	S14:Re/Im(F2)	S44:Re/Im(F2)
1.90000000000E+09	3.84499739747E-02	2.50514647112E-01	5.37637460781E-02	3.77815535939E-02	5.33846543407E-02	3.79569977804E-02	-5.30639755755E-02	1.81140544886E-01
1.90030000000E+09	4.01175739093E-02	2.50413007166E-01	5.41589453914E-02	3.71070455184E-02	5.38343460741E-02	3.72988060720E-02	-5.01724252278E-02	1.83765656420E-01
1.90060000000E+09	4.17914757433E-02	2.50316164574E-01	5.45731150887E-02	3.64392447104E-02	5.42450873006E-02	3.66015410950E-02	-4.72862496281E-02	1.86475247102E-01
1.90090000000E+09	4.34602807460E-02	2.50168109700E-01	5.49916325787E-02	3.57266292689E-02	5.46204403433E-02	3.59211939408E-02	-4.41988445858E-02	1.89026176894E-01
1.90120000000E+09	4.52102648954E-02	2.49965765350E-01	5.53959664563E-02	3.50439327695E-02	5.50420230078E-02	3.52119959033E-02	-4.12017353742E-02	1.91584688006E-01
1.90150000000E+09	4.68886330447E-02	2.49737487835E-01	5.57308608522E-02	3.43381213254E-02	5.54050156976E-02	3.45319806331E-02	-3.81478613302E-02	1.94086775505E-01
1.90180000000E+09	4.85562298692E-02	2.49563695893E-01	5.60952298984E-02	3.36561043788E-02	5.57802030912E-02	3.38334207315E-02	-3.50054521071E-02	1.96501684662E-01
1.90210000000E+09	5.02868245984E-02	2.49240971327E-01	5.64765837160E-02	3.29488837973E-02	5.61700279479E-02	3.31505321075E-02	-3.18038254778E-02	1.98819348946E-01
1.90240000000E+09	5.20236283071E-02	2.49033104335E-01	5.68415604578E-02	3.22591051769E-02	5.65209986847E-02	3.24335758289E-02	-2.85901958428E-02	2.01136349410E-01
1.90270000000E+09	5.36408890795E-02	2.48675759913E-01	5.71866686519E-02	3.15697552317E-02	5.68863395485E-02	3.17490786868E-02	-2.53487657218E-02	2.03368238445E-01
1.90300000000E+09	5.53999016560E-02	2.48337947465E-01	5.75361060216E-02	3.08173973099E-02	5.72079238385E-02	3.10552817272E-02	-2.20818653082E-02	2.05497474948E-01
1.90330000000E+09	5.70722285963E-02	2.47980871564E-01	5.78390070921E-02	3.01192380648E-02	5.75342635874E-02	3.03317076221E-02	-1.87342284792E-02	2.07670996091E-01
1.90360000000E+09	5.87880068925E-02	2.47642710567E-01	5.81901038640E-02	2.94327459478E-02	5.78723530302E-02	2.96368378697E-02	-1.53767859588E-02	2.09707622264E-01
1.90390000000E+09	6.04342823957E-02	2.47187801654E-01	5.84764650468E-02	2.86871457246E-02	5.81892705158E-02	2.89057607787E-02	-1.19232314558E-02	2.11622112379E-01
1.90420000000E+09	6.21975125592E-02	2.46794053608E-01	5.87849921012E-02	2.79831718309E-02	5.84654312841E-02	2.82032932280E-02	-8.55210395590E-03	2.13522723320E-01
1.90450000000E+09	6.38541920832E-02	2.46349189584E-01	5.91212268220E-02	2.72705755633E-02	5.87596468556E-02	2.75166529851E-02	-5.04014164985E-03	2.15342092955E-01
1.90480000000E+09	6.55647416315E-02	2.45791620894E-01	5.93879253400E-02	2.65268519576E-02	5.90431998234E-02	2.67675659184E-02	-1.51747036461E-03	2.17079776802E-01
1.90510000000E+09	6.73354594613E-02	2.45247270420E-01	5.96410256299E-02	2.58217735866E-02	5.93498672994E-02	2.60505682932E-02	1.99104353526E-03	2.18836742305E-01
1.90540000000E+09	6.89426617238E-02	2.44791598135E-01	5.99261346180E-02	2.51065003271E-02	5.96239048433E-02	2.53332870657E-02	5.58744377653E-03	2.20499946262E-01
1.90570000000E+09	7.06557629596E-02	2.44140986543E-01	6.01926037458E-02	2.43572379412E-02	5.98999274165E-02	2.46286376286E-02	9.20646929982E-03	2.21942268179E-01
1.90600000000E+09	7.23357725431E-02	2.43512163232E-01	6.04240148139E-02	2.36567245132E-02	6.01612462012E-02	2.38738452428E-02	1.27576488674E-02	2.23454793678E-01
1.90630000000E+09	7.39691890668E-02	2.42820807546E-01	6.06785549523E-02	2.29084402438E-02	6.03892941551E-02	2.31355766011E-02	1.64778553631E-02	2.24857813510E-01
1.90660000000E+09	7.57210341037E-02	2.42171485133E-01	6.09509459264E-02	2.21396986683E-02	6.06158772242E-02	2.24047361057E-02	2.01334055313E-02	2.26253676349E-01
1.90690000000E+09	7.73320160020E-02	2.41422405317E-01	6.11570657359E-02	2.14624232094E-02	6.08677462539E-02	2.16711343025E-02	2.37767406500E-02	2.27520351518E-01
1.90720000000E+09	7.89674044408E-02	2.40755162835E-01	6.13585983568E-02	2.06975533049E-02	6.10862401805E-02	2.09446483684E-02	2.75129750895E-02	2.28767596840E-01
1.90750000000E+09	8.06201014867E-02	2.39919395386E-01	6.15622107694E-02	1.99639955954E-02	6.13069300439E-02	2.02405119228E-02	3.12020012818E-02	2.29873840898E-01
1.90780000000E+09	8.22254679892E-02	2.39198237231E-01	6.17963937809E-02	1.92056446564E-02	6.15345499733E-02	1.94782091000E-02	3.49367297355E-02	2.30949490307E-01
1.90810000000E+09	8.38876571833E-02	2.38296880573E-01	6.19948437068E-02	1.84806155841E-02	6.17506364168E-02	1.87573556708E-02	3.87483687986E-02	2.31886759661E-01
1.90840000000E+09	8.54278483239E-02	2.37478332549E-01	6.21546735860E-02	1.77143661616E-02	6.19198964544E-02	1.80366840146E-02	4.25089605724E-02	2.32814039878E-01
1.90870000000E+09	8.70010728772E-02	2.36590195625E-01	6.23719335547E-02	1.70321702827E-02	6.20875765542E-02	1.72657389230E-02	4.62822676523E-02	2.33666601145E-01
1.90900000000E+09	8.86291923687E-02	2.35654762295E-01	6.25409764318E-02	1.62588376087E-02	6.22588322150E-02	1.65783629594E-02	5.01240049406E-02	2.34474838449E-01
1.90930000000E+09	9.01989537593E-02	2.34775895254E-01	6.26711151118E-02	1.55323425682E-02	6.24516152248E-02	1.58149485593E-02	5.39113191749E-02	2.35134072091E-01
1.90960000000E+09	9.17239352020E-02	2.33785276259E-01	6.28451276733E-02	1.47717053101E-02	6.25832698640E-02	1.50469417041E-02	5.77426964766E-02	2.35769605194E-01
1.90990000000E+09	9.32438427558E-02	2.32751029871E-01	6.29691760940E-02	1.40051737441E-02	6.27726936155E-02	1.43254389183E-02	6.15632536682E-02	2.36317925746E-01
1.91020000000E+09	9.47485449033E-02	2.31779117342E-01	6.31316522800E-02	1.32580730028E-02	6.29005956910E-02	1.35935847693E-02	6.53586967185E-02	2.36863113119E-01
1.91050000000E+09	9.62440979337E-02	2.30672996353E-01	6.32423714921E-02	1.25715844820E-02	6.30372659649E-02	1.28255362522E-02	6.92324600525E-02	2.37210019037E-01
1.91080000000E+09	9.77552927323E-02	2.29639881978E-01	6.34083912316E-02	1.17558756576E-02	6.32038734193E-02	1.20759376680E-02	7.30729512251E-02	2.37604811290E-01
1.91110000000E+09	9.91798595144E-02	2.28519456262E-01	6.35038169600E-02	1.10181151289E-02	6.32881206903E-02	1.13362028536E-02	7.69624727195E-02	2.37823775438E-01
1.91140000000E+09	1.00660204106E-01	2.27432467475E-01	6.36147483036E-02	1.02774327060E-02	6.34064583058E-02	1.05618939344E-02	8.08081569841E-02	2.38063819624E-01
1.91170000000E+09	1.02082603006E-01	2.26264136485E-01	6.37393335872E-02	9.53163798923E-03	6.35452133586E-02	9.84293916814E-03	8.47048199067E-02	2.38135243207E-01
1.91200000000E+09	1.03495609813E-01	2.25118548013E-01	6.38189214806E-02	8.78095776660E-03	6.35925138915E-02	9.09933553189E-03	8.85399641264E-02	2.38185268339E-01
1.91230000000E+09	1.04821312153E-01	2.23890869030E-01	6.38909074719E-02	8.04817593030E-03	6.37192026927E-02	8.35240307466E-03	9.23805123201E-02	2.38203742185E-01
1.91260000000E+09	1.06253346554E-01	2.22702446157E-01	6.39946388456E-02	7.29422011485E-03	6.37832546311E-02	7.61038073340E-03	9.62016952253E-02	2.38142722767E-01
1.91290000000E+09	1.07601375603E-01	2.21447460698E-01	6.40407791005E-02	6.52598700911E-03	6.38391712996E-02	6.87319811901E-03	9.99986901311E-02	2.37887143802E-01
1.91320000000E+09	1.08898011896E-01	2.20172064195E-01	6.41278072703E-02	5.78849151810E-03	6.39474570898E-02	6.10989538949E-03	1.03877461629E-01	2.37727396193E-01
1.91350000000E+09	1.10207619430E-01	2.18844168841E-01	6.41606388132E-02	5.02115118057E-03	6.39702232709E-02	5.35255533265E-03	1.07728674356E-01	2.37386663892E-01
1.91380000000E+09	1.11520790337E-01	2.17529858575E-01	6.42127115372E-02	4.25412684241E-03	6.40529903318E-02	4.59889169599E-03	1.11518880622E-01	2.37052492109E-01
1.91410000000E+09	1.12725403125E-01	2.16147003575E-01	6.42724379659E-02	3.51655551219E-03	6.40789760582E-02	3.85069878580E-03	1.15314764933E-01	2.36556798523E-01
1.91440000000E+09	1.13964307540E-01	2.14795991009E-01	6.43182783539E-02	2.75731437246E-03	6.41298789962E-02	3.08558225244E-03	1.19093291868E-01	2.36049342538E-01
1.91470000000E+09	1.15138678230E-01	2.13405243981E-01	6.43323592992E-02	2.01256676213E-03	6.41466508578E-02	2.32244168354E-03	1.22921425429E-01	2.35451099780E-01
1.91500000000E+09	1.16348428031E-01	2.11938306452E-01	6.43483016953E-02	1.24663522433E-03	6.41864915132E-02	1.56281436298E-03	1.26701051543E-01	2.34830499833E-01
1.91530000000E+09	1.17567827973E-01	2.10468761690E-01	6.43503717248E-02	4.69657475734E-04	6.41912201624E-02	8.62675449215E-04	1.30434330297E-01	2.34129058850E-01
1.91560000000E+09	1.18602412826E-01	2.09080520529E-01	6.43544565078E-02	-2.73553271725E-04	6.41829947436E-02	8.73127150381E-05	1.34119004735E-01	2.33248094456E-01
1.91590000000E+09	1.19707239976E-01	2.07465892398E-01	6.43230921202E-02	-9.99510497752E-04	6.42134531631E-02	-6.73758578396E-04	1.37918303419E-01	2.32361042402E-01
1.91620000000E+09	1.20779128560E-01	2.05992068911E-01	6.43546584516E-02	-1.74366057679E-03	6.41961338723E-02	-1.42068218551E-03	1.41575636474E-01	2.31545042116E-01
1.91650000000E+09	1.21841207200E-01	2.04460321468E-01	6.43174823536E-02	-2.52576777037E-03	6.41774925030E-02	-2.16395335927E-03	1.45272062974E-01	2.30472533969E-01
1.91680000000E+09	1.22824944105E-01	2.02868556117E-01	6.42804639527E-02	-3.27563271357E-03	6.41485459302E-02	-2.91895113574E-03	1.48890361204E-01	2.29447202410E-01
1.91710000000E+09	1.23750770393E-01	2.01289021457E-01	6.42633610592E-02	-4.01497173133E-03	6.41095212137E-02	-3.67886039722E-03	1.52507894123E-01	2.28251231977E-01
1.91740000000E+09	1.24674733145E-01	1.99682860491E-01	6.42152018651E-02	-4.74222317315E-03	6.40986515776E-02	-4.43021002529E-03	1.56158744071E-01	2.27087435119E-01
1.91770000000E+09	1.25552729992E-01	1.98058098444E-01	6.41332619190E-02	-5.55865209774E-03	6.40397034875E-02	-5.18200932215E-03	1.59723792571E-01	2.25776327285E-01
1.91800000000E+09	1.26401159840E-01	1.96368083584E-01	6.40821161285E-02	-6.27640869058E-03	6.39715117494E-02	-5.95028044097E-03	1.63301576184E-01	2.24457180648E-01
1.91830000000E+09	1.27196525739E-01	1.94732781130E-01	6.40199635506E-02	-7.05702375635E-03	6.39544729653E-02	-6.68848506128E-03	1.66778930360E-01	2.23015456257E-01
1.91860000000E+09	1.27957196237E-01	1.93088821059E-01	6.39687760917E-02	-7.82499341712E-03	6.38380202526E-02	-7.42787860917E-03	1.70323957040E-01	2.21637518428E-01
1.91890000000E+09	1.28630696370E-01	1.91345807899E-01	6.38657283446E-02	-8.56326334649E-03	6.37718630276E-02	-8.21001592357E-03	1.73784383577E-01	2.20128680099E-01
1.91920000000E+09	1.29362499479E-01	1.89685217983E-01	6.38146535283E-02	-9.32196534718E-03	6.37032581443E-02	-8.97298620095E-03	1.77216357687E-01	2.18451687673E-01
1.91950000000E+09	1.29970353838E-01	1.87901415686E-01	6.37087740675E-02	-1.00633660501E-02	6.36006973396E-02	-9.69864855494E-03	1.80574265096E-01	2.16836601628E-01
1.91980000000E+09	1.30489259522E-01	1.86168057538E-01	6.36234056171E-02	-1.08250421896E-02	6.35056409801E-02	-1.04785029792E-02	1.84026092092E-01	2.15122089821E-01
1.92010000000E+09	1.30994078855E-01	1.84470641253E-01	6.34726133305E-02	-1.15869394411E-02	6.34177692902E-02	-1.12261562452E-02	1.87401838054E-01	2.13345309619E-01
1.92040000000E+09	1.31491084393E-01	1.82713618980E-01	6.33892481630E-02	-1.23304780173E-02	6.32814086237E-02	-1.19614400638E-02	1.90634310285E-01	2.11590327673E-01
1.92070000000E+09	1.31892535089E-01	1.80984243558E-01	6.32213560235E-02	-1.31211917458E-02	6.31381067350E-02	-1.27464637888E-02	1.93863948700E-01	2.09572588929E-01
1.92100000000E+09	1.32270456580E-01	1.79245736550E-01	6.30880094822E-02	-1.38362451328E-02	6.30241822031E-02	-1.34960919116E-02	1.97171749095E-01	2.07699250961E-01
1.92130000000E+09	1.32635833199E-01	1.77506632476E-01	6.29677230522E-02	-1.45927958433E-02	6.28797259017E-02	-1.42376495003E-02	2.00309146955E-01	2.05624465438E-01
1.92160000000E+09	1.32874198910E-01	1.75730680476E-01	6.27956332682E-02	-1.53501912163E-02	6.27671170129E-02	-1.50044993587E-02	2.03515985467E-01	2.03660873364E-01
1.92190000000E+09	1.33111403613E-01	1.73958571349E-01	6.26622530907E-02	-1.61001884228E-02	6.26026387207E-02	-1.57442301985E-02	2.06586943709E-01	2.01531329571E-01
1.92220000000E+09	1.33273808607E-01	1.72303056949E-01	6.24907501808E-02	-1.68390864655E-02	6.24544322778E-02	-1.65215324716E-02	2.09736095183E-01	1.99375877451E-01
1.92250000000E+09	1.33406216609E-01	1.70568175759E-01	6.22882973732E-02	-1.76231077072E-02	6.22327769101E-02	-1.72484851842E-02	2.12720544813E-01	1.97074784815E-01
1.92280000000E+09	1.33483572018E-01	1.68842597413E-01	6.21038835251E-02	-1.83780140299E-02	6.20690843452E-02	-1.80098512360E-02	2.15703048490E-01	1.94794478790E-01
1.92310000000E+09	1.33523121754E-01	1.67158450203E-01	6.19061742570E-02	-1.91121165932E-02	6.18763056663E-02	-1.87706192146E-02	2.18657087626E-01	1.92418759311E-01
1.92340000000E+09	1.33513355109E-01	1.65436680606E-01	6.17117470604E-02	-1.98668667074E-02	6.16680241452E-02	-1.95356779463E-02	2.21601046334E-01	1.90113571125E-01
1.92370000000E+09	1.33477151387E-01	1.63847647470E-01	6.15368594665E-02	-2.06621202816E-02	6.14704555656E-02	-2.02681056866E-02	2.24368260028E-01	1.87688165808E-01
1.92400000000E+09	1.33365712166E-01	1.62221746930E-01	6.13064308515E-02	-2.13957121229E-02	6.12801182184E-02	-2.10181927222E-02	2.27227039441E-01	1.85152101545E-01
1.92430000000E+09	1.33107053425E-01	1.60571962110E-01	6.10350945969E-02	-2.21367587731E-02	6.10278513184E-02	-2.17732170470E-02	2.29970798171E-01	1.82600910880E-01
1.92460000000E+09	1.32992703100E-01	1.58987164661E-01	6.08104635515E-02	-2.28833710146E-02	6.08001683310E-02	-2.25215293697E-02	2.32677546500E-01	1.79986049987E-01
1.92490000000E+09	1.32698805166E-01	1.57455720511E-01	6.05706053976E-02	-2.36312785212E-02	6.05436876433E-02	-2.33061631893E-02	2.35326695299E-01	1.77314142065E-01
1.92520000000E+09	1.32388171226E-01	1.55891189058E-01	6.03203426077E-02	-2.44052376554E-02	6.03016379420E-02	-2.40221560089E-02	2.37950296534E-01	1.74670491341E-01
1.92550000000E+09	1.32081792889E-01	1.54337673273E-01	6.00111183059E-02	-2.51268181072E-02	6.00249531244E-02	-2.47803907968E-02	2.40506145818E-01	1.71946846568E-01
1.92580000000E+09	1.31671834343E-01	1.52876255782E-01	5.97759059898E-02	-2.58955954673E-02	5.97631403026E-02	-2.55171885241E-02	2.42976953831E-01	1.69205544569E-01
1.92610000000E+09	1.31224213876E-01	1.51374258995E-01	5.94624344151E-02	-2.66669675465E-02	5.94696131559E-02	-2.62658542535E-02	2.45482301247E-01	1.66322626482E-01
1.92640000000E+09	1.30760966613E-01	1.50069104480E-01	5.91594589928E-02	-2.73487132868E-02	5.91647007031E-02	-2.70214219103E-02	2.47881014687E-01	1.63500583528E-01
1.92670000000E+09	1.30274731929E-01	1.48647820586E-01	5.88738894902E-02	-2.81192931347E-02	5.88765238567E-02	-2.77514350457E-02	2.50179821575E-01	1.60556328713E-01
1.92700000000E+09	1.29708808568E-01	1.47276348774E-01	5.85650643166E-02	-2.88425598505E-02	5.85737539757E-02	-2.84964148536E-02	2.52538664386E-01	1.57596583593E-01
1.92730000000E+09	1.29132451024E-01	1.46023453206E-01	5.82395000031E-02	-2.95959797161E-02	5.82420045748E-02	-2.92225022147E-02	2.54744996944E-01	1.54640500730E-01
1.92760000000E+09	1.28525669999E-01	1.44736697800E-01	5.78843060419E-02	-3.03075684496E-02	5.78873013372E-02	-2.99659228885E-02	2.56988862374E-01	1.51574534570E-01
1.92790000000E+09	1.27912985761E-01	1.43512957590E-01	5.75164817790E-02	-3.10649135294E-02	5.75237156590E-02	-3.07003836936E-02	2.59079207788E-01	1.48477080962E-01
1.92820000000E+09	1.27216186367E-01	1.42359574715E-01	5.71939742743E-02	-3.17768126224E-02	5.72323540282E-02	-3.14349277743E-02	2.61159975856E-01	1.45411077297E-01
1.92850000000E+09	1.26553255919E-01	1.41242841539E-01	5.67880935576E-02	-3.25383244105E-02	5.68374634771E-02	-3.21478122054E-02	2.63067477145E-01	1.42172317031E-01
1.92880000000E+09	1.25819990739E-01	1.40158912262E-01	5.64308252635E-02	-3.32331691575E-02	5.64617016108E-02	-3.28891578649E-02	2.65149098298E-01	1.39085841665E-01
1.92910000000E+09	1.25060664154E-01	1.39166309182E-01	5.60381536676E-02	-3.39529144758E-02	5.60810090426E-02	-3.36008167684E-02	2.66934519793E-01	1.35855764925E-01
1.92940000000E+09	1.24287251405E-01	1.38156437303E-01	5.56349187109E-02	-3.46723999899E-02	5.56963684869E-02	-3.43177126388E-02	2.68858287748E-01	1.32624256368E-01
1.92970000000E+09	1.23491748674E-01	1.37265568225E-01	5.52459356909E-02	-3.53895038999E-02	5.52653080691E-02	-3.50461515140E-02	2.70614617534E-01	1.29293509082E-01
1.93000000000E+09	1.22699602919E-01	1.36392937785E-01	5.47875192338E-02	-3.60628827369E-02	5.48746621249E-02	-3.57275112901E-02	2.72353709133E-01	1.26012034367E-01
1.93030000000E+09	1.21883492238E-01	1.35570908069E-01	5.43561904986E-02	-3.67773082825E-02	5.44309192259E-02	-3.64388018877E-02	2.73996721511E-01	1.22577853594E-01
1.93060000000E+09	1.21075041674E-01	1.34795242490E-01	5.39445125049E-02	-3.74681338379E-02	5.39970261276E-02	-3.71310220597E-02	2.75621547162E-01	1.19268821867E-01
1.93090000000E+09	1.20194289183E-01	1.34113558069E-01	5.35086417783E-02	-3.81792365506E-02	5.35560019521E-02	-3.78454757649E-02	2.77086319036E-01	1.15913743027E-01
1.93120000000E+09	1.19364738047E-01	1.33500922824E-01	5.30506874593E-02	-3.88742499299E-02	5.31085309457E-02	-3.85535326798E-02	2.78604891242E-01	1.12462870401E-01
1.93150000000E+09	1.18518156217E-01	1.32852537726E-01	5.25528219969E-02	-3.95658700988E-02	5.26210105587E-02	-3.92056378683E-02	2.79966730633E-01	1.09038382879E-01
1.93180000000E+09	1.17695001220E-01	1.32287040212E-01	5.20817060461E-02	-4.02473977494E-02	5.21269808653E-02	-3.98936745203E-02	2.81312142121E-01	1.05497778467E-01
1.93210000000E+09	1.16805107769E-01	1.31815160618E-01	5.15583987663E-02	-4.08946342475E-02	5.16274280912E-02	-4.05465727840E-02	2.82587681069E-01	1.02032339433E-01
1.93240000000E+09	1.16018015601E-01	1.31339269775E-01	5.10617419683E-02	-4.15917533920E-02	5.11562523866E-02	-4.12088990926E-02	2.83819392494E-01	9.84612475546E-02
1.93270000000E+09	1.15100663209E-01	1.30980974052E-01	5.05474783984E-02	-4.22441724032E-02	5.06650480777E-02	-4.18761780852E-02	2.84988576085E-01	9.49142793541E-02
1.93300000000E+09	1.14323215397E-01	1.30623873909E-01	5.00280730215E-02	-4.28888469432E-02	5.01351395218E-02	-4.25294376954E-02	2.86023409429E-01	9.13769099143E-02
1.93330000000E+09	1.13516785695E-01	1.30326607507E-01	4.94906262509E-02	-4.35237427482E-02	4.96010826233E-02	-4.32116311208E-02	2.87087530348E-01	8.77670395457E-02
1.93360000000E+09	1.12746432878E-01	1.30087740740E-01	4.89559885041E-02	-4.41696905104E-02	4.90696426952E-02	-4.38258577418E-02	2.87991237400E-01	8.42230865702E-02
1.93390000000E+09	1.11967971696E-01	1.29879766639E-01	4.84207658017E-02	-4.47738156064E-02	4.85376893672E-02	-4.44594556595E-02	2.88857760987E-01	8.05974647350E-02
1.93420000000E+09	1.11176921903E-01	1.29695759073E-01	4.78467839058E-02	-4.54388003428E-02	4.79784918383E-02	-4.50745693486E-02	2.89717781157E-01	7.69850785083E-02
1.93450000000E+09	1.10456481802E-01	1.29571527575E-01	4.72668863257E-02	-4.60546845918E-02	4.73721324857E-02	-4.57243705007E-02	2.90390437034E-01	7.32616516641E-02
1.93480000000E+09	1.09751331654E-01	1.29545173535E-01	4.66869249633E-02	-4.66591234243E-02	4.68182226096E-02	-4.63098716330E-02	2.91126443354E-01	6.96511497901E-02
1.93510000000E+09	1.08998269632E-01	1.29456532051E-01	4.60911532602E-02	-4.72414757962E-02	4.62414276378E-02	-4.69323185280E-02	2.91760162169E-01	6.59659117789E-02
1.93540000000E+09	1.08299656146E-01	1.29496830354E-01	4.55130827227E-02	-4.78858881679E-02	4.56813159048E-02	-4.75108956958E-02	2.92314415000E-01	6.22683633432E-02
1.93570000000E+09	1.07606574657E-01	1.29545995214E-01	4.49237409407E-02	-4.84435507981E-02	4.50521798958E-02	-4.80964241058E-02	2.92734496045E-01	5.85503401879E-02
