# Hz S RI R 50
! CMT, CMT808U, 21440046, 21.4.3/4
! Date: 3/28/2026 4:58:37 PM
! Data: Format (Calibration Info)
! Freq	S11:Re/Im(F2)	S41:Re/Im(F2)	S14:Re/Im(F2)	S44:Re/Im(F2)
1.90000000000E+09	3.92060901142E-02	2.51502974884E-01	4.54440420315E-02	4.88375485876E-02	4.50938187635E-02	4.89325024612E-02	-8.86253825555E-02	1.66274031524E-01
1.90030000000E+09	4.08563434802E-02	2.51361763152E-01	4.60292795102E-02	4.82508409548E-02	4.56985572559E-02	4.83713578825E-02	-8.61001740362E-02	1.69391423271E-01
1.90060000000E+09	4.25406219810E-02	2.51131367869E-01	4.65682615904E-02	4.76529694911E-02	4.62637749373E-02	4.77870232051E-02	-8.35871363810E-02	1.72616593438E-01
1.90090000000E+09	4.42378239711E-02	2.51008805412E-01	4.71223625438E-02	4.71003095440E-02	4.67995754674E-02	4.71980192380E-02	-8.09936034055E-02	1.75629740804E-01
1.90120000000E+09	4.59158403834E-02	2.50747422717E-01	4.77056546393E-02	4.64786725399E-02	4.73250767172E-02	4.65921146645E-02	-7.83968460851E-02	1.78671790316E-01
1.90150000000E+09	4.76400474217E-02	2.50378533635E-01	4.81924135246E-02	4.58862135285E-02	4.78612130169E-02	4.59917486073E-02	-7.57354649501E-02	1.81679781542E-01
1.90180000000E+09	4.93524925781E-02	2.50170733172E-01	4.87071590531E-02	4.52425776250E-02	4.83964736625E-02	4.54454516589E-02	-7.30020070171E-02	1.84625343172E-01
1.90210000000E+09	5.10394381520E-02	2.49897234626E-01	4.92379515623E-02	4.46840744427E-02	4.89217075946E-02	4.48234923085E-02	-7.02317419788E-02	1.87475381154E-01
1.90240000000E+09	5.27777927865E-02	2.49522265900E-01	4.97449816614E-02	4.40657366165E-02	4.94278377843E-02	4.41984844046E-02	-6.73946403875E-02	1.90275541759E-01
1.90270000000E+09	5.43739931948E-02	2.49107229687E-01	5.02282423012E-02	4.34381849198E-02	4.99424297005E-02	4.35788652205E-02	-6.44787055238E-02	1.93052126040E-01
1.90300000000E+09	5.61553866909E-02	2.48697625429E-01	5.07483561580E-02	4.27744895043E-02	5.04355974751E-02	4.29753995101E-02	-6.14909393290E-02	1.95753197457E-01
1.90330000000E+09	5.78217920710E-02	2.48301586654E-01	5.12088695387E-02	4.21703264811E-02	5.09418992941E-02	4.23371104959E-02	-5.85147286056E-02	1.98424961034E-01
1.90360000000E+09	5.95115203648E-02	2.47864610149E-01	5.17065535995E-02	4.15636463532E-02	5.14123895670E-02	4.17121790501E-02	-5.55078580074E-02	2.01038295470E-01
1.90390000000E+09	6.11969403101E-02	2.47333960513E-01	5.21678816545E-02	4.08750573754E-02	5.18772016111E-02	4.10834269625E-02	-5.23941346973E-02	2.03493464970E-01
1.90420000000E+09	6.29024028894E-02	2.46890866653E-01	5.26171484094E-02	4.02708860277E-02	5.23580836323E-02	4.04400380044E-02	-4.93196274939E-02	2.05976483964E-01
1.90450000000E+09	6.45955914627E-02	2.46364501353E-01	5.30936685095E-02	3.96012557993E-02	5.27982486205E-02	3.97999947717E-02	-4.61148006357E-02	2.08405980747E-01
1.90480000000E+09	6.63036559110E-02	2.45760541041E-01	5.35752649476E-02	3.89669141745E-02	5.32552960808E-02	3.91461592232E-02	-4.28286810694E-02	2.10685046584E-01
1.90510000000E+09	6.79947038092E-02	2.45136912560E-01	5.39774059881E-02	3.83121709415E-02	5.37276617139E-02	3.84836704869E-02	-3.96009384079E-02	2.13029344967E-01
1.90540000000E+09	6.96336521314E-02	2.44530253415E-01	5.44332816657E-02	3.76626524944E-02	5.41358179362E-02	3.78417226636E-02	-3.62752355873E-02	2.15242858276E-01
1.90570000000E+09	7.13071390053E-02	2.43874556325E-01	5.48679534933E-02	3.69681565611E-02	5.45812306455E-02	3.71821778954E-02	-3.28660201879E-02	2.17310791260E-01
1.90600000000E+09	7.29932602641E-02	2.43161705095E-01	5.52722492025E-02	3.63146900439E-02	5.49844825474E-02	3.65115411242E-02	-2.95573941524E-02	2.19403715634E-01
1.90630000000E+09	7.46353036923E-02	2.42504375523E-01	5.56953723961E-02	3.56483880790E-02	5.54182043056E-02	3.58542166149E-02	-2.60925321513E-02	2.21449349098E-01
1.90660000000E+09	7.63125785109E-02	2.41704141788E-01	5.61120774747E-02	3.49481682184E-02	5.58131752998E-02	3.51717809048E-02	-2.26701507227E-02	2.23432049131E-01
1.90690000000E+09	7.79421208515E-02	2.40937568618E-01	5.64858689485E-02	3.42933204587E-02	5.61990467666E-02	3.44812616701E-02	-1.92142075678E-02	2.25258588897E-01
1.90720000000E+09	7.95627513733E-02	2.40116919359E-01	5.68610089052E-02	3.36059052793E-02	5.66122403309E-02	3.38235045566E-02	-1.56987927555E-02	2.27096389974E-01
1.90750000000E+09	8.11437911858E-02	2.39315681978E-01	5.72352916588E-02	3.29420181137E-02	5.69888033396E-02	3.31459980990E-02	-1.21189657307E-02	2.28825254814E-01
1.90780000000E+09	8.27218223106E-02	2.38451294375E-01	5.76140147152E-02	3.22042561680E-02	5.73570280373E-02	3.24518858399E-02	-8.58827829412E-03	2.30540087245E-01
1.90810000000E+09	8.43415288533E-02	2.37510666295E-01	5.79859535902E-02	3.15215668059E-02	5.77256980163E-02	3.17706124145E-02	-4.95530832797E-03	2.32103459872E-01
1.90840000000E+09	8.59021462620E-02	2.36632363742E-01	5.83696509932E-02	3.08379906773E-02	5.80915281581E-02	3.10560496906E-02	-1.29654724947E-03	2.33623826130E-01
1.90870000000E+09	8.74650203596E-02	2.35627257686E-01	5.86889440003E-02	3.01363735394E-02	5.84417425119E-02	3.03637486576E-02	2.33525676194E-03	2.35129700080E-01
1.90900000000E+09	8.90471884240E-02	2.34612769166E-01	5.90536043718E-02	2.93939471453E-02	5.87945209774E-02	2.96660176171E-02	6.13575945185E-03	2.36507422653E-01
1.90930000000E+09	9.06006669792E-02	2.33700076500E-01	5.93826473756E-02	2.87378663395E-02	5.91015466597E-02	2.89648652823E-02	9.76274466552E-03	2.37797451035E-01
1.90960000000E+09	9.20555430746E-02	2.32655362071E-01	5.97223723828E-02	2.79990073469E-02	5.94714144159E-02	2.82602145115E-02	1.34664495039E-02	2.39123419638E-01
1.90990000000E+09	9.35201730251E-02	2.31531247467E-01	5.99964136481E-02	2.72973048035E-02	5.97822417883E-02	2.75223472108E-02	1.72302618762E-02	2.40242311267E-01
1.91020000000E+09	9.50025839482E-02	2.30479768760E-01	6.03147910789E-02	2.65970922317E-02	6.01316584333E-02	2.68290563868E-02	2.09975617457E-02	2.41425931541E-01
1.91050000000E+09	9.64308900427E-02	2.29353909962E-01	6.06459440541E-02	2.58518073609E-02	6.03988579230E-02	2.61303114209E-02	2.47849109960E-02	2.42408395494E-01
1.91080000000E+09	9.78827300227E-02	2.28232674344E-01	6.09263519452E-02	2.51474599047E-02	6.07045024576E-02	2.54040376016E-02	2.85977040053E-02	2.43430296124E-01
1.91110000000E+09	9.93014380494E-02	2.27074436950E-01	6.12202320498E-02	2.44014105372E-02	6.10003442372E-02	2.46432954286E-02	3.24681661809E-02	2.44260358699E-01
1.91140000000E+09	1.00682359545E-01	2.25887359445E-01	6.15153430224E-02	2.36963002000E-02	6.12858029024E-02	2.39365654307E-02	3.62626015604E-02	2.45121466151E-01
1.91170000000E+09	1.02064755712E-01	2.24647141158E-01	6.17462250428E-02	2.29339009724E-02	6.15666933777E-02	2.32328202565E-02	4.01146861539E-02	2.45869164505E-01
1.91200000000E+09	1.03406356126E-01	2.23448483045E-01	6.20678684548E-02	2.22178060339E-02	6.18231192861E-02	2.25099960086E-02	4.39852779521E-02	2.46508246759E-01
1.91230000000E+09	1.04748846937E-01	2.22172925722E-01	6.22843358499E-02	2.14771080328E-02	6.20453581372E-02	2.17313663237E-02	4.78290349979E-02	2.47099867550E-01
1.91260000000E+09	1.06034068066E-01	2.20913832009E-01	6.25325849688E-02	2.07604554616E-02	6.23351991468E-02	2.10258583628E-02	5.16964244266E-02	2.47685803599E-01
1.91290000000E+09	1.07341463017E-01	2.19613239020E-01	6.27713226620E-02	2.00049363359E-02	6.25769669230E-02	2.02798077255E-02	5.56010604900E-02	2.48123168470E-01
1.91320000000E+09	1.08608121312E-01	2.18266302509E-01	6.30057017969E-02	1.92482225550E-02	6.28207025418E-02	1.95676727310E-02	5.95010114416E-02	2.48540488090E-01
1.91350000000E+09	1.09848318459E-01	2.16867506312E-01	6.32307177272E-02	1.85362662652E-02	6.30325810018E-02	1.87666733673E-02	6.34348850914E-02	2.48802739366E-01
1.91380000000E+09	1.11052802367E-01	2.15523559759E-01	6.34606900618E-02	1.77678841394E-02	6.32669141231E-02	1.80577751045E-02	6.72552809535E-02	2.49146502586E-01
1.91410000000E+09	1.12208737580E-01	2.14104805073E-01	6.36397721139E-02	1.70173924790E-02	6.34813601911E-02	1.72806470132E-02	7.11921204071E-02	2.49212013195E-01
1.91440000000E+09	1.13325436833E-01	2.12626321025E-01	6.38575023033E-02	1.62475629231E-02	6.36663280403E-02	1.65343201850E-02	7.50243006992E-02	2.49326698958E-01
1.91470000000E+09	1.14493326204E-01	2.11235609442E-01	6.40445718470E-02	1.54782459332E-02	6.38909488907E-02	1.57956629556E-02	7.90031926614E-02	2.49378368823E-01
1.91500000000E+09	1.15557572472E-01	2.09703525584E-01	6.42196274571E-02	1.47491434089E-02	6.40485942813E-02	1.50331981344E-02	8.28980484215E-02	2.49293456203E-01
1.91530000000E+09	1.16682638708E-01	2.08204422711E-01	6.44393081046E-02	1.39933348598E-02	6.42379837752E-02	1.42704351854E-02	8.67181025372E-02	2.49207418368E-01
1.91560000000E+09	1.17676844940E-01	2.06748845618E-01	6.46095763129E-02	1.31993683136E-02	6.44167912695E-02	1.35189207801E-02	9.05506632871E-02	2.49018046984E-01
1.91590000000E+09	1.18707764720E-01	2.05137428348E-01	6.47460387086E-02	1.24496951135E-02	6.45630151447E-02	1.27578648825E-02	9.44953272677E-02	2.48682543213E-01
1.91620000000E+09	1.19643200971E-01	2.03572121566E-01	6.48914124180E-02	1.16870994209E-02	6.47126311190E-02	1.19857746909E-02	9.83427493911E-02	2.48405194358E-01
1.91650000000E+09	1.20573876094E-01	2.02020237819E-01	6.50652062993E-02	1.09196836172E-02	6.48718382669E-02	1.12162467407E-02	1.02237233246E-01	2.47976694675E-01
1.91680000000E+09	1.21443211570E-01	2.00387940217E-01	6.51881449215E-02	1.01615807823E-02	6.50571040643E-02	1.04786034760E-02	1.06047468417E-01	2.47484259944E-01
1.91710000000E+09	1.22308650338E-01	1.98839309805E-01	6.53442952446E-02	9.39576653431E-03	6.51628329325E-02	9.71816344187E-03	1.09822816688E-01	2.46954723996E-01
1.91740000000E+09	1.23130454160E-01	1.97161810956E-01	6.54515055262E-02	8.58941413946E-03	6.52952650162E-02	8.94711603268E-03	1.13726459077E-01	2.46366370705E-01
1.91770000000E+09	1.23909659958E-01	1.95543074137E-01	6.55571595497E-02	7.84251761050E-03	6.53930255639E-02	8.15241949689E-03	1.17505413246E-01	2.45588426911E-01
1.91800000000E+09	1.24619169698E-01	1.93772101793E-01	6.56306754738E-02	7.05988808907E-03	6.55433367841E-02	7.38227595784E-03	1.21320257362E-01	2.44936871799E-01
1.91830000000E+09	1.25353229664E-01	1.92194612823E-01	6.58031802371E-02	6.30033917299E-03	6.56115063798E-02	6.59467422126E-03	1.25052938093E-01	2.43974125423E-01
1.91860000000E+09	1.25947038697E-01	1.90423704921E-01	6.58374670450E-02	5.50921173623E-03	6.57560796939E-02	5.83719601977E-03	1.28834630690E-01	2.43127518296E-01
1.91890000000E+09	1.26573442107E-01	1.88745148585E-01	6.59228572630E-02	4.74642782024E-03	6.58421575141E-02	5.01359816358E-03	1.32563256349E-01	2.42177978194E-01
1.91920000000E+09	1.27190953499E-01	1.87048261319E-01	6.60095552343E-02	3.93211100749E-03	6.59194565894E-02	4.25688357900E-03	1.36312438981E-01	2.41122122464E-01
1.91950000000E+09	1.27677737201E-01	1.85370396783E-01	6.60771133810E-02	3.16155238207E-03	6.59603860945E-02	3.46432880911E-03	1.39952448088E-01	2.39969938577E-01
1.91980000000E+09	1.28099052606E-01	1.83557592922E-01	6.61439960214E-02	2.40534064649E-03	6.60277085870E-02	2.69064934890E-03	1.43643135768E-01	2.38840669915E-01
1.92010000000E+09	1.28549413913E-01	1.81905776598E-01	6.62040909944E-02	1.58055216450E-03	6.60998192026E-02	1.90327127333E-03	1.47307993009E-01	2.37645091194E-01
1.92040000000E+09	1.28861297838E-01	1.80106163113E-01	6.62462723852E-02	7.62086891596E-04	6.61412611196E-02	1.08377080489E-03	1.50949640879E-01	2.36306121013E-01
1.92070000000E+09	1.29206466573E-01	1.78437362755E-01	6.62870233273E-02	-3.10052047518E-05	6.61731350690E-02	2.95361258962E-04	1.54464631101E-01	2.34838593927E-01
1.92100000000E+09	1.29432673746E-01	1.76659144082E-01	6.62957748687E-02	-8.30584571306E-04	6.62190002552E-02	-5.04346965877E-04	1.58111072154E-01	2.33492657147E-01
1.92130000000E+09	1.29687654211E-01	1.74956661211E-01	6.63089927177E-02	-1.59497033940E-03	6.62254963987E-02	-1.27833742454E-03	1.61576269008E-01	2.31950284494E-01
1.92160000000E+09	1.29794247111E-01	1.73234050809E-01	6.63476541435E-02	-2.40868993002E-03	6.62312584373E-02	-2.09573923094E-03	1.65108131181E-01	2.30473882279E-01
1.92190000000E+09	1.29967936494E-01	1.71536895384E-01	6.63464465540E-02	-3.24494278843E-03	6.62199793628E-02	-2.89882375014E-03	1.68598581623E-01	2.28840764737E-01
1.92220000000E+09	1.29942660530E-01	1.69863467328E-01	6.63286706887E-02	-4.02429860177E-03	6.62529212152E-02	-3.69300800398E-03	1.72037503349E-01	2.27155744645E-01
1.92250000000E+09	1.29980784998E-01	1.68173342541E-01	6.63079302019E-02	-4.83987270915E-03	6.62480516326E-02	-4.50283046714E-03	1.75445187510E-01	2.25352965730E-01
1.92280000000E+09	1.29982452904E-01	1.66518865173E-01	6.62644269134E-02	-5.64358206320E-03	6.62160727650E-02	-5.32317538557E-03	1.78840263550E-01	2.23552982093E-01
1.92310000000E+09	1.29862064380E-01	1.64891834573E-01	6.62288121054E-02	-6.45705583557E-03	6.61824991749E-02	-6.12396548457E-03	1.82142927026E-01	2.21593218149E-01
1.92340000000E+09	1.29745310556E-01	1.63215628656E-01	6.61883291842E-02	-7.25844747494E-03	6.61359690823E-02	-6.89950255260E-03	1.85488737306E-01	2.19798099927E-01
1.92370000000E+09	1.29613269881E-01	1.61677328174E-01	6.61374778984E-02	-8.06421485949E-03	6.60761413127E-02	-7.74397174134E-03	1.88719282988E-01	2.17759135256E-01
1.92400000000E+09	1.29355138690E-01	1.60062363091E-01	6.60947258078E-02	-8.89161064027E-03	6.60164085742E-02	-8.56444110881E-03	1.91944404333E-01	2.15686291887E-01
1.92430000000E+09	1.29091471287E-01	1.58577922192E-01	6.60246951109E-02	-9.70135690878E-03	6.59218308819E-02	-9.34281478893E-03	1.95124651164E-01	2.13558531236E-01
1.92460000000E+09	1.28768600478E-01	1.57004035703E-01	6.59154445510E-02	-1.05280398754E-02	6.58608016078E-02	-1.01637266571E-02	1.98243832895E-01	2.11427156743E-01
1.92490000000E+09	1.28460770654E-01	1.55542850053E-01	6.58438716071E-02	-1.13367338112E-02	6.57495684642E-02	-1.10208893795E-02	2.01417612215E-01	2.09137410961E-01
1.92520000000E+09	1.28025155720E-01	1.54083545479E-01	6.57199785205E-02	-1.21537931751E-02	6.56728018359E-02	-1.18065357749E-02	2.04473005711E-01	2.06889433241E-01
1.92550000000E+09	1.27631356055E-01	1.52635168414E-01	6.55885994702E-02	-1.29349589530E-02	6.55603066336E-02	-1.26157966081E-02	2.07455247619E-01	2.04597442171E-01
1.92580000000E+09	1.27105034100E-01	1.51236957097E-01	6.54597928437E-02	-1.37784611466E-02	6.54585486811E-02	-1.34211143892E-02	2.10455743646E-01	2.02253129181E-01
1.92610000000E+09	1.26603365722E-01	1.49857588710E-01	6.53073087894E-02	-1.46062626467E-02	6.53071176696E-02	-1.42502633595E-02	2.13404448532E-01	1.99740866008E-01
1.92640000000E+09	1.26022376143E-01	1.48609792851E-01	6.51828975834E-02	-1.53926938532E-02	6.51562275971E-02	-1.50738972057E-02	2.16266221591E-01	1.97242251603E-01
1.92670000000E+09	1.25466850261E-01	1.47301373976E-01	6.50117436452E-02	-1.62525978896E-02	6.49919309696E-02	-1.58958988003E-02	2.19093766567E-01	1.94675874503E-01
1.92700000000E+09	1.24777991524E-01	1.46073088716E-01	6.48581379379E-02	-1.70732186560E-02	6.48363231164E-02	-1.66937359767E-02	2.21932000657E-01	1.92090919428E-01
1.92730000000E+09	1.24139922475E-01	1.44894916686E-01	6.46956521342E-02	-1.78736636520E-02	6.46803248472E-02	-1.74957886848E-02	2.24673171404E-01	1.89514388911E-01
1.92760000000E+09	1.23459032774E-01	1.43703123897E-01	6.44623261661E-02	-1.86965125256E-02	6.44571804491E-02	-1.83261327977E-02	2.27326782770E-01	1.86754947316E-01
1.92790000000E+09	1.22787587813E-01	1.42645367285E-01	6.43041821722E-02	-1.95088458718E-02	6.42795707899E-02	-1.91663660482E-02	2.30039082026E-01	1.83992046416E-01
1.92820000000E+09	1.22027477595E-01	1.41609525970E-01	6.40255221656E-02	-2.03154452442E-02	6.40516631457E-02	-1.99843884885E-02	2.32566673164E-01	1.81245643641E-01
1.92850000000E+09	1.21293306941E-01	1.40616127616E-01	6.38392954521E-02	-2.11548693370E-02	6.38472762978E-02	-2.08073883059E-02	2.35116555101E-01	1.78332492210E-01
1.92880000000E+09	1.20480770460E-01	1.39651802042E-01	6.36184756518E-02	-2.19496472501E-02	6.36258164738E-02	-2.16011723812E-02	2.37569797174E-01	1.75552273458E-01
1.92910000000E+09	1.19691832816E-01	1.38745439802E-01	6.33690923755E-02	-2.27577723583E-02	6.33877693694E-02	-2.23972566363E-02	2.39985307748E-01	1.72529566691E-01
1.92940000000E+09	1.18875600589E-01	1.37875170320E-01	6.30947556005E-02	-2.35997975101E-02	6.31261960384E-02	-2.32119595514E-02	2.42424538822E-01	1.69623076652E-01
1.92970000000E+09	1.18038070742E-01	1.37148021360E-01	6.28257568571E-02	-2.43926683790E-02	6.28549651064E-02	-2.40456830934E-02	2.44701060952E-01	1.66580720983E-01
1.93000000000E+09	1.17218840203E-01	1.36431568872E-01	6.25495845583E-02	-2.51745098232E-02	6.25879032709E-02	-2.48457372335E-02	2.46961644727E-01	1.63536625299E-01
1.93030000000E+09	1.16370861431E-01	1.35718856852E-01	6.22466785826E-02	-2.59906480847E-02	6.22957377647E-02	-2.56647801232E-02	2.49165026607E-01	1.60403451160E-01
1.93060000000E+09	1.15517514575E-01	1.35076301770E-01	6.19683180669E-02	-2.68238796145E-02	6.20031936164E-02	-2.64703629130E-02	2.51343920270E-01	1.57337474416E-01
1.93090000000E+09	1.14649739021E-01	1.34579949645E-01	6.16233777629E-02	-2.75645913547E-02	6.16638065116E-02	-2.72462239165E-02	2.53421007877E-01	1.54140969071E-01
1.93120000000E+09	1.13798868057E-01	1.34057902179E-01	6.13013633641E-02	-2.83574106615E-02	6.13226717910E-02	-2.80333601749E-02	2.55506153607E-01	1.50952184451E-01
1.93150000000E+09	1.12947915261E-01	1.33547476466E-01	6.09711673887E-02	-2.91780032835E-02	6.10101438658E-02	-2.88299790003E-02	2.57442483661E-01	1.47731696323E-01
1.93180000000E+09	1.12102018063E-01	1.33199661823E-01	6.06012375492E-02	-2.99610797029E-02	6.06564041860E-02	-2.96317869020E-02	2.59294631561E-01	1.44418250442E-01
1.93210000000E+09	1.11249536416E-01	1.32837624794E-01	6.02376289620E-02	-3.07400718075E-02	6.02900527765E-02	-3.03895797842E-02	2.61181648438E-01	1.41134335765E-01
1.93240000000E+09	1.10412056138E-01	1.32494350287E-01	5.98513158686E-02	-3.15307519750E-02	5.99365615204E-02	-3.11802487883E-02	2.63034816131E-01	1.37754667392E-01
1.93270000000E+09	1.09565737127E-01	1.32272577428E-01	5.94970755959E-02	-3.22747136900E-02	5.95380495386E-02	-3.19588124693E-02	2.64737847261E-01	1.34376570329E-01
1.93300000000E+09	1.08772655769E-01	1.32086754781E-01	5.91025357957E-02	-3.30633615758E-02	5.91380410290E-02	-3.27364284512E-02	2.66326951953E-01	1.30981300982E-01
1.93330000000E+09	1.07985131088E-01	1.31887766073E-01	5.86594596390E-02	-3.38299942798E-02	5.87697186340E-02	-3.35129597946E-02	2.68056283063E-01	1.27595202993E-01
1.93360000000E+09	1.07261556980E-01	1.31819438313E-01	5.82489696948E-02	-3.45732847700E-02	5.83308128711E-02	-3.42806732256E-02	2.69553259480E-01	1.24120443957E-01
1.93390000000E+09	1.06550952925E-01	1.31788354298E-01	5.78388882956E-02	-3.53633786786E-02	5.79043579417E-02	-3.50004462017E-02	2.70949224181E-01	1.20612185814E-01
1.93420000000E+09	1.05798588638E-01	1.31764376779E-01	5.73650116764E-02	-3.60684383766E-02	5.74608360527E-02	-3.57484783009E-02	2.72449742826E-01	1.17122893599E-01
1.93450000000E+09	1.05084689963E-01	1.31779727133E-01	5.69215526631E-02	-3.68220122603E-02	5.70096643006E-02	-3.65130587220E-02	2.73725355823E-01	1.13518443941E-01
1.93480000000E+09	1.04414135646E-01	1.31851512910E-01	5.64350963503E-02	-3.75882587791E-02	5.65460028992E-02	-3.72427211060E-02	2.75106703092E-01	1.09954082356E-01
1.93510000000E+09	1.03803340847E-01	1.31949364196E-01	5.59618561274E-02	-3.83274441744E-02	5.60490017154E-02	-3.79698357599E-02	2.76257035680E-01	1.06367769803E-01
1.93540000000E+09	1.03186836482E-01	1.32107681631E-01	5.54865881838E-02	-3.90327539025E-02	5.55978737708E-02	-3.87196255071E-02	2.77439110701E-01	1.02751027914E-01
1.93570000000E+09	1.02587840686E-01	1.32323188496E-01	5.49848627496E-02	-3.97164117067E-02	5.51152216666E-02	-3.94395630709E-02	2.78509969984E-01	9.90877228429E-02
