# Hz S RI R 50
! CMT, CMT808U, 21440046, 21.4.3/4
! Date: 3/28/2026 5:06:08 PM
! Data: Format (Calibration Info)
! Freq	S11:Re/Im(F2)	S41:Re/Im(F2)	S14:Re/Im(F2)	S44:Re/Im(F2)
1.90000000000E+09	3.94543089877E-02	2.50264013083E-01	5.15757345291E-02	4.06310509176E-02	5.12291376612E-02	4.07651053888E-02	-1.02313047804E-01	1.56657095843E-01
1.90030000000E+09	4.11073087201E-02	2.50187001858E-01	5.20301860211E-02	3.99192055242E-02	5.16832106956E-02	4.00994476937E-02	-1.00106920481E-01	1.59725437908E-01
1.90060000000E+09	4.27569492384E-02	2.49961516871E-01	5.24758740805E-02	3.92720672415E-02	5.21337006647E-02	3.94756436874E-02	-9.79694528313E-02	1.62950139385E-01
1.90090000000E+09	4.44686713457E-02	2.49878918708E-01	5.29391675058E-02	3.86102087639E-02	5.25931586061E-02	3.87947742327E-02	-9.56797450962E-02	1.65989210842E-01
1.90120000000E+09	4.61369849342E-02	2.49716699005E-01	5.33541822596E-02	3.79560271201E-02	5.30267188520E-02	3.81298079343E-02	-9.33369876865E-02	1.69031081131E-01
1.90150000000E+09	4.78331788850E-02	2.49456645474E-01	5.37685378450E-02	3.72852050859E-02	5.34653364262E-02	3.74373870164E-02	-9.09871754152E-02	1.72036104664E-01
1.90180000000E+09	4.95582795338E-02	2.49211773994E-01	5.42083661026E-02	3.65833046277E-02	5.38819862119E-02	3.68305565908E-02	-8.85747877591E-02	1.74998393638E-01
1.90210000000E+09	5.12314675450E-02	2.49029060675E-01	5.46094231222E-02	3.59303645531E-02	5.42904769610E-02	3.61468008113E-02	-8.60923778827E-02	1.77871585271E-01
1.90240000000E+09	5.29921676443E-02	2.48694408308E-01	5.50143646111E-02	3.52520740297E-02	5.47143991581E-02	3.54601129859E-02	-8.35828660391E-02	1.80756032936E-01
1.90270000000E+09	5.46214573412E-02	2.48355264753E-01	5.54469869796E-02	3.45769526364E-02	5.51075389334E-02	3.47757391469E-02	-8.09907674008E-02	1.83546816455E-01
1.90300000000E+09	5.63629908594E-02	2.48035922111E-01	5.57859703288E-02	3.38719519963E-02	5.54905822532E-02	3.41173833379E-02	-7.83592334243E-02	1.86310431401E-01
1.90330000000E+09	5.80802949800E-02	2.47662743269E-01	5.61862791292E-02	3.32106355746E-02	5.58925481008E-02	3.34364445287E-02	-7.57078377880E-02	1.89028645775E-01
1.90360000000E+09	5.97848363319E-02	2.47316258265E-01	5.65328225511E-02	3.24783449038E-02	5.62602749427E-02	3.27382816405E-02	-7.29870954802E-02	1.91692190391E-01
1.90390000000E+09	6.14112318168E-02	2.46861105104E-01	5.69153138645E-02	3.17988210373E-02	5.66086768998E-02	3.20047527413E-02	-7.01796016873E-02	1.94245239681E-01
1.90420000000E+09	6.31583272981E-02	2.46367913847E-01	5.72542178369E-02	3.10689636322E-02	5.70032825016E-02	3.13376036013E-02	-6.73878490210E-02	1.96822410919E-01
1.90450000000E+09	6.48919040416E-02	2.45945167990E-01	5.75976481864E-02	3.03714584846E-02	5.73499507320E-02	3.06393378795E-02	-6.45343246517E-02	1.99320568461E-01
1.90480000000E+09	6.65545768771E-02	2.45445888867E-01	5.79747975583E-02	2.96861224812E-02	5.76449121137E-02	2.99392861886E-02	-6.16115850065E-02	2.01697388449E-01
1.90510000000E+09	6.83268510241E-02	2.44873554561E-01	5.82883774962E-02	2.89961578472E-02	5.80012214628E-02	2.92227887887E-02	-5.86591647260E-02	2.04094821820E-01
1.90540000000E+09	6.99506040032E-02	2.44329705984E-01	5.85953662330E-02	2.82810545810E-02	5.83203857191E-02	2.85160770374E-02	-5.56698230072E-02	2.06464457941E-01
1.90570000000E+09	7.16846726386E-02	2.43728568080E-01	5.89241680692E-02	2.75399383051E-02	5.86394723115E-02	2.77950506726E-02	-5.25574068595E-02	2.08603669104E-01
1.90600000000E+09	7.33466455214E-02	2.43023703265E-01	5.91916943504E-02	2.68024612442E-02	5.89519852995E-02	2.70911313345E-02	-4.95544022310E-02	2.10853107119E-01
1.90630000000E+09	7.50461311673E-02	2.42411597035E-01	5.95276080852E-02	2.61304348210E-02	5.92269485501E-02	2.63790139530E-02	-4.63899091354E-02	2.13050202985E-01
1.90660000000E+09	7.67026093109E-02	2.41678111905E-01	5.98185713143E-02	2.53737154157E-02	5.95418696340E-02	2.56792766046E-02	-4.32805278035E-02	2.15164287602E-01
1.90690000000E+09	7.84011062593E-02	2.41031170609E-01	6.00785215753E-02	2.46818625487E-02	5.98256595497E-02	2.49196871647E-02	-4.00825463422E-02	2.17170104084E-01
1.90720000000E+09	8.00137279342E-02	2.40208965683E-01	6.03326764530E-02	2.39215874802E-02	6.01172286376E-02	2.42175974513E-02	-3.68489715602E-02	2.19100583490E-01
1.90750000000E+09	8.16719706956E-02	2.39475696588E-01	6.06209958932E-02	2.31922497415E-02	6.03492954679E-02	2.34884842550E-02	-3.35984862457E-02	2.20993082788E-01
1.90780000000E+09	8.32498719549E-02	2.38641974726E-01	6.08534976635E-02	2.24709206205E-02	6.06294558405E-02	2.27475348262E-02	-3.03234695443E-02	2.22918587004E-01
1.90810000000E+09	8.48923902635E-02	2.37776921254E-01	6.11039210748E-02	2.17377900746E-02	6.08647880714E-02	2.20140999881E-02	-2.70095189347E-02	2.24632564674E-01
1.90840000000E+09	8.64927904545E-02	2.36933118365E-01	6.13783029822E-02	2.10097995971E-02	6.11294139132E-02	2.12907385223E-02	-2.36568746144E-02	2.26359127699E-01
1.90870000000E+09	8.80786362527E-02	2.36019277385E-01	6.15741191314E-02	2.02653373122E-02	6.13252475021E-02	2.05245342989E-02	-2.02796021620E-02	2.28002763721E-01
1.90900000000E+09	8.96786363026E-02	2.35026474629E-01	6.18158105448E-02	1.94847532857E-02	6.15861297484E-02	1.98125042946E-02	-1.68687185253E-02	2.29584540123E-01
1.90930000000E+09	9.12668254219E-02	2.34161615656E-01	6.20208455622E-02	1.87822514054E-02	6.17777238946E-02	1.90732996449E-02	-1.34235218786E-02	2.31106404929E-01
1.90960000000E+09	9.27464495767E-02	2.33126749591E-01	6.22283460976E-02	1.80354862397E-02	6.20215843430E-02	1.83442889339E-02	-9.99058290696E-03	2.32626046460E-01
1.90990000000E+09	9.43208317110E-02	2.32137594501E-01	6.24160514480E-02	1.72608512556E-02	6.21966495855E-02	1.75960388061E-02	-6.52252659941E-03	2.33963146870E-01
1.91020000000E+09	9.57715562612E-02	2.31075368773E-01	6.25999341287E-02	1.65167327530E-02	6.23904379875E-02	1.68436799179E-02	-3.08771277569E-03	2.35317775608E-01
1.91050000000E+09	9.72686475503E-02	2.30044070505E-01	6.28327631004E-02	1.57901310933E-02	6.25873292711E-02	1.60962295775E-02	4.70257723045E-04	2.36569396047E-01
1.91080000000E+09	9.87525680647E-02	2.28945303913E-01	6.29586801327E-02	1.50344932979E-02	6.27841685146E-02	1.53514461510E-02	4.00831319598E-03	2.37780451064E-01
1.91110000000E+09	1.00187388472E-01	2.27917404836E-01	6.31536856211E-02	1.42788953042E-02	6.29314885462E-02	1.46097693391E-02	7.57753508116E-03	2.38830843159E-01
1.91140000000E+09	1.01674331927E-01	2.26700325221E-01	6.32842595079E-02	1.35358017946E-02	6.30794517252E-02	1.38210654303E-02	1.11324238327E-02	2.39974576984E-01
1.91170000000E+09	1.03076971640E-01	2.25497973713E-01	6.34252548411E-02	1.27642869678E-02	6.32599724617E-02	1.30699234716E-02	1.47767873805E-02	2.40920601784E-01
1.91200000000E+09	1.04484756341E-01	2.24377868820E-01	6.35928021907E-02	1.20163478258E-02	6.33938864298E-02	1.23432566324E-02	1.84188987400E-02	2.41869924841E-01
1.91230000000E+09	1.05883986451E-01	2.23155668299E-01	6.37158831921E-02	1.12613154554E-02	6.35087922174E-02	1.15814417562E-02	2.19834404191E-02	2.42722530912E-01
1.91260000000E+09	1.07198505409E-01	2.21909161738E-01	6.38414901462E-02	1.04918376733E-02	6.36478599433E-02	1.08453593657E-02	2.55855607089E-02	2.43559438369E-01
1.91290000000E+09	1.08548119368E-01	2.20660921376E-01	6.39386646471E-02	9.76780933329E-03	6.37983125680E-02	1.00616556940E-02	2.92865404006E-02	2.44274244967E-01
1.91320000000E+09	1.09843442578E-01	2.19366417028E-01	6.40555591599E-02	8.97202164360E-03	6.39096285342E-02	9.31833296696E-03	3.29419404923E-02	2.45012599037E-01
1.91350000000E+09	1.11217037983E-01	2.18072862639E-01	6.41517774191E-02	8.23234266973E-03	6.40164122606E-02	8.58125982660E-03	3.65972521187E-02	2.45495566241E-01
1.91380000000E+09	1.12451534881E-01	2.16705548589E-01	6.42854981267E-02	7.45138390242E-03	6.40994083930E-02	7.79554708410E-03	4.02959706461E-02	2.46138031599E-01
1.91410000000E+09	1.13724359770E-01	2.15353966812E-01	6.43479101377E-02	6.69128905469E-03	6.41911780924E-02	7.07325268734E-03	4.39953112145E-02	2.46540822896E-01
1.91440000000E+09	1.14900777989E-01	2.13904852699E-01	6.44180035855E-02	5.92918209580E-03	6.42515248967E-02	6.26821870603E-03	4.76250139882E-02	2.46928354740E-01
1.91470000000E+09	1.16121931567E-01	2.12574473317E-01	6.44962636107E-02	5.16610453893E-03	6.43240026013E-02	5.53666832802E-03	5.13365947648E-02	2.47262317261E-01
1.91500000000E+09	1.17248191949E-01	2.11016538840E-01	6.45464835746E-02	4.38470978955E-03	6.44282367218E-02	4.74117517010E-03	5.50566763740E-02	2.47557351671E-01
1.91530000000E+09	1.18363353485E-01	2.09546540865E-01	6.45983215693E-02	3.63555655764E-03	6.44839281360E-02	3.99973585039E-03	5.87034545087E-02	2.47785973408E-01
1.91560000000E+09	1.19510951078E-01	2.08139625483E-01	6.46743023028E-02	2.86353836326E-03	6.45358843614E-02	3.20235799841E-03	6.23726816604E-02	2.47872376346E-01
1.91590000000E+09	1.20611831322E-01	2.06603733067E-01	6.47090100751E-02	2.12545664046E-03	6.45639108405E-02	2.42739197238E-03	6.61203711130E-02	2.47872689248E-01
1.91620000000E+09	1.21551274435E-01	2.05022584038E-01	6.47073662720E-02	1.34505554469E-03	6.46101991143E-02	1.68493674379E-03	6.97540096950E-02	2.47929033839E-01
1.91650000000E+09	1.22623747972E-01	2.03542760335E-01	6.47476648222E-02	5.66762967657E-04	6.46387701868E-02	9.02012978079E-04	7.34922388153E-02	2.47851799418E-01
1.91680000000E+09	1.23600029569E-01	2.01899799952E-01	6.47674107587E-02	-2.25554870635E-04	6.46559407761E-02	1.53555876068E-04	7.71357250784E-02	2.47692942988E-01
1.91710000000E+09	1.24552181460E-01	2.00399135945E-01	6.47578299412E-02	-9.72962777888E-04	6.46574227630E-02	-6.54205920978E-04	8.07931647197E-02	2.47418300379E-01
1.91740000000E+09	1.25417766275E-01	1.98748525207E-01	6.47743413637E-02	-1.74957631454E-03	6.46646462776E-02	-1.41369329013E-03	8.45395035360E-02	2.47212430102E-01
1.91770000000E+09	1.26326924443E-01	1.97164638198E-01	6.47736262153E-02	-2.50851731100E-03	6.46375927431E-02	-2.18201585777E-03	8.81708700914E-02	2.46800790108E-01
1.91800000000E+09	1.27122045926E-01	1.95444457291E-01	6.47521989735E-02	-3.32520659715E-03	6.46551061029E-02	-2.95765242292E-03	9.18126127891E-02	2.46494290506E-01
1.91830000000E+09	1.27911136972E-01	1.93840760538E-01	6.47065512919E-02	-4.07536585233E-03	6.46121701143E-02	-3.70507615886E-03	9.54398596927E-02	2.45910034910E-01
1.91860000000E+09	1.28627202629E-01	1.92086603362E-01	6.46798965889E-02	-4.83876274481E-03	6.45751196241E-02	-4.49546988338E-03	9.90915839520E-02	2.45453902055E-01
1.91890000000E+09	1.29321673201E-01	1.90340924875E-01	6.46454062729E-02	-5.60815635549E-03	6.45408479454E-02	-5.26790533007E-03	1.02715349060E-01	2.44860286995E-01
1.91920000000E+09	1.30028620411E-01	1.88676048027E-01	6.45943893273E-02	-6.39271450635E-03	6.45067039957E-02	-6.03721169812E-03	1.06319937980E-01	2.44157106934E-01
1.91950000000E+09	1.30627283742E-01	1.86920450947E-01	6.45209023792E-02	-7.17490281588E-03	6.44775899592E-02	-6.82267209400E-03	1.09927392814E-01	2.43377685632E-01
1.91980000000E+09	1.31129699954E-01	1.85204757643E-01	6.44779632358E-02	-7.94626438775E-03	6.43909003983E-02	-7.55075829478E-03	1.13451986710E-01	2.42624781883E-01
1.92010000000E+09	1.31634660215E-01	1.83478078091E-01	6.43934920901E-02	-8.71371562044E-03	6.43152954630E-02	-8.38424765487E-03	1.17059609420E-01	2.41736979716E-01
1.92040000000E+09	1.32075664718E-01	1.81704626858E-01	6.43075014226E-02	-9.50913430660E-03	6.42607436136E-02	-9.15129901114E-03	1.20564573674E-01	2.40864054001E-01
1.92070000000E+09	1.32497739652E-01	1.80030203861E-01	6.42343991734E-02	-1.02649324108E-02	6.41871410540E-02	-9.91499500910E-03	1.24073560113E-01	2.39797416048E-01
1.92100000000E+09	1.32824275305E-01	1.78206495573E-01	6.40843085291E-02	-1.10627394035E-02	6.40750896137E-02	-1.06602629159E-02	1.27587765233E-01	2.38799357692E-01
1.92130000000E+09	1.33233043439E-01	1.76511920154E-01	6.40092591655E-02	-1.18421250187E-02	6.39529625054E-02	-1.14771935260E-02	1.31069560260E-01	2.37616041686E-01
1.92160000000E+09	1.33400715341E-01	1.74719115414E-01	6.38907258763E-02	-1.26141680235E-02	6.38492371466E-02	-1.22262413352E-02	1.34533795482E-01	2.36533533240E-01
1.92190000000E+09	1.33669235759E-01	1.73058932768E-01	6.38127699344E-02	-1.33971861183E-02	6.37318279724E-02	-1.30304199777E-02	1.37946906501E-01	2.35264547654E-01
1.92220000000E+09	1.33754960562E-01	1.71279170882E-01	6.36188916682E-02	-1.41919402915E-02	6.36031895859E-02	-1.37981742072E-02	1.41426917739E-01	2.33959513722E-01
1.92250000000E+09	1.33873109044E-01	1.69543972556E-01	6.34587251578E-02	-1.49619107394E-02	6.34391086622E-02	-1.45894676182E-02	1.44805510934E-01	2.32643971419E-01
1.92280000000E+09	1.33976442472E-01	1.67880975547E-01	6.33319258464E-02	-1.57279307263E-02	6.33249331661E-02	-1.53525497995E-02	1.48117140254E-01	2.31172484679E-01
1.92310000000E+09	1.33973401412E-01	1.66175618874E-01	6.31639449013E-02	-1.65070748927E-02	6.31214033862E-02	-1.61606461870E-02	1.51416380501E-01	2.29655948075E-01
1.92340000000E+09	1.33913001380E-01	1.64474576412E-01	6.29691314205E-02	-1.73017051819E-02	6.29796511612E-02	-1.69186570356E-02	1.54720198927E-01	2.28196193195E-01
1.92370000000E+09	1.33828069561E-01	1.62869794211E-01	6.28132857507E-02	-1.80789010670E-02	6.28034189092E-02	-1.77128552616E-02	1.57967567142E-01	2.26632871444E-01
1.92400000000E+09	1.33748491420E-01	1.61221306812E-01	6.26267804989E-02	-1.88611668189E-02	6.26292503331E-02	-1.85087483572E-02	1.61218938415E-01	2.24970506402E-01
1.92430000000E+09	1.33535136934E-01	1.59625100529E-01	6.24174224414E-02	-1.96284836642E-02	6.24107364445E-02	-1.92584699212E-02	1.64457466028E-01	2.23228294049E-01
1.92460000000E+09	1.33289022539E-01	1.57992653377E-01	6.22011451442E-02	-2.03751966745E-02	6.22241701910E-02	-2.00395789427E-02	1.67520375466E-01	2.21477250952E-01
1.92490000000E+09	1.33114445252E-01	1.56466901848E-01	6.20195627415E-02	-2.11809676018E-02	6.19774114402E-02	-2.08084220692E-02	1.70771534137E-01	2.19572407184E-01
1.92520000000E+09	1.32682711512E-01	1.54896076850E-01	6.17551231330E-02	-2.19399253995E-02	6.17852591905E-02	-2.15829125569E-02	1.73864891965E-01	2.17750391271E-01
1.92550000000E+09	1.32398670660E-01	1.53342319004E-01	6.15186591333E-02	-2.27379654994E-02	6.15386228521E-02	-2.23718974187E-02	1.76880822038E-01	2.15792067187E-01
1.92580000000E+09	1.31959061153E-01	1.51901036946E-01	6.12622429947E-02	-2.34934423734E-02	6.12993391183E-02	-2.31304782788E-02	1.79910984959E-01	2.13882619701E-01
1.92610000000E+09	1.31540642726E-01	1.50415397015E-01	6.09792324194E-02	-2.43079581404E-02	6.10309128408E-02	-2.39371633404E-02	1.82992551573E-01	2.11789748829E-01
1.92640000000E+09	1.31011407484E-01	1.49025362751E-01	6.07370564604E-02	-2.50691060585E-02	6.07849913214E-02	-2.47002951966E-02	1.85908982349E-01	2.09672476671E-01
1.92670000000E+09	1.30557267311E-01	1.47698712221E-01	6.04452777535E-02	-2.58239243875E-02	6.04887194262E-02	-2.54502112014E-02	1.88790456250E-01	2.07500418234E-01
1.92700000000E+09	1.29891608198E-01	1.46373644109E-01	6.01545943570E-02	-2.65914050621E-02	6.02372510980E-02	-2.62566696414E-02	1.91718501005E-01	2.05364269192E-01
1.92730000000E+09	1.29340553518E-01	1.45076193277E-01	5.98614274056E-02	-2.73796424974E-02	5.99075333030E-02	-2.70171886666E-02	1.94565977544E-01	2.03150978533E-01
1.92760000000E+09	1.28677794595E-01	1.43780315190E-01	5.95259537792E-02	-2.81301101592E-02	5.96102156018E-02	-2.77822959258E-02	1.97361969523E-01	2.00818085267E-01
1.92790000000E+09	1.28042084937E-01	1.42606924435E-01	5.92359836448E-02	-2.88813332354E-02	5.92627802279E-02	-2.85412859445E-02	2.00130798238E-01	1.98465436180E-01
1.92820000000E+09	1.27330972835E-01	1.41439247497E-01	5.88887571349E-02	-2.96683747602E-02	5.89322092419E-02	-2.92960300357E-02	2.02794605012E-01	1.96119908098E-01
1.92850000000E+09	1.26645156857E-01	1.40350097516E-01	5.85673362397E-02	-3.03907811755E-02	5.86017883441E-02	-3.00534909165E-02	2.05445837015E-01	1.93585396965E-01
1.92880000000E+09	1.25895191339E-01	1.39261285168E-01	5.81680454232E-02	-3.11444559805E-02	5.82512040187E-02	-3.07964827298E-02	2.08026610714E-01	1.91179119877E-01
1.92910000000E+09	1.25173831195E-01	1.38254104694E-01	5.78062303681E-02	-3.19155869677E-02	5.78990375993E-02	-3.15493683966E-02	2.10595945146E-01	1.88572321496E-01
1.92940000000E+09	1.24322841471E-01	1.37287783771E-01	5.74309178326E-02	-3.26558713518E-02	5.75237712500E-02	-3.23175747393E-02	2.13189911670E-01	1.86038565831E-01
1.92970000000E+09	1.23512424269E-01	1.36429358505E-01	5.70521750242E-02	-3.34001427236E-02	5.71130723803E-02	-3.30518110143E-02	2.15610756429E-01	1.83374306547E-01
1.93000000000E+09	1.22718817713E-01	1.35546410450E-01	5.66525292144E-02	-3.41397328630E-02	5.67378142381E-02	-3.37878073797E-02	2.18045206927E-01	1.80706476930E-01
1.93030000000E+09	1.21893066415E-01	1.34790340353E-01	5.62792162339E-02	-3.48932316316E-02	5.63295346162E-02	-3.45349578189E-02	2.20444877463E-01	1.77936463763E-01
1.93060000000E+09	1.20975346889E-01	1.34006376388E-01	5.58044862876E-02	-3.56307115336E-02	5.58904984365E-02	-3.52216106960E-02	2.22791968055E-01	1.75223446746E-01
1.93090000000E+09	1.20168878688E-01	1.33334860797E-01	5.53700344501E-02	-3.63646107198E-02	5.54998736094E-02	-3.60014707155E-02	2.25087707696E-01	1.72450552526E-01
1.93120000000E+09	1.19261921325E-01	1.32672749748E-01	5.49461501570E-02	-3.70430041666E-02	5.50315433962E-02	-3.67238708401E-02	2.27278292332E-01	1.69618253780E-01
1.93150000000E+09	1.18428270376E-01	1.32130075997E-01	5.44734027931E-02	-3.77953955317E-02	5.46097026362E-02	-3.74355603169E-02	2.29436704089E-01	1.66775554712E-01
1.93180000000E+09	1.17580838480E-01	1.31596147688E-01	5.40232242448E-02	-3.84712348850E-02	5.41265174389E-02	-3.81530545491E-02	2.31565165123E-01	1.63842030018E-01
1.93210000000E+09	1.16687394372E-01	1.31107006022E-01	5.35700437659E-02	-3.92155556699E-02	5.36591563615E-02	-3.88447745628E-02	2.33623772718E-01	1.60923876767E-01
1.93240000000E+09	1.15922047095E-01	1.30677204812E-01	5.30605611060E-02	-3.99248617722E-02	5.31759733898E-02	-3.95606622668E-02	2.35747488257E-01	1.57911647668E-01
1.93270000000E+09	1.14983404808E-01	1.30334464192E-01	5.25390783983E-02	-4.05912311864E-02	5.26635977357E-02	-4.02909157063E-02	2.37655827317E-01	1.54893714494E-01
1.93300000000E+09	1.14163132067E-01	1.30043573627E-01	5.20410216793E-02	-4.12954704403E-02	5.21692004054E-02	-4.09517510260E-02	2.39496816935E-01	1.51870190083E-01
1.93330000000E+09	1.13339031523E-01	1.29745840785E-01	5.15155525922E-02	-4.19672440149E-02	5.16610091292E-02	-4.16234506726E-02	2.41411514624E-01	1.48773676635E-01
1.93360000000E+09	1.12548560864E-01	1.29528811095E-01	5.09926446645E-02	-4.26425826326E-02	5.11692598480E-02	-4.22951024777E-02	2.43170855294E-01	1.45693030768E-01
1.93390000000E+09	1.11803307741E-01	1.29358147621E-01	5.04389274242E-02	-4.33570582654E-02	5.06124634593E-02	-4.29297686014E-02	2.44831455905E-01	1.42559562891E-01
1.93420000000E+09	1.11022737790E-01	1.29256603875E-01	4.99027917097E-02	-4.39542674094E-02	5.00360639897E-02	-4.36345722035E-02	2.46584349056E-01	1.39336418176E-01
1.93450000000E+09	1.10313623444E-01	1.29160165927E-01	4.93310077651E-02	-4.46261748803E-02	4.94991106799E-02	-4.43067821705E-02	2.48189750191E-01	1.36066225881E-01
1.93480000000E+09	1.09557657952E-01	1.29137125123E-01	4.87701501004E-02	-4.52398066106E-02	4.89555043254E-02	-4.49418320779E-02	2.49810666216E-01	1.32917199419E-01
1.93510000000E+09	1.08848091156E-01	1.29077880224E-01	4.81861787365E-02	-4.59012513254E-02	4.83358078531E-02	-4.55730709163E-02	2.51263327461E-01	1.29590912066E-01
1.93540000000E+09	1.08167934761E-01	1.29118837802E-01	4.75846727538E-02	-4.65550189338E-02	4.77452899177E-02	-4.62047592218E-02	2.52747891205E-01	1.26300370790E-01
1.93570000000E+09	1.07520294318E-01	1.29241626366E-01	4.70317790909E-02	-4.71379955677E-02	4.71828233396E-02	-4.68546671777E-02	2.54083491558E-01	1.22937331749E-01
