# Hz S RI R 50
! CMT, CMT808U, 21440046, 21.4.3/4
! Date: 3/28/2026 4:55:48 PM
! Data: Format (Calibration Info)
! Freq	S11:Re/Im(F2)	S41:Re/Im(F2)	S14:Re/Im(F2)	S44:Re/Im(F2)
1.90000000000E+09	3.72760374535E-02	2.51424717372E-01	5.56834978301E-02	3.79992596726E-02	5.53308433267E-02	3.81649284810E-02	-5.35171946584E-02	1.90615535826E-01
1.90030000000E+09	3.89133845678E-02	2.51336475199E-01	5.60605358811E-02	3.72885004892E-02	5.57335965620E-02	3.74615446173E-02	-5.04124396739E-02	1.93251388022E-01
1.90060000000E+09	4.06057589736E-02	2.51231595830E-01	5.64576396742E-02	3.65798067522E-02	5.61640368080E-02	3.67477991106E-02	-4.73758461155E-02	1.95939892482E-01
1.90090000000E+09	4.22903729773E-02	2.51018009253E-01	5.68714332087E-02	3.58599121713E-02	5.65997509286E-02	3.60586602944E-02	-4.42203199536E-02	1.98441859439E-01
1.90120000000E+09	4.39815744513E-02	2.50891318935E-01	5.72735281200E-02	3.51334785551E-02	5.69726411150E-02	3.53316845987E-02	-4.10614287630E-02	2.00951575345E-01
1.90150000000E+09	4.57382827281E-02	2.50653946045E-01	5.76490215454E-02	3.44326148564E-02	5.73607991122E-02	3.46318103773E-02	-3.78376366607E-02	2.03399473024E-01
1.90180000000E+09	4.73952653439E-02	2.50435427284E-01	5.80068918407E-02	3.37066464585E-02	5.77243265923E-02	3.38999349407E-02	-3.45986336708E-02	2.05815888421E-01
1.90210000000E+09	4.90783558212E-02	2.50202516432E-01	5.83907966527E-02	3.29853409505E-02	5.80892024201E-02	3.32053085301E-02	-3.12784562610E-02	2.08066128191E-01
1.90240000000E+09	5.08310438667E-02	2.49928103085E-01	5.87659299546E-02	3.22509855421E-02	5.84802782506E-02	3.24765062186E-02	-2.79711414976E-02	2.10372155068E-01
1.90270000000E+09	5.24432110577E-02	2.49570321666E-01	5.90917000070E-02	3.15313257358E-02	5.88257900462E-02	3.17546479641E-02	-2.45447975319E-02	2.12573230016E-01
1.90300000000E+09	5.42239917935E-02	2.49244698100E-01	5.94390292478E-02	3.07709896883E-02	5.91603941982E-02	3.10425944084E-02	-2.11775301385E-02	2.14692196060E-01
1.90330000000E+09	5.59160762517E-02	2.48915399075E-01	5.97853503952E-02	3.00779142832E-02	5.95063048470E-02	3.02761941565E-02	-1.77022516832E-02	2.16783090093E-01
1.90360000000E+09	5.75786976820E-02	2.48574167761E-01	6.01116075784E-02	2.93263057715E-02	5.98220813216E-02	2.95605741340E-02	-1.42279390581E-02	2.18773554367E-01
1.90390000000E+09	5.92862045801E-02	2.48096095225E-01	6.04240028418E-02	2.85852087597E-02	6.01274035530E-02	2.88309333290E-02	-1.07180748337E-02	2.20671531152E-01
1.90420000000E+09	6.10210800236E-02	2.47692557836E-01	6.06963569606E-02	2.78512039428E-02	6.04629856187E-02	2.81047303871E-02	-7.14259662286E-03	2.22545060192E-01
1.90450000000E+09	6.26997187812E-02	2.47222848276E-01	6.09789219773E-02	2.71097818016E-02	6.07348911287E-02	2.73581730312E-02	-3.55342104211E-03	2.24327316155E-01
1.90480000000E+09	6.44089763530E-02	2.46685227899E-01	6.13070232241E-02	2.63728043723E-02	6.10486719553E-02	2.66272197592E-02	6.47025606916E-05	2.26011631858E-01
1.90510000000E+09	6.61407090869E-02	2.46196991989E-01	6.15784608561E-02	2.56310923112E-02	6.13225166812E-02	2.58832239128E-02	3.67770019670E-03	2.27736396401E-01
1.90540000000E+09	6.77919592446E-02	2.45656138767E-01	6.18505832366E-02	2.48462850629E-02	6.16025283618E-02	2.51197295032E-02	7.35762133202E-03	2.29345977517E-01
1.90570000000E+09	6.95197117321E-02	2.45003631816E-01	6.20919739735E-02	2.41208179607E-02	6.18564519522E-02	2.44098989023E-02	1.11494175877E-02	2.30803068194E-01
1.90600000000E+09	7.12153605106E-02	2.44390769920E-01	6.23721709476E-02	2.33363242288E-02	6.21234954094E-02	2.36534423785E-02	1.47710707455E-02	2.32266464619E-01
1.90630000000E+09	7.28824716851E-02	2.43771281169E-01	6.26060435722E-02	2.26075684924E-02	6.23976916632E-02	2.28713753475E-02	1.85688606527E-02	2.33746747379E-01
1.90660000000E+09	7.46088614899E-02	2.43052988242E-01	6.28207510453E-02	2.18536385871E-02	6.26162652247E-02	2.20958790348E-02	2.23199285434E-02	2.35005967189E-01
1.90690000000E+09	7.62403667788E-02	2.42366449776E-01	6.31021656413E-02	2.11110134221E-02	6.28504869958E-02	2.13616125359E-02	2.60821389631E-02	2.36244955989E-01
1.90720000000E+09	7.78516927156E-02	2.41625025260E-01	6.32832852883E-02	2.03851899455E-02	6.30686948162E-02	2.06043575422E-02	2.98917428259E-02	2.37423986095E-01
1.90750000000E+09	7.94989797315E-02	2.40866116786E-01	6.35196303976E-02	1.95706948129E-02	6.32863471390E-02	1.98659982463E-02	3.36954661487E-02	2.38480782186E-01
1.90780000000E+09	8.11554064030E-02	2.40052932394E-01	6.37035108572E-02	1.88035951547E-02	6.34975365571E-02	1.90877686564E-02	3.75668767407E-02	2.39603276247E-01
1.90810000000E+09	8.27992084820E-02	2.39261851261E-01	6.39144889201E-02	1.80499613277E-02	6.36941960231E-02	1.83196074488E-02	4.13958979594E-02	2.40507251272E-01
1.90840000000E+09	8.43537821297E-02	2.38365687739E-01	6.40738903212E-02	1.72851283795E-02	6.38831058658E-02	1.75992585910E-02	4.52576330023E-02	2.41376750325E-01
1.90870000000E+09	8.60030536404E-02	2.37498623269E-01	6.42883670131E-02	1.65233550627E-02	6.40571984715E-02	1.68333860303E-02	4.91105552291E-02	2.42201242374E-01
1.90900000000E+09	8.75796112712E-02	2.36546619629E-01	6.44580380074E-02	1.57282639694E-02	6.42582956969E-02	1.60404215351E-02	5.30446707570E-02	2.42933349792E-01
1.90930000000E+09	8.91865495712E-02	2.35628495244E-01	6.45621194793E-02	1.49720496446E-02	6.44008339686E-02	1.52490619497E-02	5.69321923051E-02	2.43577403937E-01
1.90960000000E+09	9.06604834407E-02	2.34626185970E-01	6.47651571228E-02	1.41908570669E-02	6.45581630064E-02	1.44953258776E-02	6.08242697064E-02	2.44249839627E-01
1.90990000000E+09	9.22258424385E-02	2.33667471205E-01	6.48968299334E-02	1.34541229809E-02	6.47065320116E-02	1.37415027651E-02	6.47486128455E-02	2.44720976107E-01
1.91020000000E+09	9.37269303062E-02	2.32651408178E-01	6.50406180359E-02	1.26553039381E-02	6.48555649251E-02	1.29705233331E-02	6.86083918192E-02	2.45272093365E-01
1.91050000000E+09	9.52677171731E-02	2.31599692101E-01	6.52035020281E-02	1.19213276199E-02	6.49923054463E-02	1.21933016843E-02	7.26012236006E-02	2.45634436361E-01
1.91080000000E+09	9.67670731937E-02	2.30484291827E-01	6.52865751432E-02	1.10684174059E-02	6.51278148899E-02	1.14168083008E-02	7.64733454209E-02	2.45922930041E-01
1.91110000000E+09	9.81939837628E-02	2.29428378412E-01	6.54168370043E-02	1.03464451732E-02	6.52305811593E-02	1.06397136587E-02	8.04076523842E-02	2.46153194804E-01
1.91140000000E+09	9.96456356381E-02	2.28318512753E-01	6.54973319357E-02	9.57956707222E-03	6.53571422687E-02	9.86726780951E-03	8.43897363191E-02	2.46360649460E-01
1.91170000000E+09	1.01116346183E-01	2.27119585749E-01	6.55950374290E-02	8.79197476821E-03	6.54526534132E-02	9.08337662830E-03	8.82937077715E-02	2.46445516951E-01
1.91200000000E+09	1.02529493761E-01	2.25962918998E-01	6.56964781491E-02	7.98567113131E-03	6.55330690225E-02	8.33932156794E-03	9.22582606822E-02	2.46456500657E-01
1.91230000000E+09	1.03920409859E-01	2.24769782242E-01	6.57996179671E-02	7.22699377014E-03	6.56116553855E-02	7.52130823771E-03	9.61341778458E-02	2.46454091889E-01
1.91260000000E+09	1.05333044182E-01	2.23563807764E-01	6.58457945827E-02	6.44871701111E-03	6.56833356621E-02	6.77217098609E-03	1.00093569104E-01	2.46341222504E-01
1.91290000000E+09	1.06636640049E-01	2.22314598741E-01	6.58982482041E-02	5.68324474101E-03	6.57888375158E-02	5.98417017657E-03	1.03978754486E-01	2.46133552836E-01
1.91320000000E+09	1.07973109708E-01	2.21042962924E-01	6.59708030324E-02	4.88406758027E-03	6.58391187175E-02	5.21065395887E-03	1.07914853870E-01	2.45983896809E-01
1.91350000000E+09	1.09321568674E-01	2.19721172165E-01	6.60074106921E-02	4.08388640223E-03	6.58832440719E-02	4.44952515689E-03	1.11799522593E-01	2.45574476717E-01
1.91380000000E+09	1.10588201330E-01	2.18386982833E-01	6.60317235737E-02	3.32595594194E-03	6.59345616331E-02	3.65786115224E-03	1.15654970860E-01	2.45269106641E-01
1.91410000000E+09	1.11852120444E-01	2.17030436293E-01	6.61056468478E-02	2.55935264527E-03	6.59475237216E-02	2.86323873639E-03	1.19539817575E-01	2.44778094156E-01
1.91440000000E+09	1.13060590775E-01	2.15633812936E-01	6.61150723316E-02	1.78774400474E-03	6.59745013115E-02	2.10692383291E-03	1.23439837539E-01	2.44203085442E-01
1.91470000000E+09	1.14297951233E-01	2.14229364830E-01	6.61380102893E-02	1.00254780330E-03	6.59859188346E-02	1.32737538359E-03	1.27272301613E-01	2.43617242721E-01
1.91500000000E+09	1.15480384936E-01	2.12760685654E-01	6.61271406007E-02	1.95352513331E-04	6.60056033777E-02	5.42577422014E-04	1.31162918841E-01	2.42976552558E-01
1.91530000000E+09	1.16635567255E-01	2.11256002129E-01	6.61510023009E-02	-5.73974064979E-04	6.59942305210E-02	-2.47636851780E-04	1.34955590516E-01	2.42293875808E-01
1.91560000000E+09	1.17700549277E-01	2.09842099802E-01	6.61103646799E-02	-1.34744258124E-03	6.60022994703E-02	-1.04211264657E-03	1.38673064593E-01	2.41431550966E-01
1.91590000000E+09	1.18880214274E-01	2.08344710458E-01	6.60997598010E-02	-2.14123438497E-03	6.59861126040E-02	-1.83629852057E-03	1.42550501109E-01	2.40515763993E-01
1.91620000000E+09	1.19928970683E-01	2.06801016632E-01	6.60753031062E-02	-2.94392001577E-03	6.59888654910E-02	-2.58422861347E-03	1.46301759184E-01	2.39630052702E-01
1.91650000000E+09	1.20891985814E-01	2.05220408515E-01	6.60211271392E-02	-3.65269869723E-03	6.59372023197E-02	-3.38241984178E-03	1.50083505773E-01	2.38586960042E-01
1.91680000000E+09	1.21937557699E-01	2.03642927004E-01	6.59799821260E-02	-4.50864772561E-03	6.59103042506E-02	-4.14072005935E-03	1.53807395280E-01	2.37525327807E-01
1.91710000000E+09	1.22879252153E-01	2.02135041573E-01	6.59278190416E-02	-5.27048816314E-03	6.58566325712E-02	-4.93028745679E-03	1.57435453326E-01	2.36329818451E-01
1.91740000000E+09	1.23798290445E-01	2.00442690290E-01	6.58573570634E-02	-6.06758688181E-03	6.57884906677E-02	-5.67589775620E-03	1.61164037506E-01	2.35221470241E-01
1.91770000000E+09	1.24662708197E-01	1.98860540208E-01	6.58032794783E-02	-6.83430907109E-03	6.57230357113E-02	-6.51046491965E-03	1.64810133730E-01	2.33891658491E-01
1.91800000000E+09	1.25531239640E-01	1.97153517711E-01	6.57364227491E-02	-7.61971305129E-03	6.56641610928E-02	-7.28297205606E-03	1.68459941723E-01	2.32610869386E-01
1.91830000000E+09	1.26314877263E-01	1.95510882074E-01	6.56277087068E-02	-8.38698687361E-03	6.55578545359E-02	-8.05547670168E-03	1.72043124442E-01	2.31139648038E-01
1.91860000000E+09	1.27069134191E-01	1.93820476971E-01	6.55516066376E-02	-9.18591490491E-03	6.55099104284E-02	-8.81987036988E-03	1.75612393511E-01	2.29800889065E-01
1.91890000000E+09	1.27798364751E-01	1.92112422772E-01	6.54812687313E-02	-9.93674698626E-03	6.54039076468E-02	-9.62114356223E-03	1.79187056132E-01	2.28289296059E-01
1.91920000000E+09	1.28485860723E-01	1.90382211438E-01	6.53271518936E-02	-1.07269010849E-02	6.53121701254E-02	-1.04101092729E-02	1.82717070004E-01	2.26676956284E-01
1.91950000000E+09	1.29123557603E-01	1.88687155568E-01	6.52258381952E-02	-1.15365963877E-02	6.51850315297E-02	-1.11641160543E-02	1.86132543017E-01	2.24992527981E-01
1.91980000000E+09	1.29652491890E-01	1.86966322111E-01	6.51022271594E-02	-1.23209317005E-02	6.50518400372E-02	-1.19796570792E-02	1.89663004240E-01	2.23346158253E-01
1.92010000000E+09	1.30189286696E-01	1.85222188008E-01	6.49677766392E-02	-1.30944883835E-02	6.49514658512E-02	-1.27710231038E-02	1.93098020760E-01	2.21548196522E-01
1.92040000000E+09	1.30693502127E-01	1.83497883756E-01	6.48588090868E-02	-1.38693993982E-02	6.47980650539E-02	-1.35331012690E-02	1.96410818721E-01	2.19766808579E-01
1.92070000000E+09	1.31070324291E-01	1.81770889146E-01	6.46623702612E-02	-1.46544373512E-02	6.46413497615E-02	-1.43197058559E-02	1.99771317009E-01	2.17776095368E-01
1.92100000000E+09	1.31490974914E-01	1.79994425919E-01	6.45177877479E-02	-1.54334843985E-02	6.44894908852E-02	-1.50735485514E-02	2.03120757847E-01	2.16003795048E-01
1.92130000000E+09	1.31840740144E-01	1.78247951760E-01	6.43385827685E-02	-1.62155992288E-02	6.43387930283E-02	-1.58498605438E-02	2.06337336743E-01	2.13900689957E-01
1.92160000000E+09	1.32113921147E-01	1.76491726443E-01	6.41906646890E-02	-1.69891897990E-02	6.41782779459E-02	-1.66558011324E-02	2.09600350109E-01	2.11952099582E-01
1.92190000000E+09	1.32333010425E-01	1.74738961358E-01	6.39770655377E-02	-1.77479519436E-02	6.39578912250E-02	-1.74077995189E-02	2.12754760059E-01	2.09792910737E-01
1.92220000000E+09	1.32528490422E-01	1.73045276646E-01	6.38127612870E-02	-1.85755486864E-02	6.37805309689E-02	-1.81756833205E-02	2.15929897584E-01	2.07660472769E-01
1.92250000000E+09	1.32695707223E-01	1.71305266800E-01	6.36032079566E-02	-1.93453349845E-02	6.35654331928E-02	-1.89553437000E-02	2.19086393706E-01	2.05442505652E-01
1.92280000000E+09	1.32728973552E-01	1.69601480529E-01	6.33696319855E-02	-2.00792866415E-02	6.33654894659E-02	-1.97385221379E-02	2.22151194709E-01	2.03109414343E-01
1.92310000000E+09	1.32814784187E-01	1.67858116104E-01	6.31226738318E-02	-2.08608041579E-02	6.31447057431E-02	-2.04807114535E-02	2.25149580252E-01	2.00796256328E-01
1.92340000000E+09	1.32826731715E-01	1.66162868567E-01	6.29277146313E-02	-2.16020579207E-02	6.29147957488E-02	-2.12808369632E-02	2.28186696178E-01	1.98532077092E-01
1.92370000000E+09	1.32715458515E-01	1.64534717967E-01	6.26619548301E-02	-2.23973481075E-02	6.26579032190E-02	-2.20624562272E-02	2.31086364007E-01	1.96048594225E-01
1.92400000000E+09	1.32645429438E-01	1.62901496934E-01	6.24322084822E-02	-2.31613706790E-02	6.24552910505E-02	-2.28321173758E-02	2.34024615744E-01	1.93619701606E-01
1.92430000000E+09	1.32441446156E-01	1.61289999336E-01	6.21617848792E-02	-2.39278122477E-02	6.21669901692E-02	-2.35940520785E-02	2.36891106548E-01	1.91079934881E-01
1.92460000000E+09	1.32278184373E-01	1.59640577837E-01	6.18982269933E-02	-2.47143656022E-02	6.18768525935E-02	-2.43964080338E-02	2.39698833724E-01	1.88477060255E-01
1.92490000000E+09	1.32063331240E-01	1.58082887319E-01	6.16345936148E-02	-2.54929815620E-02	6.16329168520E-02	-2.51407262607E-02	2.42464175808E-01	1.85824285168E-01
1.92520000000E+09	1.31747696700E-01	1.56510554039E-01	6.12967074001E-02	-2.62257901035E-02	6.13400144326E-02	-2.58828924651E-02	2.45155316141E-01	1.83254804425E-01
1.92550000000E+09	1.31455179986E-01	1.54928692931E-01	6.09894853953E-02	-2.70267876996E-02	6.10433657170E-02	-2.66756060181E-02	2.47763270321E-01	1.80458252918E-01
1.92580000000E+09	1.31068797030E-01	1.53463548388E-01	6.07205879314E-02	-2.77715388255E-02	6.07222023354E-02	-2.74154562879E-02	2.50416377766E-01	1.77718930047E-01
1.92610000000E+09	1.30619106648E-01	1.51979246211E-01	6.03728234726E-02	-2.85144467199E-02	6.04226131179E-02	-2.81821843028E-02	2.53041593816E-01	1.74909622897E-01
1.92640000000E+09	1.30105907582E-01	1.50565988071E-01	6.00231355937E-02	-2.92871135608E-02	6.00998068159E-02	-2.89355465561E-02	2.55541120596E-01	1.72031728635E-01
1.92670000000E+09	1.29691477603E-01	1.49145671552E-01	5.97235868950E-02	-3.00088572129E-02	5.97893833064E-02	-2.96883683748E-02	2.57918220234E-01	1.69159451436E-01
1.92700000000E+09	1.29106887659E-01	1.47836148237E-01	5.93858920716E-02	-3.07679882770E-02	5.93936112829E-02	-3.04243664516E-02	2.60368701515E-01	1.66215303526E-01
1.92730000000E+09	1.28529235342E-01	1.46484032288E-01	5.89984503060E-02	-3.15207032176E-02	5.90827006053E-02	-3.11808571906E-02	2.62747551116E-01	1.63311612462E-01
1.92760000000E+09	1.27929052388E-01	1.45193081946E-01	5.86574347651E-02	-3.22764543985E-02	5.86756880346E-02	-3.19283856210E-02	2.65072409782E-01	1.60292716377E-01
1.92790000000E+09	1.27275012610E-01	1.43934756231E-01	5.82696423972E-02	-3.30175292839E-02	5.83488657879E-02	-3.26751683770E-02	2.67266976518E-01	1.57181226664E-01
1.92820000000E+09	1.26605822096E-01	1.42793514075E-01	5.78987784019E-02	-3.37250477734E-02	5.79504816383E-02	-3.33937027947E-02	2.69508922503E-01	1.54185053136E-01
1.92850000000E+09	1.25936859029E-01	1.41627182701E-01	5.74863837238E-02	-3.44869699644E-02	5.75349242108E-02	-3.41103667001E-02	2.71592446431E-01	1.50946385223E-01
1.92880000000E+09	1.25198111389E-01	1.40551872879E-01	5.70759083446E-02	-3.52048236639E-02	5.71394275030E-02	-3.48678710576E-02	2.73642939549E-01	1.47880402820E-01
1.92910000000E+09	1.24427943846E-01	1.39506110444E-01	5.65944438353E-02	-3.59231232165E-02	5.67121988387E-02	-3.55959325392E-02	2.75668848876E-01	1.44647492796E-01
1.92940000000E+09	1.23664478667E-01	1.38491472268E-01	5.62411308150E-02	-3.66588573608E-02	5.62907777910E-02	-3.63234276859E-02	2.77686549985E-01	1.41472128100E-01
1.92970000000E+09	1.22822905864E-01	1.37561189258E-01	5.57734231013E-02	-3.73621332103E-02	5.58503334688E-02	-3.70165656448E-02	2.79572278163E-01	1.38147275402E-01
1.93000000000E+09	1.22011228152E-01	1.36648178421E-01	5.52975033497E-02	-3.80699692628E-02	5.53996349017E-02	-3.77376522153E-02	2.81368814351E-01	1.34869913227E-01
1.93030000000E+09	1.21201753067E-01	1.35841915322E-01	5.48516072207E-02	-3.87416939124E-02	5.49438456993E-02	-3.84324595522E-02	2.83151262509E-01	1.31515528001E-01
1.93060000000E+09	1.20340786311E-01	1.35036264855E-01	5.44058967287E-02	-3.94729068863E-02	5.44742613136E-02	-3.91238358677E-02	2.84928482385E-01	1.28172385805E-01
1.93090000000E+09	1.19468728947E-01	1.34320052420E-01	5.39076163590E-02	-4.01767280572E-02	5.40118454297E-02	-3.98465362309E-02	2.86641168124E-01	1.24844270683E-01
1.93120000000E+09	1.18634022337E-01	1.33652722457E-01	5.34147990963E-02	-4.08401809491E-02	5.35015987689E-02	-4.05244745218E-02	2.88232446966E-01	1.21398731504E-01
1.93150000000E+09	1.17755565822E-01	1.32967585947E-01	5.29026036523E-02	-4.15460440114E-02	5.29972317534E-02	-4.12196495980E-02	2.89724684762E-01	1.17974545613E-01
1.93180000000E+09	1.16897968162E-01	1.32434988572E-01	5.23847702455E-02	-4.22015835255E-02	5.25051917471E-02	-4.18746168864E-02	2.91183006445E-01	1.14478626399E-01
1.93210000000E+09	1.15980471872E-01	1.31956220361E-01	5.18813160264E-02	-4.28764168434E-02	5.19815880256E-02	-4.25709575119E-02	2.92648043832E-01	1.10986263998E-01
1.93240000000E+09	1.15164031605E-01	1.31444642091E-01	5.13391279788E-02	-4.35395765028E-02	5.14622463979E-02	-4.32311387635E-02	2.94012067751E-01	1.07492467273E-01
1.93270000000E+09	1.14263171562E-01	1.31048885479E-01	5.07751176987E-02	-4.41962851472E-02	5.09054784938E-02	-4.38948170306E-02	2.95293898767E-01	1.03943759570E-01
1.93300000000E+09	1.13444697049E-01	1.30732039659E-01	5.02500354248E-02	-4.48535864882E-02	5.03659082165E-02	-4.45416415701E-02	2.96491594186E-01	1.00445257660E-01
1.93330000000E+09	1.12579635211E-01	1.30425894440E-01	4.96682511462E-02	-4.54978143956E-02	4.98110872533E-02	-4.51586176122E-02	2.97743357558E-01	9.68834181864E-02
1.93360000000E+09	1.11793908658E-01	1.30171806865E-01	4.90917849155E-02	-4.61125752416E-02	4.92638505812E-02	-4.58259542325E-02	2.98813184415E-01	9.32673200241E-02
1.93390000000E+09	1.10973345737E-01	1.29967637113E-01	4.85119752232E-02	-4.67871867501E-02	4.86708741218E-02	-4.64396673759E-02	2.99824514024E-01	8.96829025303E-02
1.93420000000E+09	1.10155157698E-01	1.29814835812E-01	4.79444395190E-02	-4.73914372456E-02	4.80982154016E-02	-4.70651957558E-02	3.00820867879E-01	8.60478645247E-02
1.93450000000E+09	1.09416052509E-01	1.29709648823E-01	4.73559199017E-02	-4.79538908000E-02	4.74961484322E-02	-4.76711603451E-02	3.01739578189E-01	8.23831008717E-02
1.93480000000E+09	1.08672318318E-01	1.29641869025E-01	4.67433612015E-02	-4.85927157193E-02	4.68921963703E-02	-4.82770049374E-02	3.02593288254E-01	7.87177851922E-02
1.93510000000E+09	1.07932980677E-01	1.29547294141E-01	4.61076248356E-02	-4.91937444287E-02	4.62816037505E-02	-4.88767013108E-02	3.03382445063E-01	7.50388903643E-02
1.93540000000E+09	1.07178962737E-01	1.29609440424E-01	4.54965288824E-02	-4.97480204847E-02	4.56698461322E-02	-4.94799878609E-02	3.04091098280E-01	7.14111242134E-02
1.93570000000E+09	1.06504855448E-01	1.29676802514E-01	4.48721026636E-02	-5.03643960638E-02	4.50324501835E-02	-5.00723080236E-02	3.04691529951E-01	6.76394837770E-02
