# Hz S RI R 50
! CMT, CMT808U, 21440046, 21.4.3/4
! Date: 3/28/2026 4:59:17 PM
! Data: Format (Calibration Info)
! Freq	S11:Re/Im(F2)	S41:Re/Im(F2)	S14:Re/Im(F2)	S44:Re/Im(F2)
1.90000000000E+09	3.97151340749E-02	2.50890291075E-01	5.03034231064E-02	4.58056810608E-02	4.99467450013E-02	4.59654695923E-02	-7.54813395492E-02	1.63832214474E-01
1.90030000000E+09	4.13457503876E-02	2.50773742124E-01	5.08260113325E-02	4.51745268328E-02	5.04776445435E-02	4.53064548274E-02	-7.31616076980E-02	1.66544262764E-01
1.90060000000E+09	4.30200193387E-02	2.50495211316E-01	5.13461276623E-02	4.45082216765E-02	5.10170683299E-02	4.46595877303E-02	-7.07832739820E-02	1.69227937401E-01
1.90090000000E+09	4.46906125804E-02	2.50383577518E-01	5.18685719896E-02	4.39024133830E-02	5.15455545028E-02	4.40117788089E-02	-6.83955584305E-02	1.71881789772E-01
1.90120000000E+09	4.64061641384E-02	2.50154571914E-01	5.23749813690E-02	4.31985154572E-02	5.20464790412E-02	4.33682585724E-02	-6.59533277223E-02	1.74473603600E-01
1.90150000000E+09	4.81601470344E-02	2.49796457929E-01	5.28067656626E-02	4.25264233732E-02	5.25516604688E-02	4.27010324612E-02	-6.34730786355E-02	1.77053706365E-01
1.90180000000E+09	4.98138833555E-02	2.49580290754E-01	5.33470330771E-02	4.18912859412E-02	5.30384268834E-02	4.20192367560E-02	-6.09346852359E-02	1.79512443230E-01
1.90210000000E+09	5.14886183283E-02	2.49289290092E-01	5.38357462173E-02	4.12187593123E-02	5.34862745444E-02	4.13826477340E-02	-5.83105587154E-02	1.82033740261E-01
1.90240000000E+09	5.32769930479E-02	2.48988646607E-01	5.42980103733E-02	4.05180473474E-02	5.39905594448E-02	4.06738376477E-02	-5.56879097211E-02	1.84384167984E-01
1.90270000000E+09	5.48763316402E-02	2.48596827980E-01	5.47618148169E-02	3.98380528166E-02	5.44902611047E-02	4.00473916178E-02	-5.30475320050E-02	1.86806270164E-01
1.90300000000E+09	5.65993428508E-02	2.48244501972E-01	5.52346753279E-02	3.91627516439E-02	5.49222900778E-02	3.93401346025E-02	-5.03257139124E-02	1.89043054600E-01
1.90330000000E+09	5.82706897311E-02	2.47791333886E-01	5.56316052330E-02	3.84524198728E-02	5.53590583889E-02	3.86529173628E-02	-4.76183856807E-02	1.91366396565E-01
1.90360000000E+09	6.00074364028E-02	2.47403496460E-01	5.60713357473E-02	3.77638893618E-02	5.57907478086E-02	3.79717114243E-02	-4.47967360403E-02	1.93481799051E-01
1.90390000000E+09	6.16659020032E-02	2.46899372225E-01	5.65149515492E-02	3.70573255024E-02	5.62072561453E-02	3.72775314683E-02	-4.19850141822E-02	1.95646206427E-01
1.90420000000E+09	6.33902655607E-02	2.46433274478E-01	5.69236015264E-02	3.63829663000E-02	5.66513929156E-02	3.65713030699E-02	-3.91332888645E-02	1.97710369137E-01
1.90450000000E+09	6.50883501468E-02	2.45919366563E-01	5.73562850433E-02	3.56835307146E-02	5.70728535787E-02	3.58821579080E-02	-3.62279001124E-02	1.99758315151E-01
1.90480000000E+09	6.67680777206E-02	2.45320022032E-01	5.77687044409E-02	3.49635860572E-02	5.74759008790E-02	3.52005107248E-02	-3.32820798885E-02	2.01714570342E-01
1.90510000000E+09	6.84708932544E-02	2.44706864975E-01	5.81776381155E-02	3.42619897477E-02	5.78831873092E-02	3.44676581478E-02	-3.03027195262E-02	2.03698000724E-01
1.90540000000E+09	7.00889242860E-02	2.44144984811E-01	5.85507380326E-02	3.35546645035E-02	5.82677345220E-02	3.37631249828E-02	-2.72735938494E-02	2.05527073744E-01
1.90570000000E+09	7.17933768510E-02	2.43466325937E-01	5.89125953601E-02	3.28106907517E-02	5.86348402864E-02	3.30200754705E-02	-2.42347634493E-02	2.07265994607E-01
1.90600000000E+09	7.34855873706E-02	2.42778123337E-01	5.92947630344E-02	3.20951624139E-02	5.90428234258E-02	3.23425841576E-02	-2.12258782615E-02	2.09033451257E-01
1.90630000000E+09	7.51300711173E-02	2.42121566558E-01	5.96533096046E-02	3.13698507760E-02	5.94051047717E-02	3.16012891880E-02	-1.81072560332E-02	2.10813287202E-01
1.90660000000E+09	7.67749460136E-02	2.41332326108E-01	6.00278522818E-02	3.06175743684E-02	5.97439354254E-02	3.08685536330E-02	-1.49418987434E-02	2.12389101343E-01
1.90690000000E+09	7.84278317697E-02	2.40602617114E-01	6.03624369511E-02	2.99135135170E-02	6.01084617795E-02	3.01337308213E-02	-1.18210454947E-02	2.14035730222E-01
1.90720000000E+09	8.00186609703E-02	2.39825670281E-01	6.06987834456E-02	2.91411398939E-02	6.04399034707E-02	2.93815253075E-02	-8.57142074110E-03	2.15506030478E-01
1.90750000000E+09	8.16264427931E-02	2.38976157523E-01	6.10071171555E-02	2.84371465598E-02	6.07694105916E-02	2.86523439889E-02	-5.39377152229E-03	2.16930096138E-01
1.90780000000E+09	8.32104639611E-02	2.38141051356E-01	6.13256995073E-02	2.76976293280E-02	6.10767179041E-02	2.79470239823E-02	-2.20900532832E-03	2.18310585876E-01
1.90810000000E+09	8.48259015566E-02	2.37210526221E-01	6.16679523444E-02	2.69245702517E-02	6.13778870195E-02	2.71873997825E-02	1.03461795029E-03	2.19624567583E-01
1.90840000000E+09	8.64104321072E-02	2.36372040530E-01	6.19734804435E-02	2.61889705670E-02	6.17006781069E-02	2.64446616292E-02	4.32738287839E-03	2.20950350666E-01
1.90870000000E+09	8.79542704757E-02	2.35422445186E-01	6.22501352315E-02	2.54259607671E-02	6.20436348318E-02	2.56891098454E-02	7.60387651555E-03	2.22143475776E-01
1.90900000000E+09	8.95459369339E-02	2.34411765728E-01	6.25439289153E-02	2.46688248614E-02	6.22858243428E-02	2.49430859156E-02	1.09634835463E-02	2.23238764711E-01
1.90930000000E+09	9.11058146127E-02	2.33471092966E-01	6.27834649224E-02	2.39418674133E-02	6.25675030406E-02	2.41797309084E-02	1.43374837337E-02	2.24357190153E-01
1.90960000000E+09	9.25311221769E-02	2.32413718701E-01	6.30644009118E-02	2.31541947839E-02	6.28478393562E-02	2.34277097606E-02	1.76418091808E-02	2.25336019643E-01
1.90990000000E+09	9.41042789800E-02	2.31361241982E-01	6.33608251535E-02	2.23862837818E-02	6.31228849642E-02	2.26518401801E-02	2.10269802644E-02	2.26340458118E-01
1.91020000000E+09	9.55147464433E-02	2.30294411136E-01	6.35934146319E-02	2.16403375695E-02	6.33474268929E-02	2.19030408734E-02	2.43303723067E-02	2.27173230822E-01
1.91050000000E+09	9.69984038780E-02	2.29200349077E-01	6.38221142236E-02	2.08802106464E-02	6.36005504007E-02	2.11795888548E-02	2.77609085798E-02	2.28066374659E-01
1.91080000000E+09	9.84785144352E-02	2.28076723122E-01	6.40682440971E-02	2.00975348908E-02	6.38635554436E-02	2.03879722581E-02	3.11690606114E-02	2.28811596103E-01
1.91110000000E+09	9.98477394794E-02	2.26934867896E-01	6.42988925318E-02	1.93095366215E-02	6.40818150158E-02	1.96127036798E-02	3.45945857906E-02	2.29560642785E-01
1.91140000000E+09	1.01306907405E-01	2.25756588861E-01	6.45327947582E-02	1.85376221176E-02	6.42959343034E-02	1.88508213551E-02	3.80061778574E-02	2.30155838720E-01
1.91170000000E+09	1.02686611882E-01	2.24527214352E-01	6.47324693608E-02	1.77933816232E-02	6.45617223351E-02	1.80435284315E-02	4.14629338560E-02	2.30684065055E-01
1.91200000000E+09	1.04032587507E-01	2.23347781688E-01	6.49240212968E-02	1.69779893898E-02	6.47145582276E-02	1.72931468985E-02	4.49158240959E-02	2.31271520788E-01
1.91230000000E+09	1.05333158805E-01	2.22064877004E-01	6.51461884916E-02	1.62412610313E-02	6.49207937648E-02	1.65103016194E-02	4.83415991074E-02	2.31740157629E-01
1.91260000000E+09	1.06652543418E-01	2.20817848303E-01	6.52922428088E-02	1.54361780424E-02	6.51121681867E-02	1.57484410979E-02	5.17857367301E-02	2.32119691185E-01
1.91290000000E+09	1.07982799542E-01	2.19563205163E-01	6.54985674599E-02	1.46733424928E-02	6.53016125824E-02	1.49641547701E-02	5.52377323858E-02	2.32395226582E-01
1.91320000000E+09	1.09213558440E-01	2.18197059187E-01	6.56453781858E-02	1.38742926243E-02	6.54434614421E-02	1.42077144319E-02	5.87049097643E-02	2.32735952703E-01
1.91350000000E+09	1.10492113966E-01	2.16848337671E-01	6.57996512966E-02	1.30690937757E-02	6.56612973061E-02	1.34057083698E-02	6.21905531047E-02	2.32896811899E-01
1.91380000000E+09	1.11688542783E-01	2.15412937897E-01	6.59761821852E-02	1.23064482701E-02	6.57685938094E-02	1.26091881726E-02	6.56457043137E-02	2.33076906169E-01
1.91410000000E+09	1.12907889083E-01	2.14056303637E-01	6.60922327475E-02	1.15149980328E-02	6.59273379303E-02	1.18238992501E-02	6.91166058709E-02	2.33148012255E-01
1.91440000000E+09	1.14048235027E-01	2.12623486584E-01	6.62109541164E-02	1.07266298147E-02	6.60727794621E-02	1.10411800954E-02	7.25881287698E-02	2.33135680188E-01
1.91470000000E+09	1.15216480197E-01	2.11239166562E-01	6.63511754738E-02	9.92361221962E-03	6.61901416889E-02	1.02579028547E-02	7.60581402010E-02	2.33130525462E-01
1.91500000000E+09	1.16254915361E-01	2.09716202251E-01	6.64669623826E-02	9.13780490699E-03	6.62891343884E-02	9.47245670131E-03	7.94792624359E-02	2.32955036796E-01
1.91530000000E+09	1.17379397257E-01	2.08190214562E-01	6.65972624850E-02	8.36369137735E-03	6.64107150764E-02	8.67910051471E-03	8.29149857811E-02	2.32771934048E-01
1.91560000000E+09	1.18403533876E-01	2.06745444935E-01	6.66704403623E-02	7.52404788475E-03	6.65072430563E-02	7.87297637387E-03	8.63651956434E-02	2.32478114069E-01
1.91590000000E+09	1.19422833589E-01	2.05165540596E-01	6.67691184397E-02	6.76165735225E-03	6.66293062935E-02	7.06685092205E-03	8.98804760297E-02	2.32207291110E-01
1.91620000000E+09	1.20384620229E-01	2.03628045462E-01	6.68416394871E-02	5.98510701299E-03	6.67394489401E-02	6.29024964142E-03	9.32080643589E-02	2.31874052693E-01
1.91650000000E+09	1.21338647038E-01	2.02077721931E-01	6.69445048132E-02	5.14398432405E-03	6.67676642246E-02	5.49179098552E-03	9.66593495233E-02	2.31434158914E-01
1.91680000000E+09	1.22260604531E-01	2.00455488617E-01	6.69672939252E-02	4.38388330106E-03	6.68534999762E-02	4.69518015243E-03	1.00076412617E-01	2.30891360544E-01
1.91710000000E+09	1.23146527728E-01	1.98888479248E-01	6.70604079393E-02	3.57620509328E-03	6.69304215693E-02	3.89075349848E-03	1.03461511848E-01	2.30374523524E-01
1.91740000000E+09	1.23945262549E-01	1.97234383802E-01	6.70907418762E-02	2.75477041415E-03	6.69560605602E-02	3.10458460823E-03	1.06865861426E-01	2.29802213446E-01
1.91770000000E+09	1.24775499763E-01	1.95606769693E-01	6.71540192196E-02	1.94492042234E-03	6.70345300170E-02	2.29682648813E-03	1.10195994043E-01	2.29081012632E-01
1.91800000000E+09	1.25442766763E-01	1.93920934705E-01	6.71488412172E-02	1.15822218114E-03	6.70560281407E-02	1.48214616748E-03	1.13536229244E-01	2.28385622249E-01
1.91830000000E+09	1.26185064065E-01	1.92275138585E-01	6.72078145083E-02	3.46031771716E-04	6.70946411048E-02	6.74932346690E-04	1.16896429945E-01	2.27554929877E-01
1.91860000000E+09	1.26817264778E-01	1.90540921428E-01	6.72272236734E-02	-4.23204480990E-04	6.71062290006E-02	-1.29135391948E-04	1.20214066427E-01	2.26676096654E-01
1.91890000000E+09	1.27512709613E-01	1.88849329330E-01	6.72427097609E-02	-1.21931713999E-03	6.71395701733E-02	-9.33406985142E-04	1.23531686094E-01	2.25848692875E-01
1.91920000000E+09	1.28110669280E-01	1.87104682900E-01	6.72269436920E-02	-2.05432267786E-03	6.71163949961E-02	-1.74437323630E-03	1.26810632982E-01	2.24810669302E-01
1.91950000000E+09	1.28655036884E-01	1.85441748399E-01	6.72232853356E-02	-2.87044756702E-03	6.71065591132E-02	-2.52958954292E-03	1.30102266002E-01	2.23725362346E-01
1.91980000000E+09	1.29064256397E-01	1.83705113258E-01	6.72194792257E-02	-3.66941211228E-03	6.70972200705E-02	-3.33018793637E-03	1.33304954622E-01	2.22682525832E-01
1.92010000000E+09	1.29550415103E-01	1.82033963494E-01	6.71949635787E-02	-4.49572146340E-03	6.71004367688E-02	-4.16137111499E-03	1.36618891375E-01	2.21539776456E-01
1.92040000000E+09	1.29926811852E-01	1.80205980736E-01	6.71676402303E-02	-5.30628445522E-03	6.70449570094E-02	-4.96099271362E-03	1.39751000621E-01	2.20326100179E-01
1.92070000000E+09	1.30219469702E-01	1.78555331942E-01	6.70804152874E-02	-6.11284308891E-03	6.70181621484E-02	-5.76606520879E-03	1.42892423788E-01	2.19023913458E-01
1.92100000000E+09	1.30462669220E-01	1.76781034299E-01	6.70581290150E-02	-6.89641840117E-03	6.69490393858E-02	-6.60297302897E-03	1.46097353725E-01	2.17759444217E-01
1.92130000000E+09	1.30782054110E-01	1.75087371588E-01	6.69710481465E-02	-7.73518885395E-03	6.69009181920E-02	-7.36593577046E-03	1.49176286984E-01	2.16353254731E-01
1.92160000000E+09	1.30890645631E-01	1.73343015356E-01	6.69253570769E-02	-8.53290296493E-03	6.68414022561E-02	-8.18296067864E-03	1.52303198242E-01	2.14936082558E-01
1.92190000000E+09	1.31077456826E-01	1.71630369369E-01	6.68371866523E-02	-9.34340167116E-03	6.67562944178E-02	-8.99637616478E-03	1.55350235411E-01	2.13501236764E-01
1.92220000000E+09	1.31112633539E-01	1.69952990926E-01	6.67467975661E-02	-1.01892893436E-02	6.66685427358E-02	-9.80806163316E-03	1.58359149408E-01	2.11965821694E-01
1.92250000000E+09	1.31158301771E-01	1.68278067742E-01	6.66221113019E-02	-1.09813030567E-02	6.65778747019E-02	-1.06409066879E-02	1.61436823109E-01	2.10368919246E-01
1.92280000000E+09	1.31178078291E-01	1.66633318919E-01	6.65448275116E-02	-1.18163635518E-02	6.64934302082E-02	-1.14433851071E-02	1.64396677719E-01	2.08652848359E-01
1.92310000000E+09	1.31094172519E-01	1.64968973829E-01	6.64322103189E-02	-1.26103849976E-02	6.63634383844E-02	-1.22887923973E-02	1.67394215104E-01	2.06947052063E-01
1.92340000000E+09	1.30968547404E-01	1.63301185172E-01	6.62817512047E-02	-1.34316964386E-02	6.62528345264E-02	-1.30839797831E-02	1.70241839849E-01	2.05340597477E-01
1.92370000000E+09	1.30857210928E-01	1.61768974770E-01	6.61745407243E-02	-1.42316403995E-02	6.61322827409E-02	-1.39197919601E-02	1.73073738823E-01	2.03458460761E-01
1.92400000000E+09	1.30657826012E-01	1.60177092155E-01	6.60047822093E-02	-1.50509868305E-02	6.59920063639E-02	-1.47144720542E-02	1.75920606530E-01	2.01631944498E-01
1.92430000000E+09	1.30374586988E-01	1.58598015268E-01	6.58528248047E-02	-1.58911541242E-02	6.58280509959E-02	-1.55287887022E-02	1.78772508539E-01	1.99721565224E-01
1.92460000000E+09	1.30091787768E-01	1.57059730918E-01	6.57034269079E-02	-1.66982075814E-02	6.56636868772E-02	-1.63562100826E-02	1.81468809250E-01	1.97747620205E-01
1.92490000000E+09	1.29838074939E-01	1.55548121382E-01	6.55035680966E-02	-1.75219909381E-02	6.54899671947E-02	-1.71643830457E-02	1.84322644825E-01	1.95759508750E-01
1.92520000000E+09	1.29386901910E-01	1.54070849134E-01	6.53244503127E-02	-1.83201527005E-02	6.53122671167E-02	-1.79570135393E-02	1.86903184429E-01	1.93707308682E-01
1.92550000000E+09	1.29029295140E-01	1.52611330960E-01	6.51244404071E-02	-1.91437424208E-02	6.51334897417E-02	-1.87832705662E-02	1.89619844040E-01	1.91616219891E-01
1.92580000000E+09	1.28525473508E-01	1.51215007839E-01	6.49349590678E-02	-1.99550728330E-02	6.49298852504E-02	-1.96322281356E-02	1.92238296457E-01	1.89523190107E-01
1.92610000000E+09	1.28030876742E-01	1.49808515538E-01	6.47149367016E-02	-2.07731265847E-02	6.46863147261E-02	-2.04356593175E-02	1.94825625626E-01	1.87229596035E-01
1.92640000000E+09	1.27439484225E-01	1.48534632706E-01	6.44759359852E-02	-2.15705318713E-02	6.45018498208E-02	-2.12272379866E-02	1.97355380060E-01	1.85025042664E-01
1.92670000000E+09	1.26942987032E-01	1.47222687844E-01	6.42546820548E-02	-2.24148529424E-02	6.42439726218E-02	-2.20708872830E-02	1.99861743494E-01	1.82816532404E-01
1.92700000000E+09	1.26224794699E-01	1.45946240976E-01	6.39890270406E-02	-2.31902588263E-02	6.39920664143E-02	-2.28460378585E-02	2.02280778664E-01	1.80437056180E-01
1.92730000000E+09	1.25642393230E-01	1.44781779449E-01	6.37537036288E-02	-2.40134061359E-02	6.37602250254E-02	-2.36875428332E-02	2.04690653555E-01	1.78074513955E-01
1.92760000000E+09	1.24976324400E-01	1.43553171705E-01	6.34869309005E-02	-2.48335607090E-02	6.34684151069E-02	-2.44342427923E-02	2.07043429739E-01	1.75658315852E-01
1.92790000000E+09	1.24287618157E-01	1.42474136881E-01	6.32027313084E-02	-2.56426443130E-02	6.32145335533E-02	-2.52955463551E-02	2.09440302435E-01	1.73214251979E-01
1.92820000000E+09	1.23543330897E-01	1.41383103971E-01	6.28674851193E-02	-2.64181174711E-02	6.29246754268E-02	-2.60730027993E-02	2.11661623528E-01	1.70815946409E-01
1.92850000000E+09	1.22816626439E-01	1.40391442441E-01	6.26013861761E-02	-2.72460027350E-02	6.26220077083E-02	-2.68822519124E-02	2.13907807099E-01	1.68227384431E-01
1.92880000000E+09	1.22031925163E-01	1.39404495715E-01	6.22796730590E-02	-2.80059067581E-02	6.23094695428E-02	-2.76842302092E-02	2.16057976976E-01	1.65726949995E-01
1.92910000000E+09	1.21231258886E-01	1.38491140445E-01	6.19676615986E-02	-2.88370778536E-02	6.20264410757E-02	-2.84961997399E-02	2.18218631316E-01	1.63083994205E-01
1.92940000000E+09	1.20440905211E-01	1.37585045470E-01	6.16290987611E-02	-2.96481310689E-02	6.16656973012E-02	-2.92683646610E-02	2.20371276821E-01	1.60471512754E-01
1.92970000000E+09	1.19630278594E-01	1.36792244756E-01	6.12887813760E-02	-3.04269926714E-02	6.13293067412E-02	-3.00817612309E-02	2.22380333634E-01	1.57745922232E-01
1.93000000000E+09	1.18814804945E-01	1.36067413465E-01	6.09044450400E-02	-3.12160930874E-02	6.09696262016E-02	-3.08817244702E-02	2.24335377437E-01	1.55041895545E-01
1.93030000000E+09	1.17949231972E-01	1.35385265051E-01	6.05686311078E-02	-3.19787665428E-02	6.06174288887E-02	-3.16340761525E-02	2.26297138405E-01	1.52240076229E-01
1.93060000000E+09	1.17029531752E-01	1.34675847652E-01	6.01510451433E-02	-3.27515622063E-02	6.02170513863E-02	-3.24387295746E-02	2.28231518478E-01	1.49493055549E-01
1.93090000000E+09	1.16226739964E-01	1.34106540439E-01	5.97808604106E-02	-3.35457297772E-02	5.98269774404E-02	-3.32038957784E-02	2.30022632635E-01	1.46745040916E-01
1.93120000000E+09	1.15393362959E-01	1.33562160470E-01	5.93565833373E-02	-3.43498884711E-02	5.94546780501E-02	-3.39569943857E-02	2.31834827295E-01	1.43846474939E-01
1.93150000000E+09	1.14508764167E-01	1.33064566976E-01	5.89516002377E-02	-3.51202549293E-02	5.90561855261E-02	-3.47588330313E-02	2.33552768596E-01	1.41048896198E-01
1.93180000000E+09	1.13691602313E-01	1.32676864684E-01	5.85548365511E-02	-3.58856184084E-02	5.86028420588E-02	-3.55207487263E-02	2.35158491119E-01	1.38084041731E-01
1.93210000000E+09	1.12793363134E-01	1.32290101118E-01	5.81031682119E-02	-3.66343707908E-02	5.81935236064E-02	-3.62898839653E-02	2.36916026000E-01	1.35195128794E-01
1.93240000000E+09	1.11988508233E-01	1.31915341753E-01	5.76159076545E-02	-3.73730227070E-02	5.77320945808E-02	-3.70570424052E-02	2.38479706518E-01	1.32178444724E-01
1.93270000000E+09	1.11122669377E-01	1.31676714830E-01	5.71699998530E-02	-3.81110554068E-02	5.72581535889E-02	-3.78092992673E-02	2.40048561859E-01	1.29225391723E-01
1.93300000000E+09	1.10299593868E-01	1.31472174126E-01	5.66783569868E-02	-3.88638858043E-02	5.68091517646E-02	-3.85497162056E-02	2.41401386655E-01	1.26197973696E-01
1.93330000000E+09	1.09518131762E-01	1.31275898848E-01	5.62217158514E-02	-3.96158730694E-02	5.63337842143E-02	-3.92882189856E-02	2.42930716851E-01	1.23115168449E-01
1.93360000000E+09	1.08783320707E-01	1.31158768448E-01	5.57194313688E-02	-4.03820433775E-02	5.58567162788E-02	-4.00055156764E-02	2.44161488607E-01	1.20108629945E-01
1.93390000000E+09	1.08059954271E-01	1.31072442184E-01	5.52245466722E-02	-4.10816697696E-02	5.53511210052E-02	-4.07515636905E-02	2.45486504500E-01	1.17021661078E-01
1.93420000000E+09	1.07270663644E-01	1.31021595233E-01	5.46892487203E-02	-4.18108402081E-02	5.48325884251E-02	-4.14519181085E-02	2.46770529376E-01	1.13917367983E-01
1.93450000000E+09	1.06564294243E-01	1.31012677314E-01	5.41828307322E-02	-4.25065877774E-02	5.43022865015E-02	-4.21797463586E-02	2.47929070828E-01	1.10774492547E-01
1.93480000000E+09	1.05946027308E-01	1.31104230458E-01	5.36448983636E-02	-4.32187688313E-02	5.37860885101E-02	-4.28823586490E-02	2.49062812255E-01	1.07621335408E-01
1.93510000000E+09	1.05238299174E-01	1.31118166739E-01	5.30943698210E-02	-4.39175748181E-02	5.32245767939E-02	-4.36057236678E-02	2.50155680327E-01	1.04458099217E-01
1.93540000000E+09	1.04586440082E-01	1.31288152517E-01	5.25317444859E-02	-4.46082811512E-02	5.26992566979E-02	-4.42602284653E-02	2.51137066340E-01	1.01298499662E-01
1.93570000000E+09	1.03990195194E-01	1.31457438117E-01	5.20051221129E-02	-4.53030889085E-02	5.21265116484E-02	-4.49840740940E-02	2.52104037729E-01	9.80375323001E-02
