# Hz S RI R 50
! CMT, CMT808U, 21440046, 21.4.3/4
! Date: 3/28/2026 5:01:53 PM
! Data: Format (Calibration Info)
! Freq	S11:Re/Im(F2)	S41:Re/Im(F2)	S14:Re/Im(F2)	S44:Re/Im(F2)
1.90000000000E+09	4.20651864977E-02	2.56193978036E-01	4.21499294956E-02	4.83317739105E-02	4.17980216419E-02	4.84333046760E-02	-1.26960001011E-01	1.38218068289E-01
1.90030000000E+09	4.39242532751E-02	2.56118333106E-01	4.26919863031E-02	4.78119043527E-02	4.23763371337E-02	4.79210956100E-02	-1.24903391506E-01	1.41631770322E-01
1.90060000000E+09	4.58042708091E-02	2.55868529065E-01	4.32276397213E-02	4.72380404421E-02	4.29164497763E-02	4.73833369865E-02	-1.22850838781E-01	1.45021043016E-01
1.90090000000E+09	4.77257066366E-02	2.55722178448E-01	4.38119845492E-02	4.66945234645E-02	4.34993442423E-02	4.68101443934E-02	-1.20607110657E-01	1.48369955417E-01
1.90120000000E+09	4.95470366804E-02	2.55499677521E-01	4.43353803201E-02	4.61302092079E-02	4.40040749870E-02	4.62440145704E-02	-1.18389093143E-01	1.51647839454E-01
1.90150000000E+09	5.14706266347E-02	2.55105132954E-01	4.48691234174E-02	4.55680533190E-02	4.45572863668E-02	4.56965507440E-02	-1.16110917773E-01	1.54933683899E-01
1.90180000000E+09	5.33600621383E-02	2.54905875232E-01	4.53849338277E-02	4.49955810801E-02	4.50712462089E-02	4.51230655377E-02	-1.13749995116E-01	1.58152381305E-01
1.90210000000E+09	5.52345747991E-02	2.54572374980E-01	4.59289708972E-02	4.44589223513E-02	4.56171254344E-02	4.45584914172E-02	-1.11311178151E-01	1.61281505202E-01
1.90240000000E+09	5.71418918122E-02	2.54198990044E-01	4.64148438365E-02	4.38617559833E-02	4.61440967121E-02	4.39845005239E-02	-1.08849224512E-01	1.64404183504E-01
1.90270000000E+09	5.89780378189E-02	2.53730211915E-01	4.69302352923E-02	4.32794000352E-02	4.66051007180E-02	4.34271693323E-02	-1.06338920769E-01	1.67548397682E-01
1.90300000000E+09	6.08616355218E-02	2.53349009500E-01	4.74346015700E-02	4.26385322292E-02	4.71633020714E-02	4.28490948764E-02	-1.03701531034E-01	1.70520742939E-01
1.90330000000E+09	6.27871453478E-02	2.52883554358E-01	4.79238091480E-02	4.20735661300E-02	4.76358420341E-02	4.22400033654E-02	-1.01102239762E-01	1.73481841612E-01
1.90360000000E+09	6.46200114225E-02	2.52419015294E-01	4.84126906038E-02	4.15041876682E-02	4.81241224020E-02	4.16588297287E-02	-9.84050974344E-02	1.76421100382E-01
1.90390000000E+09	6.64537365217E-02	2.51816368079E-01	4.88656129737E-02	4.08705803123E-02	4.85876966222E-02	4.10371392429E-02	-9.56138752017E-02	1.79222312739E-01
1.90420000000E+09	6.83302502694E-02	2.51324772052E-01	4.93548842106E-02	4.02708197244E-02	4.90597776273E-02	4.04317213542E-02	-9.28649022359E-02	1.82024940115E-01
1.90450000000E+09	7.02113678081E-02	2.50732055879E-01	4.98045365182E-02	3.96540058006E-02	4.95237711379E-02	3.97998903154E-02	-8.99581187218E-02	1.84796574434E-01
1.90480000000E+09	7.20915618050E-02	2.50116387394E-01	5.02799473770E-02	3.90258060824E-02	4.99743690230E-02	3.91926499411E-02	-8.70477295555E-02	1.87449074044E-01
1.90510000000E+09	7.39619381756E-02	2.49464347297E-01	5.07126170262E-02	3.84158807635E-02	5.04395552174E-02	3.86116597470E-02	-8.41079965471E-02	1.90119108679E-01
1.90540000000E+09	7.57541425846E-02	2.48802065156E-01	5.11525089273E-02	3.77961404764E-02	5.08743625329E-02	3.79751334572E-02	-8.11333583276E-02	1.92724325679E-01
1.90570000000E+09	7.75889011049E-02	2.48040982150E-01	5.15972389238E-02	3.71814219750E-02	5.13098634577E-02	3.73443704560E-02	-7.80149258778E-02	1.95130222548E-01
1.90600000000E+09	7.94281342817E-02	2.47279912615E-01	5.20097165271E-02	3.65421731451E-02	5.17310519863E-02	3.67291248994E-02	-7.49881301846E-02	1.97624513091E-01
1.90630000000E+09	8.11842128853E-02	2.46444366333E-01	5.24224287112E-02	3.58973079789E-02	5.21130664181E-02	3.60881331322E-02	-7.18050829166E-02	2.00051444369E-01
1.90660000000E+09	8.30449186528E-02	2.45594453975E-01	5.28416614507E-02	3.52176724965E-02	5.25311007730E-02	3.54223407020E-02	-6.85909548409E-02	2.02438803005E-01
1.90690000000E+09	8.47998315630E-02	2.44788537227E-01	5.32379301905E-02	3.46175289333E-02	5.29411241756E-02	3.47769000218E-02	-6.54111505326E-02	2.04698681334E-01
1.90720000000E+09	8.64938746265E-02	2.43903665594E-01	5.36306720426E-02	3.39597213329E-02	5.33544326606E-02	3.41461534223E-02	-6.21147674868E-02	2.06917638026E-01
1.90750000000E+09	8.82860844927E-02	2.42944007752E-01	5.39796150786E-02	3.32780474948E-02	5.37350582960E-02	3.34996050276E-02	-5.87894094084E-02	2.08988016630E-01
1.90780000000E+09	8.99958965318E-02	2.42015840424E-01	5.43903714553E-02	3.26158388903E-02	5.41418186362E-02	3.28598951562E-02	-5.55123720994E-02	2.11152093070E-01
1.90810000000E+09	9.17567500996E-02	2.41004748727E-01	5.47884340014E-02	3.19645573698E-02	5.45024762334E-02	3.22003723576E-02	-5.21138551607E-02	2.13140357376E-01
1.90840000000E+09	9.34252107266E-02	2.40022161493E-01	5.51323306856E-02	3.13274419548E-02	5.48564138393E-02	3.15196203132E-02	-4.86684808948E-02	2.15083178578E-01
1.90870000000E+09	9.51267057970E-02	2.38962470270E-01	5.54879871710E-02	3.06330590626E-02	5.51945517976E-02	3.08797022414E-02	-4.52497525157E-02	2.16966012064E-01
1.90900000000E+09	9.68068622762E-02	2.37789147443E-01	5.58031519640E-02	2.99529524287E-02	5.55854800006E-02	3.01814396780E-02	-4.17151760609E-02	2.18787801345E-01
1.90930000000E+09	9.84395107778E-02	2.36816731004E-01	5.61766483043E-02	2.93037672138E-02	5.59056942103E-02	2.95167511801E-02	-3.82062135210E-02	2.20491293234E-01
1.90960000000E+09	1.00030121701E-01	2.35632039678E-01	5.64768442624E-02	2.86357142301E-02	5.62713538807E-02	2.88288805957E-02	-3.46851414818E-02	2.22252008700E-01
1.90990000000E+09	1.01652304262E-01	2.34437870028E-01	5.68044559410E-02	2.79091007025E-02	5.66029990417E-02	2.81502828014E-02	-3.11073636664E-02	2.23852419539E-01
1.91020000000E+09	1.03207560953E-01	2.33258991107E-01	5.71335794427E-02	2.72370016607E-02	5.68966676294E-02	2.74871652863E-02	-2.75698406014E-02	2.25384769941E-01
1.91050000000E+09	1.04775670684E-01	2.32056279189E-01	5.74781209439E-02	2.65681671879E-02	5.72009574053E-02	2.68314798060E-02	-2.38959535983E-02	2.26814818705E-01
1.91080000000E+09	1.06360877600E-01	2.30767659191E-01	5.77521755989E-02	2.58626034497E-02	5.75279953832E-02	2.61487095406E-02	-2.01986145935E-02	2.28299535951E-01
1.91110000000E+09	1.07828811982E-01	2.29523239606E-01	5.80650002959E-02	2.51377959201E-02	5.78035133150E-02	2.54325366394E-02	-1.65305662433E-02	2.29592209100E-01
1.91140000000E+09	1.09309927823E-01	2.28254308308E-01	5.83186470909E-02	2.44870844053E-02	5.81198885089E-02	2.47012477013E-02	-1.28202531896E-02	2.30858247787E-01
1.91170000000E+09	1.10812915939E-01	2.26873748817E-01	5.85886041713E-02	2.37860704617E-02	5.83769525499E-02	2.40113087966E-02	-9.10194051606E-03	2.32057547441E-01
1.91200000000E+09	1.12269890711E-01	2.25614904318E-01	5.88893294238E-02	2.30598113518E-02	5.86437285644E-02	2.33391681409E-02	-5.34741377330E-03	2.33195966913E-01
1.91230000000E+09	1.13630088213E-01	2.24228368962E-01	5.91645712324E-02	2.23596258167E-02	5.89303143269E-02	2.26436911359E-02	-1.63733251554E-03	2.34258499852E-01
1.91260000000E+09	1.15065014439E-01	2.22792763221E-01	5.94112469330E-02	2.16455512941E-02	5.92041115333E-02	2.19451994181E-02	2.13797664435E-03	2.35251299117E-01
1.91290000000E+09	1.16478354372E-01	2.21402525945E-01	5.96594077997E-02	2.09439731746E-02	5.94407180785E-02	2.12148528187E-02	5.98131357738E-03	2.36155141781E-01
1.91320000000E+09	1.17768901289E-01	2.19928872858E-01	5.98817634535E-02	2.02315134430E-02	5.96670934175E-02	2.05168142735E-02	9.79750018351E-03	2.36989637861E-01
1.91350000000E+09	1.19144048602E-01	2.18452948536E-01	6.01285088952E-02	1.95371484030E-02	5.99072044641E-02	1.97919049796E-02	1.36356169595E-02	2.37760892963E-01
1.91380000000E+09	1.20418457726E-01	2.16893011525E-01	6.03344704868E-02	1.88056870333E-02	6.01412804023E-02	1.90817739080E-02	1.74647425806E-02	2.38473094727E-01
1.91410000000E+09	1.21635897794E-01	2.15394289005E-01	6.05692467772E-02	1.81089186504E-02	6.03735322190E-02	1.83859356462E-02	2.12780228881E-02	2.39056033594E-01
1.91440000000E+09	1.22854587346E-01	2.13774287090E-01	6.07660226625E-02	1.73832004820E-02	6.05911419694E-02	1.76322847404E-02	2.51785584535E-02	2.39666717823E-01
1.91470000000E+09	1.24073523321E-01	2.12239180241E-01	6.09810994374E-02	1.66426678324E-02	6.07705396839E-02	1.69231456028E-02	2.90037875078E-02	2.40112946410E-01
1.91500000000E+09	1.25215858797E-01	2.10537956509E-01	6.11553173196E-02	1.59156252735E-02	6.10096912875E-02	1.61882254580E-02	3.28777719370E-02	2.40571471953E-01
1.91530000000E+09	1.26398925390E-01	2.08914977238E-01	6.13759428559E-02	1.51660547086E-02	6.11895266187E-02	1.54863391790E-02	3.68054454689E-02	2.40880703867E-01
1.91560000000E+09	1.27503967366E-01	2.07359579904E-01	6.15229127163E-02	1.44434999133E-02	6.13564064649E-02	1.47637901585E-02	4.06361196316E-02	2.41136500521E-01
1.91590000000E+09	1.28550303060E-01	2.05583296633E-01	6.17294028142E-02	1.37260374684E-02	6.15389654126E-02	1.40285534368E-02	4.45574604534E-02	2.41289475883E-01
1.91620000000E+09	1.29593448082E-01	2.03863180967E-01	6.18513825465E-02	1.30005275665E-02	6.17022395283E-02	1.32829273153E-02	4.84118323724E-02	2.41445683505E-01
1.91650000000E+09	1.30597574488E-01	2.02212723592E-01	6.20483011538E-02	1.22557130600E-02	6.18587399578E-02	1.25453433992E-02	5.23089982900E-02	2.41459132479E-01
1.91680000000E+09	1.31570085700E-01	2.00453233450E-01	6.22002766404E-02	1.15280407526E-02	6.20332861970E-02	1.18122412129E-02	5.61698753114E-02	2.41466151569E-01
1.91710000000E+09	1.32457964938E-01	1.98716307736E-01	6.23306663423E-02	1.07943605495E-02	6.21484255491E-02	1.10919193822E-02	6.00190542596E-02	2.41290237686E-01
1.91740000000E+09	1.33288399729E-01	1.96856368170E-01	6.24426092359E-02	1.00459980947E-02	6.22831800187E-02	1.03206055762E-02	6.39119599269E-02	2.41181497817E-01
1.91770000000E+09	1.34144944907E-01	1.95118243577E-01	6.25868888623E-02	9.30351286810E-03	6.24163434610E-02	9.59543207299E-03	6.78118520058E-02	2.40855297172E-01
1.91800000000E+09	1.34927844838E-01	1.93209525111E-01	6.26460427457E-02	8.54727006670E-03	6.25595150614E-02	8.84906477678E-03	7.16604494804E-02	2.40684625809E-01
1.91830000000E+09	1.35661441980E-01	1.91448942200E-01	6.27881702983E-02	7.79546338148E-03	6.26494502633E-02	8.08894958709E-03	7.54994301236E-02	2.40158747939E-01
1.91860000000E+09	1.36352505130E-01	1.89535824540E-01	6.29017401259E-02	7.05178961943E-03	6.27533088735E-02	7.35268890829E-03	7.93607595882E-02	2.39774873503E-01
1.91890000000E+09	1.36996899676E-01	1.87621434975E-01	6.29705827257E-02	6.26967368925E-03	6.28215130795E-02	6.59436770606E-03	8.31666038882E-02	2.39242081899E-01
1.91920000000E+09	1.37641109076E-01	1.85793319273E-01	6.30842026582E-02	5.54091323807E-03	6.29546023049E-02	5.85963639866E-03	8.69416439549E-02	2.38594186486E-01
1.91950000000E+09	1.38163897432E-01	1.83924467840E-01	6.31882706598E-02	4.77064850118E-03	6.30238218284E-02	5.07904485619E-03	9.07711157315E-02	2.37897414050E-01
1.91980000000E+09	1.38582012211E-01	1.82002972742E-01	6.32192291900E-02	4.00195401658E-03	6.30891126016E-02	4.36155638393E-03	9.45656031344E-02	2.37184453631E-01
1.92010000000E+09	1.39095161378E-01	1.80135442624E-01	6.32549372511E-02	3.27463688040E-03	6.31900595363E-02	3.59698453526E-03	9.84026137065E-02	2.36376413667E-01
1.92040000000E+09	1.39441359347E-01	1.78173721811E-01	6.33126007856E-02	2.51018845386E-03	6.32353686286E-02	2.83878009216E-03	1.02099451602E-01	2.35554909961E-01
1.92070000000E+09	1.39768931274E-01	1.76296697512E-01	6.33470469229E-02	1.75247341605E-03	6.32909337145E-02	2.09465217346E-03	1.05861690453E-01	2.34484976972E-01
1.92100000000E+09	1.39995329740E-01	1.74359285029E-01	6.33838915206E-02	1.00586881538E-03	6.32846879726E-02	1.31143403642E-03	1.09589859686E-01	2.33570730711E-01
1.92130000000E+09	1.40311143592E-01	1.72521743078E-01	6.34191323075E-02	2.43501150734E-04	6.33576290892E-02	5.72700343048E-04	1.13254214025E-01	2.32419270757E-01
1.92160000000E+09	1.40352859228E-01	1.70555915607E-01	6.34520035147E-02	-5.17713492462E-04	6.33250033960E-02	-2.15307881914E-04	1.16956108904E-01	2.31320570657E-01
1.92190000000E+09	1.40503356629E-01	1.68721857329E-01	6.34424148163E-02	-1.28232147631E-03	6.33552479468E-02	-9.78306869575E-04	1.20605429586E-01	2.30061010876E-01
1.92220000000E+09	1.40515941005E-01	1.66814235031E-01	6.34452100349E-02	-2.01059304027E-03	6.33941800003E-02	-1.70989720884E-03	1.24255560014E-01	2.28797681333E-01
1.92250000000E+09	1.40520605012E-01	1.65004747551E-01	6.34434277544E-02	-2.82627512724E-03	6.33607650991E-02	-2.47144748849E-03	1.27880887412E-01	2.27413721521E-01
1.92280000000E+09	1.40485659303E-01	1.63156570771E-01	6.34036425494E-02	-3.59334635767E-03	6.33518670522E-02	-3.26365759266E-03	1.31441163986E-01	2.25973207396E-01
1.92310000000E+09	1.40365306297E-01	1.61314470429E-01	6.34202893220E-02	-4.37160820248E-03	6.33267342919E-02	-4.05749981300E-03	1.34977273928E-01	2.24444729508E-01
1.92340000000E+09	1.40202846565E-01	1.59475815903E-01	6.33471728552E-02	-5.11743183596E-03	6.33099167176E-02	-4.77504390563E-03	1.38523612460E-01	2.23004758137E-01
1.92370000000E+09	1.40035696750E-01	1.57740283366E-01	6.33380517295E-02	-5.88611796455E-03	6.32442583748E-02	-5.55505344342E-03	1.41925963995E-01	2.21326206575E-01
1.92400000000E+09	1.39766141551E-01	1.55965255474E-01	6.32574974539E-02	-6.65765836775E-03	6.32135692658E-02	-6.32679129895E-03	1.45435676600E-01	2.19673391713E-01
1.92430000000E+09	1.39430346908E-01	1.54241130036E-01	6.32175212802E-02	-7.43878274458E-03	6.31531541838E-02	-7.09167676130E-03	1.48808312204E-01	2.17874721525E-01
1.92460000000E+09	1.39054048802E-01	1.52515492246E-01	6.31382986291E-02	-8.17726975445E-03	6.30794396044E-02	-7.86625810293E-03	1.52191214669E-01	2.16090323920E-01
1.92490000000E+09	1.38694258750E-01	1.50925227108E-01	6.30676780292E-02	-8.97160134152E-03	6.30169089322E-02	-8.63192265019E-03	1.55589801079E-01	2.14218473746E-01
1.92520000000E+09	1.38158406179E-01	1.49200336453E-01	6.29865048305E-02	-9.70795019369E-03	6.29407040191E-02	-9.40602076254E-03	1.58877003874E-01	2.12332136332E-01
1.92550000000E+09	1.37689545424E-01	1.47575395314E-01	6.29036506415E-02	-1.04846993023E-02	6.28450863198E-02	-1.01738680136E-02	1.62220977103E-01	2.10277481111E-01
1.92580000000E+09	1.37122964395E-01	1.46010585827E-01	6.27677957140E-02	-1.12667403857E-02	6.27439706887E-02	-1.09274196279E-02	1.65411305022E-01	2.08276065007E-01
1.92610000000E+09	1.36519527680E-01	1.44462286908E-01	6.26679297990E-02	-1.20330955405E-02	6.26180792582E-02	-1.17131694239E-02	1.68614010063E-01	2.06122968755E-01
1.92640000000E+09	1.35860971001E-01	1.43004203885E-01	6.25433876413E-02	-1.28481171720E-02	6.25010199404E-02	-1.24848486975E-02	1.71781351839E-01	2.03967176314E-01
1.92670000000E+09	1.35238595233E-01	1.41541477779E-01	6.24222908717E-02	-1.35826204960E-02	6.23877661632E-02	-1.32518435563E-02	1.74876761314E-01	2.01718216014E-01
1.92700000000E+09	1.34446172025E-01	1.40111712264E-01	6.22597812122E-02	-1.43392971168E-02	6.22331355715E-02	-1.39878353603E-02	1.77947825988E-01	1.99382689113E-01
1.92730000000E+09	1.33638282887E-01	1.38783223450E-01	6.21204109937E-02	-1.50888458954E-02	6.21038471677E-02	-1.48187796060E-02	1.81042578038E-01	1.97135276324E-01
1.92760000000E+09	1.32882309320E-01	1.37412686786E-01	6.19428421282E-02	-1.59026227537E-02	6.19426325548E-02	-1.55439733955E-02	1.84034075255E-01	1.94684650275E-01
1.92790000000E+09	1.32057071193E-01	1.36176482888E-01	6.17928980982E-02	-1.66433261599E-02	6.17623098979E-02	-1.63328561905E-02	1.86948633845E-01	1.92259494972E-01
1.92820000000E+09	1.31216627709E-01	1.34965507575E-01	6.16027896258E-02	-1.74325075157E-02	6.16054072204E-02	-1.71054616799E-02	1.89850761354E-01	1.89754031449E-01
1.92850000000E+09	1.30334286333E-01	1.33838141746E-01	6.14192605495E-02	-1.81737795342E-02	6.13775089880E-02	-1.78799737013E-02	1.92677505275E-01	1.87118090549E-01
1.92880000000E+09	1.29398837948E-01	1.32675697518E-01	6.11939101899E-02	-1.89481740798E-02	6.12168341639E-02	-1.86315464551E-02	1.95473848033E-01	1.84627918229E-01
1.92910000000E+09	1.28483768448E-01	1.31627692794E-01	6.09933949007E-02	-1.97303732956E-02	6.09929271114E-02	-1.94175942849E-02	1.98168033926E-01	1.81845012387E-01
1.92940000000E+09	1.27473021862E-01	1.30597426117E-01	6.07526748218E-02	-2.04783140361E-02	6.07985759259E-02	-2.01462180288E-02	2.00941011944E-01	1.79267247709E-01
1.92970000000E+09	1.26463472172E-01	1.29704422282E-01	6.05230868389E-02	-2.12492631924E-02	6.05653123664E-02	-2.09265948514E-02	2.03608389629E-01	1.76434007389E-01
1.93000000000E+09	1.25494556305E-01	1.28840481970E-01	6.02961356953E-02	-2.20270727241E-02	6.03111367503E-02	-2.16882872785E-02	2.06198426951E-01	1.73641482755E-01
1.93030000000E+09	1.24472526992E-01	1.28018729447E-01	6.00976368747E-02	-2.27464453963E-02	6.00587159924E-02	-2.24432170193E-02	2.08703565080E-01	1.70740214818E-01
1.93060000000E+09	1.23434686859E-01	1.27218448252E-01	5.98161434326E-02	-2.35200761728E-02	5.98228991659E-02	-2.32211237111E-02	2.11296816850E-01	1.67873436194E-01
1.93090000000E+09	1.22384501304E-01	1.26587187878E-01	5.95286253568E-02	-2.43051355115E-02	5.95335120855E-02	-2.39504073942E-02	2.13656289355E-01	1.64875511713E-01
1.93120000000E+09	1.21361515724E-01	1.25941957146E-01	5.92597789322E-02	-2.50330038815E-02	5.93157662877E-02	-2.47246241236E-02	2.16095316515E-01	1.61947797035E-01
1.93150000000E+09	1.20291327304E-01	1.25333216310E-01	5.89717276948E-02	-2.57804603946E-02	5.89852476172E-02	-2.54679444041E-02	2.18322381954E-01	1.58932459786E-01
1.93180000000E+09	1.19279317155E-01	1.24854546953E-01	5.86565589400E-02	-2.65141937524E-02	5.86779342718E-02	-2.62105701296E-02	2.20663973196E-01	1.55787333850E-01
1.93210000000E+09	1.18232305442E-01	1.24397179544E-01	5.83515277868E-02	-2.72885591483E-02	5.83872022007E-02	-2.69654721616E-02	2.22849659343E-01	1.52712157077E-01
1.93240000000E+09	1.17174911110E-01	1.23913115592E-01	5.79870847331E-02	-2.80047309607E-02	5.80859574244E-02	-2.76802939527E-02	2.25052402750E-01	1.49556272739E-01
1.93270000000E+09	1.16156716556E-01	1.23641127305E-01	5.77198994040E-02	-2.87308179464E-02	5.77148036287E-02	-2.84341711516E-02	2.27135732842E-01	1.46310668421E-01
1.93300000000E+09	1.15173752898E-01	1.23373995566E-01	5.73577946458E-02	-2.94903054140E-02	5.74012017926E-02	-2.91772633619E-02	2.29122717332E-01	1.43100131631E-01
1.93330000000E+09	1.14146444196E-01	1.23096302117E-01	5.69775299394E-02	-3.02344116453E-02	5.70691856796E-02	-2.98977357743E-02	2.31145074959E-01	1.39835916976E-01
1.93360000000E+09	1.13208039166E-01	1.22944117143E-01	5.66364257976E-02	-3.09396966089E-02	5.66924550834E-02	-3.06174404619E-02	2.32993565603E-01	1.36578677656E-01
1.93390000000E+09	1.12264226848E-01	1.22782161967E-01	5.62606440198E-02	-3.16291412912E-02	5.63093725347E-02	-3.13204960140E-02	2.34860467959E-01	1.33199917837E-01
1.93420000000E+09	1.11321897354E-01	1.22703551537E-01	5.58447220997E-02	-3.23704535077E-02	5.59598643107E-02	-3.20675479284E-02	2.36656615250E-01	1.29834762614E-01
1.93450000000E+09	1.10406488281E-01	1.22694129086E-01	5.54658412395E-02	-3.31006052261E-02	5.55415944034E-02	-3.27631074533E-02	2.38382605628E-01	1.26371027600E-01
1.93480000000E+09	1.09532755357E-01	1.22712928288E-01	5.50677162116E-02	-3.37879476968E-02	5.51592245290E-02	-3.34961806532E-02	2.40100325747E-01	1.22917990248E-01
1.93510000000E+09	1.08640328119E-01	1.22731314985E-01	5.46761391744E-02	-3.45237193070E-02	5.47215720036E-02	-3.41944455823E-02	2.41638694152E-01	1.19486145107E-01
1.93540000000E+09	1.07767423415E-01	1.22892858707E-01	5.42557952377E-02	-3.52045089396E-02	5.43443254314E-02	-3.48855269122E-02	2.43200022083E-01	1.16014682062E-01
1.93570000000E+09	1.06942157207E-01	1.23024803517E-01	5.38280762857E-02	-3.58781240223E-02	5.38883306006E-02	-3.55410682157E-02	2.44602910286E-01	1.12486220589E-01
