# Hz S RI R 50
! CMT, CMT808U, 21440046, 21.4.3/4
! Date: 3/28/2026 5:00:04 PM
! Data: Format (Calibration Info)
! Freq	S11:Re/Im(F2)	S41:Re/Im(F2)	S14:Re/Im(F2)	S44:Re/Im(F2)
1.90000000000E+09	4.00351622160E-02	2.50286206788E-01	5.30531511353E-02	4.03518398935E-02	5.26995022034E-02	4.05008543239E-02	-5.65148987599E-02	1.69234911505E-01
1.90030000000E+09	4.16582369145E-02	2.50208839240E-01	5.34858228465E-02	3.97104257609E-02	5.31667466010E-02	3.98659035749E-02	-5.41057129893E-02	1.71823809198E-01
1.90060000000E+09	4.33728897166E-02	2.49950380838E-01	5.39294362991E-02	3.89859842623E-02	5.36220087985E-02	3.91794524882E-02	-5.16799917121E-02	1.74466108435E-01
1.90090000000E+09	4.50634974871E-02	2.49853871885E-01	5.43713946186E-02	3.83362117964E-02	5.40834361794E-02	3.84870299864E-02	-4.91771925524E-02	1.77026280632E-01
1.90120000000E+09	4.67234897319E-02	2.49659954213E-01	5.48053582110E-02	3.76345112515E-02	5.45261272380E-02	3.78179471684E-02	-4.66418253724E-02	1.79527774501E-01
1.90150000000E+09	4.84578630511E-02	2.49345580484E-01	5.52037297311E-02	3.69613108452E-02	5.49621813821E-02	3.71417098845E-02	-4.40975341937E-02	1.81976142390E-01
1.90180000000E+09	5.01145539359E-02	2.49118487859E-01	5.56521349222E-02	3.62164206211E-02	5.53710066766E-02	3.64373421494E-02	-4.14621719492E-02	1.84403176772E-01
1.90210000000E+09	5.17961579325E-02	2.48820383483E-01	5.60502689809E-02	3.55420045176E-02	5.57782778257E-02	3.57140434517E-02	-3.88161814751E-02	1.86799336108E-01
1.90240000000E+09	5.35698725041E-02	2.48548916691E-01	5.64573633020E-02	3.48362812365E-02	5.61785949124E-02	3.50233147834E-02	-3.60954568707E-02	1.89085542041E-01
1.90270000000E+09	5.51956019997E-02	2.48157687307E-01	5.68542558555E-02	3.41209529398E-02	5.65780611785E-02	3.43241260485E-02	-3.33556371201E-02	1.91387639653E-01
1.90300000000E+09	5.69293865613E-02	2.47776889723E-01	5.72235654935E-02	3.33869887754E-02	5.69493514752E-02	3.36083465477E-02	-3.05459162688E-02	1.93548048130E-01
1.90330000000E+09	5.86148585741E-02	2.47375038314E-01	5.76059802133E-02	3.27035570112E-02	5.73365233965E-02	3.28688610919E-02	-2.77329038909E-02	1.95751610111E-01
1.90360000000E+09	6.03034085721E-02	2.46996814429E-01	5.79502369033E-02	3.19531577260E-02	5.76938882092E-02	3.21834979557E-02	-2.48600947838E-02	1.97759448205E-01
1.90390000000E+09	6.19623128250E-02	2.46505584567E-01	5.83071345230E-02	3.12345274447E-02	5.80245251329E-02	3.14598621558E-02	-2.19810861404E-02	1.99829277674E-01
1.90420000000E+09	6.37137855748E-02	2.46063224626E-01	5.86600500892E-02	3.05161503217E-02	5.83956380777E-02	3.07291332491E-02	-1.90597481988E-02	2.01749259217E-01
1.90450000000E+09	6.53991841546E-02	2.45526947423E-01	5.89749703106E-02	2.97700866583E-02	5.87208287774E-02	3.00039647564E-02	-1.60676614023E-02	2.03708780209E-01
1.90480000000E+09	6.70986859360E-02	2.45002171215E-01	5.93281021668E-02	2.90363627679E-02	5.90481751262E-02	2.92494001488E-02	-1.30539638139E-02	2.05564419737E-01
1.90510000000E+09	6.88032416303E-02	2.44413508627E-01	5.96173761518E-02	2.83367699860E-02	5.94077761381E-02	2.85573344022E-02	-1.00315554104E-02	2.07455553260E-01
1.90540000000E+09	7.04209153224E-02	2.43812165752E-01	5.99389883817E-02	2.75399792913E-02	5.96788514318E-02	2.78255981191E-02	-6.96050990202E-03	2.09183844021E-01
1.90570000000E+09	7.21277773350E-02	2.43184941498E-01	6.02521062314E-02	2.68385001232E-02	5.99813784208E-02	2.70944831245E-02	-3.77621654254E-03	2.10759134912E-01
1.90600000000E+09	7.38045234579E-02	2.42509232974E-01	6.05427165629E-02	2.60908558600E-02	6.02919611808E-02	2.63433426117E-02	-6.71347421735E-04	2.12427795334E-01
1.90630000000E+09	7.54785803515E-02	2.41853181969E-01	6.08404351513E-02	2.53588447206E-02	6.05834972261E-02	2.56054896248E-02	2.47464738034E-03	2.14089720564E-01
1.90660000000E+09	7.71077538910E-02	2.41091980002E-01	6.11063897660E-02	2.45849899471E-02	6.08494988146E-02	2.48508186016E-02	5.70092417856E-03	2.15525216654E-01
1.90690000000E+09	7.87529824543E-02	2.40360644226E-01	6.13633917684E-02	2.38641970831E-02	6.11319039431E-02	2.41264362341E-02	8.84513353612E-03	2.17002996902E-01
1.90720000000E+09	8.03756422842E-02	2.39567716693E-01	6.15983843579E-02	2.31112291480E-02	6.13935018154E-02	2.33738233262E-02	1.21632235287E-02	2.18375064445E-01
1.90750000000E+09	8.20046345385E-02	2.38790225980E-01	6.18547223352E-02	2.23520261497E-02	6.16476824044E-02	2.26137178147E-02	1.53136343755E-02	2.19770966982E-01
1.90780000000E+09	8.35808843829E-02	2.37938174656E-01	6.20911455540E-02	2.15679356783E-02	6.18655626408E-02	2.18749441779E-02	1.85938966439E-02	2.20977320940E-01
1.90810000000E+09	8.52301295910E-02	2.37019645716E-01	6.23714140439E-02	2.08525076968E-02	6.21160534799E-02	2.10906637541E-02	2.19500736501E-02	2.22157125543E-01
1.90840000000E+09	8.67898404921E-02	2.36201139847E-01	6.25870309915E-02	2.00844683450E-02	6.23740675994E-02	2.03651745890E-02	2.52636155202E-02	2.23295811119E-01
1.90870000000E+09	8.83079135368E-02	2.35274901297E-01	6.27794450539E-02	1.93204886860E-02	6.25774861563E-02	1.96074785365E-02	2.85628336573E-02	2.24399534685E-01
1.90900000000E+09	8.99450985343E-02	2.34191301173E-01	6.29819309857E-02	1.85382576371E-02	6.27581502322E-02	1.88207475605E-02	3.19848201334E-02	2.25369362581E-01
1.90930000000E+09	9.14817553124E-02	2.33374592217E-01	6.31893127149E-02	1.78454530114E-02	6.30000787623E-02	1.80539986387E-02	3.53475990099E-02	2.26293929266E-01
1.90960000000E+09	9.29380580278E-02	2.32292646879E-01	6.33900518128E-02	1.70322601061E-02	6.31773601654E-02	1.73530383831E-02	3.87063762992E-02	2.27194542023E-01
1.90990000000E+09	9.44673962937E-02	2.31280480039E-01	6.35605821649E-02	1.62778638038E-02	6.33600930039E-02	1.65541207279E-02	4.20987709660E-02	2.28047273806E-01
1.91020000000E+09	9.58984047009E-02	2.30187641330E-01	6.37114106910E-02	1.55210001242E-02	6.35229172193E-02	1.58113774487E-02	4.55019085474E-02	2.28830902052E-01
1.91050000000E+09	9.74670085177E-02	2.29107875523E-01	6.39158529645E-02	1.47188392315E-02	6.37177549206E-02	1.50167988170E-02	4.89350130849E-02	2.29509144584E-01
1.91080000000E+09	9.88791826836E-02	2.28003659134E-01	6.40235078817E-02	1.39801000618E-02	6.38684826080E-02	1.42480870785E-02	5.23475710789E-02	2.30078951550E-01
1.91110000000E+09	1.00271388774E-01	2.26891045094E-01	6.42134458613E-02	1.31875830765E-02	6.40241891652E-02	1.34990954137E-02	5.58191506121E-02	2.30712785389E-01
1.91140000000E+09	1.01692354232E-01	2.25694371734E-01	6.43232327175E-02	1.24469694488E-02	6.41424965315E-02	1.27335817412E-02	5.92888547622E-02	2.31151406748E-01
1.91170000000E+09	1.03089714630E-01	2.24528526948E-01	6.44674682306E-02	1.16367189136E-02	6.42724656863E-02	1.19771172223E-02	6.27516357753E-02	2.31592543327E-01
1.91200000000E+09	1.04475606319E-01	2.23351128283E-01	6.45788693722E-02	1.08816869592E-02	6.44022885257E-02	1.11721828918E-02	6.62195100214E-02	2.31964432611E-01
1.91230000000E+09	1.05798649956E-01	2.22088644107E-01	6.47040131206E-02	1.01062293049E-02	6.45130796912E-02	1.04035660933E-02	6.96920020878E-02	2.32342583043E-01
1.91260000000E+09	1.07185685229E-01	2.20825934796E-01	6.47869388085E-02	9.33437625950E-03	6.46576627746E-02	9.64146152584E-03	7.31476314776E-02	2.32602988109E-01
1.91290000000E+09	1.08454717991E-01	2.19564326336E-01	6.48960483060E-02	8.60057718740E-03	6.47361642455E-02	8.84849903010E-03	7.66099963877E-02	2.32698428989E-01
1.91320000000E+09	1.09705593533E-01	2.18223226973E-01	6.49771396883E-02	7.77483241739E-03	6.47926851543E-02	8.07451536843E-03	8.00836157740E-02	2.32877731757E-01
1.91350000000E+09	1.11015893155E-01	2.16902177831E-01	6.51092856880E-02	6.99464546360E-03	6.49285523378E-02	7.29634427226E-03	8.35715280933E-02	2.32918769519E-01
1.91380000000E+09	1.12203714475E-01	2.15496132944E-01	6.51211296630E-02	6.21669432739E-03	6.49769360202E-02	6.55380722962E-03	8.70230281509E-02	2.32878192131E-01
1.91410000000E+09	1.13408845366E-01	2.14148466071E-01	6.51869446124E-02	5.46760905912E-03	6.50646350269E-02	5.77219844118E-03	9.05184079277E-02	2.32847922855E-01
1.91440000000E+09	1.14573019397E-01	2.12708799388E-01	6.52488376894E-02	4.70868707096E-03	6.51298567123E-02	4.98787359772E-03	9.39819077408E-02	2.32655672713E-01
1.91470000000E+09	1.15764648710E-01	2.11356624103E-01	6.53448738526E-02	3.91048399148E-03	6.51694672578E-02	4.20126764476E-03	9.74614964809E-02	2.32491504239E-01
1.91500000000E+09	1.16851387715E-01	2.09803976944E-01	6.53456976792E-02	3.10834996462E-03	6.52072277828E-02	3.42465777816E-03	1.00882836614E-01	2.32228635131E-01
1.91530000000E+09	1.17953707307E-01	2.08310301157E-01	6.53858582892E-02	2.33768552987E-03	6.52423706356E-02	2.65418916041E-03	1.04299113292E-01	2.31918660378E-01
1.91560000000E+09	1.19017251772E-01	2.06895854040E-01	6.53866398991E-02	1.54579731371E-03	6.52472324208E-02	1.88450040519E-03	1.07727233318E-01	2.31503643714E-01
1.91590000000E+09	1.20086445178E-01	2.05293058778E-01	6.54074042729E-02	7.74279495926E-04	6.52859369995E-02	1.12657175440E-03	1.11208208020E-01	2.31054188902E-01
1.91620000000E+09	1.20998717510E-01	2.03731739297E-01	6.54162359354E-02	-5.57437653526E-06	6.52732373208E-02	3.48630647968E-04	1.14552894189E-01	2.30551375503E-01
1.91650000000E+09	1.21971538772E-01	2.02217413851E-01	6.54170288065E-02	-7.58448582901E-04	6.52922555544E-02	-4.51363220301E-04	1.17997356314E-01	2.29921602007E-01
1.91680000000E+09	1.22943144730E-01	2.00611680879E-01	6.53844878496E-02	-1.54752552423E-03	6.52875636732E-02	-1.22053791226E-03	1.21345140675E-01	2.29277388816E-01
1.91710000000E+09	1.23828639265E-01	1.99077750257E-01	6.53747652393E-02	-2.32083875035E-03	6.52744687488E-02	-2.01445904066E-03	1.24747666123E-01	2.28650828420E-01
1.91740000000E+09	1.24661852687E-01	1.97384666588E-01	6.53543355689E-02	-3.11223921921E-03	6.52493018911E-02	-2.76236264139E-03	1.28165685032E-01	2.27859575911E-01
1.91770000000E+09	1.25499270136E-01	1.95785631891E-01	6.53413314715E-02	-3.88546391412E-03	6.52132240238E-02	-3.54994333941E-03	1.31458761220E-01	2.27026079012E-01
1.91800000000E+09	1.26181960931E-01	1.94065628592E-01	6.52730596153E-02	-4.67170801798E-03	6.51591665148E-02	-4.31842693943E-03	1.34778048448E-01	2.26186447873E-01
1.91830000000E+09	1.26982555415E-01	1.92486016940E-01	6.52319412430E-02	-5.45805795307E-03	6.51340317283E-02	-5.10329186870E-03	1.38099958616E-01	2.25172934505E-01
1.91860000000E+09	1.27580644161E-01	1.90772417601E-01	6.51626475469E-02	-6.22010444250E-03	6.50812522633E-02	-5.86219270516E-03	1.41429678579E-01	2.24208250612E-01
1.91890000000E+09	1.28272336359E-01	1.89052351425E-01	6.50913368845E-02	-6.99320249082E-03	6.50311620758E-02	-6.64745118429E-03	1.44703615651E-01	2.23190380778E-01
1.91920000000E+09	1.28899463982E-01	1.87380280985E-01	6.50389278729E-02	-7.77010665512E-03	6.49393470819E-02	-7.42351214707E-03	1.47906280764E-01	2.22018884039E-01
1.91950000000E+09	1.29479676758E-01	1.85654549680E-01	6.49447294544E-02	-8.55949289812E-03	6.49022621503E-02	-8.23380965800E-03	1.51188006130E-01	2.20840120957E-01
1.91980000000E+09	1.29905908196E-01	1.83905472858E-01	6.48386045297E-02	-9.32957823068E-03	6.48080146146E-02	-8.99502215170E-03	1.54366977751E-01	2.19652459829E-01
1.92010000000E+09	1.30363420035E-01	1.82205475025E-01	6.47632829519E-02	-1.01036851437E-02	6.46982587183E-02	-9.77518180762E-03	1.57508244409E-01	2.18332071349E-01
1.92040000000E+09	1.30764325754E-01	1.80441837474E-01	6.46305189198E-02	-1.08797172780E-02	6.45910748691E-02	-1.05202879324E-02	1.60713786373E-01	2.16994617409E-01
1.92070000000E+09	1.31132387683E-01	1.78750547331E-01	6.45185664052E-02	-1.16887273491E-02	6.44904422914E-02	-1.13270368572E-02	1.63777702498E-01	2.15553888621E-01
1.92100000000E+09	1.31396386520E-01	1.76974778757E-01	6.43903711804E-02	-1.24363071589E-02	6.43904357886E-02	-1.21023215336E-02	1.66913825138E-01	2.14139941957E-01
1.92130000000E+09	1.31696613797E-01	1.75318680228E-01	6.42813030634E-02	-1.32190856550E-02	6.42465849597E-02	-1.28384247118E-02	1.69980589946E-01	2.12579548850E-01
1.92160000000E+09	1.31835168261E-01	1.73559450749E-01	6.41283098119E-02	-1.39824641863E-02	6.41141220773E-02	-1.36320503761E-02	1.72975586510E-01	2.11063197509E-01
1.92190000000E+09	1.32041149613E-01	1.71879850592E-01	6.40082124771E-02	-1.47686985173E-02	6.39298654817E-02	-1.44441409825E-02	1.76023721892E-01	2.09408450378E-01
1.92220000000E+09	1.32056677263E-01	1.70146541559E-01	6.38223632255E-02	-1.55440205419E-02	6.38162178582E-02	-1.51969653545E-02	1.79030872756E-01	2.07745213339E-01
1.92250000000E+09	1.32127104203E-01	1.68489431262E-01	6.36337733873E-02	-1.63193093634E-02	6.36255233730E-02	-1.59748364695E-02	1.81983761316E-01	2.05989492034E-01
1.92280000000E+09	1.32159803882E-01	1.66849436221E-01	6.34790672252E-02	-1.70815535553E-02	6.34759139402E-02	-1.67480334048E-02	1.84836634589E-01	2.04209940571E-01
1.92310000000E+09	1.32115397319E-01	1.65169551579E-01	6.33023740806E-02	-1.78276839019E-02	6.32807440373E-02	-1.75305177650E-02	1.87732046435E-01	2.02372283488E-01
1.92340000000E+09	1.32016312845E-01	1.63461033254E-01	6.30933142324E-02	-1.86326514970E-02	6.31220554524E-02	-1.83076689820E-02	1.90599238305E-01	2.00589615178E-01
1.92370000000E+09	1.31890558301E-01	1.61972530156E-01	6.29186664134E-02	-1.93978232263E-02	6.29029168977E-02	-1.90784030853E-02	1.93362807179E-01	1.98636613937E-01
1.92400000000E+09	1.31706935310E-01	1.60342285607E-01	6.26858577856E-02	-2.01833793985E-02	6.27496318819E-02	-1.98300229638E-02	1.96133451570E-01	1.96597652104E-01
1.92430000000E+09	1.31470670815E-01	1.58760616393E-01	6.25002176019E-02	-2.09641543422E-02	6.24777458890E-02	-2.06102340854E-02	1.98898294998E-01	1.94597927966E-01
1.92460000000E+09	1.31173684625E-01	1.57207116509E-01	6.22740754610E-02	-2.17199831216E-02	6.22595393959E-02	-2.13749422408E-02	2.01522429045E-01	1.92532195766E-01
1.92490000000E+09	1.30949246453E-01	1.55741257491E-01	6.20327389089E-02	-2.24906336670E-02	6.20400782631E-02	-2.21592077710E-02	2.04272869967E-01	1.90315133125E-01
1.92520000000E+09	1.30510634314E-01	1.54267458173E-01	6.17712114876E-02	-2.32473198667E-02	6.18038368486E-02	-2.28975783560E-02	2.06890848517E-01	1.88192031271E-01
1.92550000000E+09	1.30155534126E-01	1.52789829877E-01	6.15199399391E-02	-2.40081861757E-02	6.15354201606E-02	-2.36735249966E-02	2.09400222772E-01	1.85987053130E-01
1.92580000000E+09	1.29658983335E-01	1.51361274072E-01	6.12673026877E-02	-2.47800136384E-02	6.12908282084E-02	-2.44295251986E-02	2.12004410349E-01	1.83758367425E-01
1.92610000000E+09	1.29163219525E-01	1.49930476779E-01	6.09541591101E-02	-2.55711449444E-02	6.10059389570E-02	-2.52028709350E-02	2.14520186477E-01	1.81410722233E-01
1.92640000000E+09	1.28658388346E-01	1.48682805532E-01	6.06919750521E-02	-2.62952554475E-02	6.07138762660E-02	-2.59546870274E-02	2.16850545669E-01	1.79007948209E-01
1.92670000000E+09	1.28168198062E-01	1.47366503594E-01	6.04114254151E-02	-2.70592811144E-02	6.04556619956E-02	-2.67150434503E-02	2.19407667904E-01	1.76664098193E-01
1.92700000000E+09	1.27496719008E-01	1.46125150834E-01	6.01132489488E-02	-2.78358787175E-02	6.01340442730E-02	-2.75069623528E-02	2.21687394443E-01	1.74207927714E-01
1.92730000000E+09	1.26924034400E-01	1.44918897334E-01	5.97895975098E-02	-2.86128848927E-02	5.98140916763E-02	-2.82525458983E-02	2.24016424766E-01	1.71712281853E-01
1.92760000000E+09	1.26253381041E-01	1.43706172377E-01	5.94844799535E-02	-2.93411576910E-02	5.94986901531E-02	-2.90115229579E-02	2.26287550399E-01	1.69203451876E-01
1.92790000000E+09	1.25580177229E-01	1.42619644049E-01	5.91402487173E-02	-3.00903045278E-02	5.91498565107E-02	-2.97745241888E-02	2.28567798575E-01	1.66632584751E-01
1.92820000000E+09	1.24843768999E-01	1.41519005071E-01	5.87544046007E-02	-3.08104676314E-02	5.88458872392E-02	-3.05198411007E-02	2.30655120583E-01	1.64060091289E-01
1.92850000000E+09	1.24150118107E-01	1.40472499012E-01	5.84427626953E-02	-3.16026324855E-02	5.84762121617E-02	-3.12480784889E-02	2.32826837670E-01	1.61381293779E-01
1.92880000000E+09	1.23365939242E-01	1.39490134014E-01	5.80433247093E-02	-3.23487221722E-02	5.81445565205E-02	-3.19800662052E-02	2.34903258634E-01	1.58773284454E-01
1.92910000000E+09	1.22648499239E-01	1.38579919379E-01	5.76934840718E-02	-3.31163235122E-02	5.77580072785E-02	-3.27543557242E-02	2.36945427127E-01	1.56032042141E-01
1.92940000000E+09	1.21845507797E-01	1.37654382419E-01	5.72385612100E-02	-3.38184006962E-02	5.73987327379E-02	-3.35232282314E-02	2.38961049753E-01	1.53254071961E-01
1.92970000000E+09	1.21021579133E-01	1.36831610420E-01	5.69158389784E-02	-3.45449956192E-02	5.69796314276E-02	-3.42381111582E-02	2.40865528655E-01	1.50476439684E-01
1.93000000000E+09	1.20246910171E-01	1.36086144236E-01	5.65081704792E-02	-3.53153172182E-02	5.65737561454E-02	-3.49560223652E-02	2.42692685463E-01	1.47680167088E-01
1.93030000000E+09	1.19389846024E-01	1.35413685006E-01	5.60920119916E-02	-3.60084460359E-02	5.61531626058E-02	-3.57375901474E-02	2.44574115940E-01	1.44790552111E-01
1.93060000000E+09	1.18541707921E-01	1.34700220980E-01	5.56626846382E-02	-3.67644856733E-02	5.57382748791E-02	-3.64244817857E-02	2.46443058832E-01	1.41941502972E-01
1.93090000000E+09	1.17684186017E-01	1.34103365085E-01	5.52087002816E-02	-3.74926408452E-02	5.53262106768E-02	-3.71466778711E-02	2.48118047225E-01	1.39061628767E-01
1.93120000000E+09	1.16868819636E-01	1.33533072787E-01	5.47810089858E-02	-3.82167643985E-02	5.48491572936E-02	-3.78612585092E-02	2.49786469726E-01	1.36084860261E-01
1.93150000000E+09	1.16015007274E-01	1.33027970714E-01	5.43273351060E-02	-3.89258763866E-02	5.43844516288E-02	-3.85985342208E-02	2.51413504263E-01	1.33185998007E-01
1.93180000000E+09	1.15163512686E-01	1.32574717553E-01	5.38512115886E-02	-3.95913228552E-02	5.39220020540E-02	-3.92524397704E-02	2.52936882770E-01	1.30102574665E-01
1.93210000000E+09	1.14338233663E-01	1.32191350542E-01	5.33867442816E-02	-4.03016097123E-02	5.34413179616E-02	-4.00026985768E-02	2.54545594076E-01	1.27126496352E-01
1.93240000000E+09	1.13528139297E-01	1.31798970791E-01	5.28730826874E-02	-4.10073352386E-02	5.29704074065E-02	-4.06647287518E-02	2.55927700582E-01	1.24089306555E-01
1.93270000000E+09	1.12683543781E-01	1.31539900000E-01	5.23569264667E-02	-4.16884821097E-02	5.24571062522E-02	-4.13996513222E-02	2.57407327263E-01	1.20947284443E-01
1.93300000000E+09	1.11912810704E-01	1.31302400663E-01	5.18282595034E-02	-4.23897489555E-02	5.19624747504E-02	-4.20618610952E-02	2.58729788452E-01	1.17899674201E-01
1.93330000000E+09	1.11079360044E-01	1.31062294003E-01	5.13165776472E-02	-4.30527967502E-02	5.14489946439E-02	-4.27424974788E-02	2.60066353371E-01	1.14740517525E-01
1.93360000000E+09	1.10339425101E-01	1.30928807410E-01	5.07891721179E-02	-4.36985063128E-02	5.09077605961E-02	-4.34090834207E-02	2.61235981515E-01	1.11612465764E-01
1.93390000000E+09	1.09639879817E-01	1.30773837283E-01	5.02564504030E-02	-4.44194770476E-02	5.03654857240E-02	-4.40856536335E-02	2.62411706335E-01	1.08467617468E-01
1.93420000000E+09	1.08890542285E-01	1.30720440677E-01	4.96906441307E-02	-4.50811187585E-02	4.98429160717E-02	-4.47651288250E-02	2.63599430034E-01	1.05298442589E-01
1.93450000000E+09	1.08220122636E-01	1.30712919939E-01	4.91351547116E-02	-4.57316638032E-02	4.92614419900E-02	-4.54178329451E-02	2.64603917291E-01	1.02041938105E-01
1.93480000000E+09	1.07540542718E-01	1.30743364786E-01	4.85556552032E-02	-4.63486919796E-02	4.86855902662E-02	-4.60506724369E-02	2.65595976639E-01	9.88354734568E-02
1.93510000000E+09	1.06891243696E-01	1.30743155030E-01	4.79596712756E-02	-4.69914971068E-02	4.81233539509E-02	-4.66974881445E-02	2.66589122877E-01	9.56607201585E-02
1.93540000000E+09	1.06215881660E-01	1.30872372213E-01	4.73734581950E-02	-4.76168093139E-02	4.75286746702E-02	-4.73318915716E-02	2.67450818171E-01	9.23366804597E-02
1.93570000000E+09	1.05601945884E-01	1.31029267385E-01	4.67838172182E-02	-4.82351837120E-02	4.69322209463E-02	-4.79619106564E-02	2.68335504429E-01	8.90445141271E-02
