# Hz S RI R 50
! CMT, CMT808U, 21440046, 21.4.3/4
! Date: 3/28/2026 4:56:39 PM
! Data: Format (Calibration Info)
! Freq	S11:Re/Im(F2)	S41:Re/Im(F2)	S14:Re/Im(F2)	S44:Re/Im(F2)
1.90000000000E+09	3.83446307448E-02	2.50961422937E-01	5.57475635458E-02	3.44977217963E-02	5.54429207716E-02	3.46501325672E-02	-4.29491442464E-02	1.56180610712E-01
1.90030000000E+09	4.00118652344E-02	2.50879338964E-01	5.61124101408E-02	3.38003181125E-02	5.57936027136E-02	3.39708866128E-02	-4.01583369443E-02	1.58786911487E-01
1.90060000000E+09	4.17291118326E-02	2.50725745232E-01	5.64511037862E-02	3.30379104428E-02	5.62320803862E-02	3.32952309856E-02	-3.74901816776E-02	1.61454306179E-01
1.90090000000E+09	4.33769562174E-02	2.50642039747E-01	5.68783443745E-02	3.23790210787E-02	5.65693105392E-02	3.25640749344E-02	-3.46564542504E-02	1.63960434559E-01
1.90120000000E+09	4.50604645716E-02	2.50504739843E-01	5.71977627080E-02	3.16407830283E-02	5.69076332298E-02	3.18728085045E-02	-3.18638885923E-02	1.66427751325E-01
1.90150000000E+09	4.68142447899E-02	2.50249943599E-01	5.75496322761E-02	3.09380521022E-02	5.72452395799E-02	3.11413212807E-02	-2.89779995037E-02	1.68838367759E-01
1.90180000000E+09	4.84873105588E-02	2.50044060683E-01	5.78350092927E-02	3.02216767027E-02	5.75843627955E-02	3.04390668199E-02	-2.61298096902E-02	1.71271961783E-01
1.90210000000E+09	5.01788785949E-02	2.49873139138E-01	5.82021985239E-02	2.95125805614E-02	5.79263072745E-02	2.97330641944E-02	-2.31147513717E-02	1.73541159287E-01
1.90240000000E+09	5.19320387283E-02	2.49626905903E-01	5.85052583031E-02	2.87724752988E-02	5.82546824751E-02	2.90009354087E-02	-2.01321538566E-02	1.75825352430E-01
1.90270000000E+09	5.35950116062E-02	2.49307888458E-01	5.88210508613E-02	2.80521016610E-02	5.85567092418E-02	2.82776423068E-02	-1.71407720075E-02	1.78027165830E-01
1.90300000000E+09	5.53437979110E-02	2.48998826481E-01	5.91260407093E-02	2.73161491694E-02	5.88660778517E-02	2.75560183443E-02	-1.40275524704E-02	1.80171438647E-01
1.90330000000E+09	5.70853956872E-02	2.48674829869E-01	5.94201136837E-02	2.65890236337E-02	5.91615534159E-02	2.68077804503E-02	-1.09256316672E-02	1.82290278554E-01
1.90360000000E+09	5.87991344456E-02	2.48325482101E-01	5.96916921628E-02	2.58558287495E-02	5.94743319806E-02	2.60876927616E-02	-7.76721780359E-03	1.84263188688E-01
1.90390000000E+09	6.04987473469E-02	2.47889456016E-01	5.99688600898E-02	2.51174811466E-02	5.97179759038E-02	2.53665672833E-02	-4.57791590242E-03	1.86203925876E-01
1.90420000000E+09	6.22151121828E-02	2.47464357643E-01	6.01999513288E-02	2.44073229375E-02	6.00210521466E-02	2.46331883290E-02	-1.39924535111E-03	1.88150683053E-01
1.90450000000E+09	6.39064286519E-02	2.47053973479E-01	6.05113067110E-02	2.36232010349E-02	6.02362593840E-02	2.38901060805E-02	1.87162832953E-03	1.89958136192E-01
1.90480000000E+09	6.56233854829E-02	2.46596678279E-01	6.07653953632E-02	2.29148303702E-02	6.04747976224E-02	2.31301072479E-02	5.19907928002E-03	1.91665447025E-01
1.90510000000E+09	6.73984944914E-02	2.46062608799E-01	6.09910885011E-02	2.21852105415E-02	6.07540749077E-02	2.23810340219E-02	8.48695709233E-03	1.93425416072E-01
1.90540000000E+09	6.90846823349E-02	2.45514888335E-01	6.12312552760E-02	2.14026001185E-02	6.09881038850E-02	2.16734192887E-02	1.18453901537E-02	1.95069156276E-01
1.90570000000E+09	7.07890903601E-02	2.44958792078E-01	6.14665572341E-02	2.06660894981E-02	6.11994727641E-02	2.09230528563E-02	1.52379259714E-02	1.96539876381E-01
1.90600000000E+09	7.25113967420E-02	2.44308267755E-01	6.16655345734E-02	1.99195533238E-02	6.14463053475E-02	2.01949727145E-02	1.85862117317E-02	1.98097168317E-01
1.90630000000E+09	7.42174039517E-02	2.43682314729E-01	6.18882352018E-02	1.91794202432E-02	6.16500433793E-02	1.94330962604E-02	2.20640985518E-02	1.99648038602E-01
1.90660000000E+09	7.59103901500E-02	2.43016913846E-01	6.20619176764E-02	1.84039316569E-02	6.18508727770E-02	1.86917913962E-02	2.54973863556E-02	2.00961021044E-01
1.90690000000E+09	7.76384726023E-02	2.42364044548E-01	6.22830113512E-02	1.76440412406E-02	6.20225174026E-02	1.79350526624E-02	2.89355817593E-02	2.02261361637E-01
1.90720000000E+09	7.92347092611E-02	2.41617468179E-01	6.24261790801E-02	1.69225838327E-02	6.22281267311E-02	1.72010106554E-02	3.24604222362E-02	2.03547137897E-01
1.90750000000E+09	8.09209178446E-02	2.40865058435E-01	6.26106447166E-02	1.61696744826E-02	6.23840344367E-02	1.64373706810E-02	3.59750410336E-02	2.04698024450E-01
1.90780000000E+09	8.25286462421E-02	2.40088289624E-01	6.27546058267E-02	1.53903099292E-02	6.25834277744E-02	1.56974551325E-02	3.94813979503E-02	2.05829462639E-01
1.90810000000E+09	8.42487209232E-02	2.39240868565E-01	6.29219644132E-02	1.46775181330E-02	6.27264216020E-02	1.49008868674E-02	4.31065820013E-02	2.06847660044E-01
1.90840000000E+09	8.58257245345E-02	2.38447999113E-01	6.30842427557E-02	1.38973729168E-02	6.28668185996E-02	1.41651630438E-02	4.66625229194E-02	2.07777585360E-01
1.90870000000E+09	8.74474908300E-02	2.37572736333E-01	6.32197591230E-02	1.31550039961E-02	6.30311315803E-02	1.34374922733E-02	5.01803316249E-02	2.08672670755E-01
1.90900000000E+09	8.90935643820E-02	2.36641489794E-01	6.33462346422E-02	1.23868062195E-02	6.31564712761E-02	1.26648180899E-02	5.38542130119E-02	2.09556882971E-01
1.90930000000E+09	9.07240243559E-02	2.35764731374E-01	6.34814118605E-02	1.16533513917E-02	6.32781028235E-02	1.19080402644E-02	5.74373592272E-02	2.10262327560E-01
1.90960000000E+09	9.22386644462E-02	2.34759842896E-01	6.35764897732E-02	1.08568445254E-02	6.33856546901E-02	1.11474360421E-02	6.10321802988E-02	2.10997483194E-01
1.90990000000E+09	9.38262727809E-02	2.33750771227E-01	6.36871564688E-02	1.01139726878E-02	6.35176221760E-02	1.03983781780E-02	6.46609899232E-02	2.11560047577E-01
1.91020000000E+09	9.53728429469E-02	2.32769732658E-01	6.37736187847E-02	9.34175485945E-03	6.36156972706E-02	9.63100272565E-03	6.82618221431E-02	2.12188408137E-01
1.91050000000E+09	9.68894487228E-02	2.31737980812E-01	6.38845797428E-02	8.61170614082E-03	6.36897613074E-02	8.91893515468E-03	7.19420573052E-02	2.12691247578E-01
1.91080000000E+09	9.84460742096E-02	2.30663503867E-01	6.39419999045E-02	7.84438933920E-03	6.38125140341E-02	8.11084012372E-03	7.55991222950E-02	2.13082501129E-01
1.91110000000E+09	9.99287221922E-02	2.29619023868E-01	6.40240664145E-02	7.07252981915E-03	6.38545734012E-02	7.34768368709E-03	7.92498081915E-02	2.13408059050E-01
1.91140000000E+09	1.01433918892E-01	2.28491820835E-01	6.41207913133E-02	6.31354851760E-03	6.39327251922E-02	6.63465576004E-03	8.28693017803E-02	2.13746019718E-01
1.91170000000E+09	1.02886050854E-01	2.27293588999E-01	6.41529429249E-02	5.56522965023E-03	6.39990786089E-02	5.87082295699E-03	8.66188969904E-02	2.13906403859E-01
1.91200000000E+09	1.04332602267E-01	2.26172723734E-01	6.42243215643E-02	4.78600666022E-03	6.40319384273E-02	5.11086307917E-03	9.03053897631E-02	2.14013357652E-01
1.91230000000E+09	1.05729793936E-01	2.24966094734E-01	6.42500235460E-02	4.04833181229E-03	6.41215272282E-02	4.35729016016E-03	9.38959279867E-02	2.14156280029E-01
1.91260000000E+09	1.07161643299E-01	2.23709577005E-01	6.42964156848E-02	3.28351789107E-03	6.41486097698E-02	3.58078523996E-03	9.75383572919E-02	2.14140890461E-01
1.91290000000E+09	1.08561812917E-01	2.22482342523E-01	6.42806727464E-02	2.51671412745E-03	6.41561171531E-02	2.80896369550E-03	1.01245278626E-01	2.14047617239E-01
1.91320000000E+09	1.09904850924E-01	2.21151557421E-01	6.43471864917E-02	1.74023329428E-03	6.42256825686E-02	2.08512281528E-03	1.04917656233E-01	2.14036246975E-01
1.91350000000E+09	1.11317186186E-01	2.19942368581E-01	6.43510845195E-02	1.00916035648E-03	6.42067885578E-02	1.32848422475E-03	1.08543373064E-01	2.13719873119E-01
1.91380000000E+09	1.12567941580E-01	2.18526249414E-01	6.43259997203E-02	2.33801628582E-04	6.42520346232E-02	5.65765317129E-04	1.12152937952E-01	2.13573761760E-01
1.91410000000E+09	1.13887115026E-01	2.17166095442E-01	6.43270998381E-02	-5.26114439967E-04	6.42171134207E-02	-2.25944737037E-04	1.15813624996E-01	2.13160021132E-01
1.91440000000E+09	1.15172880681E-01	2.15759192906E-01	6.43262270652E-02	-1.28319193435E-03	6.42366738653E-02	-9.54806084437E-04	1.19477484160E-01	2.12872341624E-01
1.91470000000E+09	1.16392756608E-01	2.14393875645E-01	6.43021696587E-02	-2.05634465999E-03	6.42130391833E-02	-1.73780695568E-03	1.23092068677E-01	2.12342460627E-01
1.91500000000E+09	1.17577760622E-01	2.12841147495E-01	6.42674909877E-02	-2.81537203194E-03	6.41825032237E-02	-2.49022644937E-03	1.26676475244E-01	2.11827745068E-01
1.91530000000E+09	1.18819138123E-01	2.11386995385E-01	6.42339541845E-02	-3.59931971772E-03	6.41238932059E-02	-3.24810774375E-03	1.30282348590E-01	2.11229525152E-01
1.91560000000E+09	1.19931667895E-01	2.09968031858E-01	6.41996791169E-02	-4.30534066626E-03	6.40939265056E-02	-4.00819831255E-03	1.33808928176E-01	2.10475208446E-01
1.91590000000E+09	1.21123512152E-01	2.08401536913E-01	6.41606409918E-02	-5.09330392994E-03	6.40424498873E-02	-4.75416361116E-03	1.37364780662E-01	2.09755649133E-01
1.91620000000E+09	1.22146016746E-01	2.06857997437E-01	6.40930642760E-02	-5.85815022113E-03	6.40111910612E-02	-5.51994250904E-03	1.40942000262E-01	2.08995129185E-01
1.91650000000E+09	1.23235158580E-01	2.05333484926E-01	6.40247650318E-02	-6.59804699058E-03	6.39276157207E-02	-6.28437878029E-03	1.44464525246E-01	2.08140606494E-01
1.91680000000E+09	1.24269443080E-01	2.03692766816E-01	6.39418419719E-02	-7.37452727327E-03	6.38661342942E-02	-7.03645579152E-03	1.47981760843E-01	2.07181871725E-01
1.91710000000E+09	1.25259160603E-01	2.02122503428E-01	6.38548838847E-02	-8.12816854750E-03	6.37889618005E-02	-7.80470311924E-03	1.51417547848E-01	2.06194430644E-01
1.91740000000E+09	1.26202057716E-01	2.00466270538E-01	6.37973921875E-02	-8.86713767543E-03	6.37042692374E-02	-8.56426036627E-03	1.54936063890E-01	2.05167080160E-01
1.91770000000E+09	1.27189444183E-01	1.98837477761E-01	6.36912173635E-02	-9.62001815457E-03	6.36158645887E-02	-9.28925725126E-03	1.58342124136E-01	2.03963667990E-01
1.91800000000E+09	1.27951498149E-01	1.97084026722E-01	6.35650160677E-02	-1.03710935250E-02	6.35329342646E-02	-1.00551281947E-02	1.61761032000E-01	2.02882942125E-01
1.91830000000E+09	1.28849673088E-01	1.95456708819E-01	6.34838345628E-02	-1.11675587661E-02	6.34075979616E-02	-1.08293180854E-02	1.65121904409E-01	2.01558919352E-01
1.91860000000E+09	1.29582111400E-01	1.93705808169E-01	6.33413359892E-02	-1.18826590640E-02	6.32925171037E-02	-1.15748398311E-02	1.68532122234E-01	2.00287405963E-01
1.91890000000E+09	1.30338901928E-01	1.91930686675E-01	6.31812323071E-02	-1.26714059839E-02	6.31506692541E-02	-1.23399065414E-02	1.71894925411E-01	1.98951350519E-01
1.91920000000E+09	1.31119076610E-01	1.90276337655E-01	6.30888807390E-02	-1.34225236716E-02	6.30505012590E-02	-1.31243168654E-02	1.75189051181E-01	1.97494966575E-01
1.91950000000E+09	1.31783014329E-01	1.88510727386E-01	6.29185761581E-02	-1.41983176091E-02	6.29094479598E-02	-1.38557366067E-02	1.78440960184E-01	1.95953253298E-01
1.91980000000E+09	1.32293871574E-01	1.86702134854E-01	6.27613517613E-02	-1.49527279359E-02	6.27100775836E-02	-1.45822084165E-02	1.81750648697E-01	1.94432062803E-01
1.92010000000E+09	1.32875432297E-01	1.84943990705E-01	6.26180637219E-02	-1.56889049257E-02	6.26104912693E-02	-1.53291795381E-02	1.84957671220E-01	1.92866144359E-01
1.92040000000E+09	1.33363106177E-01	1.83129223787E-01	6.24665229741E-02	-1.64306390926E-02	6.24331559431E-02	-1.60925729322E-02	1.88151489728E-01	1.91219962319E-01
1.92070000000E+09	1.33807393378E-01	1.81428921047E-01	6.22913076549E-02	-1.71886862632E-02	6.22569711436E-02	-1.68808519106E-02	1.91302910418E-01	1.89427812624E-01
1.92100000000E+09	1.34210405260E-01	1.79542445480E-01	6.20820017267E-02	-1.79575065375E-02	6.20870292544E-02	-1.76219276811E-02	1.94439029574E-01	1.87733355844E-01
1.92130000000E+09	1.34600792132E-01	1.77811227234E-01	6.19073295657E-02	-1.87300538292E-02	6.18801907227E-02	-1.83729948020E-02	1.97500041097E-01	1.85829796196E-01
1.92160000000E+09	1.34875730251E-01	1.75951050858E-01	6.16867776940E-02	-1.94738564490E-02	6.16942965417E-02	-1.91182898702E-02	2.00610026283E-01	1.83958524469E-01
1.92190000000E+09	1.35157576504E-01	1.74230695104E-01	6.15352610617E-02	-2.02357633020E-02	6.14484469354E-02	-1.98566216107E-02	2.03639137766E-01	1.82047549665E-01
1.92220000000E+09	1.35262611873E-01	1.72452548515E-01	6.12688188090E-02	-2.09716798657E-02	6.12597539916E-02	-2.06345969986E-02	2.06600385343E-01	1.79996709787E-01
1.92250000000E+09	1.35451043101E-01	1.70657915211E-01	6.10159462875E-02	-2.17446982425E-02	6.10389489353E-02	-2.14209106845E-02	2.09577971328E-01	1.77937987831E-01
1.92280000000E+09	1.35555855089E-01	1.68913576547E-01	6.07893038611E-02	-2.24980549839E-02	6.08063843215E-02	-2.21316941768E-02	2.12395163945E-01	1.75842352269E-01
1.92310000000E+09	1.35615383009E-01	1.67163106126E-01	6.05418699848E-02	-2.32057335337E-02	6.05472476074E-02	-2.28842376229E-02	2.15264835545E-01	1.73593777809E-01
1.92340000000E+09	1.35563893854E-01	1.65393559565E-01	6.02859923145E-02	-2.39476376883E-02	6.03160394744E-02	-2.36422685842E-02	2.18153703756E-01	1.71523920318E-01
1.92370000000E+09	1.35558479493E-01	1.63727528512E-01	6.00447431614E-02	-2.47313816540E-02	6.00759346715E-02	-2.43916676898E-02	2.20890287205E-01	1.69230562538E-01
1.92400000000E+09	1.35442012276E-01	1.61996356124E-01	5.97572060047E-02	-2.54589474123E-02	5.97869734401E-02	-2.51348873706E-02	2.23622581074E-01	1.66884670693E-01
1.92430000000E+09	1.35254854997E-01	1.60369844134E-01	5.94636930730E-02	-2.61789610217E-02	5.94638057230E-02	-2.58697063484E-02	2.26300865135E-01	1.64499651578E-01
1.92460000000E+09	1.35037628787E-01	1.58670410511E-01	5.91730736306E-02	-2.69225911946E-02	5.91932577038E-02	-2.66151553980E-02	2.28954154746E-01	1.62139455245E-01
1.92490000000E+09	1.34836338065E-01	1.57086716461E-01	5.88788360631E-02	-2.77122383889E-02	5.89042139329E-02	-2.73828530498E-02	2.31598692008E-01	1.59668107378E-01
1.92520000000E+09	1.34462793933E-01	1.55465734976E-01	5.85693979532E-02	-2.83992442768E-02	5.86362393018E-02	-2.81031028665E-02	2.34110677107E-01	1.57194453909E-01
1.92550000000E+09	1.34205168844E-01	1.53822909384E-01	5.82056523484E-02	-2.91603577233E-02	5.82771721065E-02	-2.88388321048E-02	2.36616480373E-01	1.54623300492E-01
1.92580000000E+09	1.33756809711E-01	1.52309281017E-01	5.79036157069E-02	-2.98973461603E-02	5.79434728813E-02	-2.95644609844E-02	2.39061372255E-01	1.52040043895E-01
1.92610000000E+09	1.33336457626E-01	1.50765493947E-01	5.75573513727E-02	-3.06392852430E-02	5.76275640610E-02	-3.03120133436E-02	2.41496976164E-01	1.49365763039E-01
1.92640000000E+09	1.32817605404E-01	1.49342389899E-01	5.72489395803E-02	-3.13669242528E-02	5.72737296032E-02	-3.10029126253E-02	2.43847101706E-01	1.46704603321E-01
1.92670000000E+09	1.32342017814E-01	1.47907904482E-01	5.68454199031E-02	-3.20981031808E-02	5.69251410104E-02	-3.17641828324E-02	2.46172411383E-01	1.43931284924E-01
1.92700000000E+09	1.31747519154E-01	1.46492796080E-01	5.64729797001E-02	-3.28339223112E-02	5.65374073407E-02	-3.24785346283E-02	2.48421632919E-01	1.41183164062E-01
1.92730000000E+09	1.31125782568E-01	1.45144070759E-01	5.61125639500E-02	-3.35321109747E-02	5.61745858922E-02	-3.31939188382E-02	2.50642159528E-01	1.38413138511E-01
1.92760000000E+09	1.30499526031E-01	1.43793470275E-01	5.57204728095E-02	-3.42561478399E-02	5.57600141551E-02	-3.39167557569E-02	2.52797174227E-01	1.35526760447E-01
1.92790000000E+09	1.29840243393E-01	1.42560777015E-01	5.53330922293E-02	-3.49554304169E-02	5.53537884656E-02	-3.46456755363E-02	2.54893437322E-01	1.32628008392E-01
1.92820000000E+09	1.29108221155E-01	1.41295264131E-01	5.48636556654E-02	-3.56864156341E-02	5.49813036803E-02	-3.53384431108E-02	2.56926662574E-01	1.29790764727E-01
1.92850000000E+09	1.28425200477E-01	1.40120374825E-01	5.44638762815E-02	-3.64057941034E-02	5.45318004852E-02	-3.60451194838E-02	2.58933068155E-01	1.26734095510E-01
1.92880000000E+09	1.27633401995E-01	1.39005560271E-01	5.40474229034E-02	-3.70890005595E-02	5.41521723817E-02	-3.67716731817E-02	2.60848580358E-01	1.23804733878E-01
1.92910000000E+09	1.26879330670E-01	1.37926489180E-01	5.35699043690E-02	-3.77962265656E-02	5.37309717730E-02	-3.74322165047E-02	2.62699123692E-01	1.20764764880E-01
1.92940000000E+09	1.26031130626E-01	1.36879905140E-01	5.31293761074E-02	-3.84784495482E-02	5.32174304735E-02	-3.81773318025E-02	2.64602465528E-01	1.17764008217E-01
1.92970000000E+09	1.25193846872E-01	1.35948393768E-01	5.26690615918E-02	-3.91658690033E-02	5.27561750875E-02	-3.88859578399E-02	2.66332180080E-01	1.14586436274E-01
1.93000000000E+09	1.24376557095E-01	1.35023575356E-01	5.21670335271E-02	-3.98696210706E-02	5.22677754488E-02	-3.95410188318E-02	2.67984635933E-01	1.11453333502E-01
1.93030000000E+09	1.23460512371E-01	1.34189089191E-01	5.17346071829E-02	-4.05318689408E-02	5.18232335753E-02	-4.02256405049E-02	2.69664237495E-01	1.08295504054E-01
1.93060000000E+09	1.22565911266E-01	1.33323919058E-01	5.11785351472E-02	-4.12404852056E-02	5.13218702143E-02	-4.08817827513E-02	2.71298839340E-01	1.05159143961E-01
1.93090000000E+09	1.21691760272E-01	1.32634055263E-01	5.07138143302E-02	-4.18945063422E-02	5.07927129732E-02	-4.15699873971E-02	2.72806105448E-01	1.01953632646E-01
1.93120000000E+09	1.20763538392E-01	1.31901690651E-01	5.01598143840E-02	-4.25507044012E-02	5.02922376627E-02	-4.22544511220E-02	2.74340552804E-01	9.86815763380E-02
1.93150000000E+09	1.19883839951E-01	1.31265760418E-01	4.96574175393E-02	-4.32301635048E-02	4.97954148171E-02	-4.28880998486E-02	2.75705516657E-01	9.54705699378E-02
1.93180000000E+09	1.18987008754E-01	1.30689574362E-01	4.91215350141E-02	-4.38317321227E-02	4.92353139634E-02	-4.35674824886E-02	2.77064715890E-01	9.21489978330E-02
1.93210000000E+09	1.18055214989E-01	1.30198136905E-01	4.85681285279E-02	-4.45046325987E-02	4.87033983259E-02	-4.42025959117E-02	2.78355255938E-01	8.88076455757E-02
1.93240000000E+09	1.17184513402E-01	1.29683907564E-01	4.80079227901E-02	-4.51096754112E-02	4.81599375479E-02	-4.48135927330E-02	2.79634807239E-01	8.55046416502E-02
1.93270000000E+09	1.16236224452E-01	1.29257914381E-01	4.74329111613E-02	-4.57386450950E-02	4.75709277111E-02	-4.54091763409E-02	2.80742176783E-01	8.21147527216E-02
1.93300000000E+09	1.15365608082E-01	1.28952087833E-01	4.68804392305E-02	-4.63768355892E-02	4.69914784465E-02	-4.60800983084E-02	2.81850662686E-01	7.88417400630E-02
1.93330000000E+09	1.14442864860E-01	1.28612559710E-01	4.62725136571E-02	-4.69764701412E-02	4.64227599331E-02	-4.66880847196E-02	2.83023551608E-01	7.53332133322E-02
1.93360000000E+09	1.13619955550E-01	1.28341577824E-01	4.57023429389E-02	-4.75915924086E-02	4.58600082709E-02	-4.72917690924E-02	2.83920379542E-01	7.19901778705E-02
1.93390000000E+09	1.12778675806E-01	1.28148719016E-01	4.50791737988E-02	-4.81902050025E-02	4.52120278755E-02	-4.78902352578E-02	2.84814782096E-01	6.85482332053E-02
1.93420000000E+09	1.11947367887E-01	1.27967028554E-01	4.44529117795E-02	-4.87802770055E-02	4.46239350941E-02	-4.84527740992E-02	2.85729913548E-01	6.50971197776E-02
1.93450000000E+09	1.11139077589E-01	1.27846930008E-01	4.38692318543E-02	-4.93718305859E-02	4.39949944667E-02	-4.90545730115E-02	2.86436424589E-01	6.15960122898E-02
1.93480000000E+09	1.10343781984E-01	1.27789042875E-01	4.31917010439E-02	-4.99502735283E-02	4.33760259733E-02	-4.96330193512E-02	2.87248129970E-01	5.81435690054E-02
1.93510000000E+09	1.09581948961E-01	1.27749136898E-01	4.25696625177E-02	-5.05115982560E-02	4.27134916988E-02	-5.02013623372E-02	2.87877041212E-01	5.46160345990E-02
1.93540000000E+09	1.08794878384E-01	1.27800967913E-01	4.19192424872E-02	-5.10390140562E-02	4.20896802574E-02	-5.07818655222E-02	2.88551538763E-01	5.10677124296E-02
1.93570000000E+09	1.08070050748E-01	1.27823048825E-01	4.12720847229E-02	-5.16022739097E-02	4.14521949651E-02	-5.13043178435E-02	2.89029267899E-01	4.75958247951E-02
