# Hz S RI R 50
! CMT, CMT808U, 21440046, 21.4.3/4
! Date: 3/28/2026 5:02:37 PM
! Data: Format (Calibration Info)
! Freq	S11:Re/Im(F2)	S41:Re/Im(F2)	S14:Re/Im(F2)	S44:Re/Im(F2)
1.90000000000E+09	4.02610689028E-02	2.49593578301E-01	5.28971267589E-02	3.98094732986E-02	5.25368805739E-02	3.99965588357E-02	-5.92592107333E-02	1.63272916305E-01
1.90030000000E+09	4.18952411892E-02	2.49546623697E-01	5.33741038483E-02	3.91404140379E-02	5.30166734583E-02	3.93357347660E-02	-5.67537294215E-02	1.65924839184E-01
1.90060000000E+09	4.35731293543E-02	2.49345909899E-01	5.38004176309E-02	3.84425544786E-02	5.34941727042E-02	3.86019753136E-02	-5.42342425379E-02	1.68542125128E-01
1.90090000000E+09	4.52460558837E-02	2.49213733527E-01	5.42487781435E-02	3.77392230186E-02	5.39167060249E-02	3.79053476045E-02	-5.16093839138E-02	1.71106592169E-01
1.90120000000E+09	4.69398504084E-02	2.49040529310E-01	5.47153847985E-02	3.70315886586E-02	5.43932701603E-02	3.72051236548E-02	-4.89536174704E-02	1.73643907824E-01
1.90150000000E+09	4.86044245295E-02	2.48753754079E-01	5.51131370606E-02	3.63053103646E-02	5.47962575724E-02	3.64853303805E-02	-4.63303348772E-02	1.76090115473E-01
1.90180000000E+09	5.02909013705E-02	2.48519941831E-01	5.55253900318E-02	3.55767921510E-02	5.52168392591E-02	3.57803614430E-02	-4.35838944226E-02	1.78481586925E-01
1.90210000000E+09	5.19642647354E-02	2.48304665499E-01	5.59783757123E-02	3.48457422366E-02	5.56489459900E-02	3.50621104928E-02	-4.08321087276E-02	1.80831108550E-01
1.90240000000E+09	5.37086621928E-02	2.47989923804E-01	5.63553858531E-02	3.41372697283E-02	5.60482807375E-02	3.43295016037E-02	-3.79826314483E-02	1.83137749241E-01
1.90270000000E+09	5.53199922361E-02	2.47604469750E-01	5.67693723415E-02	3.33729582881E-02	5.64574320344E-02	3.36092788244E-02	-3.51426968264E-02	1.85467562657E-01
1.90300000000E+09	5.70241197084E-02	2.47320670981E-01	5.71601985674E-02	3.26582997532E-02	5.68495138430E-02	3.28833224579E-02	-3.22496193594E-02	1.87568035630E-01
1.90330000000E+09	5.87535436387E-02	2.46947933830E-01	5.75212222726E-02	3.19272287779E-02	5.72144446505E-02	3.21254568440E-02	-2.93217487628E-02	1.89807812682E-01
1.90360000000E+09	6.04175831356E-02	2.46546955670E-01	5.78481636043E-02	3.11732791641E-02	5.75820709414E-02	3.13679315377E-02	-2.63456551639E-02	1.91818564582E-01
1.90390000000E+09	6.21021097057E-02	2.46104451206E-01	5.82276533894E-02	3.04105559755E-02	5.79158320870E-02	3.06029940816E-02	-2.33673261390E-02	1.93861742338E-01
1.90420000000E+09	6.37783224162E-02	2.45642156393E-01	5.85798515644E-02	2.96724953375E-02	5.82706082278E-02	2.98694818358E-02	-2.03534023826E-02	1.95806507415E-01
1.90450000000E+09	6.54547426540E-02	2.45182341059E-01	5.88876724431E-02	2.89299707703E-02	5.86036814341E-02	2.91487320144E-02	-1.72330156089E-02	1.97704646005E-01
1.90480000000E+09	6.71385851753E-02	2.44679142731E-01	5.92458226065E-02	2.81404179951E-02	5.89183292590E-02	2.84041515400E-02	-1.41575913887E-02	1.99568491016E-01
1.90510000000E+09	6.88781392883E-02	2.44117555698E-01	5.95481907117E-02	2.73915027605E-02	5.92755990369E-02	2.76370938906E-02	-1.10493927721E-02	2.01411886384E-01
1.90540000000E+09	7.05102541870E-02	2.43542093282E-01	5.98480698882E-02	2.66107171978E-02	5.95501005903E-02	2.68595472685E-02	-7.81676358384E-03	2.03147555436E-01
1.90570000000E+09	7.22408003082E-02	2.42921212610E-01	6.01601581040E-02	2.58350875904E-02	5.98604532863E-02	2.61259294941E-02	-4.61961873613E-03	2.04726913479E-01
1.90600000000E+09	7.38675525852E-02	2.42254744499E-01	6.04105558562E-02	2.50809616575E-02	6.01345964372E-02	2.53369762180E-02	-1.45259179101E-03	2.06358321065E-01
1.90630000000E+09	7.54772723368E-02	2.41652731678E-01	6.06675591699E-02	2.43778608764E-02	6.04092934172E-02	2.45794201629E-02	1.85987712377E-03	2.07971195385E-01
1.90660000000E+09	7.72144484749E-02	2.40852722221E-01	6.09322028226E-02	2.35705519869E-02	6.06666527810E-02	2.38026839739E-02	5.13824749429E-03	2.09436398337E-01
1.90690000000E+09	7.88724161839E-02	2.40216055150E-01	6.11931151319E-02	2.27649193953E-02	6.09413656339E-02	2.30792517517E-02	8.38690733050E-03	2.10915904549E-01
1.90720000000E+09	8.04546001022E-02	2.39426025065E-01	6.14281973875E-02	2.20016152805E-02	6.11530611847E-02	2.22655985051E-02	1.17663008258E-02	2.12220673129E-01
1.90750000000E+09	8.20769626673E-02	2.38669234237E-01	6.16730011248E-02	2.12239027908E-02	6.14130402917E-02	2.15305566244E-02	1.50906134342E-02	2.13567493103E-01
1.90780000000E+09	8.36444945342E-02	2.37821960667E-01	6.19018630780E-02	2.04658181395E-02	6.16428547563E-02	2.07477926022E-02	1.84419183146E-02	2.14786730720E-01
1.90810000000E+09	8.52690478315E-02	2.36963894237E-01	6.20681411131E-02	1.96631721503E-02	6.18469097500E-02	1.99527852600E-02	2.18405997613E-02	2.15894166894E-01
1.90840000000E+09	8.68605902925E-02	2.36173087651E-01	6.23220985471E-02	1.89006065241E-02	6.20509641750E-02	1.91816138788E-02	2.52191795901E-02	2.17053567952E-01
1.90870000000E+09	8.84440440474E-02	2.35286923602E-01	6.25030041274E-02	1.81222296881E-02	6.22681639646E-02	1.84213339038E-02	2.86691884860E-02	2.18154851013E-01
1.90900000000E+09	8.99498907443E-02	2.34279003319E-01	6.26688069653E-02	1.73139986153E-02	6.24500410029E-02	1.76106791418E-02	3.21180556514E-02	2.19079948978E-01
1.90930000000E+09	9.15492550441E-02	2.33433615796E-01	6.28741485976E-02	1.65407015859E-02	6.26444963203E-02	1.68424907620E-02	3.55310767299E-02	2.19956002572E-01
1.90960000000E+09	9.30036527786E-02	2.32393432091E-01	6.30105457703E-02	1.57459162668E-02	6.27849923450E-02	1.60676479866E-02	3.90441880119E-02	2.20854083878E-01
1.90990000000E+09	9.45558468959E-02	2.31393123036E-01	6.31844593245E-02	1.49906542246E-02	6.29478111744E-02	1.52941686145E-02	4.25186259669E-02	2.21680926159E-01
1.91020000000E+09	9.60248570613E-02	2.30361998542E-01	6.33034459196E-02	1.41968918123E-02	6.30922326621E-02	1.44817374803E-02	4.59711167230E-02	2.22349939719E-01
1.91050000000E+09	9.74812266990E-02	2.29333017249E-01	6.34625476482E-02	1.34209953811E-02	6.32576602851E-02	1.37094920468E-02	4.95113024613E-02	2.23057673642E-01
1.91080000000E+09	9.89757860892E-02	2.28217232161E-01	6.36089635175E-02	1.26378085853E-02	6.33552075717E-02	1.29158113098E-02	5.30323336185E-02	2.23616581891E-01
1.91110000000E+09	1.00397337863E-01	2.27145262823E-01	6.37334064682E-02	1.18323553913E-02	6.35102823780E-02	1.21352945079E-02	5.65578307116E-02	2.24127889044E-01
1.91140000000E+09	1.01859783752E-01	2.25981324949E-01	6.38313678458E-02	1.10795149596E-02	6.36247583741E-02	1.13331638867E-02	6.00860655176E-02	2.24661216299E-01
1.91170000000E+09	1.03265283865E-01	2.24847864985E-01	6.39390529470E-02	1.02564582983E-02	6.37100195950E-02	1.05788295696E-02	6.36651047994E-02	2.24977315869E-01
1.91200000000E+09	1.04651338840E-01	2.23674369034E-01	6.40304626299E-02	9.45487022666E-03	6.38123311661E-02	9.77052259238E-03	6.72014323582E-02	2.25358475283E-01
1.91230000000E+09	1.06011483763E-01	2.22478094193E-01	6.41106553046E-02	8.68876731789E-03	6.38789299551E-02	9.00644318454E-03	7.06681806758E-02	2.25632045222E-01
1.91260000000E+09	1.07350486403E-01	2.21229890714E-01	6.41462349683E-02	7.90068199951E-03	6.39812202281E-02	8.21266024201E-03	7.42500969868E-02	2.25868726005E-01
1.91290000000E+09	1.08637097573E-01	2.20010545786E-01	6.42035633221E-02	7.11702777227E-03	6.40524653102E-02	7.45057378900E-03	7.77741501801E-02	2.25971843997E-01
1.91320000000E+09	1.09962022299E-01	2.18661919374E-01	6.42812612108E-02	6.30210979776E-03	6.41078592943E-02	6.65376070726E-03	8.13254755152E-02	2.26088194010E-01
1.91350000000E+09	1.11308468461E-01	2.17403545152E-01	6.43248602256E-02	5.55399546741E-03	6.41667789068E-02	5.82964991707E-03	8.48922213016E-02	2.26079168015E-01
1.91380000000E+09	1.12509523946E-01	2.16033172159E-01	6.43414138744E-02	4.74171505998E-03	6.42002122817E-02	5.10778548351E-03	8.84121157491E-02	2.26017423062E-01
1.91410000000E+09	1.13736856188E-01	2.14741312385E-01	6.43831915325E-02	3.98220604116E-03	6.42294869889E-02	4.29665962213E-03	9.19539779172E-02	2.25901670028E-01
1.91440000000E+09	1.14938228559E-01	2.13265337107E-01	6.43999753276E-02	3.18211563870E-03	6.42502338152E-02	3.53138546120E-03	9.54535942483E-02	2.25682926864E-01
1.91470000000E+09	1.16142365012E-01	2.11934682244E-01	6.44059164131E-02	2.38695772949E-03	6.42710916293E-02	2.75415173750E-03	9.90154940429E-02	2.25483247760E-01
1.91500000000E+09	1.17269205973E-01	2.10394329227E-01	6.43921360065E-02	1.63900624793E-03	6.42682950428E-02	1.96808165739E-03	1.02504709864E-01	2.25179796204E-01
1.91530000000E+09	1.18427953245E-01	2.08956007583E-01	6.43935434576E-02	8.27699107393E-04	6.42492471933E-02	1.15901800984E-03	1.06005883706E-01	2.24833322956E-01
1.91560000000E+09	1.19461705138E-01	2.07550713523E-01	6.43666622816E-02	6.19195858319E-05	6.42423710300E-02	3.88956106689E-04	1.09471663842E-01	2.24331620752E-01
1.91590000000E+09	1.20595765276E-01	2.06042318212E-01	6.43771580741E-02	-7.10998265731E-04	6.42393194517E-02	-3.99140679427E-04	1.13030799109E-01	2.23840108915E-01
1.91620000000E+09	1.21568767296E-01	2.04466480439E-01	6.42709185735E-02	-1.48723599425E-03	6.41973748028E-02	-1.17019189440E-03	1.16436260939E-01	2.23260904455E-01
1.91650000000E+09	1.22593074590E-01	2.02963895276E-01	6.42763899006E-02	-2.28338372956E-03	6.41672823584E-02	-1.93890049870E-03	1.19899736417E-01	2.22588227810E-01
1.91680000000E+09	1.23545525360E-01	2.01361549138E-01	6.42046406591E-02	-3.06835095231E-03	6.41088814169E-02	-2.70907931194E-03	1.23347849760E-01	2.21907716655E-01
1.91710000000E+09	1.24515557955E-01	1.99871099899E-01	6.41770758352E-02	-3.82553551282E-03	6.40483818798E-02	-3.49741565729E-03	1.26719922868E-01	2.21220307258E-01
1.91740000000E+09	1.25345766831E-01	1.98212277127E-01	6.40822716581E-02	-4.60769337316E-03	6.39616295510E-02	-4.27499205282E-03	1.30190499714E-01	2.20364402376E-01
1.91770000000E+09	1.26255855400E-01	1.96650131736E-01	6.40282211652E-02	-5.39903239679E-03	6.38970778566E-02	-5.06256962408E-03	1.33564556422E-01	2.19495090509E-01
1.91800000000E+09	1.27067379039E-01	1.94888549415E-01	6.38854378020E-02	-6.16430599671E-03	6.38151899631E-02	-5.80932486009E-03	1.36947314165E-01	2.18581970076E-01
1.91830000000E+09	1.27840933317E-01	1.93312049123E-01	6.38271657344E-02	-6.93395367021E-03	6.37465142208E-02	-6.60214017294E-03	1.40302962737E-01	2.17533122674E-01
1.91860000000E+09	1.28550335409E-01	1.91625509824E-01	6.37033634154E-02	-7.68852970789E-03	6.36371604163E-02	-7.34159052987E-03	1.43648614642E-01	2.16477859927E-01
1.91890000000E+09	1.29281136087E-01	1.89908383954E-01	6.36130538869E-02	-8.47990421866E-03	6.35382314281E-02	-8.14172915040E-03	1.46989771256E-01	2.15404778868E-01
1.91920000000E+09	1.29939169583E-01	1.88209226482E-01	6.34771196895E-02	-9.22038743134E-03	6.34218717855E-02	-8.89556137417E-03	1.50286941788E-01	2.14237442510E-01
1.91950000000E+09	1.30569588642E-01	1.86522627861E-01	6.33585465926E-02	-9.99549140457E-03	6.33153756515E-02	-9.66474925762E-03	1.53496720519E-01	2.12950307804E-01
1.91980000000E+09	1.30985095615E-01	1.84767717275E-01	6.31986060665E-02	-1.07627912350E-02	6.31332275102E-02	-1.04066756625E-02	1.56739729810E-01	2.11675706031E-01
1.92010000000E+09	1.31566562491E-01	1.83093037867E-01	6.30599874135E-02	-1.14885858749E-02	6.30220473117E-02	-1.11500096037E-02	1.59924723809E-01	2.10310148708E-01
1.92040000000E+09	1.31975888080E-01	1.81303629796E-01	6.29331717100E-02	-1.22683585308E-02	6.28939180787E-02	-1.19259480386E-02	1.63140443091E-01	2.08905055642E-01
1.92070000000E+09	1.32410658326E-01	1.79650310575E-01	6.27730934576E-02	-1.30455362488E-02	6.27176783228E-02	-1.26927665751E-02	1.66275591101E-01	2.07412008403E-01
1.92100000000E+09	1.32740433207E-01	1.77841377754E-01	6.25703457019E-02	-1.37894366463E-02	6.25530005445E-02	-1.34179684990E-02	1.69449781464E-01	2.05955443073E-01
1.92130000000E+09	1.33117192611E-01	1.76172923311E-01	6.24159658152E-02	-1.45262453006E-02	6.23734143497E-02	-1.41673681171E-02	1.72549140976E-01	2.04326237800E-01
1.92160000000E+09	1.33290946817E-01	1.74376975293E-01	6.22186441362E-02	-1.52855715203E-02	6.21929437216E-02	-1.49272118088E-02	1.75614461003E-01	2.02732585154E-01
1.92190000000E+09	1.33546981978E-01	1.72688067299E-01	6.20166699545E-02	-1.60140655552E-02	6.19941668761E-02	-1.56727959756E-02	1.78649427256E-01	2.01094537987E-01
1.92220000000E+09	1.33642466019E-01	1.70967231309E-01	6.18300284507E-02	-1.67569335313E-02	6.17777899070E-02	-1.64278613996E-02	1.81646769833E-01	1.99304793709E-01
1.92250000000E+09	1.33796632186E-01	1.69239999158E-01	6.16199373916E-02	-1.75528017881E-02	6.15808173570E-02	-1.71912309117E-02	1.84659187796E-01	1.97479766530E-01
1.92280000000E+09	1.33852420409E-01	1.67600834711E-01	6.13788582292E-02	-1.82800493481E-02	6.13814729418E-02	-1.79086230218E-02	1.87527140128E-01	1.95594297701E-01
1.92310000000E+09	1.33892657663E-01	1.65930196950E-01	6.11775157474E-02	-1.89932876305E-02	6.11278203225E-02	-1.86629519344E-02	1.90439632652E-01	1.93733389629E-01
1.92340000000E+09	1.33844304509E-01	1.64246077623E-01	6.09101437549E-02	-1.97354988984E-02	6.09124142765E-02	-1.93666883470E-02	1.93258434363E-01	1.91874645314E-01
1.92370000000E+09	1.33782610795E-01	1.62662288560E-01	6.06943094646E-02	-2.04596065621E-02	6.06526551835E-02	-2.01043176762E-02	1.96073590983E-01	1.89817642337E-01
1.92400000000E+09	1.33633512260E-01	1.61025128667E-01	6.04325355986E-02	-2.11850392523E-02	6.04021073566E-02	-2.08420050660E-02	1.98888721756E-01	1.87774809902E-01
1.92430000000E+09	1.33422454866E-01	1.59439360063E-01	6.01992709397E-02	-2.19032235083E-02	6.01968963560E-02	-2.15717239389E-02	2.01686560233E-01	1.85701389679E-01
1.92460000000E+09	1.33227735340E-01	1.57786048563E-01	5.98830507611E-02	-2.26266321612E-02	5.99086717941E-02	-2.22939181501E-02	2.04336917765E-01	1.83553789497E-01
1.92490000000E+09	1.32988125266E-01	1.56310970148E-01	5.96332187846E-02	-2.33792948047E-02	5.96453918888E-02	-2.30193204737E-02	2.07083001774E-01	1.81379083560E-01
1.92520000000E+09	1.32629307089E-01	1.54777026978E-01	5.93313208668E-02	-2.40803064901E-02	5.93634414044E-02	-2.37434494753E-02	2.09632083218E-01	1.79111600827E-01
1.92550000000E+09	1.32334477806E-01	1.53263124024E-01	5.90735059548E-02	-2.47819703450E-02	5.90808331015E-02	-2.44896081922E-02	2.12236850725E-01	1.76844283654E-01
1.92580000000E+09	1.31875713532E-01	1.51818272484E-01	5.87337845890E-02	-2.55123513083E-02	5.87612384844E-02	-2.51397021121E-02	2.14749911330E-01	1.74558612195E-01
1.92610000000E+09	1.31438415261E-01	1.50361190643E-01	5.84498928131E-02	-2.62455493563E-02	5.84869562437E-02	-2.58864699084E-02	2.17256841064E-01	1.72098916570E-01
1.92640000000E+09	1.30898741473E-01	1.49009985196E-01	5.81027892493E-02	-2.69471814808E-02	5.81668633018E-02	-2.66048018279E-02	2.19733930558E-01	1.69736677393E-01
1.92670000000E+09	1.30456581352E-01	1.47672751188E-01	5.77861943265E-02	-2.76405011704E-02	5.78504584301E-02	-2.72872043370E-02	2.22138422838E-01	1.67263734369E-01
1.92700000000E+09	1.29844826799E-01	1.46328934313E-01	5.74443108112E-02	-2.83489343169E-02	5.75355659935E-02	-2.79996604470E-02	2.24495032344E-01	1.64751282051E-01
1.92730000000E+09	1.29294988593E-01	1.45085412266E-01	5.71501022338E-02	-2.90364675048E-02	5.71692597386E-02	-2.87125800542E-02	2.26784929434E-01	1.62263502082E-01
1.92760000000E+09	1.28629908943E-01	1.43849095103E-01	5.67584181998E-02	-2.97136576536E-02	5.68087551310E-02	-2.94022784895E-02	2.29066612842E-01	1.59602007338E-01
1.92790000000E+09	1.28010436980E-01	1.42661003280E-01	5.64487574869E-02	-3.04298357990E-02	5.64901220133E-02	-3.00923393484E-02	2.31323326996E-01	1.57064809179E-01
1.92820000000E+09	1.27286116491E-01	1.41539585712E-01	5.60692056397E-02	-3.10839008233E-02	5.61214466017E-02	-3.08150015773E-02	2.33448652743E-01	1.54350269578E-01
1.92850000000E+09	1.26618754458E-01	1.40444131990E-01	5.56760279714E-02	-3.17949259340E-02	5.57789464776E-02	-3.14812810976E-02	2.35595867003E-01	1.51617890364E-01
1.92880000000E+09	1.25854691035E-01	1.39409344627E-01	5.52907189804E-02	-3.24958319409E-02	5.53497375616E-02	-3.21412234761E-02	2.37618371041E-01	1.48939408637E-01
1.92910000000E+09	1.25108124558E-01	1.38417826984E-01	5.49105978249E-02	-3.31734862506E-02	5.50094083483E-02	-3.28115783669E-02	2.39658760052E-01	1.46149968699E-01
1.92940000000E+09	1.24326633267E-01	1.37434872843E-01	5.45033071409E-02	-3.37854737304E-02	5.45979034069E-02	-3.35025165549E-02	2.41638185647E-01	1.43374617232E-01
1.92970000000E+09	1.23538286523E-01	1.36612883458E-01	5.41118207241E-02	-3.45235813622E-02	5.42035698773E-02	-3.41760584560E-02	2.43524993183E-01	1.40511227878E-01
1.93000000000E+09	1.22741010389E-01	1.35749695453E-01	5.36968074846E-02	-3.51549225604E-02	5.37670432668E-02	-3.48606688539E-02	2.45377161637E-01	1.37620500261E-01
1.93030000000E+09	1.21852262149E-01	1.35032223906E-01	5.32782884391E-02	-3.58175647005E-02	5.33626411215E-02	-3.55155932019E-02	2.47222128487E-01	1.34738041764E-01
1.93060000000E+09	1.21025418550E-01	1.34227678625E-01	5.28498641797E-02	-3.64749901323E-02	5.29174822434E-02	-3.61412564240E-02	2.49014000960E-01	1.31801724935E-01
1.93090000000E+09	1.20195987125E-01	1.33609324676E-01	5.23977869343E-02	-3.71204586001E-02	5.24993539550E-02	-3.68210010190E-02	2.50737798900E-01	1.28827253032E-01
1.93120000000E+09	1.19349022290E-01	1.32991471853E-01	5.19650307973E-02	-3.78092860262E-02	5.20424214126E-02	-3.74665949140E-02	2.52298229655E-01	1.25831177214E-01
1.93150000000E+09	1.18462612383E-01	1.32428343452E-01	5.14985364795E-02	-3.84290601646E-02	5.16342687882E-02	-3.81107482316E-02	2.53947500739E-01	1.22887247616E-01
1.93180000000E+09	1.17637497904E-01	1.31893671915E-01	5.10216173552E-02	-3.90445585300E-02	5.11615830869E-02	-3.87343971125E-02	2.55453262498E-01	1.19742225550E-01
1.93210000000E+09	1.16766705613E-01	1.31471155222E-01	5.05866771635E-02	-3.96901981264E-02	5.06831038362E-02	-3.93819141759E-02	2.57003420784E-01	1.16725148689E-01
1.93240000000E+09	1.15938653141E-01	1.31045850266E-01	5.00825892481E-02	-4.03358905145E-02	5.01984686652E-02	-4.00310563090E-02	2.58417321438E-01	1.13585879627E-01
1.93270000000E+09	1.15072628040E-01	1.30739923287E-01	4.95868786065E-02	-4.09281298439E-02	4.97051778275E-02	-4.06551249946E-02	2.59808538875E-01	1.10473288598E-01
1.93300000000E+09	1.14286581430E-01	1.30440503246E-01	4.90781379324E-02	-4.15554433146E-02	4.92197447298E-02	-4.12472381122E-02	2.61051989576E-01	1.07344729351E-01
1.93330000000E+09	1.13477545306E-01	1.30189352851E-01	4.85975808072E-02	-4.21645589096E-02	4.87226995736E-02	-4.18614880423E-02	2.62393461327E-01	1.04189300102E-01
1.93360000000E+09	1.12728624877E-01	1.29986884795E-01	4.80885367604E-02	-4.27778699919E-02	4.82243260204E-02	-4.24645910398E-02	2.63497042597E-01	1.00996174510E-01
1.93390000000E+09	1.11967411770E-01	1.29826714807E-01	4.75840107670E-02	-4.34150722442E-02	4.76867877139E-02	-4.30717890255E-02	2.64660556359E-01	9.77916194877E-02
1.93420000000E+09	1.11184359509E-01	1.29696620375E-01	4.70299732763E-02	-4.39925187359E-02	4.71725265529E-02	-4.36522752515E-02	2.65765084935E-01	9.46003036400E-02
1.93450000000E+09	1.10474298252E-01	1.29664378802E-01	4.65116447823E-02	-4.45847144879E-02	4.66513938486E-02	-4.42644277459E-02	2.66738604560E-01	9.12502972649E-02
1.93480000000E+09	1.09749547441E-01	1.29597025457E-01	4.59569444113E-02	-4.51298751742E-02	4.60879441817E-02	-4.48555965261E-02	2.67681763238E-01	8.80495699671E-02
1.93510000000E+09	1.09086540891E-01	1.29608362940E-01	4.53785595161E-02	-4.57382562247E-02	4.55546064175E-02	-4.54003499518E-02	2.68651877361E-01	8.47532605110E-02
1.93540000000E+09	1.08437767899E-01	1.29690210216E-01	4.48399675937E-02	-4.63075920438E-02	4.50005232009E-02	-4.60189812022E-02	2.69468379513E-01	8.14160685550E-02
1.93570000000E+09	1.07800198469E-01	1.29814767108E-01	4.43144162365E-02	-4.68718424695E-02	4.44283086313E-02	-4.65629327795E-02	2.70257792616E-01	7.80687390930E-02
