# Hz S RI R 50
! CMT, CMT808U, 21440046, 21.4.3/4
! Date: 11/17/2025 2:46:16 PM
! Data: Format (Calibration Info)
! Freq	S11:Re/Im(F2)	S41:Re/Im(F2)	S14:Re/Im(F2)	S44:Re/Im(F2)
1.70000000000E+09	-8.30352208090E-02	-1.31470090048E-01	-5.44014768055E-02	-3.93490320340E-02	-5.45085193882E-02	-3.93049515237E-02	-1.17029443941E-01	5.77087680695E-02
1.70050000000E+09	-8.24512012976E-02	-1.29050270200E-01	-5.52314911720E-02	-3.82553065704E-02	-5.53397926645E-02	-3.82026194169E-02	-1.16884949588E-01	6.35599581877E-02
1.70100000000E+09	-8.17219265441E-02	-1.26646119901E-01	-5.60505902412E-02	-3.71320247030E-02	-5.61521622959E-02	-3.70846995670E-02	-1.16498221083E-01	6.93819871181E-02
1.70150000000E+09	-8.08339928640E-02	-1.24263392712E-01	-5.68464607303E-02	-3.59885906139E-02	-5.69460898653E-02	-3.59406538957E-02	-1.15971116770E-01	7.51896633109E-02
1.70200000000E+09	-7.97903253414E-02	-1.21923947330E-01	-5.76439894258E-02	-3.48306675924E-02	-5.77255824835E-02	-3.47824648402E-02	-1.15228900652E-01	8.10201714406E-02
1.70250000000E+09	-7.85764999446E-02	-1.19581840217E-01	-5.84015062736E-02	-3.36647436299E-02	-5.84809164137E-02	-3.36152077321E-02	-1.14284582404E-01	8.67335770408E-02
1.70300000000E+09	-7.72487022365E-02	-1.17294052094E-01	-5.91402467996E-02	-3.24791257822E-02	-5.92292008092E-02	-3.24202585452E-02	-1.13210038385E-01	9.24652997020E-02
1.70350000000E+09	-7.57975476029E-02	-1.15067471490E-01	-5.98714866620E-02	-3.12721707243E-02	-5.99659814661E-02	-3.12083195110E-02	-1.11881670496E-01	9.81482102606E-02
1.70400000000E+09	-7.41665181543E-02	-1.12907057675E-01	-6.05670390383E-02	-3.00345886507E-02	-6.06407339007E-02	-2.99803425813E-02	-1.10419705944E-01	1.03729706035E-01
1.70450000000E+09	-7.24182560464E-02	-1.10814144729E-01	-6.12418918970E-02	-2.87860380377E-02	-6.13163906105E-02	-2.87188051113E-02	-1.08757461582E-01	1.09308244938E-01
1.70500000000E+09	-7.05768345913E-02	-1.08803207973E-01	-6.18961457902E-02	-2.75120749047E-02	-6.19693057968E-02	-2.74408523807E-02	-1.06903151229E-01	1.14845643658E-01
1.70550000000E+09	-6.85814053521E-02	-1.06874358169E-01	-6.25276324635E-02	-2.62273280518E-02	-6.26061181136E-02	-2.61629155417E-02	-1.04862258413E-01	1.20261310831E-01
1.70600000000E+09	-6.65004422789E-02	-1.05043075973E-01	-6.31325478861E-02	-2.49156128007E-02	-6.32052082461E-02	-2.48731482460E-02	-1.02700521069E-01	1.25610278970E-01
1.70650000000E+09	-6.42935858752E-02	-1.03290754835E-01	-6.37104318104E-02	-2.35995952675E-02	-6.37803449360E-02	-2.35503347521E-02	-1.00329240507E-01	1.30918435323E-01
1.70700000000E+09	-6.20215382850E-02	-1.01672239903E-01	-6.42552703072E-02	-2.22746846588E-02	-6.43402271246E-02	-2.21915577953E-02	-9.78186952675E-02	1.36120030479E-01
1.70750000000E+09	-5.96266105132E-02	-1.00142114575E-01	-6.47883287746E-02	-2.09056072498E-02	-6.48526945775E-02	-2.08520002511E-02	-9.51336687718E-02	1.41229468107E-01
1.70800000000E+09	-5.71587207832E-02	-9.87236560544E-02	-6.52716814895E-02	-1.95417639090E-02	-6.53519684292E-02	-1.94639079118E-02	-9.22531468461E-02	1.46239720179E-01
1.70850000000E+09	-5.46106836226E-02	-9.74426537785E-02	-6.57326022145E-02	-1.81579489318E-02	-6.58233606259E-02	-1.80680870822E-02	-8.92449332176E-02	1.51143343003E-01
1.70900000000E+09	-5.20134414439E-02	-9.62351617871E-02	-6.61640583523E-02	-1.67572957897E-02	-6.62344557074E-02	-1.66808917001E-02	-8.61067964157E-02	1.55951279470E-01
1.70950000000E+09	-4.93617738703E-02	-9.51967627708E-02	-6.65713224780E-02	-1.53333997857E-02	-6.66485649610E-02	-1.52524004310E-02	-8.28129919119E-02	1.60661195232E-01
1.71000000000E+09	-4.66304571193E-02	-9.42587794216E-02	-6.69622237668E-02	-1.39059629679E-02	-6.70092230995E-02	-1.38257518259E-02	-7.93479738147E-02	1.65245499418E-01
1.71050000000E+09	-4.38880980051E-02	-9.34461173335E-02	-6.72886549700E-02	-1.24796720854E-02	-6.73500308296E-02	-1.23840512223E-02	-7.58079895100E-02	1.69714141251E-01
1.71100000000E+09	-4.10833992098E-02	-9.27469904471E-02	-6.75970547540E-02	-1.10149560882E-02	-6.76738934898E-02	-1.09360562833E-02	-7.20577778102E-02	1.74037811137E-01
1.71150000000E+09	-3.82575192723E-02	-9.21801531548E-02	-6.78803272159E-02	-9.55614830506E-03	-6.79299275053E-02	-9.47811207668E-03	-6.81862044996E-02	1.78288318243E-01
1.71200000000E+09	-3.54096578314E-02	-9.17142750515E-02	-6.81175068494E-02	-8.08616257089E-03	-6.81834220129E-02	-7.98907424072E-03	-6.42078652191E-02	1.82364413298E-01
1.71250000000E+09	-3.25588216830E-02	-9.14284899054E-02	-6.83294017253E-02	-6.60931464016E-03	-6.83891056922E-02	-6.53156669442E-03	-6.00930738855E-02	1.86324071936E-01
1.71300000000E+09	-2.96997953860E-02	-9.12419739474E-02	-6.85148677553E-02	-5.10954879105E-03	-6.85613171138E-02	-5.02228611187E-03	-5.58826348074E-02	1.90140127796E-01
1.71350000000E+09	-2.68260954774E-02	-9.11562484353E-02	-6.86431697013E-02	-3.61608645651E-03	-6.86870717045E-02	-3.52518793324E-03	-5.15609182720E-02	1.93805054030E-01
1.71400000000E+09	-2.39466230106E-02	-9.12051350570E-02	-6.87365934066E-02	-2.12300022836E-03	-6.87960126712E-02	-2.03722012851E-03	-4.71408908559E-02	1.97366929878E-01
1.71450000000E+09	-2.10877131200E-02	-9.13666858873E-02	-6.88143329519E-02	-6.07433165214E-04	-6.88703968088E-02	-5.34405492951E-04	-4.25676592847E-02	2.00749031431E-01
1.71500000000E+09	-1.82450719726E-02	-9.16314573336E-02	-6.88406001664E-02	8.72377991120E-04	-6.89067664299E-02	9.81080226866E-04	-3.79358499629E-02	2.04008757513E-01
1.71550000000E+09	-1.54142526492E-02	-9.20266099315E-02	-6.88570329824E-02	2.40576834318E-03	-6.88918972389E-02	2.49486113919E-03	-3.31652266140E-02	2.07063313383E-01
1.71600000000E+09	-1.26218513569E-02	-9.25371979700E-02	-6.88042849587E-02	3.90881192319E-03	-6.88524837870E-02	4.01167477660E-03	-2.83636986611E-02	2.10041596647E-01
1.71650000000E+09	-9.85072028678E-03	-9.31742027627E-02	-6.87548213397E-02	5.42648783373E-03	-6.87799729416E-02	5.54125437427E-03	-2.34293932360E-02	2.12816072737E-01
1.71700000000E+09	-7.11770355937E-03	-9.38796972761E-02	-6.86245977997E-02	6.94025511561E-03	-6.86578186888E-02	7.02857402283E-03	-1.84574074864E-02	2.15418205843E-01
1.71750000000E+09	-4.44859953919E-03	-9.46904081413E-02	-6.84768895432E-02	8.44895390787E-03	-6.85283295989E-02	8.54538758844E-03	-1.33763620264E-02	2.17867356441E-01
1.71800000000E+09	-1.77444609323E-03	-9.56218817265E-02	-6.82933516862E-02	9.94509086427E-03	-6.83368375338E-02	1.00455378656E-02	-8.25572939727E-03	2.20183954317E-01
1.71850000000E+09	8.12420756793E-04	-9.66412812169E-02	-6.80672534004E-02	1.14523601521E-02	-6.81107177665E-02	1.15546227435E-02	-3.08987345636E-03	2.22343846803E-01
1.71900000000E+09	3.34688561300E-03	-9.77536606282E-02	-6.78178037319E-02	1.29430742028E-02	-6.78631410833E-02	1.30630774422E-02	2.18701466436E-03	2.24294453294E-01
1.71950000000E+09	5.84645703036E-03	-9.89388502314E-02	-6.75454493215E-02	1.44343918731E-02	-6.75517479707E-02	1.45404566848E-02	7.47661716926E-03	2.26094599099E-01
1.72000000000E+09	8.27493154601E-03	-1.00229959146E-01	-6.72149428746E-02	1.59288637595E-02	-6.72353327675E-02	1.60112652782E-02	1.28305081520E-02	2.27755710555E-01
1.72050000000E+09	1.06418671252E-02	-1.01578869056E-01	-6.68448858832E-02	1.73874248831E-02	-6.68695799242E-02	1.74906530515E-02	1.82144767204E-02	2.29217562590E-01
1.72100000000E+09	1.29551062526E-02	-1.03036760070E-01	-6.64469270603E-02	1.88649420536E-02	-6.64678719592E-02	1.89583429431E-02	2.36464516780E-02	2.30518417961E-01
1.72150000000E+09	1.51974278637E-02	-1.04543195138E-01	-6.60274246420E-02	2.03220735887E-02	-6.60492905543E-02	2.04238192878E-02	2.91208201533E-02	2.31646196212E-01
1.72200000000E+09	1.73736979792E-02	-1.06136461838E-01	-6.55559611378E-02	2.17674963571E-02	-6.55703217121E-02	2.18829432015E-02	3.46247912012E-02	2.32610891957E-01
1.72250000000E+09	1.94734590430E-02	-1.07783604824E-01	-6.50629338665E-02	2.31837725972E-02	-6.50885004066E-02	2.33004759393E-02	4.00971531677E-02	2.33429911861E-01
1.72300000000E+09	2.14991443287E-02	-1.09501686195E-01	-6.45471539960E-02	2.46179813715E-02	-6.45356039476E-02	2.47275929903E-02	4.56164824144E-02	2.34005485477E-01
1.72350000000E+09	2.34768279942E-02	-1.11276958512E-01	-6.39718208301E-02	2.60247488590E-02	-6.39863472092E-02	2.61189757245E-02	5.11374019062E-02	2.34451480477E-01
1.72400000000E+09	2.53477204650E-02	-1.13118395337E-01	-6.33699428155E-02	2.74354441072E-02	-6.33996835848E-02	2.75345576298E-02	5.66915737556E-02	2.34759109886E-01
1.72450000000E+09	2.71460332441E-02	-1.14994929710E-01	-6.27584439043E-02	2.88120152585E-02	-6.27631768599E-02	2.89040782580E-02	6.22408197193E-02	2.34880455657E-01
1.72500000000E+09	2.88961042521E-02	-1.16915258051E-01	-6.20932521960E-02	3.01692496664E-02	-6.20792523084E-02	3.02587149218E-02	6.77393866472E-02	2.34785918149E-01
1.72550000000E+09	3.05457162600E-02	-1.18897919523E-01	-6.13972624415E-02	3.15094096167E-02	-6.14013456505E-02	3.16163419931E-02	7.33117352207E-02	2.34537798380E-01
1.72600000000E+09	3.21221275321E-02	-1.20915677902E-01	-6.07032047591E-02	3.28330407655E-02	-6.06716779681E-02	3.29571222977E-02	7.87802923786E-02	2.34148340955E-01
1.72650000000E+09	3.36033173456E-02	-1.22968862485E-01	-5.99343807785E-02	3.41605846723E-02	-5.99423766256E-02	3.42493405635E-02	8.42704354752E-02	2.33606667696E-01
1.72700000000E+09	3.50382941401E-02	-1.25066752319E-01	-5.91596912224E-02	3.54240019792E-02	-5.91447715113E-02	3.55469873027E-02	8.97184544682E-02	2.32825308560E-01
1.72750000000E+09	3.63519967079E-02	-1.27172265037E-01	-5.83413579322E-02	3.67148034381E-02	-5.83335155056E-02	3.68189576143E-02	9.51666614639E-02	2.31925270316E-01
1.72800000000E+09	3.76275812135E-02	-1.29326662625E-01	-5.75190169486E-02	3.79642801950E-02	-5.74856125776E-02	3.80680041815E-02	1.00539929291E-01	2.30857326505E-01
1.72850000000E+09	3.87689308118E-02	-1.31498527819E-01	-5.66571313208E-02	3.91731457647E-02	-5.66377477861E-02	3.92929386480E-02	1.05923680145E-01	2.29620053708E-01
1.72900000000E+09	3.98854305454E-02	-1.33707750368E-01	-5.57668776296E-02	4.03935386476E-02	-5.57477492795E-02	4.05026422371E-02	1.11223784218E-01	2.28224892100E-01
1.72950000000E+09	4.09063349013E-02	-1.35926028319E-01	-5.48499173959E-02	4.15950580090E-02	-5.48192194363E-02	4.16997512319E-02	1.16494882250E-01	2.26687947929E-01
1.73000000000E+09	4.18326753509E-02	-1.38178742685E-01	-5.38988844821E-02	4.27633701439E-02	-5.38777872684E-02	4.28433763580E-02	1.21665811992E-01	2.24921263239E-01
1.73050000000E+09	4.27184922343E-02	-1.40396586172E-01	-5.29298764829E-02	4.38933105299E-02	-5.29115283723E-02	4.39988485388E-02	1.26832820969E-01	2.23087702092E-01
1.73100000000E+09	4.34678492647E-02	-1.42675788066E-01	-5.19438171832E-02	4.50157202925E-02	-5.19330595997E-02	4.51102992465E-02	1.31929565753E-01	2.21042736121E-01
1.73150000000E+09	4.41710695950E-02	-1.44921964691E-01	-5.09298313328E-02	4.61135486403E-02	-5.08907557276E-02	4.62039425234E-02	1.36927341878E-01	2.18848902528E-01
1.73200000000E+09	4.48056464776E-02	-1.47197869660E-01	-4.99035908610E-02	4.71781827284E-02	-4.98554304328E-02	4.72527904232E-02	1.41866992925E-01	2.16507720820E-01
1.73250000000E+09	4.53625228388E-02	-1.49469937257E-01	-4.88448518677E-02	4.82092588449E-02	-4.88009678908E-02	4.82992446942E-02	1.46732011245E-01	2.14015884981E-01
1.73300000000E+09	4.58081142541E-02	-1.51746972827E-01	-4.77530054768E-02	4.92362851794E-02	-4.77123838991E-02	4.93213646680E-02	1.51512298749E-01	2.11404591776E-01
1.73350000000E+09	4.62190208778E-02	-1.54011383951E-01	-4.66264076234E-02	5.02175596652E-02	-4.66121725969E-02	5.03125070404E-02	1.56222489559E-01	2.08640268068E-01
1.73400000000E+09	4.65432002810E-02	-1.56283613635E-01	-4.55314245258E-02	5.12076820646E-02	-4.54909617458E-02	5.12760790351E-02	1.60856323753E-01	2.05703602054E-01
1.73450000000E+09	4.68022300151E-02	-1.58521291396E-01	-4.44024189102E-02	5.21327536383E-02	-4.43374659863E-02	5.22178454274E-02	1.65373266199E-01	2.02655045350E-01
1.73500000000E+09	4.69432001847E-02	-1.60780806819E-01	-4.32285604629E-02	5.30402742783E-02	-4.31766881854E-02	5.31319667618E-02	1.69775511674E-01	1.99471465912E-01
1.73550000000E+09	4.70646940657E-02	-1.63016153383E-01	-4.20436110569E-02	5.39268750028E-02	-4.20003760779E-02	5.40085498669E-02	1.74084144309E-01	1.96161625657E-01
1.73600000000E+09	4.71144730411E-02	-1.65225599571E-01	-4.08365519457E-02	5.47799801502E-02	-4.07966251081E-02	5.48546050430E-02	1.78280369613E-01	1.92708669063E-01
1.73650000000E+09	4.70682042762E-02	-1.67455459787E-01	-3.96348524093E-02	5.56111737363E-02	-3.95905203137E-02	5.56811855577E-02	1.82362378495E-01	1.89141542200E-01
1.73700000000E+09	4.69964557938E-02	-1.69644673828E-01	-3.84124299416E-02	5.64123552093E-02	-3.83627111869E-02	5.64771577494E-02	1.86377718781E-01	1.85428503971E-01
1.73750000000E+09	4.68164313767E-02	-1.71807329580E-01	-3.71620640918E-02	5.71801004720E-02	-3.71222998264E-02	5.72462130563E-02	1.90241564998E-01	1.81637534794E-01
1.73800000000E+09	4.65850225798E-02	-1.73971686720E-01	-3.59088902408E-02	5.79232267517E-02	-3.58577648764E-02	5.79953988783E-02	1.93958254378E-01	1.77675323841E-01
1.73850000000E+09	4.62659292028E-02	-1.76109424704E-01	-3.46294664064E-02	5.86257111643E-02	-3.45877582958E-02	5.87154348239E-02	1.97592448217E-01	1.73641234899E-01
1.73900000000E+09	4.59165949748E-02	-1.78210394375E-01	-3.33430853157E-02	5.93084038228E-02	-3.32971127114E-02	5.93910514983E-02	2.01100232599E-01	1.69484720520E-01
1.73950000000E+09	4.55138583615E-02	-1.80289707991E-01	-3.20379339271E-02	5.99656953634E-02	-3.20019575391E-02	6.00505086894E-02	2.04460854123E-01	1.65248503080E-01
1.74000000000E+09	4.50140682761E-02	-1.82396442817E-01	-3.07449834394E-02	6.05840702636E-02	-3.06896192835E-02	6.06683217262E-02	2.07696930810E-01	1.60899868889E-01
1.74050000000E+09	4.44394817419E-02	-1.84409036285E-01	-2.94186974619E-02	6.11974543781E-02	-2.93665759753E-02	6.12697636441E-02	2.10759099357E-01	1.56454038200E-01
1.74100000000E+09	4.38307571989E-02	-1.86436178862E-01	-2.80993533840E-02	6.17607689925E-02	-2.80150317373E-02	6.18281849159E-02	2.13716120605E-01	1.51877192686E-01
1.74150000000E+09	4.31683185586E-02	-1.88399978773E-01	-2.67583367602E-02	6.22814486272E-02	-2.66848975469E-02	6.23730098974E-02	2.16541018449E-01	1.47248829100E-01
1.74200000000E+09	4.24471409024E-02	-1.90352247207E-01	-2.53948763754E-02	6.28034274725E-02	-2.53415454924E-02	6.28648656635E-02	2.19217300783E-01	1.42564495818E-01
1.74250000000E+09	4.16232643175E-02	-1.92253435067E-01	-2.40448483938E-02	6.32579930370E-02	-2.39795956838E-02	6.33175174677E-02	2.21747537419E-01	1.37748218651E-01
1.74300000000E+09	4.08117368629E-02	-1.94152934392E-01	-2.26835217148E-02	6.37277861006E-02	-2.26377399894E-02	6.37816461006E-02	2.24132976099E-01	1.32861572602E-01
1.74350000000E+09	3.98950884901E-02	-1.96002025112E-01	-2.13009170836E-02	6.41271332680E-02	-2.12413855436E-02	6.41877876175E-02	2.26318208956E-01	1.27911757255E-01
1.74400000000E+09	3.89386876162E-02	-1.97791708242E-01	-1.99479079046E-02	6.44974923707E-02	-1.98799697128E-02	6.45773070899E-02	2.28419310958E-01	1.22911772366E-01
1.74450000000E+09	3.79126066744E-02	-1.99585849745E-01	-1.85569245942E-02	6.48612833226E-02	-1.84980114319E-02	6.49376087778E-02	2.30325034206E-01	1.17835554873E-01
1.74500000000E+09	3.68467213736E-02	-2.01304468197E-01	-1.71744753500E-02	6.51939526325E-02	-1.71176063725E-02	6.52499885927E-02	2.32074770027E-01	1.12716043850E-01
1.74550000000E+09	3.56983215212E-02	-2.02992838484E-01	-1.57838620033E-02	6.54811640667E-02	-1.57211243318E-02	6.55534856541E-02	2.33648970099E-01	1.07562274202E-01
1.74600000000E+09	3.45480591686E-02	-2.04650480566E-01	-1.43989835208E-02	6.57528428145E-02	-1.43304026151E-02	6.58016555578E-02	2.35130709836E-01	1.02332061285E-01
1.74650000000E+09	3.33002198047E-02	-2.06251210697E-01	-1.30055356459E-02	6.59944421866E-02	-1.29316721838E-02	6.60410417788E-02	2.36344397739E-01	9.70580838506E-02
1.74700000000E+09	3.20156628517E-02	-2.07799844624E-01	-1.16037876945E-02	6.61837322135E-02	-1.15458141007E-02	6.62465206671E-02	2.37448892637E-01	9.17478709571E-02
1.74750000000E+09	3.06908240843E-02	-2.09298419061E-01	-1.02178842600E-02	6.63539293519E-02	-1.01462275269E-02	6.64211362236E-02	2.38409621671E-01	8.64337853326E-02
1.74800000000E+09	2.93086523430E-02	-2.10768930207E-01	-8.81883926593E-03	6.65081253273E-02	-8.73676233151E-03	6.65708441736E-02	2.39155210888E-01	8.10539177079E-02
1.74850000000E+09	2.78523148993E-02	-2.12165102410E-01	-7.42971690607E-03	6.66119654437E-02	-7.35592030843E-03	6.66790115617E-02	2.39767556445E-01	7.56480783094E-02
1.74900000000E+09	2.63758453591E-02	-2.13507799323E-01	-6.02798360915E-03	6.67258486315E-02	-5.93949439982E-03	6.67560137531E-02	2.40193058925E-01	7.02450788880E-02
1.74950000000E+09	2.48375393412E-02	-2.14793979867E-01	-4.63689226249E-03	6.67548249646E-02	-4.55474833777E-03	6.68037002649E-02	2.40481498990E-01	6.48438974426E-02
1.75000000000E+09	2.32586795483E-02	-2.16037970514E-01	-3.24055231697E-03	6.67909976137E-02	-3.16712731138E-03	6.68408686139E-02	2.40570973438E-01	5.94043570896E-02
1.75050000000E+09	2.16363178867E-02	-2.17213074743E-01	-1.85592123152E-03	6.67920104434E-02	-1.76719710575E-03	6.68437787197E-02	2.40476080839E-01	5.40008805487E-02
1.75100000000E+09	2.00067107754E-02	-2.18333917230E-01	-4.69268774120E-04	6.67718358888E-02	-3.98858135999E-04	6.68058323631E-02	2.40240809773E-01	4.85663028068E-02
1.75150000000E+09	1.82712216560E-02	-2.19376099010E-01	9.07209739579E-04	6.67112405117E-02	9.88141250202E-04	6.67339467290E-02	2.39841627931E-01	4.31911492073E-02
1.75200000000E+09	1.65084368629E-02	-2.20317890877E-01	2.29044798942E-03	6.65980584081E-02	2.36593523218E-03	6.66555846110E-02	2.39241518885E-01	3.77426342798E-02
1.75250000000E+09	1.47152006467E-02	-2.21232315091E-01	3.65450427901E-03	6.64975535782E-02	3.74471950405E-03	6.65459695167E-02	2.38501751912E-01	3.23827068769E-02
1.75300000000E+09	1.28994411636E-02	-2.22051748089E-01	5.00815207280E-03	6.63656994006E-02	5.08585957356E-03	6.64012084767E-02	2.37548997696E-01	2.70353082316E-02
1.75350000000E+09	1.10477699315E-02	-2.22811194243E-01	6.39028108825E-03	6.61798821724E-02	6.47260094678E-03	6.62347275564E-02	2.36446781154E-01	2.17139457442E-02
1.75400000000E+09	9.15798560125E-03	-2.23485397870E-01	7.73187290251E-03	6.60072964186E-02	7.81395580014E-03	6.60363271993E-02	2.35175130076E-01	1.64581009676E-02
1.75450000000E+09	7.25680747197E-03	-2.24058708804E-01	9.07530148330E-03	6.57777883751E-02	9.16081802378E-03	6.58087840716E-02	2.33763131904E-01	1.11896539075E-02
1.75500000000E+09	5.32148935190E-03	-2.24561294983E-01	1.04151008351E-02	6.55314341041E-02	1.05144008301E-02	6.55693841740E-02	2.32204330304E-01	5.96968689973E-03
1.75550000000E+09	3.33101907864E-03	-2.24975162893E-01	1.17224131167E-02	6.52650339895E-02	1.18161387291E-02	6.52918215587E-02	2.30412371073E-01	8.22953219351E-04
1.75600000000E+09	1.39235030552E-03	-2.25340990537E-01	1.30515722001E-02	6.49639185461E-02	1.31497856806E-02	6.49941078220E-02	2.28472747176E-01	-4.25853416954E-03
1.75650000000E+09	-6.04098496976E-04	-2.25568490365E-01	1.43587172825E-02	6.46315416818E-02	1.44579776454E-02	6.46845380286E-02	2.26391313008E-01	-9.29177352919E-03
1.75700000000E+09	-2.61255760834E-03	-2.25714407621E-01	1.56576379589E-02	6.42868774671E-02	1.57453695340E-02	6.43158040949E-02	2.24132193545E-01	-1.42278853348E-02
1.75750000000E+09	-4.61113853248E-03	-2.25787933862E-01	1.69525938883E-02	6.39177975136E-02	1.70467629854E-02	6.39329110680E-02	2.21719329079E-01	-1.91161342224E-02
1.75800000000E+09	-6.62733616459E-03	-2.25729585786E-01	1.82447209697E-02	6.35298121048E-02	1.83220890030E-02	6.35458878876E-02	2.19152244224E-01	-2.39396134915E-02
1.75850000000E+09	-8.63794091115E-03	-2.25620634917E-01	1.94969092105E-02	6.30906447806E-02	1.96011331496E-02	6.31195116363E-02	2.16428153620E-01	-2.86665910768E-02
