# Hz S RI R 50
! CMT, CMT808U, 21440046, 21.4.3/4
! Date: 11/12/2025 10:30:02 AM
! Data: Format (Calibration Info)
! Freq	S11:Re/Im(F2)	S41:Re/Im(F2)	S14:Re/Im(F2)	S44:Re/Im(F2)
1.60000000000E+09	-2.85461872283E-01	-2.34300080979E-01	-5.12033484607E-03	6.42340151937E-02	-5.91182954424E-03	6.38433315782E-02	-9.70456164697E-02	3.59987852961E-03
1.60100000000E+09	-2.80650605972E-01	-2.32866602470E-01	-2.26544042686E-03	6.44736380919E-02	-3.07657792711E-03	6.41127180110E-02	-1.00397643481E-01	1.41197892572E-02
1.60200000000E+09	-2.76020280641E-01	-2.31952874048E-01	6.03252970025E-04	6.45697894447E-02	-2.24354608532E-04	6.42432578944E-02	-1.03021115741E-01	2.48372257385E-02
1.60300000000E+09	-2.71625160264E-01	-2.31565444836E-01	3.46914629990E-03	6.45162626803E-02	2.63072087086E-03	6.42243606501E-02	-1.04926538390E-01	3.57003710986E-02
1.60400000000E+09	-2.67540045259E-01	-2.31658660727E-01	6.32773738466E-03	6.43212408231E-02	5.47378990395E-03	6.40674975156E-02	-1.06093320476E-01	4.66637073179E-02
1.60500000000E+09	-2.63848563352E-01	-2.32186150540E-01	9.16556265115E-03	6.39807005226E-02	8.30213528555E-03	6.37619923483E-02	-1.06516367997E-01	5.76681608390E-02
1.60600000000E+09	-2.60597742450E-01	-2.33093299314E-01	1.19685744945E-02	6.35002248993E-02	1.10979361257E-02	6.33218213588E-02	-1.06208556998E-01	6.86631575827E-02
1.60700000000E+09	-2.57866498843E-01	-2.34320405279E-01	1.47357720922E-02	6.28842961159E-02	1.38592121653E-02	6.27418272022E-02	-1.05167207370E-01	7.96021794914E-02
1.60800000000E+09	-2.55685578883E-01	-2.35782492667E-01	1.74501469800E-02	6.21354021916E-02	1.65714244111E-02	6.20335014872E-02	-1.03400127991E-01	9.04351313066E-02
1.60900000000E+09	-2.54085247349E-01	-2.37387584018E-01	2.01131697157E-02	6.12658912635E-02	1.92304753828E-02	6.12014132544E-02	-1.00915675509E-01	1.01120843475E-01
1.61000000000E+09	-2.53086974411E-01	-2.39056666006E-01	2.27117166803E-02	6.02801023552E-02	2.18290285626E-02	6.02513184542E-02	-9.77326584286E-02	1.11594501560E-01
1.61100000000E+09	-2.52678780688E-01	-2.40688696147E-01	2.52425457002E-02	5.91838416791E-02	2.43598071274E-02	5.91899115151E-02	-9.38615071331E-02	1.21827477806E-01
1.61200000000E+09	-2.52861500020E-01	-2.42195995374E-01	2.76972521223E-02	5.79860273647E-02	2.68214389836E-02	5.80303192318E-02	-8.93344590746E-02	1.31762245814E-01
1.61300000000E+09	-2.53582147718E-01	-2.43489874980E-01	3.00812698666E-02	5.66965279796E-02	2.92081893799E-02	5.67725519896E-02	-8.41632244061E-02	1.41364313352E-01
1.61400000000E+09	-2.54812731831E-01	-2.44500856462E-01	3.23927540880E-02	5.53171891314E-02	3.15198954402E-02	5.54283036579E-02	-7.83820441533E-02	1.50590548742E-01
1.61500000000E+09	-2.56493236334E-01	-2.45152187062E-01	3.46182478578E-02	5.38577583840E-02	3.37588198032E-02	5.40017637772E-02	-7.19988273395E-02	1.59399237728E-01
1.61600000000E+09	-2.58558097094E-01	-2.45399730567E-01	3.67746358229E-02	5.23259947860E-02	3.59219241205E-02	5.25037636469E-02	-6.50725000996E-02	1.67756786617E-01
1.61700000000E+09	-2.60932382511E-01	-2.45189447959E-01	3.88517648252E-02	5.07257904268E-02	3.80082625712E-02	5.09337415396E-02	-5.76208453778E-02	1.75631605926E-01
1.61800000000E+09	-2.63549808699E-01	-2.44505711047E-01	4.08576260746E-02	4.90586377724E-02	4.00252832931E-02	4.92968477169E-02	-4.96721620394E-02	1.82991390996E-01
1.61900000000E+09	-2.66326385573E-01	-2.43312755054E-01	4.27896746422E-02	4.73301236175E-02	4.19647036140E-02	4.75997605958E-02	-4.12743178928E-02	1.89795998978E-01
1.62000000000E+09	-2.69194243320E-01	-2.41615242480E-01	4.46492986809E-02	4.55391127041E-02	4.38370384568E-02	4.58429259416E-02	-3.24671025018E-02	1.96035147436E-01
1.62100000000E+09	-2.72088631807E-01	-2.39418884923E-01	4.64391142319E-02	4.36956543647E-02	4.56375212694E-02	4.40250682884E-02	-2.32671286279E-02	2.01673665956E-01
1.62200000000E+09	-2.74934513450E-01	-2.36744631320E-01	4.81590674423E-02	4.17946512915E-02	4.73714218811E-02	4.21520872224E-02	-1.37386539878E-02	2.06690533301E-01
1.62300000000E+09	-2.77679528482E-01	-2.33609327026E-01	4.98076090124E-02	3.98391457004E-02	4.90318120600E-02	4.02251104016E-02	-3.91592002998E-03	2.11072977936E-01
1.62400000000E+09	-2.80275317057E-01	-2.30044053520E-01	5.13862032322E-02	3.78268514135E-02	5.06244093849E-02	3.82456600158E-02	6.15529532140E-03	2.14799007936E-01
1.62500000000E+09	-2.82681786667E-01	-2.26076396402E-01	5.28982094484E-02	3.57635925475E-02	5.21471761572E-02	3.62081882419E-02	1.64412612847E-02	2.17853062560E-01
1.62600000000E+09	-2.84846107609E-01	-2.21752459108E-01	5.43374823748E-02	3.36417933234E-02	5.35964753987E-02	3.41208651471E-02	2.68949900280E-02	2.20234227206E-01
1.62700000000E+09	-2.86745972917E-01	-2.17095050513E-01	5.56997131249E-02	3.14731423048E-02	5.49777852143E-02	3.19789470988E-02	3.74594837762E-02	2.21932059965E-01
1.62800000000E+09	-2.88365062635E-01	-2.12160881869E-01	5.69873385365E-02	2.92528458031E-02	5.62815845370E-02	2.97852698879E-02	4.81014484202E-02	2.22940322835E-01
1.62900000000E+09	-2.89674406854E-01	-2.06961554380E-01	5.82031501703E-02	2.69811622865E-02	5.75111379041E-02	2.75399635000E-02	5.87819946186E-02	2.23254423307E-01
1.63000000000E+09	-2.90666322843E-01	-2.01543671463E-01	5.93360482420E-02	2.46538494013E-02	5.86593060681E-02	2.52458724074E-02	6.94536445874E-02	2.22880263014E-01
1.63100000000E+09	-2.91324424355E-01	-1.95955823786E-01	6.03857148255E-02	2.22848192627E-02	5.97315037367E-02	2.29030135885E-02	8.00605661336E-02	2.21816220123E-01
1.63200000000E+09	-2.91642269197E-01	-1.90207104079E-01	6.13530326896E-02	1.98595285180E-02	6.07201538502E-02	2.05115107540E-02	9.05825630973E-02	2.20078650577E-01
1.63300000000E+09	-2.91618669006E-01	-1.84357334961E-01	6.22352662187E-02	1.73956844617E-02	6.16197445917E-02	1.80740456512E-02	1.00952408044E-01	2.17668313222E-01
1.63400000000E+09	-2.91242411131E-01	-1.78417516554E-01	6.30200510579E-02	1.48871893321E-02	6.24319439058E-02	1.55943354405E-02	1.11145280793E-01	2.14594052446E-01
1.63500000000E+09	-2.90527606590E-01	-1.72423045111E-01	6.37211404447E-02	1.23368099764E-02	6.31585463956E-02	1.30728566840E-02	1.21113031283E-01	2.10880470395E-01
1.63600000000E+09	-2.89475222561E-01	-1.66394768298E-01	6.43205110975E-02	9.74695533480E-03	6.37837570486E-02	1.05080091567E-02	1.30822538347E-01	2.06531279918E-01
1.63700000000E+09	-2.88071815883E-01	-1.60365449757E-01	6.48200730788E-02	7.12321166778E-03	6.43145800308E-02	7.91567526483E-03	1.40226031601E-01	2.01587271573E-01
1.63800000000E+09	-2.86341110411E-01	-1.54352655016E-01	6.52234219173E-02	4.46561648693E-03	6.47425026871E-02	5.28577671590E-03	1.49295929972E-01	1.96041198099E-01
1.63900000000E+09	-2.84284971286E-01	-1.48396923676E-01	6.55169839765E-02	1.78010396114E-03	6.50703929983E-02	2.62585551883E-03	1.57992984759E-01	1.89932137601E-01
1.64000000000E+09	-2.81894333029E-01	-1.42487038660E-01	6.57053750536E-02	-9.31786825634E-04	6.52946467211E-02	-5.71986279976E-05	1.66280662950E-01	1.83283284006E-01
1.64100000000E+09	-2.79197895190E-01	-1.36679398785E-01	6.57870084226E-02	-3.66184039838E-03	6.54081506146E-02	-2.76808518280E-03	1.74132628916E-01	1.76117120969E-01
1.64200000000E+09	-2.76195441264E-01	-1.30967792911E-01	6.57557939637E-02	-6.40902803834E-03	6.54131191254E-02	-5.49228440560E-03	1.81509600636E-01	1.68472136995E-01
1.64300000000E+09	-2.72890230550E-01	-1.25381599829E-01	6.56088355027E-02	-9.17421938374E-03	6.53060272738E-02	-8.22954079988E-03	1.88386581851E-01	1.60372621725E-01
1.64400000000E+09	-2.69292868485E-01	-1.19936724650E-01	6.53481358919E-02	-1.19392582803E-02	6.50881881034E-02	-1.09787947093E-02	1.94743763096E-01	1.51847060353E-01
1.64500000000E+09	-2.65415156189E-01	-1.14651837490E-01	6.49679561314E-02	-1.47153608026E-02	6.47528501461E-02	-1.37327034623E-02	2.00539905774E-01	1.42939193911E-01
1.64600000000E+09	-2.61269435508E-01	-1.09532620428E-01	6.44712149506E-02	-1.74839792927E-02	6.42993664713E-02	-1.64860585988E-02	2.05768759223E-01	1.33673611612E-01
1.64700000000E+09	-2.56852746094E-01	-1.04615024610E-01	6.38494966674E-02	-2.02447553846E-02	6.37246543715E-02	-1.92322872888E-02	2.10401984457E-01	1.24096640772E-01
1.64800000000E+09	-2.52189087696E-01	-9.98989184139E-02	6.31145091025E-02	-2.29938752720E-02	6.30334537175E-02	-2.19697381785E-02	2.14416649112E-01	1.14237960854E-01
1.64900000000E+09	-2.47279095056E-01	-9.54132970505E-02	6.22531775372E-02	-2.57300126187E-02	6.22180172157E-02	-2.46907563778E-02	2.17800846981E-01	1.04141855757E-01
1.65000000000E+09	-2.42140914758E-01	-9.11667044844E-02	6.12651250102E-02	-2.84357195673E-02	6.12801423302E-02	-2.73924596612E-02	2.20543422357E-01	9.38499011888E-02
1.65100000000E+09	-2.36785664774E-01	-8.71755357155E-02	6.01584886137E-02	-3.11107329637E-02	6.02228207914E-02	-3.00639504795E-02	2.22630138276E-01	8.33992242086E-02
1.65200000000E+09	-2.31218885611E-01	-8.34580779760E-02	5.89265733943E-02	-3.37511431233E-02	5.90415418654E-02	-3.27048372206E-02	2.24043788647E-01	7.28257085461E-02
1.65300000000E+09	-2.25457692783E-01	-8.00355744783E-02	5.75711760281E-02	-3.63515090030E-02	5.77398595987E-02	-3.53005636800E-02	2.24788602714E-01	6.21836824605E-02
1.65400000000E+09	-2.19529725440E-01	-7.69067765159E-02	5.60923856384E-02	-3.89015465645E-02	5.63084349002E-02	-3.78556089111E-02	2.24858042926E-01	5.15007201292E-02
1.65500000000E+09	-2.13434728199E-01	-7.41093074384E-02	5.44941132956E-02	-4.13948476246E-02	5.47658739968E-02	-4.03574329872E-02	2.24244667829E-01	4.08401090670E-02
1.65600000000E+09	-2.07203693372E-01	-7.16441996686E-02	5.27768130166E-02	-4.38298761584E-02	5.30963685400E-02	-4.27969088313E-02	2.22953865196E-01	3.02294443898E-02
1.65700000000E+09	-2.00857172257E-01	-6.95282349342E-02	5.09393336624E-02	-4.61913979656E-02	5.13118739372E-02	-4.51723731218E-02	2.20986641565E-01	1.97201367678E-02
1.65800000000E+09	-1.94405217980E-01	-6.77766766686E-02	4.89862583788E-02	-4.84780086681E-02	4.94065281440E-02	-4.74809280993E-02	2.18357441617E-01	9.34168739131E-03
1.65900000000E+09	-1.87865697056E-01	-6.64055307622E-02	4.69175446431E-02	-5.06841131679E-02	4.73917993449E-02	-4.97053831377E-02	2.15067515081E-01	-8.43847579324E-04
1.66000000000E+09	-1.81279814952E-01	-6.54221854264E-02	4.47456809173E-02	-5.28035527754E-02	4.52635322576E-02	-5.18418329140E-02	2.11124590033E-01	-1.08070939628E-02
1.66100000000E+09	-1.74670465796E-01	-6.48403452061E-02	4.24589425757E-02	-5.48242330379E-02	4.30259987785E-02	-5.38885648024E-02	2.06549212451E-01	-2.05055194201E-02
1.66200000000E+09	-1.68062521115E-01	-6.46765352878E-02	4.00742403389E-02	-5.67462957553E-02	4.06907272941E-02	-5.58364599105E-02	2.01359436678E-01	-2.98884023420E-02
1.66300000000E+09	-1.61493202549E-01	-6.49440571213E-02	3.75977505649E-02	-5.85579160135E-02	3.82518118293E-02	-5.76810081656E-02	1.95569427382E-01	-3.89233902007E-02
1.66400000000E+09	-1.54992923654E-01	-6.56297846539E-02	3.50222773181E-02	-6.02580078873E-02	3.57179849573E-02	-5.94111609787E-02	1.89211575835E-01	-4.75815042992E-02
1.66500000000E+09	-1.48600195423E-01	-6.67496850515E-02	3.23622672573E-02	-6.18340904339E-02	3.30988561589E-02	-6.10228105553E-02	1.82295828770E-01	-5.58035237533E-02
1.66600000000E+09	-1.42354359598E-01	-6.82980953147E-02	2.96204187969E-02	-6.32855822049E-02	3.03960284389E-02	-6.25105919824E-02	1.74856830934E-01	-6.35656181156E-02
1.66700000000E+09	-1.36293052003E-01	-7.02778951883E-02	2.68083329760E-02	-6.46036078714E-02	2.76132358142E-02	-6.38670703194E-02	1.66931552059E-01	-7.08318128133E-02
1.66800000000E+09	-1.30458227303E-01	-7.26734741436E-02	2.39241755924E-02	-6.57926220158E-02	2.47717029803E-02	-6.50918045138E-02	1.58538885727E-01	-7.75678669984E-02
1.66900000000E+09	-1.24884404535E-01	-7.54804125020E-02	2.09855435144E-02	-6.68342288685E-02	2.18642626264E-02	-6.61710098827E-02	1.49721795167E-01	-8.37471136074E-02
1.67000000000E+09	-1.19631410405E-01	-7.86805981342E-02	1.80010629111E-02	-6.77304510182E-02	1.89021895861E-02	-6.71116736643E-02	1.40514066860E-01	-8.93364281836E-02
1.67100000000E+09	-1.14733010752E-01	-8.22516934320E-02	1.49692551984E-02	-6.84815477870E-02	1.59019631916E-02	-6.79073621785E-02	1.30952652043E-01	-9.43126172964E-02
1.67200000000E+09	-1.10233690347E-01	-8.61596667201E-02	1.19079563164E-02	-6.90814549948E-02	1.28660305496E-02	-6.85488002669E-02	1.21079217781E-01	-9.86479849504E-02
1.67300000000E+09	-1.06177534910E-01	-9.03811247869E-02	8.82811287569E-03	-6.95266856579E-02	9.80722205685E-03	-6.90403836281E-02	1.10935753904E-01	-1.02328186771E-01
1.67400000000E+09	-1.02602584706E-01	-9.48680608014E-02	5.73413648618E-03	-6.98208830314E-02	6.73300880818E-03	-6.93818057633E-02	1.00569275107E-01	-1.05323654811E-01
1.67500000000E+09	-9.95476868996E-02	-9.95747975450E-02	2.63561371292E-03	-6.99601751002E-02	3.65265829627E-03	-6.95684782934E-02	9.00174178332E-02	-1.07632377398E-01
1.67600000000E+09	-9.70495229898E-02	-1.04451706750E-01	-4.57171698379E-04	-6.99510531941E-02	5.80995377648E-04	-6.96054260422E-02	7.93281007155E-02	-1.09227970818E-01
1.67700000000E+09	-9.51279278542E-02	-1.09433479587E-01	-3.52801347579E-03	-6.97936992141E-02	-2.47862631228E-03	-6.94939060656E-02	6.85548380511E-02	-1.10110083348E-01
1.67800000000E+09	-9.38144042128E-02	-1.14452330742E-01	-6.57502664684E-03	-6.94873748471E-02	-5.51279221812E-03	-6.92334053927E-02	5.77354461243E-02	-1.10267543223E-01
1.67900000000E+09	-9.31121085945E-02	-1.19430429913E-01	-9.58528248098E-03	-6.90402560077E-02	-8.51752543631E-03	-6.88363769535E-02	4.69260025410E-02	-1.09694489881E-01
1.68000000000E+09	-9.30216888508E-02	-1.24300294648E-01	-1.25520118269E-02	-6.84558644381E-02	-1.14801141111E-02	-6.82959941457E-02	3.61714439311E-02	-1.08409373588E-01
1.68100000000E+09	-9.35397593846E-02	-1.28977626408E-01	-1.54714216722E-02	-6.77343014185E-02	-1.43891492987E-02	-6.76285137030E-02	2.55243887451E-02	-1.06392394695E-01
1.68200000000E+09	-9.46369060482E-02	-1.33392772786E-01	-1.83283293669E-02	-6.68920576179E-02	-1.72460115962E-02	-6.68345946393E-02	1.50250225672E-02	-1.03660895321E-01
1.68300000000E+09	-9.62860506596E-02	-1.37456370783E-01	-2.11230343042E-02	-6.59362144795E-02	-2.00399410901E-02	-6.59218703305E-02	4.73004006948E-03	-1.00221491508E-01
1.68400000000E+09	-9.84443927042E-02	-1.41105626778E-01	-2.38504504280E-02	-6.48651656747E-02	-2.27674302429E-02	-6.48962689399E-02	-5.31008194644E-03	-9.60878228488E-02
1.68500000000E+09	-1.01047080331E-01	-1.44268172422E-01	-2.65086718453E-02	-6.36905531750E-02	-2.54291895373E-02	-6.37720067181E-02	-1.50571694892E-02	-9.12854000904E-02
1.68600000000E+09	-1.04031281467E-01	-1.46890214659E-01	-2.90952709491E-02	-6.24245033411E-02	-2.80236640617E-02	-6.25493041030E-02	-2.44598837374E-02	-8.58183837442E-02
1.68700000000E+09	-1.07321368561E-01	-1.48921982559E-01	-3.16083232354E-02	-6.10623828051E-02	-3.05439300416E-02	-6.12389271967E-02	-3.34730908518E-02	-7.97211831218E-02
1.68800000000E+09	-1.10841188984E-01	-1.50327055426E-01	-3.40462656880E-02	-5.96229468037E-02	-3.29898346684E-02	-5.98423158781E-02	-4.20558365534E-02	-7.30209317604E-02
1.68900000000E+09	-1.14497590282E-01	-1.51070300942E-01	-3.64104149638E-02	-5.81058967651E-02	-3.53697196099E-02	-5.83709532229E-02	-5.01630600463E-02	-6.57474247512E-02
1.69000000000E+09	-1.18193976751E-01	-1.51146050437E-01	-3.87090534838E-02	-5.65151671028E-02	-3.76772223448E-02	-5.68211222508E-02	-5.77627936024E-02	-5.79304925733E-02
1.69100000000E+09	-1.21849852628E-01	-1.50553859048E-01	-4.09360980245E-02	-5.48512783945E-02	-3.99214797133E-02	-5.52029929059E-02	-6.48067192986E-02	-4.96126890612E-02
1.69200000000E+09	-1.25360114904E-01	-1.49301594208E-01	-4.30980852276E-02	-5.31220851156E-02	-4.20998952678E-02	-5.35152724298E-02	-7.12718784861E-02	-4.08235421174E-02
1.69300000000E+09	-1.28634746782E-01	-1.47428667990E-01	-4.51970728640E-02	-5.13264342249E-02	-4.42171162678E-02	-5.17629537365E-02	-7.71168248622E-02	-3.16180927557E-02
1.69400000000E+09	-1.31593836539E-01	-1.44978661060E-01	-4.72289678556E-02	-4.94676426494E-02	-4.62702496137E-02	-4.99416304285E-02	-8.23265512909E-02	-2.20315671989E-02
1.69500000000E+09	-1.34160577466E-01	-1.42005243968E-01	-4.92026471650E-02	-4.75352518566E-02	-4.82673227396E-02	-4.80494931628E-02	-8.68638194405E-02	-1.21081844789E-02
1.69600000000E+09	-1.36280598076E-01	-1.38582201448E-01	-5.11126249526E-02	-4.55389603164E-02	-5.01983698464E-02	-4.60933067317E-02	-9.07226199196E-02	-1.90768470800E-03
1.69700000000E+09	-1.37903394368E-01	-1.34770780232E-01	-5.29601607112E-02	-4.34743497413E-02	-5.20722294582E-02	-4.40662874819E-02	-9.38677991509E-02	8.53703867506E-03
1.69800000000E+09	-1.38988866725E-01	-1.30657236990E-01	-5.47437280064E-02	-4.13334290177E-02	-5.38819497244E-02	-4.19627399174E-02	-9.63008351515E-02	1.91724135798E-02
1.69900000000E+09	-1.39511943606E-01	-1.26306867078E-01	-5.64619295912E-02	-3.91224498402E-02	-5.56269924440E-02	-3.97895916352E-02	-9.80090730642E-02	2.99365864767E-02
1.70000000000E+09	-1.39467367438E-01	-1.21800705266E-01	-5.81070854167E-02	-3.68358216844E-02	-5.73026510776E-02	-3.75337206139E-02	-9.89877589337E-02	4.07876581931E-02
1.70100000000E+09	-1.38836136151E-01	-1.17211510215E-01	-5.96758932560E-02	-3.44682876627E-02	-5.89019261083E-02	-3.52025946467E-02	-9.92271427790E-02	5.16688111968E-02
1.70200000000E+09	-1.37630315639E-01	-1.12614616196E-01	-6.11617606374E-02	-3.20291372597E-02	-6.04191328386E-02	-3.27932496227E-02	-9.87393988829E-02	6.25411651259E-02
1.70300000000E+09	-1.35867584597E-01	-1.08077230428E-01	-6.25629200496E-02	-2.95107591092E-02	-6.18494152790E-02	-3.03008799158E-02	-9.75262237473E-02	7.33476213192E-02
1.70400000000E+09	-1.33566629846E-01	-1.03663188922E-01	-6.38667891597E-02	-2.69170700148E-02	-6.31874202715E-02	-2.77391639033E-02	-9.55994535400E-02	8.40355525984E-02
1.70500000000E+09	-1.30758809666E-01	-9.94325434438E-02	-6.50735414111E-02	-2.42515183645E-02	-6.44269971051E-02	-2.51041290956E-02	-9.29701268645E-02	9.45680597157E-02
1.70600000000E+09	-1.27473225133E-01	-9.54337989543E-02	-6.61668365882E-02	-2.15163147974E-02	-6.55622347262E-02	-2.23958349437E-02	-8.96540020967E-02	1.04886653835E-01
1.70700000000E+09	-1.23758355888E-01	-9.17115981708E-02	-6.71521820280E-02	-1.87150963982E-02	-6.65809441779E-02	-1.96240327788E-02	-8.56664544893E-02	1.14958806485E-01
1.70800000000E+09	-1.19652278489E-01	-8.83095342210E-02	-6.80171880442E-02	-1.58560777887E-02	-6.74839354020E-02	-1.67902398645E-02	-8.10347682517E-02	1.24731142578E-01
1.70900000000E+09	-1.15195635137E-01	-8.52473995081E-02	-6.87520339579E-02	-1.29438896368E-02	-6.82610739355E-02	-1.39025946247E-02	-7.57795484202E-02	1.34168472652E-01
1.71000000000E+09	-1.10435227454E-01	-8.25607001979E-02	-6.93615477632E-02	-9.98240726636E-03	-6.89120291278E-02	-1.09631759500E-02	-6.99324426463E-02	1.43237997275E-01
1.71100000000E+09	-1.05412496707E-01	-8.02653874092E-02	-6.98347852761E-02	-6.98754435362E-03	-6.94271518724E-02	-7.98732411208E-03	-6.35146420557E-02	1.51892103045E-01
1.71200000000E+09	-1.00172670832E-01	-7.83779469932E-02	-7.01696280994E-02	-3.95139165142E-03	-6.98057707039E-02	-4.97207195630E-03	-5.65531219835E-02	1.60101507108E-01
1.71300000000E+09	-9.47561558595E-02	-7.69077826437E-02	-7.03635569928E-02	-8.98116888238E-04	-7.00397490972E-02	-1.93349001637E-03	-4.91010029509E-02	1.67845029986E-01
1.71400000000E+09	-8.92124438152E-02	-7.58558775113E-02	-7.04131419321E-02	2.17531925122E-03	-7.01381659446E-02	1.12554032676E-03	-4.11648299233E-02	1.75087181312E-01
1.71500000000E+09	-8.35705277667E-02	-7.52269462399E-02	-7.03178990637E-02	5.25350272556E-03	-7.00881300135E-02	4.19068084698E-03	-3.28039388874E-02	1.81783636871E-01
1.71600000000E+09	-7.78764293594E-02	-7.50236640792E-02	-7.00767778181E-02	8.33312101279E-03	-6.98926677567E-02	7.25914309956E-03	-2.40466914289E-02	1.87925838488E-01
1.71700000000E+09	-7.21701338508E-02	-7.52296347446E-02	-6.96870128402E-02	1.14050568995E-02	-6.95516584086E-02	1.03199984273E-02	-1.49215786694E-02	1.93498209803E-01
