# Hz S RI R 50
! CMT, CMT808U, 21440046, 21.4.3/4
! Date: 11/12/2025 3:18:25 PM
! Data: Format (Calibration Info)
! Freq	S11:Re/Im(F2)	S41:Re/Im(F2)	S14:Re/Im(F2)	S44:Re/Im(F2)
1.70000000000E+09	-1.44271890533E-01	-1.20330364252E-01	-5.56500759242E-02	-3.58169920417E-02	-5.56309149317E-02	-3.58089696282E-02	-1.22082479638E-01	3.42182512117E-02
1.70050000000E+09	-1.43793661558E-01	-1.17624924241E-01	-5.64140566015E-02	-3.46286599546E-02	-5.64127057292E-02	-3.46570157168E-02	-1.22595507398E-01	3.98949702955E-02
1.70100000000E+09	-1.43137798738E-01	-1.14926309314E-01	-5.71639818072E-02	-3.34564055877E-02	-5.71412799483E-02	-3.34634520581E-02	-1.22913194175E-01	4.55456195141E-02
1.70150000000E+09	-1.42323671057E-01	-1.12257593565E-01	-5.78524037127E-02	-3.22546402144E-02	-5.78707592211E-02	-3.22715457934E-02	-1.23064315904E-01	5.12063790382E-02
1.70200000000E+09	-1.41313618122E-01	-1.09629152194E-01	-5.85616108157E-02	-3.10377255615E-02	-5.85503607797E-02	-3.10516009383E-02	-1.23034967629E-01	5.68715772215E-02
1.70250000000E+09	-1.40157455532E-01	-1.06995709290E-01	-5.92185257371E-02	-2.97966395648E-02	-5.92325760988E-02	-2.98191274148E-02	-1.22772198460E-01	6.25288754331E-02
1.70300000000E+09	-1.38832918701E-01	-1.04445405216E-01	-5.98812832403E-02	-2.85604448210E-02	-5.98773989197E-02	-2.85718044052E-02	-1.22379406942E-01	6.81768674483E-02
1.70350000000E+09	-1.37389545820E-01	-1.01928285308E-01	-6.05053271259E-02	-2.72933480350E-02	-6.04896528029E-02	-2.73021581164E-02	-1.21783449501E-01	7.37660827933E-02
1.70400000000E+09	-1.35728233225E-01	-9.94752605213E-02	-6.11034440894E-02	-2.60222554058E-02	-6.10951886674E-02	-2.60256375670E-02	-1.21012236071E-01	7.93690318254E-02
1.70450000000E+09	-1.34003535342E-01	-9.71031756867E-02	-6.16659208092E-02	-2.47119054702E-02	-6.16636757217E-02	-2.47356005129E-02	-1.20036886636E-01	8.49613251425E-02
1.70500000000E+09	-1.32081240153E-01	-9.48226775495E-02	-6.21991037075E-02	-2.34015274166E-02	-6.22049218512E-02	-2.34275152454E-02	-1.18889586178E-01	9.05027670270E-02
1.70550000000E+09	-1.30043933660E-01	-9.26203195943E-02	-6.27224709847E-02	-2.20751104879E-02	-6.27155498055E-02	-2.20804227207E-02	-1.17543258528E-01	9.59832683395E-02
1.70600000000E+09	-1.27901452336E-01	-9.04923726553E-02	-6.32221389613E-02	-2.07342600045E-02	-6.31937786960E-02	-2.07436739587E-02	-1.16020037300E-01	1.01414689585E-01
1.70650000000E+09	-1.25641748380E-01	-8.84527818711E-02	-6.36709906399E-02	-1.93792074974E-02	-6.36630755025E-02	-1.94062973632E-02	-1.14353448701E-01	1.06804372426E-01
1.70700000000E+09	-1.23266826558E-01	-8.65614892380E-02	-6.41064331220E-02	-1.80162115704E-02	-6.41035855885E-02	-1.80242223308E-02	-1.12470429813E-01	1.12128279834E-01
1.70750000000E+09	-1.20755286815E-01	-8.47667655048E-02	-6.45046732174E-02	-1.66473624257E-02	-6.45149280126E-02	-1.66543891265E-02	-1.10478193604E-01	1.17394125430E-01
1.70800000000E+09	-1.18165439482E-01	-8.30738034949E-02	-6.48675741309E-02	-1.52428646370E-02	-6.48733442781E-02	-1.52628205944E-02	-1.08242777708E-01	1.22578612898E-01
1.70850000000E+09	-1.15491357723E-01	-8.15106973399E-02	-6.52168021858E-02	-1.38543655955E-02	-6.52120278086E-02	-1.38666761988E-02	-1.05874318715E-01	1.27687139514E-01
1.70900000000E+09	-1.12723234544E-01	-8.00678678120E-02	-6.55217626434E-02	-1.24560928824E-02	-6.55251341602E-02	-1.24615599210E-02	-1.03363668247E-01	1.32707239769E-01
1.70950000000E+09	-1.09930065026E-01	-7.87529894451E-02	-6.57959714404E-02	-1.10141482263E-02	-6.57900052628E-02	-1.10293564889E-02	-1.00656471939E-01	1.37649405891E-01
1.71000000000E+09	-1.07019950957E-01	-7.75546513469E-02	-6.60326398889E-02	-9.59919999279E-03	-6.60432092283E-02	-9.60201959207E-03	-9.78289766652E-02	1.42512997104E-01
1.71050000000E+09	-1.04065065825E-01	-7.64718067882E-02	-6.62599665989E-02	-8.15762994790E-03	-6.62524482696E-02	-8.16898538188E-03	-9.48462022054E-02	1.47247205640E-01
1.71100000000E+09	-1.01065019481E-01	-7.55445043095E-02	-6.64322435147E-02	-6.72080012155E-03	-6.64224480122E-02	-6.74832757478E-03	-9.16705576068E-02	1.51891370966E-01
1.71150000000E+09	-9.80268820997E-02	-7.47232636184E-02	-6.65714230684E-02	-5.27388049154E-03	-6.65755862141E-02	-5.28100785191E-03	-8.83662700964E-02	1.56450373401E-01
1.71200000000E+09	-9.49382724950E-02	-7.40232367980E-02	-6.66860115105E-02	-3.81826706249E-03	-6.66933823296E-02	-3.83990166604E-03	-8.49403089328E-02	1.60886192636E-01
1.71250000000E+09	-9.18352431511E-02	-7.34956915120E-02	-6.67573139329E-02	-2.37482336050E-03	-6.67637961644E-02	-2.38557204176E-03	-8.13510162157E-02	1.65174488404E-01
1.71300000000E+09	-8.87020042474E-02	-7.30880355400E-02	-6.68235389429E-02	-9.16519154472E-04	-6.68089684517E-02	-9.23665193929E-04	-7.76438793974E-02	1.69392411308E-01
1.71350000000E+09	-8.55542530760E-02	-7.27986377290E-02	-6.68138818443E-02	5.30050914983E-04	-6.68077265686E-02	5.28529446910E-04	-7.38223637404E-02	1.73447394244E-01
1.71400000000E+09	-8.23849106804E-02	-7.26479192854E-02	-6.67916449102E-02	1.99150847646E-03	-6.67945738909E-02	1.99039814793E-03	-6.98518239294E-02	1.77395249255E-01
1.71450000000E+09	-7.92302806304E-02	-7.26202123983E-02	-6.67264542042E-02	3.45805871890E-03	-6.67364924988E-02	3.44764026997E-03	-6.57090016450E-02	1.81219845300E-01
1.71500000000E+09	-7.60625410649E-02	-7.27134474371E-02	-6.66171660126E-02	4.93617753610E-03	-6.66407093350E-02	4.90984791409E-03	-6.15477669142E-02	1.84914922254E-01
1.71550000000E+09	-7.28964186667E-02	-7.29314894256E-02	-6.64987667049E-02	6.34645370257E-03	-6.65204004824E-02	6.35629181175E-03	-5.71795473306E-02	1.88442036139E-01
1.71600000000E+09	-6.97836717883E-02	-7.32847073536E-02	-6.63476430447E-02	7.81622452675E-03	-6.63472051719E-02	7.80241280505E-03	-5.27801280803E-02	1.91862597963E-01
1.71650000000E+09	-6.66660095887E-02	-7.37461371327E-02	-6.61591009542E-02	9.27190003063E-03	-6.61472635744E-02	9.26267957473E-03	-4.82337630170E-02	1.95103911278E-01
1.71700000000E+09	-6.35480960912E-02	-7.43349716794E-02	-6.59194134492E-02	1.06846800474E-02	-6.59194033644E-02	1.07062724579E-02	-4.36098023962E-02	1.98216687868E-01
1.71750000000E+09	-6.05161320456E-02	-7.50242336935E-02	-6.56418857368E-02	1.21302099552E-02	-6.56610291517E-02	1.21396285592E-02	-3.88589069727E-02	2.01166630040E-01
1.71800000000E+09	-5.74480946706E-02	-7.58589084962E-02	-6.53541150030E-02	1.35618317619E-02	-6.53693038371E-02	1.35623659342E-02	-3.40648101931E-02	2.03978181852E-01
1.71850000000E+09	-5.44718448258E-02	-7.68054285266E-02	-6.50147785876E-02	1.49757060101E-02	-6.50526708252E-02	1.49615970317E-02	-2.91577882152E-02	2.06632818117E-01
1.71900000000E+09	-5.15301784161E-02	-7.78275200752E-02	-6.46581754099E-02	1.63819410897E-02	-6.46715893312E-02	1.63693002006E-02	-2.41564049818E-02	2.09108252643E-01
1.71950000000E+09	-4.86366584776E-02	-7.89672792524E-02	-6.42717516783E-02	1.77963877540E-02	-6.42674075408E-02	1.77614387003E-02	-1.91229257191E-02	2.11431550890E-01
1.72000000000E+09	-4.57642346167E-02	-8.02213356899E-02	-6.38290671221E-02	1.91764146980E-02	-6.38344341316E-02	1.91611212425E-02	-1.40123675613E-02	2.13632553889E-01
1.72050000000E+09	-4.29606659736E-02	-8.15523081677E-02	-6.33684680764E-02	2.05329991501E-02	-6.33865589612E-02	2.05299268109E-02	-8.82151313175E-03	2.15612500778E-01
1.72100000000E+09	-4.02307384697E-02	-8.30083755893E-02	-6.28928295438E-02	2.18884032113E-02	-6.28821126371E-02	2.18842740983E-02	-3.55590760238E-03	2.17446926672E-01
1.72150000000E+09	-3.75519345748E-02	-8.45282247324E-02	-6.23681215756E-02	2.32552419492E-02	-6.23716843951E-02	2.32335763730E-02	1.72251132452E-03	2.19125787096E-01
1.72200000000E+09	-3.49294903447E-02	-8.61540078573E-02	-6.18178184218E-02	2.45809598790E-02	-6.18294085174E-02	2.45733093670E-02	7.07995559355E-03	2.20646129914E-01
1.72250000000E+09	-3.23976156828E-02	-8.78575047695E-02	-6.12414221316E-02	2.59022194133E-02	-6.12365500953E-02	2.58872010654E-02	1.24680443659E-02	2.21984724496E-01
1.72300000000E+09	-2.99259362033E-02	-8.96581699407E-02	-6.06356776444E-02	2.71915323570E-02	-6.06310104728E-02	2.71913845986E-02	1.78715467998E-02	2.23125960035E-01
1.72350000000E+09	-2.75158825327E-02	-9.15046020660E-02	-5.99809508023E-02	2.84801102029E-02	-5.99956603008E-02	2.84695520242E-02	2.33266241043E-02	2.24115891832E-01
1.72400000000E+09	-2.51890982975E-02	-9.34555349978E-02	-5.93313298134E-02	2.97441641532E-02	-5.93292910881E-02	2.97365938344E-02	2.88248331592E-02	2.24977682169E-01
1.72450000000E+09	-2.29395431229E-02	-9.54824403663E-02	-5.86470041691E-02	3.10049175146E-02	-5.86494139827E-02	3.09804835990E-02	3.43496856296E-02	2.25624693973E-01
1.72500000000E+09	-2.07666917569E-02	-9.75392821915E-02	-5.79152872546E-02	3.21977007543E-02	-5.79329045939E-02	3.22054033389E-02	3.98057561628E-02	2.26087094742E-01
1.72550000000E+09	-1.86718530871E-02	-9.96799146842E-02	-5.71699006689E-02	3.34237867573E-02	-5.71768732729E-02	3.34370205198E-02	4.53919602993E-02	2.26395342408E-01
1.72600000000E+09	-1.66453498513E-02	-1.01885145653E-01	-5.64166712921E-02	3.46255980171E-02	-5.64272237011E-02	3.46107263269E-02	5.08990841230E-02	2.26514176009E-01
1.72650000000E+09	-1.47497136364E-02	-1.04139584205E-01	-5.56269021844E-02	3.57994544527E-02	-5.56382311543E-02	3.58055685124E-02	5.64327540250E-02	2.26471543677E-01
1.72700000000E+09	-1.29010931550E-02	-1.06458626119E-01	-5.48041501163E-02	3.69619023807E-02	-5.48096154415E-02	3.69485334896E-02	6.19823599579E-02	2.26228739568E-01
1.72750000000E+09	-1.11440102868E-02	-1.08820468028E-01	-5.39785939359E-02	3.80798485172E-02	-5.39804011897E-02	3.80794641626E-02	6.74942779729E-02	2.25884051346E-01
1.72800000000E+09	-9.47677804192E-03	-1.11221940675E-01	-5.31064629892E-02	3.91956697903E-02	-5.31236280039E-02	3.91835446935E-02	7.30042701799E-02	2.25315857436E-01
1.72850000000E+09	-7.89629470232E-03	-1.13678958003E-01	-5.22288134233E-02	4.02779781278E-02	-5.22582217537E-02	4.02687035647E-02	7.84501857756E-02	2.24565043848E-01
1.72900000000E+09	-6.39754857675E-03	-1.16164854021E-01	-5.13312531844E-02	4.13734055738E-02	-5.13461975205E-02	4.13380863512E-02	8.39101987358E-02	2.23665031856E-01
1.72950000000E+09	-4.99441105665E-03	-1.18675046302E-01	-5.04013630507E-02	4.23874321145E-02	-5.03937432462E-02	4.23887806351E-02	8.93596176742E-02	2.22593450465E-01
1.73000000000E+09	-3.65995630229E-03	-1.21251928376E-01	-4.94542442835E-02	4.34231729666E-02	-4.94698434277E-02	4.34029037795E-02	9.47108789229E-02	2.21320918746E-01
1.73050000000E+09	-2.42709527971E-03	-1.23818445774E-01	-4.85166047553E-02	4.44101071725E-02	-4.84972563488E-02	4.44095734800E-02	1.00057051749E-01	2.19950485811E-01
1.73100000000E+09	-1.29646083152E-03	-1.26441981786E-01	-4.75341139166E-02	4.53922273166E-02	-4.75299624727E-02	4.53771256141E-02	1.05376995051E-01	2.18384533355E-01
1.73150000000E+09	-2.32365150506E-04	-1.29067422065E-01	-4.65448495782E-02	4.63539564536E-02	-4.65423845583E-02	4.63368083246E-02	1.10596364826E-01	2.16609172435E-01
1.73200000000E+09	7.32162822476E-04	-1.31722886555E-01	-4.55091869013E-02	4.72810936469E-02	-4.55164756838E-02	4.72773714058E-02	1.15782063086E-01	2.14717320432E-01
1.73250000000E+09	1.60722288265E-03	-1.34390026278E-01	-4.44889932927E-02	4.81772964645E-02	-4.45014974635E-02	4.81834498144E-02	1.20910905733E-01	2.12646519308E-01
1.73300000000E+09	2.37004740921E-03	-1.37067834338E-01	-4.34444327982E-02	4.90966882411E-02	-4.34547698045E-02	4.90715428013E-02	1.25939396360E-01	2.10466657491E-01
1.73350000000E+09	3.08952916458E-03	-1.39781587903E-01	-4.23921841844E-02	4.99449219371E-02	-4.23951742615E-02	4.99343026134E-02	1.30922370639E-01	2.08073406692E-01
1.73400000000E+09	3.69801994428E-03	-1.42476450875E-01	-4.13064948419E-02	5.07946029525E-02	-4.13130126102E-02	5.07780668976E-02	1.35857008171E-01	2.05546539523E-01
1.73450000000E+09	4.21149129710E-03	-1.45181813233E-01	-4.02144399991E-02	5.16049283287E-02	-4.02112131180E-02	5.16069111305E-02	1.40679017002E-01	2.02866051205E-01
1.73500000000E+09	4.65193653008E-03	-1.47902520586E-01	-3.91114774979E-02	5.24051228470E-02	-3.91203177312E-02	5.24018472334E-02	1.45385958583E-01	2.00034961053E-01
1.73550000000E+09	4.99507563884E-03	-1.50619416652E-01	-3.79843222707E-02	5.31853863062E-02	-3.80205789486E-02	5.31677499880E-02	1.50048107047E-01	1.97060102193E-01
1.73600000000E+09	5.26130554719E-03	-1.53308317937E-01	-3.68735988228E-02	5.39256405127E-02	-3.68945175400E-02	5.39083099065E-02	1.54584689752E-01	1.93967704323E-01
1.73650000000E+09	5.43532349432E-03	-1.56000412619E-01	-3.57273759040E-02	5.46341104223E-02	-3.57319159689E-02	5.46466640858E-02	1.59040438797E-01	1.90718810155E-01
1.73700000000E+09	5.52694970109E-03	-1.58714684316E-01	-3.45574542834E-02	5.53510613646E-02	-3.45759723998E-02	5.53484623429E-02	1.63372023006E-01	1.87314974578E-01
1.73750000000E+09	5.51981787527E-03	-1.61387420335E-01	-3.34063029314E-02	5.60333379439E-02	-3.34163969157E-02	5.60415731780E-02	1.67626097568E-01	1.83823505599E-01
1.73800000000E+09	5.44568561452E-03	-1.64075869111E-01	-3.22178876304E-02	5.66906711673E-02	-3.22218174466E-02	5.66820248658E-02	1.71726554291E-01	1.80116981681E-01
1.73850000000E+09	5.28511865699E-03	-1.66727367429E-01	-3.10291952938E-02	5.73214512610E-02	-3.10376870048E-02	5.73180039278E-02	1.75758277375E-01	1.76357326060E-01
1.73900000000E+09	5.03307858242E-03	-1.69379017889E-01	-2.98170479414E-02	5.79379925619E-02	-2.98256126641E-02	5.79264926577E-02	1.79661230333E-01	1.72465617648E-01
1.73950000000E+09	4.74247715581E-03	-1.72003872123E-01	-2.86107231763E-02	5.85033196365E-02	-2.86232393252E-02	5.85266712842E-02	1.83421153601E-01	1.68449559539E-01
1.74000000000E+09	4.31800626892E-03	-1.74641860394E-01	-2.73864524462E-02	5.90746300400E-02	-2.74047030374E-02	5.90703455606E-02	1.87050742181E-01	1.64317272124E-01
1.74050000000E+09	3.83362663320E-03	-1.77206724666E-01	-2.61513531171E-02	5.96137825803E-02	-2.61720712505E-02	5.96157749547E-02	1.90550361967E-01	1.60062408099E-01
1.74100000000E+09	3.24992649876E-03	-1.79795716283E-01	-2.49065144747E-02	6.01325538511E-02	-2.49034134926E-02	6.01197135037E-02	1.93912762230E-01	1.55720770983E-01
1.74150000000E+09	2.57337655006E-03	-1.82315115518E-01	-2.36556351471E-02	6.06238346939E-02	-2.36458437800E-02	6.06063596577E-02	1.97186610436E-01	1.51219869711E-01
1.74200000000E+09	1.87980989319E-03	-1.84839116328E-01	-2.23879489495E-02	6.10639161587E-02	-2.23990589921E-02	6.10717873301E-02	2.00274463872E-01	1.46710087642E-01
1.74250000000E+09	1.04209985430E-03	-1.87285229618E-01	-2.11244651856E-02	6.15108642596E-02	-2.11264151751E-02	6.15068656645E-02	2.03236224332E-01	1.42055512583E-01
1.74300000000E+09	1.73744223186E-04	-1.89767132663E-01	-1.98292382152E-02	6.19278075757E-02	-1.98612131830E-02	6.19317150428E-02	2.06042505862E-01	1.37309334388E-01
1.74350000000E+09	-8.18870806963E-04	-1.92186532502E-01	-1.85430609532E-02	6.23148485749E-02	-1.85673548665E-02	6.23171735504E-02	2.08729892769E-01	1.32472108629E-01
1.74400000000E+09	-1.84172493527E-03	-1.94509507186E-01	-1.72579391835E-02	6.26734489846E-02	-1.72711593413E-02	6.26779373751E-02	2.11206396654E-01	1.27568800554E-01
1.74450000000E+09	-2.97666156750E-03	-1.96893100359E-01	-1.59577576378E-02	6.30216587430E-02	-1.59651899488E-02	6.30032133473E-02	2.13587560500E-01	1.22583305585E-01
1.74500000000E+09	-4.17160967863E-03	-1.99156809547E-01	-1.46300032348E-02	6.33202849384E-02	-1.46674633476E-02	6.33190660461E-02	2.15785618701E-01	1.17532618941E-01
1.74550000000E+09	-5.43925001318E-03	-2.01404080551E-01	-1.33232067873E-02	6.36172967972E-02	-1.33245234203E-02	6.36072946942E-02	2.17816442657E-01	1.12427013611E-01
1.74600000000E+09	-6.78880822405E-03	-2.03621514356E-01	-1.19890374816E-02	6.38689580159E-02	-1.20196662927E-02	6.38584781333E-02	2.19741299619E-01	1.07224236121E-01
1.74650000000E+09	-8.21552222357E-03	-2.05752044770E-01	-1.06827736611E-02	6.40845875461E-02	-1.06784764490E-02	6.41028573184E-02	2.21436709851E-01	1.02001174686E-01
1.74700000000E+09	-9.73949712032E-03	-2.07836744438E-01	-9.32877167269E-03	6.43085476297E-02	-9.35226330650E-03	6.43124606222E-02	2.23006174301E-01	9.66992215621E-02
1.74750000000E+09	-1.12999732561E-02	-2.09875253512E-01	-8.01555474248E-03	6.44801764859E-02	-8.01020286522E-03	6.44773571758E-02	2.24408686320E-01	9.13687651841E-02
1.74800000000E+09	-1.29527996265E-02	-2.11869604380E-01	-6.66108152875E-03	6.46265850721E-02	-6.65914893852E-03	6.46305266349E-02	2.25639147374E-01	8.59740435573E-02
1.74850000000E+09	-1.46546574666E-02	-2.13770452835E-01	-5.32221176064E-03	6.47285013810E-02	-5.31110294608E-03	6.47452392108E-02	2.26669086959E-01	8.05373906543E-02
1.74900000000E+09	-1.64667739716E-02	-2.15595318935E-01	-3.96955670026E-03	6.48316541665E-02	-3.97166291476E-03	6.48245811479E-02	2.27569505269E-01	7.51025819798E-02
1.74950000000E+09	-1.83037395342E-02	-2.17378694901E-01	-2.62014324050E-03	6.49004424024E-02	-2.62400472356E-03	6.48975611275E-02	2.28303636673E-01	6.96288322556E-02
1.75000000000E+09	-2.02364675890E-02	-2.19088118600E-01	-1.25915280501E-03	6.49292842446E-02	-1.26144755004E-03	6.49358412169E-02	2.28860605780E-01	6.41028580566E-02
1.75050000000E+09	-2.22476925086E-02	-2.20720287351E-01	8.37746220558E-05	6.49296875114E-02	7.61441149746E-05	6.49468925971E-02	2.29225960242E-01	5.85957952891E-02
1.75100000000E+09	-2.42569501400E-02	-2.22287036686E-01	1.44330180846E-03	6.49141468546E-02	1.43554621949E-03	6.49272509441E-02	2.29430095938E-01	5.30643357136E-02
1.75150000000E+09	-2.63751721565E-02	-2.23769715983E-01	2.79676309714E-03	6.48817015964E-02	2.78419089889E-03	6.48624447499E-02	2.29461007908E-01	4.75295664351E-02
1.75200000000E+09	-2.85557660552E-02	-2.25134534313E-01	4.13492645747E-03	6.47886711186E-02	4.12429282318E-03	6.47949466726E-02	2.29317860892E-01	4.19744857843E-02
1.75250000000E+09	-3.07588936675E-02	-2.26424523461E-01	5.49721801814E-03	6.46819318750E-02	5.49112421844E-03	6.46876461284E-02	2.29009300102E-01	3.64533416936E-02
1.75300000000E+09	-3.30483492353E-02	-2.27634699131E-01	6.83798563766E-03	6.45494354465E-02	6.82443154921E-03	6.45570749268E-02	2.28490215663E-01	3.09503319229E-02
1.75350000000E+09	-3.53511066119E-02	-2.28750849594E-01	8.18068082791E-03	6.43975538272E-02	8.16099268748E-03	6.44023459989E-02	2.27825794506E-01	2.54308503958E-02
1.75400000000E+09	-3.77464615143E-02	-2.29754736069E-01	9.51787360002E-03	6.41967923001E-02	9.51179651329E-03	6.42047815877E-02	2.26966788039E-01	1.99456178816E-02
1.75450000000E+09	-4.01374744925E-02	-2.30664649448E-01	1.08456908446E-02	6.39627835313E-02	1.08428488500E-02	6.39775145060E-02	2.25989009038E-01	1.44485171616E-02
1.75500000000E+09	-4.26052004986E-02	-2.31459771414E-01	1.21723758478E-02	6.37280214816E-02	1.21609199609E-02	6.37401948716E-02	2.24813809955E-01	9.03222714858E-03
1.75550000000E+09	-4.50950810306E-02	-2.32139229480E-01	1.34945861818E-02	6.34646376961E-02	1.34877157628E-02	6.34616325717E-02	2.23434953246E-01	3.63795805495E-03
1.75600000000E+09	-4.76147892340E-02	-2.32748032872E-01	1.48032322823E-02	6.31602249195E-02	1.48211414430E-02	6.31608497813E-02	2.21925147666E-01	-1.69627204970E-03
1.75650000000E+09	-5.01292521577E-02	-2.33165835776E-01	1.61215010913E-02	6.28252820484E-02	1.60999379914E-02	6.28381038565E-02	2.20242340603E-01	-7.02278619488E-03
1.75700000000E+09	-5.26907828964E-02	-2.33539844022E-01	1.74146417171E-02	6.24769621616E-02	1.74018963859E-02	6.24732273212E-02	2.18358318464E-01	-1.22400902915E-02
1.75750000000E+09	-5.52820853453E-02	-2.33766066574E-01	1.87042323095E-02	6.20981592141E-02	1.86943957045E-02	6.20968608805E-02	2.16311292463E-01	-1.74605717837E-02
1.75800000000E+09	-5.78734938651E-02	-2.33849475271E-01	1.99973208112E-02	6.16820772922E-02	1.99731342208E-02	6.16792130721E-02	2.14123008221E-01	-2.25684906265E-02
1.75850000000E+09	-6.04456767542E-02	-2.33862722234E-01	2.12567688780E-02	6.12453942039E-02	2.12549477035E-02	6.12477071795E-02	2.11770677506E-01	-2.76231714213E-02
