# Hz S RI R 50
! CMT, CMT808U, 21440046, 21.4.3/4
! Date: 11/12/2025 10:28:04 AM
! Data: Format (Calibration Info)
! Freq	S11:Re/Im(F2)	S41:Re/Im(F2)	S14:Re/Im(F2)	S44:Re/Im(F2)
1.60000000000E+09	-2.84724025334E-01	-2.34379171436E-01	-7.86682046201E-03	6.08822746167E-02	-8.56789866129E-03	6.04796844004E-02	-1.14384987989E-01	-7.95318602932E-03
1.60100000000E+09	-2.79919009635E-01	-2.32992057759E-01	-5.10383458689E-03	6.12441162780E-02	-5.82278380806E-03	6.08679240516E-02	-1.18204334352E-01	2.66744287666E-03
1.60200000000E+09	-2.75291290435E-01	-2.32138072397E-01	-2.32549268340E-03	6.14538144464E-02	-3.06227586357E-03	6.11138814916E-02	-1.21298886989E-01	1.35150739913E-02
1.60300000000E+09	-2.70913442498E-01	-2.31792937913E-01	4.57804202404E-04	6.15226012941E-02	-2.92829267753E-04	6.12135733985E-02	-1.23662615298E-01	2.45316516498E-02
1.60400000000E+09	-2.66851272751E-01	-2.31935557497E-01	3.23194098293E-03	6.14399275658E-02	2.46999190144E-03	6.11655261032E-02	-1.25283891089E-01	3.56709810776E-02
1.60500000000E+09	-2.63186404158E-01	-2.32509291313E-01	5.99020208399E-03	6.12163889696E-02	5.21269804380E-03	6.09743146023E-02	-1.26156852541E-01	4.68813418255E-02
1.60600000000E+09	-2.59971161108E-01	-2.33458864735E-01	8.71468814067E-03	6.08448183695E-02	7.92871622090E-03	6.06389623795E-02	-1.26282732064E-01	5.81164417938E-02
1.60700000000E+09	-2.57268576080E-01	-2.34724055845E-01	1.14049856821E-02	6.03442988856E-02	1.06090360720E-02	6.01701982383E-02	-1.25668539212E-01	6.93228328264E-02
1.60800000000E+09	-2.55116328116E-01	-2.36220748548E-01	1.40364811089E-02	5.97087795816E-02	1.32379090703E-02	5.95675874607E-02	-1.24320635984E-01	8.04442342614E-02
1.60900000000E+09	-2.53551516463E-01	-2.37860180883E-01	1.66173243044E-02	5.89533064599E-02	1.58181745515E-02	5.88455018749E-02	-1.22234784110E-01	9.14481922341E-02
1.61000000000E+09	-2.52599060933E-01	-2.39553974713E-01	1.91334711470E-02	5.80823623613E-02	1.83281758284E-02	5.80080946079E-02	-1.19435298675E-01	1.02262906142E-01
1.61100000000E+09	-2.52237135778E-01	-2.41208665678E-01	2.15821852560E-02	5.71037777172E-02	2.07762914987E-02	5.70658272916E-02	-1.15924921924E-01	1.12866161481E-01
1.61200000000E+09	-2.52465128754E-01	-2.42736100927E-01	2.39558905319E-02	5.60294448123E-02	2.31542546298E-02	5.60252381630E-02	-1.11741761930E-01	1.23200129459E-01
1.61300000000E+09	-2.53237113604E-01	-2.44041695049E-01	2.62526212109E-02	5.48723682503E-02	2.54546752709E-02	5.48953798239E-02	-1.06889023980E-01	1.33225154031E-01
1.61400000000E+09	-2.54515252564E-01	-2.45058427395E-01	2.84827370447E-02	5.36262848147E-02	2.76830776011E-02	5.36881726811E-02	-1.01396534113E-01	1.42893945364E-01
1.61500000000E+09	-2.56234582826E-01	-2.45716713500E-01	3.06323120499E-02	5.23132111185E-02	2.98381680587E-02	5.24042654782E-02	-9.52824434990E-02	1.52168578426E-01
1.61600000000E+09	-2.58349072463E-01	-2.45955904943E-01	3.27092591964E-02	5.09325017258E-02	3.19243459763E-02	5.10534432428E-02	-8.85884832213E-02	1.61011210876E-01
1.61700000000E+09	-2.60768174961E-01	-2.45742415935E-01	3.47157502801E-02	4.94883049095E-02	3.39353428449E-02	4.96412137900E-02	-8.13380583508E-02	1.69384411921E-01
1.61800000000E+09	-2.63423644077E-01	-2.45043873555E-01	3.66542632965E-02	4.79895218584E-02	3.58856858044E-02	4.81690904273E-02	-7.35652022374E-02	1.77262117369E-01
1.61900000000E+09	-2.66245364464E-01	-2.43834835962E-01	3.85274379395E-02	4.64346871359E-02	3.77618380249E-02	4.66422507128E-02	-6.52998630887E-02	1.84592903122E-01
1.62000000000E+09	-2.69152117398E-01	-2.42118747711E-01	4.03378168227E-02	4.48270296475E-02	3.95795399099E-02	4.50625804954E-02	-5.65884188805E-02	1.91371114734E-01
1.62100000000E+09	-2.72076936164E-01	-2.39901837323E-01	4.20846952030E-02	4.31669668559E-02	4.13365181232E-02	4.34324829619E-02	-4.74637909114E-02	1.97553525502E-01
1.62200000000E+09	-2.74949955636E-01	-2.37211216751E-01	4.37708323073E-02	4.14623270677E-02	4.30334788898E-02	4.17494776253E-02	-3.79562139731E-02	2.03115305751E-01
1.62300000000E+09	-2.77730287570E-01	-2.34045214837E-01	4.53988999953E-02	3.96989088892E-02	4.46715928966E-02	4.00193990331E-02	-2.81214583193E-02	2.08047592719E-01
1.62400000000E+09	-2.80347646942E-01	-2.30451374175E-01	4.69680053401E-02	3.78926855458E-02	4.62493724543E-02	3.82379063270E-02	-1.80007865086E-02	2.12320902875E-01
1.62500000000E+09	-2.82774040907E-01	-2.26456504275E-01	4.84792991032E-02	3.60285340095E-02	4.77754377317E-02	3.64057294515E-02	-7.62907796312E-03	2.15923907828E-01
1.62600000000E+09	-2.84963129051E-01	-2.22098308333E-01	4.99346007703E-02	3.41159512564E-02	4.92369077146E-02	3.45181310842E-02	2.94340170334E-03	2.18833575433E-01
1.62700000000E+09	-2.86882275152E-01	-2.17406082097E-01	5.13240563412E-02	3.21522978530E-02	5.06441852705E-02	3.25783302343E-02	1.36733705581E-02	2.21051793786E-01
1.62800000000E+09	-2.88512986038E-01	-2.12433565295E-01	5.26525139538E-02	3.01339911797E-02	5.19854463783E-02	3.05900983706E-02	2.45158615318E-02	2.22565121351E-01
1.62900000000E+09	-2.89831324011E-01	-2.07201056334E-01	5.39194529747E-02	2.80627978304E-02	5.32619411249E-02	2.85457816164E-02	3.54238855482E-02	2.23375549778E-01
1.63000000000E+09	-2.90830553078E-01	-2.01750902360E-01	5.51216812614E-02	2.59351962111E-02	5.44756491245E-02	2.64461600101E-02	4.63531387913E-02	2.23474416166E-01
1.63100000000E+09	-2.91483613771E-01	-1.96125821202E-01	5.62489839110E-02	2.37587242369E-02	5.56239633008E-02	2.42948581605E-02	5.72588747797E-02	2.22865591702E-01
1.63200000000E+09	-2.91797280833E-01	-1.90353253945E-01	5.73028082930E-02	2.15279585486E-02	5.66986662874E-02	2.20891699091E-02	6.81017156852E-02	2.21555207325E-01
1.63300000000E+09	-2.91767386292E-01	-1.84471152507E-01	5.82858053071E-02	1.92406589821E-02	5.76955830087E-02	1.98314785465E-02	7.88203042892E-02	2.19545229631E-01
1.63400000000E+09	-2.91381858927E-01	-1.78497998457E-01	5.91868284992E-02	1.69033758413E-02	5.86143451080E-02	1.75247991883E-02	8.93962812768E-02	2.16852124772E-01
1.63500000000E+09	-2.90655447712E-01	-1.72467242109E-01	6.00008820760E-02	1.45149905366E-02	5.94537906184E-02	1.51661347285E-02	9.97578634674E-02	2.13479759298E-01
1.63600000000E+09	-2.89584703894E-01	-1.66418117905E-01	6.07334369502E-02	1.20829184788E-02	6.02047385280E-02	1.27600069881E-02	1.09885454765E-01	2.09453312819E-01
1.63700000000E+09	-2.88169211733E-01	-1.60359302892E-01	6.13714279940E-02	9.60591117252E-03	6.08701072620E-02	1.03081973187E-02	1.19730574851E-01	2.04775293667E-01
1.63800000000E+09	-2.86410800146E-01	-1.54336490908E-01	6.19119611810E-02	7.08548454042E-03	6.14357230933E-02	7.81547958086E-03	1.29247872150E-01	1.99484534084E-01
1.63900000000E+09	-2.84335124035E-01	-1.48355943943E-01	6.23573511515E-02	4.52476804125E-03	6.19100215445E-02	5.28171139952E-03	1.38408605598E-01	1.93592242428E-01
1.64000000000E+09	-2.81918524654E-01	-1.42441308349E-01	6.26992045566E-02	1.93274029456E-03	6.22822022191E-02	2.71277672622E-03	1.47168577971E-01	1.87126328148E-01
1.64100000000E+09	-2.79201548566E-01	-1.36615868989E-01	6.29400756910E-02	-6.93448556606E-04	6.25521365628E-02	1.10023607977E-04	1.55508895200E-01	1.80108700477E-01
1.64200000000E+09	-2.76174500101E-01	-1.30896037095E-01	6.30683729644E-02	-3.34759139669E-03	6.27138249757E-02	-2.51988217241E-03	1.63375558901E-01	1.72574671375E-01
1.64300000000E+09	-2.72844274791E-01	-1.25301927371E-01	6.30870378992E-02	-6.02590759739E-03	6.27657344463E-02	-5.17258184154E-03	1.70741263034E-01	1.64552989814E-01
1.64400000000E+09	-2.69234321491E-01	-1.19853243680E-01	6.29894090061E-02	-8.72295580266E-03	6.27082017574E-02	-7.84587029223E-03	1.77588786727E-01	1.56069455019E-01
1.64500000000E+09	-2.65333194697E-01	-1.14562040020E-01	6.27742167908E-02	-1.14308096284E-02	6.25306795012E-02	-1.05380038215E-02	1.83872448305E-01	1.47166160013E-01
1.64600000000E+09	-2.61161690960E-01	-1.09443911009E-01	6.24424008319E-02	-1.41474398175E-02	6.22391872382E-02	-1.32376630700E-02	1.89585857591E-01	1.37877806997E-01
1.64700000000E+09	-2.56723268406E-01	-1.04527314578E-01	6.19863066426E-02	-1.68678513480E-02	6.18278505422E-02	-1.59394892586E-02	1.94700593681E-01	1.28232622683E-01
1.64800000000E+09	-2.52031225217E-01	-9.98141458519E-02	6.14134478266E-02	-1.95810310313E-02	6.12935871356E-02	-1.86426447783E-02	1.99182206915E-01	1.18283921987E-01
1.64900000000E+09	-2.47102090085E-01	-9.53347669651E-02	6.07104821818E-02	-2.22881181719E-02	6.06385085449E-02	-2.13348793091E-02	2.03022212129E-01	1.08063574950E-01
1.65000000000E+09	-2.41942932179E-01	-9.10948759531E-02	5.98812619337E-02	-2.49836962396E-02	5.98571397917E-02	-2.40179350536E-02	2.06208587894E-01	9.76146338208E-02
1.65100000000E+09	-2.36567274588E-01	-8.71169819936E-02	5.89287998050E-02	-2.76494372079E-02	5.89506506188E-02	-2.66821906848E-02	2.08722193258E-01	8.69766780833E-02
1.65200000000E+09	-2.30981749001E-01	-8.34142114743E-02	5.78486111524E-02	-3.02929987613E-02	5.79150997870E-02	-2.93188044949E-02	2.10546145477E-01	7.61916081601E-02
1.65300000000E+09	-2.25203357395E-01	-8.00012719083E-02	5.66393905590E-02	-3.28993711010E-02	5.67566115516E-02	-3.19244563141E-02	2.11691349772E-01	6.53019928743E-02
1.65400000000E+09	-2.19259594451E-01	-7.68910436905E-02	5.53063079920E-02	-3.54623593069E-02	5.54683129765E-02	-3.44888625232E-02	2.12133377658E-01	5.43618995406E-02
1.65500000000E+09	-2.13155666359E-01	-7.41075977608E-02	5.38439226542E-02	-3.79767751659E-02	5.40539975633E-02	-3.70081644737E-02	2.11864882916E-01	4.34085675722E-02
1.65600000000E+09	-2.06911544875E-01	-7.16597705025E-02	5.22577380149E-02	-4.04347078171E-02	5.25161821035E-02	-3.94729085825E-02	2.10907342485E-01	3.24813214693E-02
1.65700000000E+09	-2.00549084662E-01	-6.95607439532E-02	5.05424482729E-02	-4.28273611263E-02	5.08533057974E-02	-4.18776755328E-02	2.09239750054E-01	2.16379631658E-02
1.65800000000E+09	-1.94090061807E-01	-6.78235666446E-02	4.87091432096E-02	-4.51538884847E-02	4.90696997363E-02	-4.42125001142E-02	2.06886310513E-01	1.09104154779E-02
1.65900000000E+09	-1.87545046275E-01	-6.64740709980E-02	4.67594049517E-02	-4.73956275108E-02	4.71635875830E-02	-4.64785561317E-02	2.03845195760E-01	3.48988152981E-04
1.66000000000E+09	-1.80955228775E-01	-6.55045514638E-02	4.46873363484E-02	-4.95594768835E-02	4.51418889427E-02	-4.86527033981E-02	2.00129149236E-01	-1.00007463545E-02
1.66100000000E+09	-1.74343183389E-01	-6.49436910020E-02	4.25117549580E-02	-5.16250224268E-02	4.30076054937E-02	-5.07397988698E-02	1.95747454805E-01	-2.00938989682E-02
1.66200000000E+09	-1.67732810524E-01	-6.47989133762E-02	4.02209781508E-02	-5.35916522536E-02	4.07623249388E-02	-5.27303726483E-02	1.90723190218E-01	-2.98905607654E-02
1.66300000000E+09	-1.61162765195E-01	-6.50825788188E-02	3.78315496024E-02	-5.54458206392E-02	3.84137518537E-02	-5.46163092464E-02	1.85070399450E-01	-3.93477953112E-02
1.66400000000E+09	-1.54665702204E-01	-6.57831870687E-02	3.53414434456E-02	-5.71925938371E-02	3.59639109393E-02	-5.63887220946E-02	1.78818422936E-01	-4.84365087179E-02
1.66500000000E+09	-1.48272584178E-01	-6.69223330932E-02	3.27606739525E-02	-5.88137782305E-02	3.34236669838E-02	-5.80391222380E-02	1.71979298638E-01	-5.70934115822E-02
1.66600000000E+09	-1.42028557739E-01	-6.84852308041E-02	3.00941881332E-02	-6.03094003064E-02	3.07926081211E-02	-5.95700227761E-02	1.64586570987E-01	-6.53036462230E-02
1.66700000000E+09	-1.35974852127E-01	-7.04861896435E-02	2.73536639430E-02	-6.16686622268E-02	2.80872357773E-02	-6.09671977919E-02	1.56667023229E-01	-7.30107090015E-02
1.66800000000E+09	-1.30145061828E-01	-7.28957739327E-02	2.45389355696E-02	-6.28961353726E-02	2.53086274869E-02	-6.22263023894E-02	1.48260986143E-01	-8.01883729779E-02
1.66900000000E+09	-1.24580464751E-01	-7.57194829888E-02	2.16674877583E-02	-6.39754606279E-02	2.24660273778E-02	-6.33459125684E-02	1.39395780455E-01	-8.68171709706E-02
1.67000000000E+09	-1.19334199776E-01	-7.89329698545E-02	1.87426603554E-02	-6.49097618596E-02	1.95710710936E-02	-6.43158170431E-02	1.30103188710E-01	-9.28491616796E-02
1.67100000000E+09	-1.14444664643E-01	-8.25151181396E-02	1.57716571263E-02	-6.56912743064E-02	1.66238428102E-02	-6.51404314477E-02	1.20431973864E-01	-9.82626372120E-02
1.67200000000E+09	-1.09952166307E-01	-8.64399656374E-02	1.27749157649E-02	-6.63235097133E-02	1.36500978755E-02	-6.58095732730E-02	1.10415068717E-01	-1.03029559384E-01
1.67300000000E+09	-1.05905511697E-01	-9.06718465281E-02	9.75463160535E-03	-6.67967105156E-02	1.06524321889E-02	-6.63293090789E-02	1.00100058376E-01	-1.07131161084E-01
1.67400000000E+09	-1.02339861464E-01	-9.51732270781E-02	6.71922565150E-03	-6.71186625213E-02	7.63607901097E-03	-6.66921087401E-02	8.95210602843E-02	-1.10542156452E-01
1.67500000000E+09	-9.92992667793E-02	-9.98931199368E-02	3.68466763476E-03	-6.72825878044E-02	4.61611937744E-03	-6.68990505683E-02	7.87354541228E-02	-1.13248368295E-01
1.67600000000E+09	-9.68055823067E-02	-1.04779721991E-01	6.57920794992E-04	-6.72957475479E-02	1.60630577560E-03	-6.69535369955E-02	6.77807461561E-02	-1.15238733328E-01
1.67700000000E+09	-9.48986719141E-02	-1.09769657484E-01	-2.34722658310E-03	-6.71522587314E-02	-1.38479269240E-03	-6.68608118143E-02	5.67143656105E-02	-1.16486691549E-01
1.67800000000E+09	-9.35930564479E-02	-1.14793973586E-01	-5.32424625288E-03	-6.68669736250E-02	-4.35127634255E-03	-6.66153304132E-02	4.55726307760E-02	-1.16997942291E-01
1.67900000000E+09	-9.28988858363E-02	-1.19787099306E-01	-8.26439958313E-03	-6.64403328517E-02	-7.28267147430E-03	-6.62309453178E-02	3.44117409493E-02	-1.16765505956E-01
1.68000000000E+09	-9.28228916922E-02	-1.24667713159E-01	-1.11520782346E-02	-6.58713480137E-02	-1.01666384957E-02	-6.57090994927E-02	2.32817288845E-02	-1.15786611689E-01
1.68100000000E+09	-9.33532760414E-02	-1.29351533868E-01	-1.39922044965E-02	-6.51713125429E-02	-1.29976691436E-02	-6.50545180273E-02	1.22352037501E-02	-1.14052570496E-01
1.68200000000E+09	-9.44654429948E-02	-1.33777315202E-01	-1.67650443203E-02	-6.43518599563E-02	-1.57685340205E-02	-6.42779460411E-02	1.31060978997E-03	-1.11585919091E-01
1.68300000000E+09	-9.61275791865E-02	-1.37852776771E-01	-1.94686703656E-02	-6.34163551264E-02	-1.84763486790E-02	-6.33841316139E-02	-9.42744060213E-03	-1.08381422321E-01
1.68400000000E+09	-9.82985653224E-02	-1.41510701331E-01	-2.21070361289E-02	-6.23707518566E-02	-2.11104771696E-02	-6.23856503028E-02	-1.99431331042E-02	-1.04452606975E-01
1.68500000000E+09	-1.00914774343E-01	-1.44681436613E-01	-2.46675167885E-02	-6.12253973444E-02	-2.36717737698E-02	-6.12857918872E-02	-3.01755221556E-02	-9.98208728340E-02
1.68600000000E+09	-1.03912001546E-01	-1.47310531225E-01	-2.71493442214E-02	-5.99922081277E-02	-2.61626892723E-02	-6.00954968231E-02	-4.00842026943E-02	-9.44994793526E-02
1.68700000000E+09	-1.07223702147E-01	-1.49351270507E-01	-2.95562165722E-02	-5.86776922189E-02	-2.85745878711E-02	-5.88223885135E-02	-4.96164295603E-02	-8.85112625321E-02
1.68800000000E+09	-1.10763384536E-01	-1.50762338686E-01	-3.18874274255E-02	-5.72825302633E-02	-3.09128105666E-02	-5.74706284266E-02	-5.87249053671E-02	-8.18821568976E-02
1.68900000000E+09	-1.14436421342E-01	-1.51512185599E-01	-3.41399885382E-02	-5.58195618086E-02	-3.31815059862E-02	-5.60505250873E-02	-6.73800855484E-02	-7.46515628961E-02
1.69000000000E+09	-1.18157631479E-01	-1.51590906275E-01	-3.63237403935E-02	-5.42949040994E-02	-3.53754017783E-02	-5.45617209401E-02	-7.55314095486E-02	-6.68347272950E-02
1.69100000000E+09	-1.21838006452E-01	-1.51005532125E-01	-3.84363870857E-02	-5.27064211307E-02	-3.75030039115E-02	-5.30129991870E-02	-8.31285752447E-02	-5.84754896648E-02
1.69200000000E+09	-1.25373564636E-01	-1.49754674846E-01	-4.04857267609E-02	-5.10603269729E-02	-3.95660562861E-02	-5.14060620001E-02	-9.01561866823E-02	-4.96137767597E-02
1.69300000000E+09	-1.28677548334E-01	-1.47887936070E-01	-4.24703892980E-02	-4.93566522328E-02	-4.15663424206E-02	-4.97450025627E-02	-9.65612388869E-02	-4.02897220958E-02
1.69400000000E+09	-1.31669388760E-01	-1.45432516653E-01	-4.43963278434E-02	-4.76006093063E-02	-4.35112418616E-02	-4.80235534581E-02	-1.02328115218E-01	-3.05512467502E-02
1.69500000000E+09	-1.34265933230E-01	-1.42453815385E-01	-4.62619741033E-02	-4.57849099265E-02	-4.54011309165E-02	-4.62484788309E-02	-1.07419770920E-01	-2.04345254643E-02
1.69600000000E+09	-1.36419861925E-01	-1.39021050530E-01	-4.80732896966E-02	-4.39106877946E-02	-4.72326647831E-02	-4.44079484910E-02	-1.11815256890E-01	-9.99743909060E-03
1.69700000000E+09	-1.38076211306E-01	-1.35195733852E-01	-4.98292186959E-02	-4.19791077781E-02	-4.90104300971E-02	-4.25090398606E-02	-1.15496517848E-01	7.16072770616E-04
1.69800000000E+09	-1.39192527436E-01	-1.31055716753E-01	-5.15299185236E-02	-3.99846812100E-02	-5.07282611245E-02	-4.05450707048E-02	-1.18445489804E-01	1.16535936027E-02
1.69900000000E+09	-1.39749243413E-01	-1.26682431855E-01	-5.31715535565E-02	-3.79231159521E-02	-5.23952745527E-02	-3.85155056066E-02	-1.20656761898E-01	2.27669980770E-02
1.70000000000E+09	-1.39724129216E-01	-1.22141776745E-01	-5.47496052852E-02	-3.57888632652E-02	-5.40017944468E-02	-3.64196080278E-02	-1.22124054126E-01	3.39979530084E-02
1.70100000000E+09	-1.39110634676E-01	-1.17523980454E-01	-5.62627019550E-02	-3.35878742226E-02	-5.55409379210E-02	-3.42483502637E-02	-1.22832982373E-01	4.52957965119E-02
1.70200000000E+09	-1.37922373931E-01	-1.12888819126E-01	-5.77072030931E-02	-3.13130718963E-02	-5.70118302203E-02	-3.20021307922E-02	-1.22779507232E-01	5.66210170747E-02
1.70300000000E+09	-1.36164126330E-01	-1.08316284226E-01	-5.90769677236E-02	-2.89642192606E-02	-5.84109196643E-02	-2.96856464802E-02	-1.21987644638E-01	6.79077133642E-02
1.70400000000E+09	-1.33871121929E-01	-1.03866415577E-01	-6.03632873949E-02	-2.65486804618E-02	-5.97255684021E-02	-2.72939421677E-02	-1.20450101161E-01	7.91044449646E-02
1.70500000000E+09	-1.31060108121E-01	-9.96027686003E-02	-6.15620953736E-02	-2.40546328757E-02	-6.09598470601E-02	-2.48271784883E-02	-1.18176057321E-01	9.01805548516E-02
1.70600000000E+09	-1.27773404285E-01	-9.55702668609E-02	-6.26675424400E-02	-2.14946228574E-02	-6.20969294337E-02	-2.22942867201E-02	-1.15186743784E-01	1.01062296255E-01
1.70700000000E+09	-1.24052940902E-01	-9.18189173314E-02	-6.36680217839E-02	-1.88640205223E-02	-6.31321603034E-02	-1.96906228733E-02	-1.11500744641E-01	1.11725198130E-01
1.70800000000E+09	-1.19939670816E-01	-8.83859079972E-02	-6.45646158750E-02	-1.61763540557E-02	-6.40600270574E-02	-1.70210120259E-02	-1.07123926966E-01	1.22115241020E-01
1.70900000000E+09	-1.15473305947E-01	-8.52963336363E-02	-6.53442786631E-02	-1.34234388834E-02	-6.48763704372E-02	-1.42949016187E-02	-1.02092618543E-01	1.32189445723E-01
1.71000000000E+09	-1.10697502713E-01	-8.25820689997E-02	-6.60049856386E-02	-1.06214947079E-02	-6.55735222934E-02	-1.15122030335E-02	-9.64326909890E-02	1.41911985903E-01
1.71100000000E+09	-1.05660033576E-01	-8.02654425611E-02	-6.65414382475E-02	-7.77293863179E-03	-6.61491544366E-02	-8.68458916010E-03	-9.01605483620E-02	1.51242808380E-01
1.71200000000E+09	-1.00406011466E-01	-7.83498857610E-02	-6.69441298037E-02	-4.88310718041E-03	-6.65915919381E-02	-5.81437296842E-03	-8.33106887925E-02	1.60140235696E-01
1.71300000000E+09	-9.49739622007E-02	-7.68603545597E-02	-6.72140921025E-02	-1.96377449513E-03	-6.69035887975E-02	-2.90589877764E-03	-7.59161243800E-02	1.68574110839E-01
1.71400000000E+09	-8.94099428399E-02	-7.57889524697E-02	-6.73521020713E-02	9.83446429577E-04	-6.70770069138E-02	2.12338484493E-05	-6.80119107687E-02	1.76517148282E-01
1.71500000000E+09	-8.37486178739E-02	-7.51416480357E-02	-6.73454619329E-02	3.94440726504E-03	-6.71147840999E-02	2.96712535867E-03	-5.96247619510E-02	1.83928899701E-01
1.71600000000E+09	-7.80335544493E-02	-7.49240486219E-02	-6.71956846088E-02	6.91069467268E-03	-6.70068307653E-02	5.92414379074E-03	-5.08043683366E-02	1.90785118593E-01
1.71700000000E+09	-7.23015366197E-02	-7.51201416801E-02	-6.69038216140E-02	9.87832382940E-03	-6.67620930864E-02	8.88128430908E-03	-4.15756951227E-02	1.97068729437E-01
