# Hz S RI R 50
! CMT, CMT808U, 21440046, 21.4.3/4
! Date: 11/17/2025 2:50:12 PM
! Data: Format (Calibration Info)
! Freq	S11:Re/Im(F2)	S41:Re/Im(F2)	S14:Re/Im(F2)	S44:Re/Im(F2)
1.70000000000E+09	-8.27537819236E-02	-1.31966920050E-01	-5.63233975601E-02	-3.97379446877E-02	-5.64073042446E-02	-3.96888451220E-02	-7.63843714883E-02	5.60163051595E-02
1.70050000000E+09	-8.21935092393E-02	-1.29587014769E-01	-5.71573701734E-02	-3.85101173426E-02	-5.72587622286E-02	-3.84615395092E-02	-7.62213384295E-02	6.12972002729E-02
1.70100000000E+09	-8.14797056729E-02	-1.27218402060E-01	-5.80060455622E-02	-3.72609390375E-02	-5.80806963968E-02	-3.72093559068E-02	-7.58865197333E-02	6.65521271014E-02
1.70150000000E+09	-8.06338971005E-02	-1.24850714645E-01	-5.88035407532E-02	-3.59898387159E-02	-5.88990604539E-02	-3.59637965240E-02	-7.53738128766E-02	7.17796487281E-02
1.70200000000E+09	-7.96073822747E-02	-1.22534666188E-01	-5.95871532010E-02	-3.47338123351E-02	-5.96669511323E-02	-3.46775947577E-02	-7.46735011735E-02	7.70212249914E-02
1.70250000000E+09	-7.84540771471E-02	-1.20234855016E-01	-6.03327501906E-02	-3.34267480676E-02	-6.04289154849E-02	-3.33724939095E-02	-7.38070555800E-02	8.21949140261E-02
1.70300000000E+09	-7.71413444388E-02	-1.17960630056E-01	-6.10602079000E-02	-3.21018328493E-02	-6.11473857177E-02	-3.20627267720E-02	-7.27783750803E-02	8.73567598244E-02
1.70350000000E+09	-7.57181924452E-02	-1.15753512519E-01	-6.17485520209E-02	-3.07707520229E-02	-6.18281846696E-02	-3.07249423673E-02	-7.15708141420E-02	9.24650660670E-02
1.70400000000E+09	-7.41485200128E-02	-1.13639641977E-01	-6.24110335663E-02	-2.94155897924E-02	-6.24943792192E-02	-2.93781175595E-02	-7.02233274322E-02	9.74974146755E-02
1.70450000000E+09	-7.24509375680E-02	-1.11538220034E-01	-6.30250225033E-02	-2.80715588290E-02	-6.31275560492E-02	-2.80206206762E-02	-6.86826249667E-02	1.02530327948E-01
1.70500000000E+09	-7.06355861068E-02	-1.09531083831E-01	-6.36493036168E-02	-2.66897301235E-02	-6.37378235692E-02	-2.66269334745E-02	-6.69693660369E-02	1.07501456794E-01
1.70550000000E+09	-6.86827165532E-02	-1.07630050845E-01	-6.42142715635E-02	-2.52971514635E-02	-6.42905740023E-02	-2.52355439897E-02	-6.51173809024E-02	1.12384334439E-01
1.70600000000E+09	-6.66496244545E-02	-1.05778360149E-01	-6.47566736719E-02	-2.38847746915E-02	-6.48369601788E-02	-2.38162533977E-02	-6.30891980249E-02	1.17203502503E-01
1.70650000000E+09	-6.44919659334E-02	-1.04085630851E-01	-6.52571474797E-02	-2.24793367038E-02	-6.53418663514E-02	-2.24056180494E-02	-6.09117424106E-02	1.21953210728E-01
1.70700000000E+09	-6.22728777484E-02	-1.02431711704E-01	-6.57380700490E-02	-2.10320240762E-02	-6.58219877576E-02	-2.09725419089E-02	-5.85962087658E-02	1.26622969065E-01
1.70750000000E+09	-5.99088088273E-02	-1.00892545678E-01	-6.61693086137E-02	-1.96080058541E-02	-6.62514656209E-02	-1.95316702386E-02	-5.61367538329E-02	1.31194946230E-01
1.70800000000E+09	-5.74684743753E-02	-9.94705925283E-02	-6.65625019472E-02	-1.81359806968E-02	-6.66310549354E-02	-1.80660004887E-02	-5.34969230165E-02	1.35707393703E-01
1.70850000000E+09	-5.49558572858E-02	-9.81867593208E-02	-6.69623542003E-02	-1.66775274802E-02	-6.70125565037E-02	-1.66054450232E-02	-5.07110059598E-02	1.40098191772E-01
1.70900000000E+09	-5.23909161277E-02	-9.69763300866E-02	-6.72912461898E-02	-1.51868319952E-02	-6.73580283344E-02	-1.51364543671E-02	-4.78242553385E-02	1.44412591630E-01
1.70950000000E+09	-4.97952455963E-02	-9.59264569238E-02	-6.75955115731E-02	-1.37326545920E-02	-6.76671410134E-02	-1.36553571109E-02	-4.47821903115E-02	1.48615797146E-01
1.71000000000E+09	-4.71003534665E-02	-9.49827948532E-02	-6.78697348830E-02	-1.22407902644E-02	-6.79414840925E-02	-1.21800341859E-02	-4.16166486661E-02	1.52717814632E-01
1.71050000000E+09	-4.43828641055E-02	-9.41464934766E-02	-6.81123410232E-02	-1.07648785217E-02	-6.81776960625E-02	-1.06755427072E-02	-3.83466525011E-02	1.56713884784E-01
1.71100000000E+09	-4.16277213134E-02	-9.34415537878E-02	-6.83186578106E-02	-9.25883268784E-03	-6.83804959226E-02	-9.17492075693E-03	-3.48796689732E-02	1.60572125794E-01
1.71150000000E+09	-3.88416148672E-02	-9.28348199259E-02	-6.84785922268E-02	-7.77270617917E-03	-6.85375130312E-02	-7.69115029079E-03	-3.13194349487E-02	1.64340397943E-01
1.71200000000E+09	-3.60090206456E-02	-9.23684088692E-02	-6.86132762994E-02	-6.26579916300E-03	-6.86641560920E-02	-6.19194214786E-03	-2.76765018868E-02	1.67984441926E-01
1.71250000000E+09	-3.32003742805E-02	-9.20499507481E-02	-6.86940847120E-02	-4.76651919291E-03	-6.87566886547E-02	-4.67542947609E-03	-2.38913133137E-02	1.71474475117E-01
1.71300000000E+09	-3.03555573215E-02	-9.18301875251E-02	-6.87792947411E-02	-3.25589367768E-03	-6.88261822417E-02	-3.18744871762E-03	-2.00037926415E-02	1.74847472991E-01
1.71350000000E+09	-2.75197638611E-02	-9.17315179058E-02	-6.88016923550E-02	-1.75361420186E-03	-6.88421504556E-02	-1.67474082776E-03	-1.60537528446E-02	1.78110886459E-01
1.71400000000E+09	-2.46589359324E-02	-9.17568104491E-02	-6.87982396931E-02	-2.60279501004E-04	-6.88399218885E-02	-1.72474836709E-04	-1.19741960181E-02	1.81225697901E-01
1.71450000000E+09	-2.18349025570E-02	-9.18918642630E-02	-6.87495428718E-02	1.24523550318E-03	-6.87951719596E-02	1.32306242827E-03	-7.76282056893E-03	1.84189722974E-01
1.71500000000E+09	-1.89928452961E-02	-9.21429706530E-02	-6.86632624294E-02	2.72172966445E-03	-6.86982069124E-02	2.81615637342E-03	-3.49179124985E-03	1.87060997085E-01
1.71550000000E+09	-1.62020765900E-02	-9.25024749228E-02	-6.85522790759E-02	4.23837290393E-03	-6.85998664732E-02	4.31026570372E-03	8.83647051513E-04	1.89739833011E-01
1.71600000000E+09	-1.34156382814E-02	-9.29602166207E-02	-6.84014626503E-02	5.68863609038E-03	-6.84535216558E-02	5.81038995906E-03	5.28958216800E-03	1.92335416804E-01
1.71650000000E+09	-1.06728576278E-02	-9.35535838262E-02	-6.82216142678E-02	7.18825130376E-03	-6.82740483708E-02	7.29540746531E-03	9.79860538839E-03	1.94748761431E-01
1.71700000000E+09	-7.96083270216E-03	-9.42487596351E-02	-6.80164338059E-02	8.65774789019E-03	-6.80483960287E-02	8.74330162559E-03	1.43959077290E-02	1.96990766822E-01
1.71750000000E+09	-5.29259496529E-03	-9.50150154177E-02	-6.77710214414E-02	1.01289462419E-02	-6.77977504970E-02	1.02360868131E-02	1.90571472841E-02	1.99082096352E-01
1.71800000000E+09	-2.63592331027E-03	-9.59181812382E-02	-6.74988685235E-02	1.15754541310E-02	-6.75166480418E-02	1.16696433915E-02	2.37630432523E-02	2.01073082632E-01
1.71850000000E+09	-6.63621835253E-05	-9.69050699004E-02	-6.71790439422E-02	1.30327558367E-02	-6.72113655823E-02	1.31175855923E-02	2.84987022980E-02	2.02879200230E-01
1.71900000000E+09	2.46244221235E-03	-9.79825628192E-02	-6.68515134197E-02	1.44677534244E-02	-6.68579847417E-02	1.45464858675E-02	3.33553307780E-02	2.04523648778E-01
1.71950000000E+09	4.96225035007E-03	-9.91244490843E-02	-6.64424296782E-02	1.58884518440E-02	-6.64899247041E-02	1.59832137101E-02	3.81666610368E-02	2.06020907285E-01
1.72000000000E+09	7.39811677459E-03	-1.00405870421E-01	-6.60505991791E-02	1.73110842733E-02	-6.60908917208E-02	1.73986556565E-02	4.30635970191E-02	2.07354286364E-01
1.72050000000E+09	9.75282012629E-03	-1.01710372714E-01	-6.56351481307E-02	1.87154020875E-02	-6.56415060928E-02	1.87981060603E-02	4.80152320348E-02	2.08514356091E-01
1.72100000000E+09	1.20887629628E-02	-1.03133693609E-01	-6.51642868800E-02	2.01020054500E-02	-6.51772826206E-02	2.01898084249E-02	5.29967854259E-02	2.09566573012E-01
1.72150000000E+09	1.43197385700E-02	-1.04613967424E-01	-6.46648527940E-02	2.14703156941E-02	-6.46843994394E-02	2.15618920472E-02	5.79947878484E-02	2.10434900689E-01
1.72200000000E+09	1.64899461670E-02	-1.06184188572E-01	-6.41444446306E-02	2.28219006477E-02	-6.41558795513E-02	2.29253288171E-02	6.30217375655E-02	2.11138882201E-01
1.72250000000E+09	1.86070756658E-02	-1.07795465049E-01	-6.35848184655E-02	2.41645305528E-02	-6.36013417217E-02	2.42689682393E-02	6.80403271122E-02	2.11691664855E-01
1.72300000000E+09	2.06394676897E-02	-1.09497986847E-01	-6.30062612753E-02	2.54973194966E-02	-6.30171765162E-02	2.56060542608E-02	7.30622692116E-02	2.12055949050E-01
1.72350000000E+09	2.26050791060E-02	-1.11224604481E-01	-6.23922548420E-02	2.68263492557E-02	-6.24048157397E-02	2.69192307276E-02	7.81103534777E-02	2.12274579927E-01
1.72400000000E+09	2.44974089214E-02	-1.13039359179E-01	-6.17904889971E-02	2.81158788211E-02	-6.17776489645E-02	2.81945557698E-02	8.31711291775E-02	2.12355621775E-01
1.72450000000E+09	2.63195701881E-02	-1.14899587637E-01	-6.11007263754E-02	2.93849150726E-02	-6.11098445395E-02	2.94905354836E-02	8.82265561085E-02	2.12261354283E-01
1.72500000000E+09	2.80685652479E-02	-1.16802158810E-01	-6.04251798899E-02	3.06435365452E-02	-6.04137860586E-02	3.07460877988E-02	9.32145921267E-02	2.11975491989E-01
1.72550000000E+09	2.97285183121E-02	-1.18749450727E-01	-5.97031151856E-02	3.18908817400E-02	-5.97008613558E-02	3.19897745633E-02	9.82666180713E-02	2.11557679322E-01
1.72600000000E+09	3.13179608469E-02	-1.20751219894E-01	-5.89664587007E-02	3.31132219948E-02	-5.89702948159E-02	3.32272996244E-02	1.03238978590E-01	2.11013014938E-01
1.72650000000E+09	3.28222353009E-02	-1.22771480289E-01	-5.82174486956E-02	3.43256493207E-02	-5.82042721276E-02	3.44245882234E-02	1.08240330490E-01	2.10244304005E-01
1.72700000000E+09	3.42570683774E-02	-1.24856189526E-01	-5.74380847604E-02	3.55076720258E-02	-5.74192882940E-02	3.56051987057E-02	1.13177527917E-01	2.09356078162E-01
1.72750000000E+09	3.55970070298E-02	-1.26948868137E-01	-5.66284387311E-02	3.66781279538E-02	-5.66152579814E-02	3.67738599947E-02	1.18084295904E-01	2.08336031620E-01
1.72800000000E+09	3.68738523384E-02	-1.29081154612E-01	-5.58094688862E-02	3.78211149086E-02	-5.57859864778E-02	3.79085538390E-02	1.22973926699E-01	2.07123231069E-01
1.72850000000E+09	3.80470508280E-02	-1.31247286249E-01	-5.49484650783E-02	3.89527213062E-02	-5.49511984493E-02	3.90411829729E-02	1.27787735622E-01	2.05769070436E-01
1.72900000000E+09	3.91828665872E-02	-1.33454496367E-01	-5.41145404440E-02	4.00653962717E-02	-5.40896157624E-02	4.01483988682E-02	1.32586031418E-01	2.04284449413E-01
1.72950000000E+09	4.02054233181E-02	-1.35634502366E-01	-5.31998440893E-02	4.11430079269E-02	-5.31886290062E-02	4.12409786427E-02	1.37314207496E-01	2.02646330178E-01
1.73000000000E+09	4.11544289612E-02	-1.37877142823E-01	-5.23004056266E-02	4.22216895386E-02	-5.22853374136E-02	4.23002448950E-02	1.41954024223E-01	2.00822265449E-01
1.73050000000E+09	4.20561863015E-02	-1.40099697214E-01	-5.13925371998E-02	4.32594618445E-02	-5.13627314558E-02	4.33504370554E-02	1.46585987628E-01	1.98899345592E-01
1.73100000000E+09	4.28301758836E-02	-1.42342603473E-01	-5.04369553509E-02	4.42786445766E-02	-5.04219149391E-02	4.43643226530E-02	1.51138486078E-01	1.96794232031E-01
1.73150000000E+09	4.35504930006E-02	-1.44603379611E-01	-4.94725731834E-02	4.52923275420E-02	-4.94450761960E-02	4.53712381549E-02	1.55598204833E-01	1.94551355612E-01
1.73200000000E+09	4.41836212127E-02	-1.46854877891E-01	-4.84986642724E-02	4.62382159824E-02	-4.84665958192E-02	4.63511553720E-02	1.60021516934E-01	1.92217841514E-01
1.73250000000E+09	4.47626297729E-02	-1.49108762397E-01	-4.75131911053E-02	4.72279114720E-02	-4.74744196221E-02	4.73037142999E-02	1.64341816993E-01	1.89681178385E-01
1.73300000000E+09	4.52378930240E-02	-1.51372324799E-01	-4.64930845266E-02	4.81579085940E-02	-4.64617341637E-02	4.82480526146E-02	1.68547873668E-01	1.87086222851E-01
1.73350000000E+09	4.56639649788E-02	-1.53653414686E-01	-4.54668447409E-02	4.90854065621E-02	-4.54295472520E-02	4.91673851488E-02	1.72728293240E-01	1.84320068007E-01
1.73400000000E+09	4.59896070603E-02	-1.55886173909E-01	-4.44297933324E-02	4.99689124528E-02	-4.43846508394E-02	5.00565232218E-02	1.76804023846E-01	1.81402592372E-01
1.73450000000E+09	4.62666287562E-02	-1.58137628847E-01	-4.33565762246E-02	5.08508152935E-02	-4.33237397992E-02	5.09385593988E-02	1.80784600518E-01	1.78373578987E-01
1.73500000000E+09	4.64379161293E-02	-1.60395188140E-01	-4.22961185315E-02	5.16983742998E-02	-4.22563092476E-02	5.17963337179E-02	1.84635895577E-01	1.75244187426E-01
1.73550000000E+09	4.65916399802E-02	-1.62621518094E-01	-4.12009047650E-02	5.25306166384E-02	-4.11577401975E-02	5.26315027653E-02	1.88414387225E-01	1.71983188062E-01
1.73600000000E+09	4.66048677924E-02	-1.64833114226E-01	-4.01131460230E-02	5.33579908549E-02	-4.00657752443E-02	5.34245874577E-02	1.92055560254E-01	1.68603805320E-01
1.73650000000E+09	4.66159894687E-02	-1.67044543571E-01	-3.89986342311E-02	5.41364157345E-02	-3.89515283406E-02	5.42060876699E-02	1.95606524201E-01	1.65145097151E-01
1.73700000000E+09	4.65212685489E-02	-1.69240004120E-01	-3.78711547672E-02	5.48978730933E-02	-3.78213080676E-02	5.49918252703E-02	1.99056551932E-01	1.61502629587E-01
1.73750000000E+09	4.63647833279E-02	-1.71404177690E-01	-3.67125894124E-02	5.56691472733E-02	-3.66750193087E-02	5.57276411868E-02	2.02394144194E-01	1.57840957267E-01
1.73800000000E+09	4.61271233407E-02	-1.73558169475E-01	-3.55615087691E-02	5.63568458571E-02	-3.55314829142E-02	5.64331263432E-02	2.05569027266E-01	1.53990782087E-01
1.73850000000E+09	4.58419161525E-02	-1.75676008471E-01	-3.44058488153E-02	5.70606562870E-02	-3.43600226575E-02	5.71382793559E-02	2.08660202375E-01	1.50114202771E-01
1.73900000000E+09	4.54913828365E-02	-1.77812776886E-01	-3.32277482106E-02	5.77337682995E-02	-3.31615787010E-02	5.78165344574E-02	2.11625837781E-01	1.46100308357E-01
1.73950000000E+09	4.51206829311E-02	-1.79868036396E-01	-3.20210131928E-02	5.83925810347E-02	-3.19873362504E-02	5.84629179485E-02	2.14478207775E-01	1.42035105940E-01
1.74000000000E+09	4.46194613349E-02	-1.81980598324E-01	-3.08293352438E-02	5.90245662555E-02	-3.07836998534E-02	5.91060618798E-02	2.17187728406E-01	1.37843281759E-01
1.74050000000E+09	4.40668902761E-02	-1.83991393974E-01	-2.96186763778E-02	5.96459662146E-02	-2.95663351489E-02	5.97250840061E-02	2.19718049527E-01	1.33593343948E-01
1.74100000000E+09	4.34743270865E-02	-1.86015379554E-01	-2.83942445097E-02	6.02341658893E-02	-2.83384165022E-02	6.02916905183E-02	2.22153173290E-01	1.29269966184E-01
1.74150000000E+09	4.28051937122E-02	-1.87961696829E-01	-2.71607528902E-02	6.07967792364E-02	-2.71125479528E-02	6.08405232067E-02	2.24451707239E-01	1.24852620309E-01
1.74200000000E+09	4.20892796499E-02	-1.89912821631E-01	-2.59058726009E-02	6.13199338618E-02	-2.58555661020E-02	6.13974807207E-02	2.26610596943E-01	1.20374266220E-01
1.74250000000E+09	4.13011009781E-02	-1.91829193550E-01	-2.46588633149E-02	6.18590992389E-02	-2.45939130013E-02	6.19206271342E-02	2.28627269741E-01	1.15838203510E-01
1.74300000000E+09	4.04818778979E-02	-1.93710391051E-01	-2.33800590188E-02	6.23356301860E-02	-2.33183858057E-02	6.24078076229E-02	2.30511636288E-01	1.11197264845E-01
1.74350000000E+09	3.95593574987E-02	-1.95533733275E-01	-2.20933277857E-02	6.28092283629E-02	-2.20361912745E-02	6.28790359772E-02	2.32230699429E-01	1.06520822543E-01
1.74400000000E+09	3.86315674805E-02	-1.97336168224E-01	-2.08113785821E-02	6.32474063112E-02	-2.07527619517E-02	6.33186582171E-02	2.33813791343E-01	1.01836583361E-01
1.74450000000E+09	3.76030450041E-02	-1.99123784626E-01	-1.95162347137E-02	6.36717749150E-02	-1.94659420836E-02	6.37514839162E-02	2.35239808727E-01	9.70870182634E-02
1.74500000000E+09	3.65561088069E-02	-2.00832638868E-01	-1.82091967129E-02	6.40892102433E-02	-1.81583492037E-02	6.41469202185E-02	2.36553715719E-01	9.22992029815E-02
1.74550000000E+09	3.54385421602E-02	-2.02521183704E-01	-1.68979252566E-02	6.44362980031E-02	-1.68226380769E-02	6.45045867687E-02	2.37670931846E-01	8.74258456749E-02
1.74600000000E+09	3.42772289757E-02	-2.04181127786E-01	-1.55660673641E-02	6.47973375196E-02	-1.55092928943E-02	6.48561379610E-02	2.38658374081E-01	8.25416931530E-02
1.74650000000E+09	3.30531723372E-02	-2.05761600716E-01	-1.42419923324E-02	6.51209990766E-02	-1.41794812032E-02	6.51764234388E-02	2.39477588500E-01	7.76598189748E-02
1.74700000000E+09	3.17798847581E-02	-2.07295837537E-01	-1.28906652336E-02	6.54105776359E-02	-1.28329095035E-02	6.54749784656E-02	2.40097811032E-01	7.27135936674E-02
1.74750000000E+09	3.04788130775E-02	-2.08791411204E-01	-1.15527040479E-02	6.56849328967E-02	-1.14967033136E-02	6.57438296085E-02	2.40642569876E-01	6.77693721522E-02
1.74800000000E+09	2.90945304362E-02	-2.10262366796E-01	-1.01946931114E-02	6.59290911813E-02	-1.01404054562E-02	6.59588349823E-02	2.40995712846E-01	6.28033762785E-02
1.74850000000E+09	2.76667967384E-02	-2.11644186043E-01	-8.83981218605E-03	6.61218912951E-02	-8.77047771603E-03	6.61727511399E-02	2.41187709040E-01	5.78169000283E-02
1.74900000000E+09	2.62079481959E-02	-2.12987535232E-01	-7.49991657214E-03	6.63153819533E-02	-7.39416636037E-03	6.63795523937E-02	2.41227138723E-01	5.28529690534E-02
1.74950000000E+09	2.47007804212E-02	-2.14262592601E-01	-6.10414900785E-03	6.64834374184E-02	-6.03866525119E-03	6.65366076428E-02	2.41122961151E-01	4.78725725796E-02
1.75000000000E+09	2.31162715398E-02	-2.15497266846E-01	-4.72578276885E-03	6.66282502242E-02	-4.66401820497E-03	6.66640733893E-02	2.40879637205E-01	4.28841676445E-02
1.75050000000E+09	2.15316900203E-02	-2.16654301710E-01	-3.35155525496E-03	6.67211979568E-02	-3.27235579174E-03	6.67765867443E-02	2.40425421486E-01	3.79288733485E-02
1.75100000000E+09	1.99007412516E-02	-2.17772138505E-01	-1.97584522842E-03	6.68063129297E-02	-1.89628538292E-03	6.68543441840E-02	2.39852185040E-01	3.29554520397E-02
1.75150000000E+09	1.82103057934E-02	-2.18813737042E-01	-6.08120873893E-04	6.68450864765E-02	-5.08287833983E-04	6.68953143589E-02	2.39114475632E-01	2.80600679592E-02
1.75200000000E+09	1.64650677653E-02	-2.19767693504E-01	7.87558073605E-04	6.68701235098E-02	8.74711461639E-04	6.69205167666E-02	2.38228266192E-01	2.31453407251E-02
1.75250000000E+09	1.47243789030E-02	-2.20684346951E-01	2.17093445284E-03	6.68530092507E-02	2.25967837587E-03	6.69040413069E-02	2.37171105710E-01	1.82705708820E-02
1.75300000000E+09	1.29016958418E-02	-2.21487295193E-01	3.57337070769E-03	6.68363886932E-02	3.65423959541E-03	6.68711026328E-02	2.35937181913E-01	1.34285775091E-02
1.75350000000E+09	1.10959363305E-02	-2.22238930258E-01	4.95719274256E-03	6.67552497857E-02	5.03847806850E-03	6.68098372146E-02	2.34584687275E-01	8.62262382640E-03
1.75400000000E+09	9.22491146509E-03	-2.22895267859E-01	6.35381062838E-03	6.66617343124E-02	6.45084825623E-03	6.67191200719E-02	2.33066393734E-01	3.86450693598E-03
1.75450000000E+09	7.34720668398E-03	-2.23472406971E-01	7.73564683102E-03	6.65379204174E-02	7.83209719618E-03	6.65804206578E-02	2.31399927356E-01	-8.61318252940E-04
1.75500000000E+09	5.42220298919E-03	-2.24005184739E-01	9.11650885786E-03	6.63985774953E-02	9.22156881789E-03	6.64258562977E-02	2.29616452033E-01	-5.53770281551E-03
1.75550000000E+09	3.52620103612E-03	-2.24423306916E-01	1.04929324970E-02	6.61894579356E-02	1.06057476067E-02	6.62540025988E-02	2.27597255646E-01	-1.01285759257E-02
1.75600000000E+09	1.57950276509E-03	-2.24784898661E-01	1.18888095348E-02	6.59972989061E-02	1.19795152751E-02	6.60358001154E-02	2.25517217346E-01	-1.46593923363E-02
1.75650000000E+09	-3.81040167211E-04	-2.25017871285E-01	1.32682402519E-02	6.57698258041E-02	1.33573882244E-02	6.58025976150E-02	2.23290426781E-01	-1.91251186260E-02
1.75700000000E+09	-2.35035129996E-03	-2.25177682484E-01	1.46225283480E-02	6.54932244618E-02	1.47307202656E-02	6.55371534268E-02	2.20858838788E-01	-2.35300912169E-02
1.75750000000E+09	-4.31042610384E-03	-2.25258579323E-01	1.59960871004E-02	6.51897536286E-02	1.61029168021E-02	6.52208520767E-02	2.18329887006E-01	-2.78225250796E-02
1.75800000000E+09	-6.30460401416E-03	-2.25239345858E-01	1.73880742780E-02	6.48787934405E-02	1.74676395255E-02	6.49013407611E-02	2.15652271628E-01	-3.21045843208E-02
1.75850000000E+09	-8.29002616215E-03	-2.25138499443E-01	1.87326428303E-02	6.45200063780E-02	1.88319469207E-02	6.45569334073E-02	2.12847773907E-01	-3.62458806936E-02
