# Hz S RI R 50
! CMT, CMT808U, 21440046, 21.4.3/4
! Date: 11/17/2025 2:54:13 PM
! Data: Format (Calibration Info)
! Freq	S11:Re/Im(F2)	S41:Re/Im(F2)	S14:Re/Im(F2)	S44:Re/Im(F2)
1.70000000000E+09	-8.80870856891E-02	-1.37550648105E-01	-5.43424904473E-02	-3.82994936347E-02	-5.44446728511E-02	-3.82653277877E-02	-1.21843387918E-01	5.03328124074E-02
1.70050000000E+09	-8.78011563517E-02	-1.34921008121E-01	-5.51667735724E-02	-3.72005575984E-02	-5.52542761924E-02	-3.71523249231E-02	-1.21655351187E-01	5.63122709460E-02
1.70100000000E+09	-8.73203443284E-02	-1.32276760537E-01	-5.59667112041E-02	-3.60791662399E-02	-5.60523998765E-02	-3.60226675946E-02	-1.21265076623E-01	6.22696003536E-02
1.70150000000E+09	-8.67150762703E-02	-1.29643501135E-01	-5.67496841211E-02	-3.49237844137E-02	-5.68234781658E-02	-3.48740079360E-02	-1.20704652714E-01	6.81996786562E-02
1.70200000000E+09	-8.59093458479E-02	-1.27043512573E-01	-5.75034048126E-02	-3.37763987671E-02	-5.75900911486E-02	-3.37168794772E-02	-1.19919089192E-01	7.41550986376E-02
1.70250000000E+09	-8.49576817669E-02	-1.24423564473E-01	-5.82439153764E-02	-3.25907810638E-02	-5.83220151961E-02	-3.25481523710E-02	-1.18965437212E-01	8.00466921906E-02
1.70300000000E+09	-8.38269334546E-02	-1.21855721628E-01	-5.89491954269E-02	-3.13944208037E-02	-5.90309903800E-02	-3.13386025558E-02	-1.17804893154E-01	8.58897949890E-02
1.70350000000E+09	-8.25967885162E-02	-1.19318468422E-01	-5.96495505118E-02	-3.01793295038E-02	-5.97294925122E-02	-3.01218929545E-02	-1.16472356445E-01	9.16671324640E-02
1.70400000000E+09	-8.11429747712E-02	-1.16865243952E-01	-6.03072359890E-02	-2.89483998840E-02	-6.03949362937E-02	-2.88849409708E-02	-1.14931063008E-01	9.73931774503E-02
1.70450000000E+09	-7.95991825330E-02	-1.14473272155E-01	-6.09598418557E-02	-2.76963878642E-02	-6.10455163986E-02	-2.76337004400E-02	-1.13204807820E-01	1.03095926799E-01
1.70500000000E+09	-7.79019077851E-02	-1.12135231881E-01	-6.15780973294E-02	-2.64430552211E-02	-6.16647195820E-02	-2.63659220693E-02	-1.11288013147E-01	1.08725853772E-01
1.70550000000E+09	-7.60573436512E-02	-1.09881475967E-01	-6.21854141671E-02	-2.51447311915E-02	-6.22651551137E-02	-2.50719795814E-02	-1.09226355518E-01	1.14272538421E-01
1.70600000000E+09	-7.40952024248E-02	-1.07708350491E-01	-6.27474498350E-02	-2.38429306762E-02	-6.28186301169E-02	-2.37846684905E-02	-1.06964714484E-01	1.19731922361E-01
1.70650000000E+09	-7.19995025718E-02	-1.05623273534E-01	-6.32770911139E-02	-2.25410311678E-02	-6.33822816756E-02	-2.24573930854E-02	-1.04532961669E-01	1.25121324801E-01
1.70700000000E+09	-6.98414044166E-02	-1.03650958960E-01	-6.38084289283E-02	-2.11879140220E-02	-6.39019957720E-02	-2.11285371429E-02	-1.01918914243E-01	1.30443311923E-01
1.70750000000E+09	-6.75043929339E-02	-1.01783302330E-01	-6.42870934041E-02	-1.98492388742E-02	-6.43812708688E-02	-1.97661282205E-02	-9.91618162957E-02	1.35655081079E-01
1.70800000000E+09	-6.51208470266E-02	-1.00031268718E-01	-6.47464428968E-02	-1.84834968913E-02	-6.48089179647E-02	-1.84308561065E-02	-9.62102059948E-02	1.40735986521E-01
1.70850000000E+09	-6.26070906943E-02	-9.83836311595E-02	-6.51780487102E-02	-1.71038801788E-02	-6.52556861554E-02	-1.70395859492E-02	-9.31102639773E-02	1.45748869056E-01
1.70900000000E+09	-6.00440612347E-02	-9.68435664287E-02	-6.55790369468E-02	-1.57125220958E-02	-6.56703294378E-02	-1.56534322361E-02	-8.98821835036E-02	1.50666121945E-01
1.70950000000E+09	-5.73971676844E-02	-9.54523776322E-02	-6.59573814505E-02	-1.43251331018E-02	-6.60293278424E-02	-1.42604407331E-02	-8.64689861869E-02	1.55443341401E-01
1.71000000000E+09	-5.46841167651E-02	-9.41730090043E-02	-6.62870659400E-02	-1.29110248663E-02	-6.63742633387E-02	-1.28377639762E-02	-8.29275079955E-02	1.60126659098E-01
1.71050000000E+09	-5.19023180123E-02	-9.30176039346E-02	-6.66009251891E-02	-1.15128009320E-02	-6.66798690587E-02	-1.14054270621E-02	-7.92518757254E-02	1.64662427320E-01
1.71100000000E+09	-4.90991703525E-02	-9.19695691122E-02	-6.68798715569E-02	-1.00714199448E-02	-6.69500344178E-02	-9.99913220006E-03	-7.54051481770E-02	1.69070006752E-01
1.71150000000E+09	-4.62376332323E-02	-9.10606922005E-02	-6.71135661203E-02	-8.61464122167E-03	-6.71873687189E-02	-8.56188403611E-03	-7.14522759195E-02	1.73394647421E-01
1.71200000000E+09	-4.33064087853E-02	-9.02494385207E-02	-6.73370061015E-02	-7.19245388588E-03	-6.74047499826E-02	-7.10895255717E-03	-6.73509517465E-02	1.77529334880E-01
1.71250000000E+09	-4.03841780318E-02	-8.96342224026E-02	-6.75158824499E-02	-5.72531636831E-03	-6.75726176009E-02	-5.64797191752E-03	-6.31093986449E-02	1.81535981925E-01
1.71300000000E+09	-3.74475569579E-02	-8.90891344263E-02	-6.76801724551E-02	-4.27231714984E-03	-6.77200020733E-02	-4.18080212554E-03	-5.87808862988E-02	1.85412185858E-01
1.71350000000E+09	-3.44619778862E-02	-8.86859149030E-02	-6.77867863219E-02	-2.81652398566E-03	-6.78194343780E-02	-2.71444390727E-03	-5.43474618420E-02	1.89146500100E-01
1.71400000000E+09	-3.14683561410E-02	-8.84111580089E-02	-6.78582092009E-02	-1.35174712560E-03	-6.79027034323E-02	-1.25965303823E-03	-4.98036462752E-02	1.92718877665E-01
1.71450000000E+09	-2.84939201385E-02	-8.82533271569E-02	-6.79012006470E-02	1.20927578076E-04	-6.79574416079E-02	2.23115697775E-04	-4.50915478292E-02	1.96156603844E-01
1.71500000000E+09	-2.54984392971E-02	-8.82134385403E-02	-6.79163589771E-02	1.60034402351E-03	-6.79734417722E-02	1.69085030724E-03	-4.03766853758E-02	1.99466870426E-01
1.71550000000E+09	-2.25186320268E-02	-8.83051656499E-02	-6.78962383226E-02	3.08738871341E-03	-6.79237920791E-02	3.17764299462E-03	-3.54601403054E-02	2.02551377851E-01
1.71600000000E+09	-1.95603226393E-02	-8.84877349013E-02	-6.78246570257E-02	4.55799180785E-03	-6.78787294571E-02	4.66003183270E-03	-3.05178277646E-02	2.05551113357E-01
1.71650000000E+09	-1.66043123992E-02	-8.88197395179E-02	-6.77542701479E-02	6.02553676353E-03	-6.77895937062E-02	6.13447056504E-03	-2.54337976922E-02	2.08356420435E-01
1.71700000000E+09	-1.36707111460E-02	-8.92518968432E-02	-6.76318173746E-02	7.49343773270E-03	-6.76473493671E-02	7.60379407631E-03	-2.03498042521E-02	2.10981635402E-01
1.71750000000E+09	-1.07871961782E-02	-8.97854719645E-02	-6.74653296961E-02	8.97020973924E-03	-6.74958671611E-02	9.08551703286E-03	-1.51322800225E-02	2.13440664235E-01
1.71800000000E+09	-7.90752135614E-03	-9.04561944576E-02	-6.72604115044E-02	1.04324017247E-02	-6.73055316784E-02	1.05334243242E-02	-9.89276480314E-03	2.15790248689E-01
1.71850000000E+09	-5.08853781162E-03	-9.12092978960E-02	-6.70407021077E-02	1.18973769111E-02	-6.70775024815E-02	1.19944709301E-02	-4.60635788647E-03	2.17919004722E-01
1.71900000000E+09	-2.29754880134E-03	-9.20688174700E-02	-6.67860913746E-02	1.33574444985E-02	-6.68123979026E-02	1.34536493349E-02	8.28197526985E-04	2.19878988898E-01
1.71950000000E+09	4.48778322549E-04	-9.30133363014E-02	-6.64971239516E-02	1.48076057704E-02	-6.65239669525E-02	1.49101506184E-02	6.23801753910E-03	2.21671276062E-01
1.72000000000E+09	3.13538786415E-03	-9.40859157494E-02	-6.61555334432E-02	1.62488154731E-02	-6.61837929703E-02	1.63574245218E-02	1.17155407825E-02	2.23312505223E-01
1.72050000000E+09	5.79607827926E-03	-9.52019476075E-02	-6.57895303659E-02	1.76822957770E-02	-6.58159187582E-02	1.78026544359E-02	1.72651197598E-02	2.24743230555E-01
1.72100000000E+09	8.39497025312E-03	-9.64584575281E-02	-6.54183610363E-02	1.91105169716E-02	-6.54413835070E-02	1.92049933411E-02	2.28147737279E-02	2.26037927067E-01
1.72150000000E+09	1.09289294922E-02	-9.77705398776E-02	-6.49888795366E-02	2.05358716107E-02	-6.49948964838E-02	2.06429614247E-02	2.84146187544E-02	2.27147003592E-01
1.72200000000E+09	1.34229837397E-02	-9.91849848393E-02	-6.45206780114E-02	2.19515689806E-02	-6.45469050028E-02	2.20603958982E-02	3.40360610916E-02	2.28078152796E-01
1.72250000000E+09	1.58363452715E-02	-1.00660569533E-01	-6.40348699110E-02	2.33489554697E-02	-6.40578181987E-02	2.34447263774E-02	3.96495505497E-02	2.28854208355E-01
1.72300000000E+09	1.81669107267E-02	-1.02231437768E-01	-6.35036147009E-02	2.47330450687E-02	-6.35180116591E-02	2.48334876803E-02	4.52771279623E-02	2.29405437856E-01
1.72350000000E+09	2.04592057021E-02	-1.03860899099E-01	-6.29587312357E-02	2.60985495047E-02	-6.29608032328E-02	2.62210130328E-02	5.09508481866E-02	2.29806757831E-01
1.72400000000E+09	2.26960067787E-02	-1.05557086891E-01	-6.23798661932E-02	2.74594526456E-02	-6.23808823403E-02	2.75515375098E-02	5.66314309241E-02	2.30041409012E-01
1.72450000000E+09	2.48337776208E-02	-1.07331875989E-01	-6.17495738697E-02	2.87997025283E-02	-6.17608502039E-02	2.89180914846E-02	6.22982383772E-02	2.30095953109E-01
1.72500000000E+09	2.69038712254E-02	-1.09164039120E-01	-6.11179169195E-02	3.01400110485E-02	-6.11056741955E-02	3.02446388313E-02	6.79150202931E-02	2.29958964837E-01
1.72550000000E+09	2.89251919563E-02	-1.11046064229E-01	-6.04534539106E-02	3.14607028614E-02	-6.04333495591E-02	3.15485043107E-02	7.36005945373E-02	2.29658107675E-01
1.72600000000E+09	3.08754467105E-02	-1.13009224866E-01	-5.97362975602E-02	3.27605493880E-02	-5.97340454008E-02	3.28671105814E-02	7.91999305923E-02	2.29194703239E-01
1.72650000000E+09	3.27177480086E-02	-1.15020201471E-01	-5.89993673473E-02	3.40449571642E-02	-5.89958115482E-02	3.41458706089E-02	8.47939283479E-02	2.28553177343E-01
1.72700000000E+09	3.45065935620E-02	-1.17071938482E-01	-5.82385891981E-02	3.52962114101E-02	-5.82374181471E-02	3.54087609469E-02	9.03711025105E-02	2.27729788604E-01
1.72750000000E+09	3.62094261348E-02	-1.19195586113E-01	-5.74560482144E-02	3.65363756752E-02	-5.74364914749E-02	3.66587902617E-02	9.59086744306E-02	2.26755199382E-01
1.72800000000E+09	3.78422794580E-02	-1.21332219051E-01	-5.66337617243E-02	3.77691917023E-02	-5.66226480650E-02	3.78611239411E-02	1.01390709767E-01	2.25620432629E-01
1.72850000000E+09	3.93835642746E-02	-1.23549390570E-01	-5.57841457296E-02	3.89789248755E-02	-5.57796390244E-02	3.90823272432E-02	1.06862562471E-01	2.24299726229E-01
1.72900000000E+09	4.08583710824E-02	-1.25797081022E-01	-5.49343403347E-02	4.01723642242E-02	-5.49129590036E-02	4.02778412503E-02	1.12316826893E-01	2.22820136752E-01
1.72950000000E+09	4.22534770084E-02	-1.28048873939E-01	-5.40456739763E-02	4.13395580303E-02	-5.40041174013E-02	4.14441416651E-02	1.17660864389E-01	2.21164243792E-01
1.73000000000E+09	4.35412889676E-02	-1.30378047663E-01	-5.31090315144E-02	4.24886841093E-02	-5.30876093181E-02	4.25753670626E-02	1.22927118794E-01	2.19350555242E-01
1.73050000000E+09	4.47934448810E-02	-1.32707556713E-01	-5.21542016058E-02	4.36017023419E-02	-5.21530127296E-02	4.37173799746E-02	1.28189902366E-01	2.17402472322E-01
1.73100000000E+09	4.59245408628E-02	-1.35077334618E-01	-5.12065055317E-02	4.47109490546E-02	-5.11685753135E-02	4.48038078261E-02	1.33372785882E-01	2.15273134456E-01
1.73150000000E+09	4.69840133169E-02	-1.37465699095E-01	-5.02157662779E-02	4.57899886446E-02	-5.01704502554E-02	4.58963439610E-02	1.38477704625E-01	2.12951313756E-01
1.73200000000E+09	4.79488704193E-02	-1.39880112620E-01	-4.91773820788E-02	4.68329020806E-02	-4.91549127571E-02	4.69255399608E-02	1.43496592421E-01	2.10516103606E-01
1.73250000000E+09	4.88604363911E-02	-1.42301340752E-01	-4.81482514191E-02	4.78653056997E-02	-4.80981677834E-02	4.79570657728E-02	1.48440823487E-01	2.07954990572E-01
1.73300000000E+09	4.96558679070E-02	-1.44763416331E-01	-4.70984086058E-02	4.88764964042E-02	-4.70513286524E-02	4.89812080981E-02	1.53333093243E-01	2.05223065810E-01
1.73350000000E+09	5.03939404310E-02	-1.47250130808E-01	-4.60154506738E-02	4.98619075257E-02	-4.59667307874E-02	4.99478852803E-02	1.58103799634E-01	2.02375678364E-01
1.73400000000E+09	5.10302228060E-02	-1.49721621499E-01	-4.49070479477E-02	5.08257506973E-02	-4.48748574975E-02	5.09187477432E-02	1.62802152329E-01	1.99285562314E-01
1.73450000000E+09	5.15980357243E-02	-1.52215977444E-01	-4.37794194215E-02	5.17356881423E-02	-4.37569723429E-02	5.18403079677E-02	1.67377004888E-01	1.96153106317E-01
1.73500000000E+09	5.20680643204E-02	-1.54691739386E-01	-4.26432150760E-02	5.26401735488E-02	-4.26074701820E-02	5.27319791924E-02	1.71853562403E-01	1.92848422238E-01
1.73550000000E+09	5.24756634843E-02	-1.57194396018E-01	-4.14907715954E-02	5.35264934358E-02	-4.14475314305E-02	5.36178189772E-02	1.76217285733E-01	1.89416183115E-01
1.73600000000E+09	5.27618972319E-02	-1.59690952351E-01	-4.03171247461E-02	5.43751694345E-02	-4.02733614735E-02	5.44591166295E-02	1.80497728866E-01	1.85844052224E-01
1.73650000000E+09	5.29936766342E-02	-1.62189598847E-01	-3.91162007178E-02	5.51971639092E-02	-3.90748223825E-02	5.52767222231E-02	1.84653405651E-01	1.82167764405E-01
1.73700000000E+09	5.31645698765E-02	-1.64675241935E-01	-3.79022993649E-02	5.59952069655E-02	-3.78636235737E-02	5.60782603822E-02	1.88696637414E-01	1.78337191304E-01
1.73750000000E+09	5.32111451131E-02	-1.67170146996E-01	-3.66989659365E-02	5.67701715376E-02	-3.66387771261E-02	5.68453178466E-02	1.92615601310E-01	1.74415218495E-01
1.73800000000E+09	5.31862989237E-02	-1.69674999220E-01	-3.54574687969E-02	5.75088424296E-02	-3.53836591950E-02	5.75725684926E-02	1.96400684115E-01	1.70326262684E-01
1.73850000000E+09	5.30654698546E-02	-1.72125236397E-01	-3.41925129642E-02	5.82092139931E-02	-3.41346698015E-02	5.83073525589E-02	2.00084659470E-01	1.66166750400E-01
1.73900000000E+09	5.28901013669E-02	-1.74593288001E-01	-3.29297686818E-02	5.89059258327E-02	-3.28685451614E-02	5.89783680461E-02	2.03627483466E-01	1.61900670775E-01
1.73950000000E+09	5.26483229435E-02	-1.77018442903E-01	-3.16508411000E-02	5.95404516038E-02	-3.15986404748E-02	5.96345825353E-02	2.07032595607E-01	1.57551611347E-01
1.74000000000E+09	5.23046636980E-02	-1.79474832124E-01	-3.03556937358E-02	6.01669855685E-02	-3.03012543568E-02	6.02440038021E-02	2.10298896654E-01	1.53043069296E-01
1.74050000000E+09	5.18558187122E-02	-1.81857125190E-01	-2.90570833723E-02	6.07726799716E-02	-2.90050465337E-02	6.08499290997E-02	2.13420270578E-01	1.48486024895E-01
1.74100000000E+09	5.13562337912E-02	-1.84252815765E-01	-2.77396296427E-02	6.13330623637E-02	-2.76792198604E-02	6.14222802454E-02	2.16408995169E-01	1.43791183863E-01
1.74150000000E+09	5.07447559076E-02	-1.86595503097E-01	-2.64172039845E-02	6.18745201185E-02	-2.63625991567E-02	6.19650874160E-02	2.19259595756E-01	1.39034132279E-01
1.74200000000E+09	5.01017371372E-02	-1.88918093128E-01	-2.50911905697E-02	6.23769492744E-02	-2.50285580265E-02	6.24572158105E-02	2.21961495063E-01	1.34181924507E-01
1.74250000000E+09	4.93308457684E-02	-1.91224662248E-01	-2.37523790374E-02	6.28714920052E-02	-2.36809581221E-02	6.29384713617E-02	2.24527819202E-01	1.29289423550E-01
1.74300000000E+09	4.85180959190E-02	-1.93498855831E-01	-2.23914846501E-02	6.33019321599E-02	-2.23386244474E-02	6.33772343450E-02	2.26936620319E-01	1.24269444095E-01
1.74350000000E+09	4.76087069638E-02	-1.95714931393E-01	-2.10217494198E-02	6.37268648542E-02	-2.09615521512E-02	6.37914700774E-02	2.29157166358E-01	1.19163996744E-01
1.74400000000E+09	4.66518118995E-02	-1.97905974938E-01	-1.96735964523E-02	6.41287475311E-02	-1.96080513848E-02	6.41874816927E-02	2.31232500074E-01	1.14057846828E-01
1.74450000000E+09	4.56024237214E-02	-2.00059852669E-01	-1.82823749137E-02	6.44815292195E-02	-1.82245472798E-02	6.45459507383E-02	2.33191271467E-01	1.08846689960E-01
1.74500000000E+09	4.44992028272E-02	-2.02125144660E-01	-1.69373037497E-02	6.48035902170E-02	-1.68623152198E-02	6.48820503246E-02	2.34951831611E-01	1.03611167158E-01
1.74550000000E+09	4.32788126854E-02	-2.04195966171E-01	-1.55494837769E-02	6.50960271023E-02	-1.54716550756E-02	6.51712470412E-02	2.36526384380E-01	9.83147295603E-02
1.74600000000E+09	4.20431302752E-02	-2.06201869273E-01	-1.41711905356E-02	6.53713051918E-02	-1.40852818488E-02	6.54535215566E-02	2.37985797720E-01	9.29558051558E-02
1.74650000000E+09	4.06830505852E-02	-2.08153006129E-01	-1.27782336043E-02	6.56095365258E-02	-1.27204295945E-02	6.56905710076E-02	2.39253840852E-01	8.75740450729E-02
1.74700000000E+09	3.92975150097E-02	-2.10059113620E-01	-1.14014915314E-02	6.58224612223E-02	-1.13168714563E-02	6.58914434429E-02	2.40338238751E-01	8.20867418865E-02
1.74750000000E+09	3.78181425288E-02	-2.11894568324E-01	-1.00131938132E-02	6.60048905010E-02	-9.93169077935E-03	6.60641700204E-02	2.41316345537E-01	7.66541940195E-02
1.74800000000E+09	3.63160511653E-02	-2.13695206685E-01	-8.60992605856E-03	6.61363043078E-02	-8.54205019297E-03	6.62030864163E-02	2.42064033382E-01	7.11409136441E-02
1.74850000000E+09	3.47123984269E-02	-2.15403374775E-01	-7.24024583642E-03	6.62628913098E-02	-7.14159517081E-03	6.63201302131E-02	2.42656811114E-01	6.56204485451E-02
1.74900000000E+09	3.30549494729E-02	-2.17061287674E-01	-5.82986428873E-03	6.63439832521E-02	-5.75053793742E-03	6.63978053205E-02	2.43093730112E-01	6.00849390531E-02
1.74950000000E+09	3.13493091638E-02	-2.18654067923E-01	-4.44957347091E-03	6.64122024668E-02	-4.37555329429E-03	6.64720294842E-02	2.43345859217E-01	5.45573593689E-02
1.75000000000E+09	2.95652153815E-02	-2.20167286185E-01	-3.06664706974E-03	6.64523342562E-02	-2.97893257463E-03	6.65034095024E-02	2.43457726559E-01	4.89940783339E-02
1.75050000000E+09	2.77369851671E-02	-2.21613967194E-01	-1.69213632991E-03	6.64372605794E-02	-1.60899171324E-03	6.64879096028E-02	2.43348317022E-01	4.34631012226E-02
1.75100000000E+09	2.58616704605E-02	-2.23013741730E-01	-3.00121553295E-04	6.64208777710E-02	-2.28829608513E-04	6.64558143598E-02	2.43084846921E-01	3.78741952753E-02
1.75150000000E+09	2.38987452597E-02	-2.24315253170E-01	1.06469303502E-03	6.63675504658E-02	1.15619533737E-03	6.64063400314E-02	2.42652163135E-01	3.23828249644E-02
1.75200000000E+09	2.19150668948E-02	-2.25521920213E-01	2.44421197377E-03	6.62767189256E-02	2.52013542768E-03	6.63242657627E-02	2.42065206056E-01	2.68326131396E-02
1.75250000000E+09	1.98688219397E-02	-2.26655435231E-01	3.78474402516E-03	6.61562718209E-02	3.89797195251E-03	6.62159484695E-02	2.41292793359E-01	2.13389542292E-02
1.75300000000E+09	1.78181545346E-02	-2.27699644466E-01	5.16146066698E-03	6.60409074709E-02	5.23540934318E-03	6.60720691743E-02	2.40337046958E-01	1.58832818494E-02
1.75350000000E+09	1.56986153833E-02	-2.28643416330E-01	6.50661331159E-03	6.58408889682E-02	6.59532959461E-03	6.59092881408E-02	2.39203300912E-01	1.04336009873E-02
1.75400000000E+09	1.35298234061E-02	-2.29519232183E-01	7.86565535625E-03	6.56667515180E-02	7.95059829741E-03	6.57165762667E-02	2.37891078470E-01	5.01517781429E-03
1.75450000000E+09	1.13658758457E-02	-2.30264953996E-01	9.19696376216E-03	6.54413904250E-02	9.28606875340E-03	6.54776701259E-02	2.36455603398E-01	-3.69097957970E-04
1.75500000000E+09	9.12074455637E-03	-2.30968155424E-01	1.05269630028E-02	6.51888929284E-02	1.06255771852E-02	6.52459474035E-02	2.34846633618E-01	-5.73219046915E-03
1.75550000000E+09	6.88834127930E-03	-2.31533183863E-01	1.18496697749E-02	6.49275816944E-02	1.19459986218E-02	6.49550709109E-02	2.33044436862E-01	-1.09814893984E-02
1.75600000000E+09	4.62388776110E-03	-2.32026087231E-01	1.31596896201E-02	6.46298801552E-02	1.32604292941E-02	6.46606779659E-02	2.31079128078E-01	-1.61863027182E-02
1.75650000000E+09	2.31726552921E-03	-2.32394968495E-01	1.44802612124E-02	6.43043222394E-02	1.45731343382E-02	6.43474858646E-02	2.28968092459E-01	-2.13475020518E-02
1.75700000000E+09	3.40562498355E-05	-2.32672363303E-01	1.57580270225E-02	6.39681993082E-02	1.58508482909E-02	6.40033672032E-02	2.26675576778E-01	-2.64145863045E-02
1.75750000000E+09	-2.27853896074E-03	-2.32837973391E-01	1.70505775168E-02	6.36003741790E-02	1.71468522711E-02	6.36084668326E-02	2.24227816890E-01	-3.14222636459E-02
1.75800000000E+09	-4.60015114260E-03	-2.32901403182E-01	1.83163176960E-02	6.31877133870E-02	1.84169776787E-02	6.32121622496E-02	2.21611175105E-01	-3.63728909710E-02
1.75850000000E+09	-6.93014303264E-03	-2.32861227850E-01	1.95696932174E-02	6.27683668676E-02	1.96942929184E-02	6.28097791354E-02	2.18844832649E-01	-4.11973650090E-02
