# Hz S RI R 50
! CMT, CMT808U, 21440046, 21.4.3/4
! Date: 11/17/2025 2:40:28 PM
! Data: Format (Calibration Info)
! Freq	S11:Re/Im(F2)	S41:Re/Im(F2)	S14:Re/Im(F2)	S44:Re/Im(F2)
1.70000000000E+09	-8.18221146101E-02	-1.31012170422E-01	-5.62408699139E-02	-4.34270895570E-02	-5.63390702916E-02	-4.33869078929E-02	-9.44354809110E-02	2.45373270092E-02
1.70050000000E+09	-8.12104000319E-02	-1.28661098614E-01	-5.71696135173E-02	-4.22944694436E-02	-5.72622539087E-02	-4.22621674305E-02	-9.51530266207E-02	2.98785403128E-02
1.70100000000E+09	-8.04457853433E-02	-1.26294556508E-01	-5.80982132411E-02	-4.11676411511E-02	-5.81820717454E-02	-4.11064568078E-02	-9.56750452139E-02	3.52344922023E-02
1.70150000000E+09	-7.95515475412E-02	-1.23979236099E-01	-5.89928378486E-02	-3.99704050717E-02	-5.90911419765E-02	-3.99330297323E-02	-9.60730980795E-02	4.06084452268E-02
1.70200000000E+09	-7.84767430474E-02	-1.21681516510E-01	-5.98642667002E-02	-3.87796146149E-02	-5.99587507882E-02	-3.87348623479E-02	-9.62442701736E-02	4.59956663857E-02
1.70250000000E+09	-7.72732490760E-02	-1.19398700441E-01	-6.07304128035E-02	-3.75572921064E-02	-6.08089863914E-02	-3.75162906411E-02	-9.62313029654E-02	5.13382030543E-02
1.70300000000E+09	-7.59359690954E-02	-1.17158258908E-01	-6.15679578265E-02	-3.63378923952E-02	-6.16493871071E-02	-3.62863987140E-02	-9.60737241763E-02	5.67300538490E-02
1.70350000000E+09	-7.44532370051E-02	-1.15001471584E-01	-6.23760025700E-02	-3.50629953312E-02	-6.24688237696E-02	-3.50154799042E-02	-9.57391581209E-02	6.20599272691E-02
1.70400000000E+09	-7.28284028020E-02	-1.12910666783E-01	-6.31722199492E-02	-3.37871086882E-02	-6.32525487314E-02	-3.37303287616E-02	-9.52166067684E-02	6.73902976723E-02
1.70450000000E+09	-7.10995380119E-02	-1.10878210499E-01	-6.39409408694E-02	-3.24601434863E-02	-6.40403651996E-02	-3.24234775320E-02	-9.45014112094E-02	7.26922295684E-02
1.70500000000E+09	-6.92349732777E-02	-1.08909678467E-01	-6.46770667389E-02	-3.11552437483E-02	-6.47675861399E-02	-3.10727861224E-02	-9.36406740997E-02	7.80036611871E-02
1.70550000000E+09	-6.72577586915E-02	-1.07061804658E-01	-6.54077894169E-02	-2.98061766103E-02	-6.54752676812E-02	-2.97389555565E-02	-9.26037237703E-02	8.32209222810E-02
1.70600000000E+09	-6.51910091229E-02	-1.05294085544E-01	-6.60910378445E-02	-2.84287401387E-02	-6.61740994742E-02	-2.83658721252E-02	-9.13891217843E-02	8.84194435577E-02
1.70650000000E+09	-6.30046836951E-02	-1.03596132806E-01	-6.67512432374E-02	-2.70375184219E-02	-6.68382426859E-02	-2.69641951305E-02	-9.00080932968E-02	9.35739039848E-02
1.70700000000E+09	-6.07362509082E-02	-1.02029446106E-01	-6.73849782895E-02	-2.56289199997E-02	-6.74765848337E-02	-2.55463394490E-02	-8.84658365881E-02	9.86958504983E-02
1.70750000000E+09	-5.83463700602E-02	-1.00556316172E-01	-6.79765814737E-02	-2.41972672640E-02	-6.80716224020E-02	-2.41248242820E-02	-8.67833972449E-02	1.03725595735E-01
1.70800000000E+09	-5.59157882305E-02	-9.92053566124E-02	-6.85652535086E-02	-2.27365411749E-02	-6.86468274565E-02	-2.26800705035E-02	-8.48743915981E-02	1.08736024792E-01
1.70850000000E+09	-5.33867618120E-02	-9.79683377293E-02	-6.90926006416E-02	-2.12742104249E-02	-6.91854668978E-02	-2.12017223671E-02	-8.28562610158E-02	1.13639222825E-01
1.70900000000E+09	-5.08093374857E-02	-9.68273429372E-02	-6.96000485507E-02	-1.97934909949E-02	-6.96823178473E-02	-1.97205521147E-02	-8.07159933397E-02	1.18482915518E-01
1.70950000000E+09	-4.81963350737E-02	-9.58514955097E-02	-7.00796232544E-02	-1.83008082867E-02	-7.01586950055E-02	-1.82215817634E-02	-7.83876050325E-02	1.23244924186E-01
1.71000000000E+09	-4.55205866516E-02	-9.49609276343E-02	-7.05311666901E-02	-1.67783015574E-02	-7.05852682171E-02	-1.67086379708E-02	-7.58925775235E-02	1.27925730028E-01
1.71050000000E+09	-4.27929121192E-02	-9.42043286237E-02	-7.09285916799E-02	-1.52498094501E-02	-7.09873484987E-02	-1.51765592161E-02	-7.32681348974E-02	1.32537285870E-01
1.71100000000E+09	-4.00448909456E-02	-9.35513077142E-02	-7.12924099793E-02	-1.37115566149E-02	-7.13689360613E-02	-1.36324825743E-02	-7.04604859275E-02	1.37033752432E-01
1.71150000000E+09	-3.72706909550E-02	-9.30335930708E-02	-7.16305169408E-02	-1.21570685759E-02	-7.17023171028E-02	-1.20747376300E-02	-6.75582837314E-02	1.41466903420E-01
1.71200000000E+09	-3.44529417193E-02	-9.26278142973E-02	-7.19336902095E-02	-1.06014309390E-02	-7.19874859422E-02	-1.04960696039E-02	-6.45318310772E-02	1.45756046679E-01
1.71250000000E+09	-3.16532242290E-02	-9.23600840503E-02	-7.21794445226E-02	-9.01729306917E-03	-7.22595835963E-02	-8.92614547571E-03	-6.13416381529E-02	1.49978472630E-01
1.71300000000E+09	-2.88439591113E-02	-9.22010217136E-02	-7.24171141066E-02	-7.44698903184E-03	-7.24786955074E-02	-7.35124671030E-03	-5.80401744725E-02	1.54075055056E-01
1.71350000000E+09	-2.60279856368E-02	-9.21631868342E-02	-7.25984354660E-02	-5.84506004872E-03	-7.26547325054E-02	-5.74778777393E-03	-5.45934356877E-02	1.58089030457E-01
1.71400000000E+09	-2.31927444947E-02	-9.22496142348E-02	-7.27453057026E-02	-4.24695507021E-03	-7.28146932495E-02	-4.16673397393E-03	-5.10760999896E-02	1.61955358280E-01
1.71450000000E+09	-2.04099441359E-02	-9.24322446790E-02	-7.28372089849E-02	-2.64278216198E-03	-7.29035678585E-02	-2.56788041743E-03	-4.73664368636E-02	1.65699632236E-01
1.71500000000E+09	-1.76069364666E-02	-9.27412483711E-02	-7.29254726791E-02	-1.05523158803E-03	-7.29969362796E-02	-9.57819507362E-04	-4.35950241508E-02	1.69358230494E-01
1.71550000000E+09	-1.48587738255E-02	-9.31439382717E-02	-7.29528702371E-02	5.69502807342E-04	-7.29992088586E-02	6.57295479365E-04	-3.96721198872E-02	1.72819988422E-01
1.71600000000E+09	-1.21284090572E-02	-9.36703677053E-02	-7.29434740585E-02	2.18184463055E-03	-7.29882950094E-02	2.26250605091E-03	-3.56983855548E-02	1.76216511981E-01
1.71650000000E+09	-9.41712697951E-03	-9.43056276669E-02	-7.29091051499E-02	3.79123177231E-03	-7.29438387129E-02	3.88971155034E-03	-3.15548693461E-02	1.79487068615E-01
1.71700000000E+09	-6.73951607109E-03	-9.50341043542E-02	-7.28050025212E-02	5.40363285010E-03	-7.28596249126E-02	5.49006470292E-03	-2.73883389085E-02	1.82601246822E-01
1.71750000000E+09	-4.13560183481E-03	-9.58529827486E-02	-7.26966298912E-02	6.99860643818E-03	-7.27426827843E-02	7.11022180777E-03	-2.30654961510E-02	1.85565051814E-01
1.71800000000E+09	-1.50756720601E-03	-9.67849714188E-02	-7.25281823419E-02	8.59895893852E-03	-7.25633158607E-02	8.71664840919E-03	-1.87010700399E-02	1.88397221179E-01
1.71850000000E+09	9.98078309141E-04	-9.78113176154E-02	-7.23295719244E-02	1.02122629980E-02	-7.23751371741E-02	1.03127078240E-02	-1.42598585494E-02	1.91109531801E-01
1.71900000000E+09	3.47191847849E-03	-9.89126008428E-02	-7.20951149644E-02	1.18125864296E-02	-7.21222511657E-02	1.19081556975E-02	-9.67789997819E-03	1.93654160103E-01
1.71950000000E+09	5.92273569721E-03	-1.00104670173E-01	-7.18155471443E-02	1.33803865412E-02	-7.18517162486E-02	1.35051214933E-02	-5.07442939237E-03	1.96069301010E-01
1.72000000000E+09	8.27744875712E-03	-1.01387993458E-01	-7.15026108219E-02	1.49708837036E-02	-7.15299214999E-02	1.50767597899E-02	-4.13467081211E-04	1.98314735339E-01
1.72050000000E+09	1.06007887690E-02	-1.02726559447E-01	-7.11411278069E-02	1.65440176097E-02	-7.11685082392E-02	1.66514818220E-02	4.32793725900E-03	2.00409533533E-01
1.72100000000E+09	1.28443483459E-02	-1.04173979770E-01	-7.07586453123E-02	1.81193711524E-02	-7.07842560567E-02	1.82163194814E-02	9.16273729968E-03	2.02385175825E-01
1.72150000000E+09	1.50218336909E-02	-1.05657186581E-01	-7.03156504238E-02	1.96855985462E-02	-7.03421142539E-02	1.97755721532E-02	1.40403225290E-02	2.04198413469E-01
1.72200000000E+09	1.71581415471E-02	-1.07227079395E-01	-6.98540140737E-02	2.12060056650E-02	-6.98803146720E-02	2.13173008270E-02	1.89524163268E-02	2.05848998376E-01
1.72250000000E+09	1.91977306612E-02	-1.08842826737E-01	-6.93557695496E-02	2.27306785867E-02	-6.93779053187E-02	2.28476533322E-02	2.39039852780E-02	2.07352495497E-01
1.72300000000E+09	2.11647001267E-02	-1.10560019658E-01	-6.88289798745E-02	2.42504080890E-02	-6.88310313403E-02	2.43619332553E-02	2.88776863251E-02	2.08674055527E-01
1.72350000000E+09	2.30655650872E-02	-1.12299262385E-01	-6.82572527860E-02	2.57535031350E-02	-6.82627357835E-02	2.58699617357E-02	3.39526419187E-02	2.09839584814E-01
1.72400000000E+09	2.48916430990E-02	-1.14098304989E-01	-6.76392044687E-02	2.72490288787E-02	-6.76353148139E-02	2.73449485247E-02	3.90305745918E-02	2.10896703601E-01
1.72450000000E+09	2.66542621427E-02	-1.15975092319E-01	-6.69967344613E-02	2.86931615321E-02	-6.70147539505E-02	2.88229545475E-02	4.40980015551E-02	2.11788956688E-01
1.72500000000E+09	2.83332094578E-02	-1.17853722176E-01	-6.63313321786E-02	3.01711060830E-02	-6.63498360646E-02	3.02709355339E-02	4.91991184197E-02	2.12466883414E-01
1.72550000000E+09	2.99415851519E-02	-1.19771439518E-01	-6.56175035300E-02	3.15979467841E-02	-6.56142750946E-02	3.17067022974E-02	5.43653900750E-02	2.13005798183E-01
1.72600000000E+09	3.14792821972E-02	-1.21767140784E-01	-6.48878800428E-02	3.30143196281E-02	-6.48786387801E-02	3.31177330895E-02	5.94666908976E-02	2.13368342125E-01
1.72650000000E+09	3.29121034996E-02	-1.23769995062E-01	-6.41094210571E-02	3.44058031856E-02	-6.41080086408E-02	3.45279754624E-02	6.46346191780E-02	2.13604045471E-01
1.72700000000E+09	3.43108869981E-02	-1.25836000246E-01	-6.33114426084E-02	3.57925188321E-02	-6.32965702783E-02	3.58910836562E-02	6.97879162158E-02	2.13662106706E-01
1.72750000000E+09	3.55980814559E-02	-1.27891137098E-01	-6.24737101752E-02	3.71165175392E-02	-6.24546645551E-02	3.72480760368E-02	7.49173980201E-02	2.13588903439E-01
1.72800000000E+09	3.68292660045E-02	-1.30003368639E-01	-6.16101907233E-02	3.84792200943E-02	-6.15882861301E-02	3.85827130669E-02	8.00623993742E-02	2.13331560901E-01
1.72850000000E+09	3.79583296167E-02	-1.32147403133E-01	-6.07221685717E-02	3.97983986073E-02	-6.06998729889E-02	3.98900942022E-02	8.51671515914E-02	2.12911779020E-01
1.72900000000E+09	3.90403979765E-02	-1.34277522441E-01	-5.97990867550E-02	4.10642597572E-02	-5.97739143766E-02	4.11865625253E-02	9.03021018120E-02	2.12348731353E-01
1.72950000000E+09	4.00206475023E-02	-1.36425060410E-01	-5.88576334281E-02	4.23317331558E-02	-5.88255493975E-02	4.24424157890E-02	9.53708622384E-02	2.11627475753E-01
1.73000000000E+09	4.09216017289E-02	-1.38635496574E-01	-5.78760887551E-02	4.35823746257E-02	-5.78537410597E-02	4.36820367415E-02	1.00406268636E-01	2.10718898566E-01
1.73050000000E+09	4.17971722382E-02	-1.40823850482E-01	-5.68662434972E-02	4.47821772652E-02	-5.68319798469E-02	4.49010405593E-02	1.05455111378E-01	2.09691512530E-01
1.73100000000E+09	4.25288553723E-02	-1.43025538166E-01	-5.58412626035E-02	4.59803417897E-02	-5.58130561728E-02	4.60865569010E-02	1.10456358142E-01	2.08493228456E-01
1.73150000000E+09	4.32185757140E-02	-1.45241752861E-01	-5.47913897469E-02	4.71493811484E-02	-5.47503558499E-02	4.72453228562E-02	1.15371397727E-01	2.07152954630E-01
1.73200000000E+09	4.38370413428E-02	-1.47442571256E-01	-5.37126298077E-02	4.82934295904E-02	-5.36724811242E-02	4.83859482961E-02	1.20266169872E-01	2.05634465337E-01
1.73250000000E+09	4.43738689592E-02	-1.49674679217E-01	-5.26309226870E-02	4.94005456223E-02	-5.26006909593E-02	4.94896256574E-02	1.25114898254E-01	2.03993165439E-01
1.73300000000E+09	4.48187658052E-02	-1.51863820165E-01	-5.14823895789E-02	5.04812689830E-02	-5.14543443024E-02	5.05827342670E-02	1.29920106178E-01	2.02218606968E-01
1.73350000000E+09	4.52213238217E-02	-1.54099046673E-01	-5.03499416485E-02	5.15432449639E-02	-5.02968969307E-02	5.16150680570E-02	1.34641068589E-01	2.00260856566E-01
1.73400000000E+09	4.55427333962E-02	-1.56305808043E-01	-4.91934777363E-02	5.25796765680E-02	-4.91344964565E-02	5.26629870345E-02	1.39340370013E-01	1.98148467693E-01
1.73450000000E+09	4.57956324353E-02	-1.58502292151E-01	-4.79889873091E-02	5.35725534283E-02	-4.79470063730E-02	5.36645953306E-02	1.43943930151E-01	1.95964296164E-01
1.73500000000E+09	4.59696085540E-02	-1.60698263660E-01	-4.67779241686E-02	5.45281693223E-02	-4.67467396253E-02	5.46393008688E-02	1.48459035099E-01	1.93553663099E-01
1.73550000000E+09	4.60929337732E-02	-1.62877092521E-01	-4.55691071795E-02	5.54922813078E-02	-4.55164899064E-02	5.55761493298E-02	1.52915326444E-01	1.91050580897E-01
1.73600000000E+09	4.61063148738E-02	-1.65046652749E-01	-4.43386748168E-02	5.63934147261E-02	-4.42714670676E-02	5.64865522627E-02	1.57271390398E-01	1.88387892255E-01
1.73650000000E+09	4.61032133618E-02	-1.67197099237E-01	-4.30540729197E-02	5.72841550989E-02	-4.30107099524E-02	5.73680912649E-02	1.61551830480E-01	1.85631524835E-01
1.73700000000E+09	4.60387711905E-02	-1.69349822202E-01	-4.17783191904E-02	5.81283910659E-02	-4.17370886311E-02	5.82140777851E-02	1.65750945772E-01	1.82730601519E-01
1.73750000000E+09	4.58784857456E-02	-1.71454825031E-01	-4.05070529880E-02	5.89649445269E-02	-4.04452652995E-02	5.90405486975E-02	1.69875188564E-01	1.79677577176E-01
1.73800000000E+09	4.56608416567E-02	-1.73574944842E-01	-3.91827535465E-02	5.97486705081E-02	-3.91366011309E-02	5.98319462536E-02	1.73867899918E-01	1.76486018689E-01
1.73850000000E+09	4.53752976701E-02	-1.75662154633E-01	-3.78635064678E-02	6.05118007776E-02	-3.78048755886E-02	6.05850519968E-02	1.77787893354E-01	1.73242237542E-01
1.73900000000E+09	4.50399313097E-02	-1.77731153779E-01	-3.65316054325E-02	6.12343277742E-02	-3.64761522887E-02	6.13209665641E-02	1.81614894033E-01	1.69825394950E-01
1.73950000000E+09	4.46732498596E-02	-1.79757000321E-01	-3.51849770788E-02	6.19416855618E-02	-3.51279145072E-02	6.20306982492E-02	1.85308197941E-01	1.66288102662E-01
1.74000000000E+09	4.41813389909E-02	-1.81809228952E-01	-3.38163235216E-02	6.26099958549E-02	-3.37728905255E-02	6.26849017312E-02	1.88886751397E-01	1.62651298490E-01
1.74050000000E+09	4.36716139399E-02	-1.83785855938E-01	-3.24581004768E-02	6.32388310457E-02	-3.23837284420E-02	6.33298664066E-02	1.92355823716E-01	1.58919689757E-01
1.74100000000E+09	4.30756816298E-02	-1.85762097430E-01	-3.10733902420E-02	6.38514985172E-02	-3.10072106829E-02	6.39266628992E-02	1.95695787610E-01	1.55047222214E-01
1.74150000000E+09	4.24184471748E-02	-1.87678564124E-01	-2.96800669913E-02	6.44115531038E-02	-2.96193688397E-02	6.45076115631E-02	1.98940284243E-01	1.51090979293E-01
1.74200000000E+09	4.17565782162E-02	-1.89610277037E-01	-2.82853922752E-02	6.49864331389E-02	-2.82243265525E-02	6.50530426597E-02	2.02065009523E-01	1.47056821838E-01
1.74250000000E+09	4.09642940266E-02	-1.91478375435E-01	-2.68838631816E-02	6.55012629560E-02	-2.68236251844E-02	6.55575517401E-02	2.05060670207E-01	1.42930451705E-01
1.74300000000E+09	4.01911287910E-02	-1.93329364150E-01	-2.54556776514E-02	6.59558740697E-02	-2.54132921433E-02	6.60353445924E-02	2.07924897504E-01	1.38675432955E-01
1.74350000000E+09	3.92922494059E-02	-1.95131650446E-01	-2.40459179936E-02	6.64178115353E-02	-2.39863306488E-02	6.64751211746E-02	2.10629020200E-01	1.34349333101E-01
1.74400000000E+09	3.84120414509E-02	-1.96899844773E-01	-2.26291793040E-02	6.68300824383E-02	-2.25608516290E-02	6.68774424421E-02	2.13230858314E-01	1.29919392899E-01
1.74450000000E+09	3.74203851806E-02	-1.98676507718E-01	-2.11997088903E-02	6.72138319183E-02	-2.11302084019E-02	6.72640818919E-02	2.15679173646E-01	1.25429402950E-01
1.74500000000E+09	3.63944066153E-02	-2.00347347976E-01	-1.97527611417E-02	6.75706016123E-02	-1.97002461464E-02	6.76347309322E-02	2.18000261418E-01	1.20879328283E-01
1.74550000000E+09	3.53049805510E-02	-2.02040884570E-01	-1.83116966547E-02	6.78957368780E-02	-1.82470781812E-02	6.79497647023E-02	2.20164020220E-01	1.16259773275E-01
1.74600000000E+09	3.41883639057E-02	-2.03674878787E-01	-1.68829012379E-02	6.81948183134E-02	-1.68129050094E-02	6.82429061258E-02	2.22212124828E-01	1.11549733517E-01
1.74650000000E+09	3.29712150371E-02	-2.05252001099E-01	-1.54441756483E-02	6.84339343048E-02	-1.53679163930E-02	6.85059186400E-02	2.24074427884E-01	1.06778506121E-01
1.74700000000E+09	3.17213216641E-02	-2.06781624683E-01	-1.39876280399E-02	6.86808133217E-02	-1.39170932005E-02	6.87261650280E-02	2.25788899080E-01	1.01938067550E-01
1.74750000000E+09	3.04574262672E-02	-2.08257652934E-01	-1.25628977149E-02	6.88615857584E-02	-1.25039328063E-02	6.89281536742E-02	2.27391777344E-01	9.71072870681E-02
1.74800000000E+09	2.91303735089E-02	-2.09733684761E-01	-1.11181668630E-02	6.90271881291E-02	-1.10266279102E-02	6.90944541819E-02	2.28795311035E-01	9.21454114137E-02
1.74850000000E+09	2.77313969564E-02	-2.11105556871E-01	-9.66745652109E-03	6.91775671865E-02	-9.60220916660E-03	6.92431486316E-02	2.30084583209E-01	8.72154659177E-02
1.74900000000E+09	2.62615816193E-02	-2.12439753568E-01	-8.22742144881E-03	6.92895481611E-02	-8.16590710528E-03	6.93383571678E-02	2.31197615371E-01	8.21765072776E-02
1.74950000000E+09	2.47993648995E-02	-2.13723997902E-01	-6.81200445146E-03	6.93693549494E-02	-6.72052748056E-03	6.94264185764E-02	2.32173601064E-01	7.71399844725E-02
1.75000000000E+09	2.32665562254E-02	-2.14972270317E-01	-5.35938406077E-03	6.94025300561E-02	-5.28705181373E-03	6.94717728070E-02	2.32987346280E-01	7.20646502837E-02
1.75050000000E+09	2.17024564574E-02	-2.16134084006E-01	-3.92207892283E-03	6.94286882284E-02	-3.84350291214E-03	6.94875200907E-02	2.33626822049E-01	6.69649193791E-02
1.75100000000E+09	2.00959158443E-02	-2.17247220010E-01	-2.51588611623E-03	6.94193167620E-02	-2.42399597041E-03	6.94803202222E-02	2.34103785694E-01	6.18493580649E-02
1.75150000000E+09	1.84257747265E-02	-2.18293785891E-01	-1.07945419658E-03	6.93842158166E-02	-9.95524879311E-04	6.94448712178E-02	2.34455403339E-01	5.67362587748E-02
1.75200000000E+09	1.67023741109E-02	-2.19260337397E-01	3.33077317161E-04	6.93231557195E-02	4.18849683681E-04	6.93401930782E-02	2.34608165170E-01	5.15625649799E-02
1.75250000000E+09	1.49676266380E-02	-2.20187056719E-01	1.73354404486E-03	6.92138801362E-02	1.83422940904E-03	6.92645211476E-02	2.34601551649E-01	4.64208542923E-02
1.75300000000E+09	1.31868079573E-02	-2.21012368117E-01	3.14656264175E-03	6.90849696293E-02	3.22341938622E-03	6.91586108898E-02	2.34436137015E-01	4.13075142409E-02
1.75350000000E+09	1.13895819040E-02	-2.21772937830E-01	4.54074556655E-03	6.89314019463E-02	4.62118177607E-03	6.89833759773E-02	2.34108705697E-01	3.61432377492E-02
1.75400000000E+09	9.51049561954E-03	-2.22462776927E-01	5.93792368958E-03	6.87675529961E-02	6.02279352487E-03	6.88028414453E-02	2.33621356730E-01	3.10162408934E-02
1.75450000000E+09	7.66485892844E-03	-2.23040106135E-01	7.30977717267E-03	6.85648398837E-02	7.39479952646E-03	6.85995735662E-02	2.32973623965E-01	2.59051769306E-02
1.75500000000E+09	5.74709633853E-03	-2.23567663622E-01	8.68973972838E-03	6.83294313976E-02	8.77998759051E-03	6.83877207010E-02	2.32200667597E-01	2.07930237195E-02
1.75550000000E+09	3.85311538142E-03	-2.23986363333E-01	1.00423853479E-02	6.80782454741E-02	1.01384061478E-02	6.81113434289E-02	2.31193804653E-01	1.56905632922E-02
1.75600000000E+09	1.91528590399E-03	-2.24368308567E-01	1.14076482372E-02	6.77962883686E-02	1.15066556518E-02	6.78333221957E-02	2.30066475285E-01	1.06415049766E-02
1.75650000000E+09	-5.23555643011E-05	-2.24604684009E-01	1.27682092386E-02	6.74891862233E-02	1.28437466646E-02	6.75210322442E-02	2.28801014732E-01	5.64530191170E-03
1.75700000000E+09	-2.00067505364E-03	-2.24768339468E-01	1.40791014858E-02	6.71514093995E-02	1.41825384088E-02	6.71941614306E-02	2.27324027901E-01	6.95810968137E-04
1.75750000000E+09	-3.98330009825E-03	-2.24864590862E-01	1.53998670722E-02	6.67995732884E-02	1.55225882759E-02	6.68256132588E-02	2.25718504376E-01	-4.22288594761E-03
1.75800000000E+09	-5.97676624343E-03	-2.24850481899E-01	1.67439075572E-02	6.64395969236E-02	1.68302126552E-02	6.64564357220E-02	2.23974032882E-01	-9.11333816814E-03
1.75850000000E+09	-7.93191485067E-03	-2.24747542648E-01	1.80289218784E-02	6.60330858006E-02	1.81457104718E-02	6.60594633548E-02	2.22033893136E-01	-1.39318504365E-02
