# Hz S RI R 50
! CMT, CMT808U, 21440046, 21.4.3/4
! Date: 11/12/2025 3:09:53 PM
! Data: Format (Calibration Info)
! Freq	S11:Re/Im(F2)	S41:Re/Im(F2)	S14:Re/Im(F2)	S44:Re/Im(F2)
1.70000000000E+09	-1.42350583502E-01	-1.17652423203E-01	-5.60343403120E-02	-3.52332261029E-02	-5.60201489276E-02	-3.52549255953E-02	-1.17379881412E-01	5.76963563543E-02
1.70050000000E+09	-1.41693343395E-01	-1.15277931380E-01	-5.67802061043E-02	-3.41088278716E-02	-5.67735345763E-02	-3.41405237118E-02	-1.17237717289E-01	6.35231035067E-02
1.70100000000E+09	-1.40917829101E-01	-1.12883466401E-01	-5.75129322420E-02	-3.29588064207E-02	-5.75110361801E-02	-3.29728878386E-02	-1.16892770118E-01	6.93316380423E-02
1.70150000000E+09	-1.39967907929E-01	-1.10537113257E-01	-5.82292855455E-02	-3.17988563651E-02	-5.82369993717E-02	-3.18145729340E-02	-1.16370423323E-01	7.51220214743E-02
1.70200000000E+09	-1.38876223712E-01	-1.08234205127E-01	-5.89434162897E-02	-3.06267049501E-02	-5.89265783436E-02	-3.06444955651E-02	-1.15664415475E-01	8.09155585829E-02
1.70250000000E+09	-1.37628812297E-01	-1.05937120943E-01	-5.96194153550E-02	-2.94224691660E-02	-5.96073023212E-02	-2.94480077872E-02	-1.14720461232E-01	8.66284953018E-02
1.70300000000E+09	-1.36231008736E-01	-1.03693691150E-01	-6.02877302448E-02	-2.81912650385E-02	-6.02598112828E-02	-2.82376461256E-02	-1.13658062107E-01	9.23207446510E-02
1.70350000000E+09	-1.34721677055E-01	-1.01531415762E-01	-6.09262746555E-02	-2.69877321096E-02	-6.09034138282E-02	-2.70076225244E-02	-1.12398190490E-01	9.79794780086E-02
1.70400000000E+09	-1.33053245499E-01	-9.94526186397E-02	-6.15261792732E-02	-2.57287054246E-02	-6.15224306521E-02	-2.57466374537E-02	-1.10920717869E-01	1.03582209073E-01
1.70450000000E+09	-1.31276664991E-01	-9.74204305158E-02	-6.21267976682E-02	-2.44658417163E-02	-6.21153392166E-02	-2.44785359908E-02	-1.09295094571E-01	1.09143618957E-01
1.70500000000E+09	-1.29393670841E-01	-9.54626907618E-02	-6.26995542335E-02	-2.31810425540E-02	-6.26856584168E-02	-2.31958521387E-02	-1.07447049893E-01	1.14627275031E-01
1.70550000000E+09	-1.27350378933E-01	-9.35976847097E-02	-6.32308186853E-02	-2.18810347706E-02	-6.32239977626E-02	-2.18952215077E-02	-1.05471942494E-01	1.20038160679E-01
1.70600000000E+09	-1.25254413309E-01	-9.18408759298E-02	-6.37697630607E-02	-2.05625978535E-02	-6.37529473280E-02	-2.05708142437E-02	-1.03293214135E-01	1.25406564318E-01
1.70650000000E+09	-1.23044193466E-01	-9.01609639974E-02	-6.42556173792E-02	-1.92046875571E-02	-6.42391005059E-02	-1.92516819906E-02	-1.00955775150E-01	1.30653640539E-01
1.70700000000E+09	-1.20722882803E-01	-8.85771124819E-02	-6.47302227200E-02	-1.78531437393E-02	-6.47161889764E-02	-1.78749172075E-02	-9.84494645985E-02	1.35857998909E-01
1.70750000000E+09	-1.18323730018E-01	-8.71121483894E-02	-6.51457050820E-02	-1.64984578736E-02	-6.51413191848E-02	-1.65208594404E-02	-9.57886205334E-02	1.40931603189E-01
1.70800000000E+09	-1.15830186174E-01	-8.57478667843E-02	-6.55575416153E-02	-1.51094294415E-02	-6.55543395189E-02	-1.51334614517E-02	-9.29517276493E-02	1.45950083647E-01
1.70850000000E+09	-1.13279331297E-01	-8.45141748310E-02	-6.59560350158E-02	-1.37144032068E-02	-6.59343878710E-02	-1.37377845619E-02	-8.99531556509E-02	1.50842930525E-01
1.70900000000E+09	-1.10658483079E-01	-8.33757957237E-02	-6.62872593513E-02	-1.23206970787E-02	-6.62826157307E-02	-1.23255494247E-02	-8.68458647921E-02	1.55641182168E-01
1.70950000000E+09	-1.08010153234E-01	-8.23736894096E-02	-6.66140985560E-02	-1.08874878263E-02	-6.66084410306E-02	-1.09205921859E-02	-8.35814040876E-02	1.60331264992E-01
1.71000000000E+09	-1.05273157843E-01	-8.14907553262E-02	-6.68946823702E-02	-9.45395777994E-03	-6.68844749836E-02	-9.48642420280E-03	-8.01315611335E-02	1.64917900554E-01
1.71050000000E+09	-1.02499024258E-01	-8.07073097727E-02	-6.71662078419E-02	-8.00098624772E-03	-6.71438042589E-02	-8.03142694822E-03	-7.65977303379E-02	1.69363056935E-01
1.71100000000E+09	-9.97086540740E-02	-8.00385450395E-02	-6.73772705022E-02	-6.55035503524E-03	-6.73700150088E-02	-6.57485905547E-03	-7.28706892398E-02	1.73721008346E-01
1.71150000000E+09	-9.68673124164E-02	-7.94962112054E-02	-6.75697793010E-02	-5.08292391430E-03	-6.75680759725E-02	-5.11239697532E-03	-6.90271946815E-02	1.77945086437E-01
1.71200000000E+09	-9.40016346594E-02	-7.90731471366E-02	-6.77181520119E-02	-3.62888327938E-03	-6.77099650442E-02	-3.64231173787E-03	-6.50728746798E-02	1.82006116375E-01
1.71250000000E+09	-9.11402745540E-02	-7.87867993152E-02	-6.78389647257E-02	-2.13843245074E-03	-6.78216691303E-02	-2.16845881767E-03	-6.09880426749E-02	1.85940284354E-01
1.71300000000E+09	-8.82757182002E-02	-7.86127527959E-02	-6.79294924009E-02	-6.51446448959E-04	-6.79055810736E-02	-6.76916604196E-04	-5.68083810894E-02	1.89779316204E-01
1.71350000000E+09	-8.53652991100E-02	-7.85419409644E-02	-6.79661847379E-02	8.27242532235E-04	-6.79678083975E-02	8.09657872054E-04	-5.24894740657E-02	1.93442361653E-01
1.71400000000E+09	-8.24777709056E-02	-7.86039710755E-02	-6.79706359426E-02	2.32440721195E-03	-6.79809022705E-02	2.30468617283E-03	-4.80884340024E-02	1.97000511197E-01
1.71450000000E+09	-7.95953214530E-02	-7.87573745596E-02	-6.79704400945E-02	3.82913638988E-03	-6.79616743018E-02	3.80219522128E-03	-4.35346048957E-02	2.00396216695E-01
1.71500000000E+09	-7.67230250170E-02	-7.90524653535E-02	-6.79017433589E-02	5.32725459770E-03	-6.79102857326E-02	5.30120216862E-03	-3.89256570797E-02	2.03645346716E-01
1.71550000000E+09	-7.38789246886E-02	-7.94263685268E-02	-6.78099803695E-02	6.83442534167E-03	-6.78001696755E-02	6.79426789758E-03	-3.41864247085E-02	2.06714977458E-01
1.71600000000E+09	-7.10440735578E-02	-7.99260319312E-02	-6.76891380858E-02	8.32204405580E-03	-6.76900397329E-02	8.29465121676E-03	-2.93909958549E-02	2.09699434254E-01
1.71650000000E+09	-6.82305167635E-02	-8.05408323194E-02	-6.75153411229E-02	9.82109728534E-03	-6.75216979336E-02	9.79463141164E-03	-2.44875224461E-02	2.12439169586E-01
1.71700000000E+09	-6.54453217954E-02	-8.12492750602E-02	-6.73241995860E-02	1.13110469022E-02	-6.73241092700E-02	1.12869324745E-02	-1.95457165022E-02	2.15084675741E-01
1.71750000000E+09	-6.27259716917E-02	-8.20309256932E-02	-6.70731773644E-02	1.28019513380E-02	-6.70842537809E-02	1.27709687427E-02	-1.44756435970E-02	2.17544832576E-01
1.71800000000E+09	-5.99942119259E-02	-8.29287388835E-02	-6.67965239223E-02	1.42880875122E-02	-6.68073056441E-02	1.42463876329E-02	-9.38111102203E-03	2.19856914798E-01
1.71850000000E+09	-5.73286007024E-02	-8.39433611654E-02	-6.64986639737E-02	1.57697086468E-02	-6.65007394165E-02	1.57355140458E-02	-4.21749783698E-03	2.22020114273E-01
1.71900000000E+09	-5.47275477097E-02	-8.50315599738E-02	-6.61575864781E-02	1.72439686705E-02	-6.61584725880E-02	1.72161088294E-02	1.06624511039E-03	2.23975072580E-01
1.71950000000E+09	-5.21451777058E-02	-8.62067613051E-02	-6.57655195946E-02	1.87026757022E-02	-6.57736888447E-02	1.86679221595E-02	6.30353571618E-03	2.25784886503E-01
1.72000000000E+09	-4.96305991587E-02	-8.74893013721E-02	-6.53538855862E-02	2.01614459807E-02	-6.53558494370E-02	2.01304712472E-02	1.16457463010E-02	2.27472756302E-01
1.72050000000E+09	-4.71705098567E-02	-8.88152738536E-02	-6.49105597181E-02	2.16015698799E-02	-6.49177701240E-02	2.15807897068E-02	1.70205890391E-02	2.28914528866E-01
1.72100000000E+09	-4.47511614597E-02	-9.02669471897E-02	-6.44100639060E-02	2.30337920951E-02	-6.44327482777E-02	2.30165703557E-02	2.24662208410E-02	2.30236094926E-01
1.72150000000E+09	-4.23906533408E-02	-9.17484351781E-02	-6.38981484082E-02	2.44610887850E-02	-6.38968469383E-02	2.44443970232E-02	2.79086111402E-02	2.31404386405E-01
1.72200000000E+09	-4.00995271911E-02	-9.33195783787E-02	-6.33408888040E-02	2.58713450706E-02	-6.33498046387E-02	2.58442020483E-02	3.33795150568E-02	2.32371725512E-01
1.72250000000E+09	-3.78872339613E-02	-9.49527357558E-02	-6.27560341595E-02	2.72624759642E-02	-6.27633274781E-02	2.72412032057E-02	3.88541131412E-02	2.33175008057E-01
1.72300000000E+09	-3.57189155599E-02	-9.66679193424E-02	-6.21438438665E-02	2.86362323400E-02	-6.21324364734E-02	2.86232938812E-02	4.43529471653E-02	2.33774267265E-01
1.72350000000E+09	-3.36407343196E-02	-9.84268895781E-02	-6.14899761304E-02	3.00091975879E-02	-6.14876285437E-02	2.99940138324E-02	4.98839517035E-02	2.34263634525E-01
1.72400000000E+09	-3.16028446909E-02	-1.00275674013E-01	-6.08034230745E-02	3.13554463384E-02	-6.08070737326E-02	3.13358149995E-02	5.54269701318E-02	2.34588789398E-01
1.72450000000E+09	-2.96463244510E-02	-1.02169981042E-01	-6.00794652748E-02	3.26868380390E-02	-6.01063635521E-02	3.26712792264E-02	6.09801275524E-02	2.34711071308E-01
1.72500000000E+09	-2.77622230512E-02	-1.04110921802E-01	-5.93459531490E-02	3.40079768090E-02	-5.93535612218E-02	3.39734059678E-02	6.64548476890E-02	2.34638521682E-01
1.72550000000E+09	-2.59447511558E-02	-1.06093661170E-01	-5.85749555027E-02	3.53088673138E-02	-5.85592229918E-02	3.52710492278E-02	7.20251981525E-02	2.34409308836E-01
1.72600000000E+09	-2.41932120514E-02	-1.08112520892E-01	-5.77514905167E-02	3.65795081620E-02	-5.77633479017E-02	3.65586009092E-02	7.74847367798E-02	2.34043409741E-01
1.72650000000E+09	-2.25485323322E-02	-1.10202699055E-01	-5.69217317295E-02	3.78397791441E-02	-5.69408660919E-02	3.78020799524E-02	8.29805701727E-02	2.33492285479E-01
1.72700000000E+09	-2.09411843835E-02	-1.12337903069E-01	-5.60499916765E-02	3.90459115093E-02	-5.60609734364E-02	3.90290906875E-02	8.84410099833E-02	2.32754544843E-01
1.72750000000E+09	-1.94319685707E-02	-1.14502954408E-01	-5.51596282788E-02	4.02692500395E-02	-5.51759373801E-02	4.02346522546E-02	9.38757961499E-02	2.31892846658E-01
1.72800000000E+09	-1.79721857096E-02	-1.16705543811E-01	-5.42445417150E-02	4.14435167779E-02	-5.42533886359E-02	4.14400983987E-02	9.92550618770E-02	2.30847757883E-01
1.72850000000E+09	-1.66302265963E-02	-1.18935063551E-01	-5.32939000436E-02	4.26082851277E-02	-5.33119158340E-02	4.25916275511E-02	1.04617065182E-01	2.29605707274E-01
1.72900000000E+09	-1.53102968320E-02	-1.21200158885E-01	-5.23203091894E-02	4.37574253806E-02	-5.23422414588E-02	4.37317534342E-02	1.09933709055E-01	2.28248914869E-01
1.72950000000E+09	-1.41018040358E-02	-1.23473227901E-01	-5.13344862862E-02	4.48739476370E-02	-5.13428222969E-02	4.48669810039E-02	1.15201197377E-01	2.26740301520E-01
1.73000000000E+09	-1.29668315670E-02	-1.25808757483E-01	-5.03094749102E-02	4.59782676821E-02	-5.03231154294E-02	4.59414184954E-02	1.20406494375E-01	2.24998406171E-01
1.73050000000E+09	-1.18812534786E-02	-1.28123368940E-01	-4.92609719305E-02	4.70292094783E-02	-4.92780362592E-02	4.70123185198E-02	1.25551008267E-01	2.23138705302E-01
1.73100000000E+09	-1.08910537409E-02	-1.30493433110E-01	-4.81944080443E-02	4.80796820002E-02	-4.82036728412E-02	4.80603151426E-02	1.30679455861E-01	2.21150916584E-01
1.73150000000E+09	-9.96491454727E-03	-1.32839812809E-01	-4.70980905322E-02	4.90968194332E-02	-4.71161374320E-02	4.90630503070E-02	1.35675598222E-01	2.18985220322E-01
1.73200000000E+09	-9.11919264180E-03	-1.35223691461E-01	-4.60017860264E-02	5.00850938261E-02	-4.60207530556E-02	5.00695969010E-02	1.40634084959E-01	2.16665168885E-01
1.73250000000E+09	-8.34930179677E-03	-1.37627511616E-01	-4.48701467497E-02	5.10396750756E-02	-4.48872038920E-02	5.10091426292E-02	1.45489415056E-01	2.14200922297E-01
1.73300000000E+09	-7.68309367323E-03	-1.40039300700E-01	-4.37243986448E-02	5.19720960598E-02	-4.37442932053E-02	5.19634574480E-02	1.50263127739E-01	2.11636184625E-01
1.73350000000E+09	-7.04803969889E-03	-1.42467055603E-01	-4.25595899602E-02	5.28755315848E-02	-4.25676564458E-02	5.28673880647E-02	1.55023559683E-01	2.08866160318E-01
1.73400000000E+09	-6.51539313513E-03	-1.44886503928E-01	-4.13674772727E-02	5.37516616567E-02	-4.13927086389E-02	5.37502240419E-02	1.59641627638E-01	2.05955832774E-01
1.73450000000E+09	-6.03206529963E-03	-1.47317649500E-01	-4.01547493574E-02	5.45950252390E-02	-4.01687383257E-02	5.45832528837E-02	1.64184126925E-01	2.02951588884E-01
1.73500000000E+09	-5.64334542389E-03	-1.49761394808E-01	-3.89315582272E-02	5.54160729715E-02	-3.89670819987E-02	5.53916247945E-02	1.68588196790E-01	1.99763224456E-01
1.73550000000E+09	-5.31830191669E-03	-1.52176314880E-01	-3.76910531962E-02	5.62227005031E-02	-3.77213734335E-02	5.61970743674E-02	1.72922336792E-01	1.96472025349E-01
1.73600000000E+09	-5.06688217994E-03	-1.54619517147E-01	-3.64520611113E-02	5.69843894986E-02	-3.64622174385E-02	5.69474478222E-02	1.77148999859E-01	1.93043378499E-01
1.73650000000E+09	-4.89352700112E-03	-1.57041476890E-01	-3.51695982974E-02	5.77004689217E-02	-3.51711958422E-02	5.76765960896E-02	1.81272725320E-01	1.89527567251E-01
1.73700000000E+09	-4.76833617617E-03	-1.59471138522E-01	-3.39214795598E-02	5.84189769230E-02	-3.39235757679E-02	5.83899892820E-02	1.85252356552E-01	1.85828249031E-01
1.73750000000E+09	-4.74115270225E-03	-1.61887071180E-01	-3.26021774642E-02	5.90740855466E-02	-3.26350698483E-02	5.90663480126E-02	1.89143828650E-01	1.82071517312E-01
1.73800000000E+09	-4.78384294844E-03	-1.64317631295E-01	-3.12925666318E-02	5.97231817966E-02	-3.13440652602E-02	5.96921232435E-02	1.92908160076E-01	1.78102068041E-01
1.73850000000E+09	-4.88951461906E-03	-1.66707218969E-01	-2.99838162550E-02	6.03287338592E-02	-3.00195259108E-02	6.03099886567E-02	1.96544863799E-01	1.74121417923E-01
1.73900000000E+09	-5.06154980208E-03	-1.69117287538E-01	-2.86545983476E-02	6.09033273889E-02	-2.86793239406E-02	6.08881808482E-02	2.00065437508E-01	1.69974236910E-01
1.73950000000E+09	-5.28599875050E-03	-1.71472816904E-01	-2.73074106765E-02	6.14528860025E-02	-2.73495503249E-02	6.14362470998E-02	2.03476570381E-01	1.65754783294E-01
1.74000000000E+09	-5.62073731221E-03	-1.73885074676E-01	-2.59914753476E-02	6.19826850382E-02	-2.60130847632E-02	6.19753809627E-02	2.06710078294E-01	1.61427797119E-01
1.74050000000E+09	-6.02538874241E-03	-1.76213112256E-01	-2.46248546544E-02	6.24682524399E-02	-2.46584916997E-02	6.24512127967E-02	2.09825991077E-01	1.57002665928E-01
1.74100000000E+09	-6.47397037246E-03	-1.78531136649E-01	-2.32798810415E-02	6.29220802455E-02	-2.32867768355E-02	6.29030501251E-02	2.12805216036E-01	1.52473133488E-01
1.74150000000E+09	-7.01553371839E-03	-1.80847352742E-01	-2.19064729900E-02	6.33517309937E-02	-2.19285197483E-02	6.33329327943E-02	2.15677641984E-01	1.47843724794E-01
1.74200000000E+09	-7.60045003053E-03	-1.83161008658E-01	-2.05159408144E-02	6.37404349539E-02	-2.05553901422E-02	6.37282975011E-02	2.18362196967E-01	1.43177955799E-01
1.74250000000E+09	-8.29522544711E-03	-1.85412404116E-01	-1.91595131992E-02	6.41223379398E-02	-1.91738987187E-02	6.40827668044E-02	2.20919180608E-01	1.38383992303E-01
1.74300000000E+09	-9.01609577968E-03	-1.87668006231E-01	-1.77638418500E-02	6.44331221800E-02	-1.77840335248E-02	6.44250538243E-02	2.23327617155E-01	1.33498433336E-01
1.74350000000E+09	-9.86238157227E-03	-1.89884188760E-01	-1.63771638067E-02	6.47586735494E-02	-1.64045705854E-02	6.47366858484E-02	2.25598229236E-01	1.28594571930E-01
1.74400000000E+09	-1.07291351275E-02	-1.92071642916E-01	-1.49767728432E-02	6.50094283567E-02	-1.50191250364E-02	6.49882557278E-02	2.27674292234E-01	1.23609679306E-01
1.74450000000E+09	-1.16886453296E-02	-1.94245067023E-01	-1.35926997599E-02	6.52493085042E-02	-1.36248234434E-02	6.52472507298E-02	2.29630939182E-01	1.18549200588E-01
1.74500000000E+09	-1.27196435799E-02	-1.96357364051E-01	-1.22060330037E-02	6.54651664664E-02	-1.22438279140E-02	6.54659268246E-02	2.31423604465E-01	1.13467597682E-01
1.74550000000E+09	-1.38142651501E-02	-1.98446220482E-01	-1.08183828966E-02	6.56475530190E-02	-1.08476353124E-02	6.56528351839E-02	2.33064861867E-01	1.08310253778E-01
1.74600000000E+09	-1.49629043956E-02	-2.00498952028E-01	-9.43045677181E-03	6.57944421384E-02	-9.44893996487E-03	6.57883547162E-02	2.34527826575E-01	1.03079469369E-01
1.74650000000E+09	-1.62143121482E-02	-2.02509092303E-01	-8.01903459923E-03	6.59186198288E-02	-8.06325712978E-03	6.59036922716E-02	2.35824063381E-01	9.78252802459E-02
1.74700000000E+09	-1.75210381831E-02	-2.04472097981E-01	-6.64693084232E-03	6.59993087426E-02	-6.65009471674E-03	6.60105840303E-02	2.36943772666E-01	9.25194340381E-02
1.74750000000E+09	-1.88987741194E-02	-2.06381210373E-01	-5.24465463478E-03	6.60837342114E-02	-5.28132727670E-03	6.60660565373E-02	2.37935544882E-01	8.72110940741E-02
1.74800000000E+09	-2.03131064676E-02	-2.08276906162E-01	-3.87278101857E-03	6.60976271515E-02	-3.89340566795E-03	6.60981048342E-02	2.38738999109E-01	8.18556820470E-02
1.74850000000E+09	-2.18217905493E-02	-2.10049115909E-01	-2.47479211998E-03	6.61084562335E-02	-2.50281434293E-03	6.60971014861E-02	2.39359249213E-01	7.64711058006E-02
1.74900000000E+09	-2.34162711643E-02	-2.11823846757E-01	-1.08983919575E-03	6.60693673891E-02	-1.11692435809E-03	6.60670014814E-02	2.39842308406E-01	7.10550813714E-02
1.74950000000E+09	-2.50471788473E-02	-2.13496619011E-01	2.91597790192E-04	6.60291406820E-02	2.51723999399E-04	6.60211695462E-02	2.40153770683E-01	6.56480162022E-02
1.75000000000E+09	-2.67818911779E-02	-2.15147918239E-01	1.64738040137E-03	6.59308023824E-02	1.63815346454E-03	6.59377728492E-02	2.40315509266E-01	6.02499028384E-02
1.75050000000E+09	-2.85308000908E-02	-2.16720194102E-01	3.02597482124E-03	6.58308470440E-02	2.99062854743E-03	6.58256866958E-02	2.40252720535E-01	5.48350935647E-02
1.75100000000E+09	-3.03417243231E-02	-2.18242532085E-01	4.38732177759E-03	6.56989736083E-02	4.34505795304E-03	6.57006321133E-02	2.40074049925E-01	4.94071692391E-02
1.75150000000E+09	-3.22635381633E-02	-2.19651554808E-01	5.72641218565E-03	6.55184176689E-02	5.69771209199E-03	6.55330897744E-02	2.39700608644E-01	4.40309191518E-02
1.75200000000E+09	-3.42013617155E-02	-2.21017897663E-01	7.07468115267E-03	6.53390776473E-02	7.04858129583E-03	6.53285374225E-02	2.39160735219E-01	3.85809332374E-02
1.75250000000E+09	-3.61925483179E-02	-2.22278874640E-01	8.40748281137E-03	6.51016329222E-02	8.37962402663E-03	6.51095790848E-02	2.38427369200E-01	3.32291565939E-02
1.75300000000E+09	-3.82513653167E-02	-2.23459382893E-01	9.74152281182E-03	6.48592818258E-02	9.71580024115E-03	6.48702809957E-02	2.37553556880E-01	2.78969296277E-02
1.75350000000E+09	-4.03549005811E-02	-2.24585208012E-01	1.10519125262E-02	6.45900563849E-02	1.10297384397E-02	6.46100470079E-02	2.36502275086E-01	2.25857076927E-02
1.75400000000E+09	-4.25243663837E-02	-2.25570977140E-01	1.23502645905E-02	6.43073267305E-02	1.23463242776E-02	6.43139381854E-02	2.35257834439E-01	1.73012633323E-02
1.75450000000E+09	-4.46985276317E-02	-2.26467385101E-01	1.36801112493E-02	6.39718212284E-02	1.36322703972E-02	6.39813582793E-02	2.33858729976E-01	1.20271838361E-02
1.75500000000E+09	-4.69243038513E-02	-2.27303055822E-01	1.49568628747E-02	6.36290446218E-02	1.49288427907E-02	6.36360126848E-02	2.32320339050E-01	6.84144425677E-03
1.75550000000E+09	-4.91870603997E-02	-2.28014055018E-01	1.62347896623E-02	6.32593427764E-02	1.62104713897E-02	6.32693341809E-02	2.30581094467E-01	1.65505637862E-03
1.75600000000E+09	-5.14952623402E-02	-2.28656431207E-01	1.75011561013E-02	6.28671549456E-02	1.74722066226E-02	6.28765873945E-02	2.28697377119E-01	-3.41456049570E-03
1.75650000000E+09	-5.38379710116E-02	-2.29151830303E-01	1.87652895550E-02	6.24485315653E-02	1.87387484721E-02	6.24558823158E-02	2.26680313219E-01	-8.45915118553E-03
1.75700000000E+09	-5.61657583193E-02	-2.29546652142E-01	1.99977954023E-02	6.19955833711E-02	1.99737443006E-02	6.20089134724E-02	2.24455582459E-01	-1.34142806224E-02
1.75750000000E+09	-5.85250653366E-02	-2.29849863574E-01	2.12298214953E-02	6.15565411936E-02	2.12140000409E-02	6.15584563530E-02	2.22090561880E-01	-1.82989527698E-02
1.75800000000E+09	-6.09178536194E-02	-2.30033355460E-01	2.24732630186E-02	6.10610545676E-02	2.24307598367E-02	6.10720412760E-02	2.19564577466E-01	-2.31374102405E-02
1.75850000000E+09	-6.32904436775E-02	-2.30102552991E-01	2.36749012073E-02	6.05601099004E-02	2.36475351208E-02	6.05748455294E-02	2.16893541364E-01	-2.78819823359E-02
