# Hz S RI R 50
! CMT, CMT808U, 21440046, 21.4.3/4
! Date: 11/17/2025 2:52:11 PM
! Data: Format (Calibration Info)
! Freq	S11:Re/Im(F2)	S41:Re/Im(F2)	S14:Re/Im(F2)	S44:Re/Im(F2)
1.70000000000E+09	-8.86804648442E-02	-1.36383225609E-01	-5.38606310368E-02	-3.90772627346E-02	-5.39493343506E-02	-3.90328952079E-02	-1.22576962035E-01	3.79157163639E-02
1.70050000000E+09	-8.83036870856E-02	-1.33737780652E-01	-5.46731050186E-02	-3.79475511300E-02	-5.47885863892E-02	-3.79250555421E-02	-1.22958756797E-01	4.36365141568E-02
1.70100000000E+09	-8.77839253788E-02	-1.31077401288E-01	-5.54763146326E-02	-3.68259347373E-02	-5.55799738349E-02	-3.67796751771E-02	-1.23154866144E-01	4.93309382960E-02
1.70150000000E+09	-8.70860952374E-02	-1.28429494715E-01	-5.62684870487E-02	-3.56760827400E-02	-5.63578879601E-02	-3.56353391531E-02	-1.23187868158E-01	5.50219579529E-02
1.70200000000E+09	-8.62138774639E-02	-1.25825802398E-01	-5.70271392353E-02	-3.45277324052E-02	-5.71200784485E-02	-3.44466815436E-02	-1.22976037338E-01	6.07389445094E-02
1.70250000000E+09	-8.51857694753E-02	-1.23211878238E-01	-5.77638257975E-02	-3.33266967160E-02	-5.78628952245E-02	-3.32673641872E-02	-1.22628386425E-01	6.64350034310E-02
1.70300000000E+09	-8.40194810404E-02	-1.20630195350E-01	-5.84724458791E-02	-3.21348808531E-02	-5.85705446318E-02	-3.20701977868E-02	-1.22076208138E-01	7.21030508098E-02
1.70350000000E+09	-8.26938375022E-02	-1.18128177711E-01	-5.91646217268E-02	-3.09167045000E-02	-5.92600640272E-02	-3.08486901179E-02	-1.21351228245E-01	7.77566574869E-02
1.70400000000E+09	-8.11974701958E-02	-1.15688756484E-01	-5.98402833892E-02	-2.96670490498E-02	-5.99365787484E-02	-2.96016919293E-02	-1.20419448837E-01	8.33437934449E-02
1.70450000000E+09	-7.95912146273E-02	-1.13288810612E-01	-6.04901742739E-02	-2.84288789115E-02	-6.05785742579E-02	-2.83616731227E-02	-1.19315841227E-01	8.89662801115E-02
1.70500000000E+09	-7.78426730933E-02	-1.10963604098E-01	-6.11049534717E-02	-2.71450470843E-02	-6.11980132935E-02	-2.70806450583E-02	-1.18010963148E-01	9.45095795829E-02
1.70550000000E+09	-7.59718967056E-02	-1.08738344659E-01	-6.17084158878E-02	-2.58678294907E-02	-6.17921602814E-02	-2.58152135839E-02	-1.16546060965E-01	1.00002588657E-01
1.70600000000E+09	-7.39368313634E-02	-1.06593786647E-01	-6.22607475759E-02	-2.45658310620E-02	-6.23467137742E-02	-2.44873957437E-02	-1.14875265816E-01	1.05439083784E-01
1.70650000000E+09	-7.17989096158E-02	-1.04530341365E-01	-6.28202459476E-02	-2.32480416213E-02	-6.28974012770E-02	-2.31900880021E-02	-1.13067933689E-01	1.10824862489E-01
1.70700000000E+09	-6.95701969956E-02	-1.02582017910E-01	-6.33308942139E-02	-2.19392920881E-02	-6.34162029415E-02	-2.18588976233E-02	-1.11066502481E-01	1.16142778409E-01
1.70750000000E+09	-6.72133022430E-02	-1.00723040134E-01	-6.38296839161E-02	-2.05758573503E-02	-6.39074707465E-02	-2.05188504441E-02	-1.08914075210E-01	1.21378460797E-01
1.70800000000E+09	-6.47804618730E-02	-9.89884759332E-02	-6.42861801557E-02	-1.92090783210E-02	-6.43465684589E-02	-1.91488610441E-02	-1.06560441562E-01	1.26570243131E-01
1.70850000000E+09	-6.22392226936E-02	-9.73763327878E-02	-6.47112160167E-02	-1.78649687403E-02	-6.47814210614E-02	-1.77718401518E-02	-1.04034114574E-01	1.31651229030E-01
1.70900000000E+09	-5.96278343777E-02	-9.58634782765E-02	-6.51068736928E-02	-1.64737917339E-02	-6.51895490346E-02	-1.64055616286E-02	-1.01395208066E-01	1.36645425482E-01
1.70950000000E+09	-5.69698392520E-02	-9.45030876002E-02	-6.54786273023E-02	-1.50700344011E-02	-6.55481786722E-02	-1.50133730245E-02	-9.85699514938E-02	1.41554624339E-01
1.71000000000E+09	-5.42075634722E-02	-9.32359844465E-02	-6.58281275621E-02	-1.36962837625E-02	-6.58709702369E-02	-1.36035479067E-02	-9.55865913827E-02	1.46357762715E-01
1.71050000000E+09	-5.14076277141E-02	-9.21112930699E-02	-6.61332799523E-02	-1.22665744487E-02	-6.61864740465E-02	-1.21782459862E-02	-9.24652809555E-02	1.51054169011E-01
1.71100000000E+09	-4.85498881519E-02	-9.10794627997E-02	-6.64047317737E-02	-1.08461698116E-02	-6.64580248954E-02	-1.07589620182E-02	-8.91746376647E-02	1.55667116806E-01
1.71150000000E+09	-4.56500626504E-02	-9.02056905385E-02	-6.66508372476E-02	-9.41918579685E-03	-6.67245894829E-02	-9.33087221372E-03	-8.57295003682E-02	1.60172538163E-01
1.71200000000E+09	-4.27125377911E-02	-8.94455336422E-02	-6.68673359806E-02	-7.99676341154E-03	-6.69336129363E-02	-7.89877014664E-03	-8.21737276015E-02	1.64538169541E-01
1.71250000000E+09	-3.97676052452E-02	-8.88349772560E-02	-6.70521285647E-02	-6.53509172419E-03	-6.70965744498E-02	-6.45973382164E-03	-7.84464920840E-02	1.68784533529E-01
1.71300000000E+09	-3.67844797020E-02	-8.83333250048E-02	-6.71945335924E-02	-5.08789735630E-03	-6.72578727016E-02	-4.99584592504E-03	-7.46375360870E-02	1.72926626491E-01
1.71350000000E+09	-3.37918639799E-02	-8.79445714311E-02	-6.73200445409E-02	-3.63581088640E-03	-6.73620090540E-02	-3.54899139443E-03	-7.06869004452E-02	1.76918994786E-01
1.71400000000E+09	-3.07744161095E-02	-8.76949447432E-02	-6.73957637058E-02	-2.19346681649E-03	-6.74499774889E-02	-2.10374927496E-03	-6.66289009498E-02	1.80793329886E-01
1.71450000000E+09	-2.77572778632E-02	-8.75872263116E-02	-6.74399002855E-02	-7.32790149510E-04	-6.74822799838E-02	-6.33563771647E-04	-6.23864923349E-02	1.84507909954E-01
1.71500000000E+09	-2.47564527756E-02	-8.75847687890E-02	-6.74604834012E-02	7.36844531806E-04	-6.75062649421E-02	8.27123383688E-04	-5.80911241123E-02	1.88131444304E-01
1.71550000000E+09	-2.17641238023E-02	-8.76904866396E-02	-6.74510096523E-02	2.19295008998E-03	-6.74875308229E-02	2.27229657789E-03	-5.36137345722E-02	1.91564761760E-01
1.71600000000E+09	-1.87797077118E-02	-8.79214116164E-02	-6.73834577716E-02	3.66520726737E-03	-6.74319139389E-02	3.75029932377E-03	-4.91308511826E-02	1.94909961514E-01
1.71650000000E+09	-1.58059928841E-02	-8.82913654694E-02	-6.73007980178E-02	5.10069906933E-03	-6.73383484188E-02	5.21242439940E-03	-4.44677745201E-02	1.98074507331E-01
1.71700000000E+09	-1.28787053778E-02	-8.87452425599E-02	-6.71889054624E-02	6.57892368737E-03	-6.72256874914E-02	6.66986001852E-03	-3.97654809498E-02	2.01066124268E-01
1.71750000000E+09	-9.96657225321E-03	-8.93136666344E-02	-6.70518799765E-02	8.01148154457E-03	-6.70612802612E-02	8.13779436260E-03	-3.49127496178E-02	2.03921276694E-01
1.71800000000E+09	-7.06906221535E-03	-8.99954219124E-02	-6.68430655490E-02	9.48087801983E-03	-6.68840243378E-02	9.58155825482E-03	-3.00081275169E-02	2.06616288817E-01
1.71850000000E+09	-4.23348166327E-03	-9.07794639801E-02	-6.66399939292E-02	1.09185901745E-02	-6.66664241872E-02	1.10260399617E-02	-2.50348826832E-02	2.09191995546E-01
1.71900000000E+09	-1.44733922802E-03	-9.16757142287E-02	-6.64047956472E-02	1.23614457018E-02	-6.64216491462E-02	1.24853517582E-02	-1.99634585862E-02	2.11554904065E-01
1.71950000000E+09	1.30577236622E-03	-9.26524766051E-02	-6.60947880190E-02	1.38045857209E-02	-6.61453126225E-02	1.39162691244E-02	-1.48488269898E-02	2.13748534623E-01
1.72000000000E+09	4.02312136180E-03	-9.37540637292E-02	-6.57889407449E-02	1.52381956836E-02	-6.58092034243E-02	1.53397867115E-02	-9.66607724652E-03	2.15820992710E-01
1.72050000000E+09	6.67262431620E-03	-9.49179375159E-02	-6.54412104677E-02	1.66535713094E-02	-6.54590885272E-02	1.67604880735E-02	-4.42104941967E-03	2.17689774955E-01
1.72100000000E+09	9.29328587232E-03	-9.62088054317E-02	-6.50577105660E-02	1.80631850901E-02	-6.50788268333E-02	1.81932886005E-02	9.00154370220E-04	2.19414265787E-01
1.72150000000E+09	1.18388156858E-02	-9.75386629340E-02	-6.46569855775E-02	1.94807811930E-02	-6.46638540676E-02	1.95833592024E-02	6.27529117104E-03	2.20979095890E-01
1.72200000000E+09	1.43230899672E-02	-9.89561138765E-02	-6.41963674691E-02	2.08575893294E-02	-6.42243205194E-02	2.09730909671E-02	1.16706679641E-02	2.22381543336E-01
1.72250000000E+09	1.67569639448E-02	-1.00486924880E-01	-6.37286334607E-02	2.22461795771E-02	-6.37343559789E-02	2.23606382819E-02	1.70860622016E-02	2.23582210593E-01
1.72300000000E+09	1.90984736197E-02	-1.02073848072E-01	-6.32303247081E-02	2.36272653655E-02	-6.32459936652E-02	2.37292796752E-02	2.25275137328E-02	2.24626598872E-01
1.72350000000E+09	2.13868922535E-02	-1.03757451009E-01	-6.26914928305E-02	2.49668734702E-02	-6.26923798968E-02	2.50889652574E-02	2.80317598399E-02	2.25453418506E-01
1.72400000000E+09	2.36286117659E-02	-1.05490309048E-01	-6.21328365493E-02	2.63290820220E-02	-6.21256421570E-02	2.64215042293E-02	3.35692456331E-02	2.26193664578E-01
1.72450000000E+09	2.57620667629E-02	-1.07297437246E-01	-6.15246209040E-02	2.76537251365E-02	-6.15387878775E-02	2.77654073412E-02	3.91250503834E-02	2.26712356676E-01
1.72500000000E+09	2.78490114961E-02	-1.09170246695E-01	-6.08984817907E-02	2.89612667847E-02	-6.09023170981E-02	2.90801057547E-02	4.46310698167E-02	2.27054148076E-01
1.72550000000E+09	2.98572626942E-02	-1.11080658737E-01	-6.02369898057E-02	3.02702881661E-02	-6.02496845401E-02	3.03842280585E-02	5.02112483438E-02	2.27206456281E-01
1.72600000000E+09	3.18002646023E-02	-1.13076223469E-01	-5.95663809100E-02	3.15712860796E-02	-5.95592644333E-02	3.16583407888E-02	5.57433300302E-02	2.27195670968E-01
1.72650000000E+09	3.36428419057E-02	-1.15117225236E-01	-5.88472268134E-02	3.28332200912E-02	-5.88493065445E-02	3.29458239667E-02	6.12722507164E-02	2.27035252272E-01
1.72700000000E+09	3.54250033611E-02	-1.17219753300E-01	-5.81329117390E-02	3.40936997500E-02	-5.81053518929E-02	3.41774445032E-02	6.68005636000E-02	2.26667258697E-01
1.72750000000E+09	3.71198270672E-02	-1.19356085642E-01	-5.73591010122E-02	3.53241359799E-02	-5.73399338235E-02	3.54068606176E-02	7.23441604426E-02	2.26178335138E-01
1.72800000000E+09	3.87410330553E-02	-1.21539752755E-01	-5.65504723913E-02	3.65237065497E-02	-5.65474063869E-02	3.66323584133E-02	7.78314838409E-02	2.25476122135E-01
1.72850000000E+09	4.02861519397E-02	-1.23797301358E-01	-5.57436245802E-02	3.77246171429E-02	-5.57279872299E-02	3.78394702843E-02	8.32911106318E-02	2.24602233585E-01
1.72900000000E+09	4.17586702232E-02	-1.26059056305E-01	-5.49085476926E-02	3.89112197000E-02	-5.48728272691E-02	3.90014475479E-02	8.87329614727E-02	2.23587895816E-01
1.72950000000E+09	4.31359183588E-02	-1.28347705947E-01	-5.40417738173E-02	4.00619457824E-02	-5.39959055291E-02	4.01569644685E-02	9.41373875429E-02	2.22367056214E-01
1.73000000000E+09	4.44279963520E-02	-1.30718541277E-01	-5.31314512662E-02	4.11929066470E-02	-5.31142037095E-02	4.12879383316E-02	9.94755807633E-02	2.20992719087E-01
1.73050000000E+09	4.56397837309E-02	-1.33063714113E-01	-5.22176869129E-02	4.23018450329E-02	-5.21806655108E-02	4.24089367093E-02	1.04802640936E-01	2.19472786856E-01
1.73100000000E+09	4.67598734729E-02	-1.35479236533E-01	-5.12919664713E-02	4.33962240717E-02	-5.12573832516E-02	4.34967885701E-02	1.10089538933E-01	2.17778279577E-01
1.73150000000E+09	4.78012611296E-02	-1.37916148964E-01	-5.03163997175E-02	4.44788561659E-02	-5.02909168403E-02	4.45714044077E-02	1.15287244704E-01	2.15876080415E-01
1.73200000000E+09	4.87951912234E-02	-1.40348831119E-01	-4.93269581820E-02	4.55299198195E-02	-4.92929895809E-02	4.56135114560E-02	1.20422672022E-01	2.13857431928E-01
1.73250000000E+09	4.96702967878E-02	-1.42832717605E-01	-4.83177718794E-02	4.65621769353E-02	-4.82896659531E-02	4.66529905706E-02	1.25496351766E-01	2.11696688235E-01
1.73300000000E+09	5.04324903036E-02	-1.45314883173E-01	-4.72830702207E-02	4.75662974446E-02	-4.72493390309E-02	4.76526991451E-02	1.30470142202E-01	2.09377114663E-01
1.73350000000E+09	5.11331906492E-02	-1.47817074548E-01	-4.62508292199E-02	4.85327767548E-02	-4.62051410392E-02	4.86280993782E-02	1.35421527969E-01	2.06864854500E-01
1.73400000000E+09	5.17697405253E-02	-1.50323632087E-01	-4.51597074114E-02	4.94952652314E-02	-4.51360256628E-02	4.95669597327E-02	1.40308685021E-01	2.04223618496E-01
1.73450000000E+09	5.22944710183E-02	-1.52842867180E-01	-4.40866320155E-02	5.04167319103E-02	-4.40367285204E-02	5.05006123555E-02	1.45040493245E-01	2.01432332426E-01
1.73500000000E+09	5.27463533018E-02	-1.55371231421E-01	-4.30024143856E-02	5.13107297561E-02	-4.29395223411E-02	5.14062914163E-02	1.49743147560E-01	1.98493267709E-01
1.73550000000E+09	5.31060545435E-02	-1.57902883971E-01	-4.18561078766E-02	5.22086670669E-02	-4.18122754409E-02	5.22799285208E-02	1.54320417434E-01	1.95387614342E-01
1.73600000000E+09	5.33855140138E-02	-1.60417092269E-01	-4.07142328641E-02	5.30542041413E-02	-4.06572772861E-02	5.31402231251E-02	1.58800010479E-01	1.92220013228E-01
1.73650000000E+09	5.35967680644E-02	-1.62956268311E-01	-3.95544917878E-02	5.38852725529E-02	-3.95115717100E-02	5.39745879312E-02	1.63190974545E-01	1.88849399941E-01
1.73700000000E+09	5.37184607839E-02	-1.65459380034E-01	-3.83660773498E-02	5.46951854818E-02	-3.83313255542E-02	5.47629356032E-02	1.67452226286E-01	1.85332666643E-01
1.73750000000E+09	5.37169910786E-02	-1.67991529114E-01	-3.71843873605E-02	5.54580848426E-02	-3.71421685970E-02	5.55226460102E-02	1.71616507456E-01	1.81726646724E-01
1.73800000000E+09	5.36643964611E-02	-1.70512708340E-01	-3.59750213385E-02	5.61776621734E-02	-3.59424400802E-02	5.62969772251E-02	1.75646281761E-01	1.77950526220E-01
1.73850000000E+09	5.35152812552E-02	-1.72991532003E-01	-3.47521545571E-02	5.69249076041E-02	-3.47063994276E-02	5.70097060196E-02	1.79590249955E-01	1.74097227950E-01
1.73900000000E+09	5.33069317922E-02	-1.75468511683E-01	-3.35186898401E-02	5.76340768772E-02	-3.34808946568E-02	5.76976955204E-02	1.83418595116E-01	1.70093829218E-01
1.73950000000E+09	5.30194296106E-02	-1.77924415831E-01	-3.22791993835E-02	5.82948978447E-02	-3.22262713074E-02	5.83773384090E-02	1.87105824708E-01	1.65992971821E-01
1.74000000000E+09	5.26089094843E-02	-1.80394521859E-01	-3.10116537879E-02	5.89282882624E-02	-3.09771165487E-02	5.90166659820E-02	1.90643525075E-01	1.61752752225E-01
1.74050000000E+09	5.21379741645E-02	-1.82797153430E-01	-2.97363628171E-02	5.95383884527E-02	-2.96757100343E-02	5.96163873266E-02	1.94056448433E-01	1.57405995345E-01
1.74100000000E+09	5.15842953127E-02	-1.85194214236E-01	-2.84720204860E-02	6.01044307101E-02	-2.83931753988E-02	6.01924049032E-02	1.97310718885E-01	1.52972917309E-01
1.74150000000E+09	5.09490363051E-02	-1.87553352051E-01	-2.71683290961E-02	6.06781431412E-02	-2.71129445403E-02	6.07444268047E-02	2.00486318277E-01	1.48428565105E-01
1.74200000000E+09	5.02612781276E-02	-1.89895501291E-01	-2.58740837243E-02	6.11937027953E-02	-2.58246211951E-02	6.12709963986E-02	2.03512873036E-01	1.43790958932E-01
1.74250000000E+09	4.94526704869E-02	-1.92205611046E-01	-2.45576512737E-02	6.16921504541E-02	-2.44948098435E-02	6.17755744560E-02	2.06378698241E-01	1.39061889106E-01
1.74300000000E+09	4.85846571648E-02	-1.94460482004E-01	-2.32428890884E-02	6.21677123749E-02	-2.31683703506E-02	6.22342680623E-02	2.09091936442E-01	1.34220631646E-01
1.74350000000E+09	4.76349688331E-02	-1.96687819272E-01	-2.19123513975E-02	6.26078413906E-02	-2.18442812694E-02	6.26745951261E-02	2.11642776206E-01	1.29315657177E-01
1.74400000000E+09	4.66294729439E-02	-1.98881023427E-01	-2.05735099060E-02	6.30051480818E-02	-2.05087181849E-02	6.30919761069E-02	2.14049975780E-01	1.24323173598E-01
1.74450000000E+09	4.55148576750E-02	-2.01044426699E-01	-1.92247024880E-02	6.34083215651E-02	-1.91597156218E-02	6.34755080090E-02	2.16330875067E-01	1.19256457413E-01
1.74500000000E+09	4.43793961501E-02	-2.03116981311E-01	-1.78671042856E-02	6.37485023277E-02	-1.78139606988E-02	6.38103970708E-02	2.18431722752E-01	1.14146040902E-01
1.74550000000E+09	4.31152883662E-02	-2.05173867278E-01	-1.65313456943E-02	6.40699891783E-02	-1.64713563203E-02	6.41572669290E-02	2.20355461744E-01	1.08976814354E-01
1.74600000000E+09	4.18124931937E-02	-2.07189737699E-01	-1.51730235838E-02	6.43833180521E-02	-1.50938313851E-02	6.44328006378E-02	2.22160052879E-01	1.03695892213E-01
1.74650000000E+09	4.04296681501E-02	-2.09120373247E-01	-1.38097783218E-02	6.46460606386E-02	-1.37527346035E-02	6.46921101086E-02	2.23728567245E-01	9.84078604201E-02
1.74700000000E+09	3.89837448182E-02	-2.11024590024E-01	-1.24514279835E-02	6.48767060240E-02	-1.23715965134E-02	6.49375872973E-02	2.25167985489E-01	9.30069721100E-02
1.74750000000E+09	3.74755593143E-02	-2.12825879704E-01	-1.10833267053E-02	6.50922760387E-02	-1.10126548679E-02	6.51432002145E-02	2.26482948100E-01	8.76162193967E-02
1.74800000000E+09	3.59119998728E-02	-2.14617723157E-01	-9.70655174921E-03	6.52669607102E-02	-9.64882239789E-03	6.53282691857E-02	2.27575774458E-01	8.21725842882E-02
1.74850000000E+09	3.42626557154E-02	-2.16306530344E-01	-8.33471417506E-03	6.54152727383E-02	-8.25615400949E-03	6.54784078098E-02	2.28486443528E-01	7.66907407049E-02
1.74900000000E+09	3.25516689591E-02	-2.17952251413E-01	-6.94729483808E-03	6.55351053140E-02	-6.89771818284E-03	6.55954697744E-02	2.29262219767E-01	7.11819613593E-02
1.74950000000E+09	3.07966335486E-02	-2.19500408484E-01	-5.59357514131E-03	6.56195349072E-02	-5.51008494026E-03	6.56964775823E-02	2.29874190075E-01	6.56441153975E-02
1.75000000000E+09	2.89833033621E-02	-2.21010767033E-01	-4.23097923029E-03	6.56958513327E-02	-4.14233912569E-03	6.57492655816E-02	2.30279075046E-01	6.00873805373E-02
1.75050000000E+09	2.71044469263E-02	-2.22432266051E-01	-2.85008915752E-03	6.57298280665E-02	-2.77579075160E-03	6.57742998722E-02	2.30517665961E-01	5.45249447377E-02
1.75100000000E+09	2.51770950995E-02	-2.23792456247E-01	-1.49050689527E-03	6.57312446354E-02	-1.40802223877E-03	6.57824941088E-02	2.30603958399E-01	4.89494514121E-02
1.75150000000E+09	2.31815584303E-02	-2.25058040276E-01	-1.13762866680E-04	6.57090235870E-02	-3.03813406301E-05	6.57697770015E-02	2.30495225425E-01	4.33830588176E-02
1.75200000000E+09	2.11588546687E-02	-2.26233258193E-01	1.24599441915E-03	6.56730429806E-02	1.33967092879E-03	6.57167559142E-02	2.30226135712E-01	3.77854639328E-02
1.75250000000E+09	1.90764726992E-02	-2.27328999349E-01	2.60066387668E-03	6.55869145716E-02	2.70519216800E-03	6.56380698040E-02	2.29780859682E-01	3.22196409117E-02
1.75300000000E+09	1.69716426971E-02	-2.28322116774E-01	3.96300311004E-03	6.54845089012E-02	4.04169451627E-03	6.55259500487E-02	2.29115815718E-01	2.66884825765E-02
1.75350000000E+09	1.48050992657E-02	-2.29265914571E-01	5.31007963622E-03	6.53442661426E-02	5.40083327276E-03	6.53921100018E-02	2.28310526117E-01	2.11376197854E-02
1.75400000000E+09	1.26226257036E-02	-2.30067962734E-01	6.65047210863E-03	6.51984450568E-02	6.75658111594E-03	6.52402727260E-02	2.27299881280E-01	1.56460321775E-02
1.75450000000E+09	1.04110190868E-02	-2.30791320248E-01	8.01099102880E-03	6.49954819793E-02	8.09059293725E-03	6.50518634572E-02	2.26168493009E-01	1.01508287205E-02
1.75500000000E+09	8.14485939959E-03	-2.31421560922E-01	9.33979467425E-03	6.47899613754E-02	9.42053857964E-03	6.48338233100E-02	2.24807110049E-01	4.71071381386E-03
1.75550000000E+09	5.87423183163E-03	-2.31951170808E-01	1.06666000535E-02	6.45515063750E-02	1.07538020260E-02	6.45917735875E-02	2.23291677876E-01	-7.10097400865E-04
1.75600000000E+09	3.58308427422E-03	-2.32405080988E-01	1.19703726582E-02	6.42854997447E-02	1.20838475660E-02	6.43271240495E-02	2.21617459029E-01	-6.06028816466E-03
1.75650000000E+09	1.24952379501E-03	-2.32695276754E-01	1.33060981256E-02	6.39973852360E-02	1.33875927560E-02	6.40366962195E-02	2.19792791723E-01	-1.13694959353E-02
1.75700000000E+09	-1.05099032005E-03	-2.32913108607E-01	1.46010595852E-02	6.36747428836E-02	1.46999877203E-02	6.37053860800E-02	2.17769357328E-01	-1.66040364502E-02
1.75750000000E+09	-3.37235350717E-03	-2.33036166111E-01	1.58836849258E-02	6.33285206425E-02	1.59890054768E-02	6.33645070221E-02	2.15593824499E-01	-2.17752993348E-02
1.75800000000E+09	-5.73039225861E-03	-2.33035813296E-01	1.71866588898E-02	6.29842421105E-02	1.72739390755E-02	6.29890157913E-02	2.13231070843E-01	-2.69084961868E-02
1.75850000000E+09	-8.07651903176E-03	-2.32930082619E-01	1.84616842644E-02	6.25810481167E-02	1.85695638920E-02	6.26138033893E-02	2.10735650260E-01	-3.19149616494E-02
