# Hz S RI R 50
! CMT, CMT808U, 21440046, 21.4.3/4
! Date: 11/17/2025 2:28:36 PM
! Data: Format (Calibration Info)
! Freq	S11:Re/Im(F2)	S41:Re/Im(F2)	S14:Re/Im(F2)	S44:Re/Im(F2)
1.70000000000E+09	-8.23296791963E-02	-1.36528480069E-01	-6.62342364675E-02	-9.21686630741E-03	-6.62994938537E-02	-9.12429082741E-03	-4.92849897948E-02	-1.24004678761E-03
1.70050000000E+09	-8.20303641690E-02	-1.34135634962E-01	-6.64820184753E-02	-7.76078320107E-03	-6.65594605359E-02	-7.67766223081E-03	-5.08266106624E-02	2.88122138188E-03
1.70100000000E+09	-8.15414790395E-02	-1.31716205042E-01	-6.67226569111E-02	-6.30615039530E-03	-6.67745471147E-02	-6.20104395459E-03	-5.22489406335E-02	7.02523409397E-03
1.70150000000E+09	-8.09284318318E-02	-1.29315509588E-01	-6.68975922303E-02	-4.81435185407E-03	-6.69578563389E-02	-4.72155251090E-03	-5.35424020614E-02	1.12194566265E-02
1.70200000000E+09	-8.01255238113E-02	-1.26940029653E-01	-6.70542418139E-02	-3.33713868239E-03	-6.71088572221E-02	-3.24214333018E-03	-5.46538200896E-02	1.54681518462E-02
1.70250000000E+09	-7.91910959654E-02	-1.24549996634E-01	-6.71935933219E-02	-1.85592121977E-03	-6.72338963884E-02	-1.74166686698E-03	-5.56376726562E-02	1.97471236968E-02
1.70300000000E+09	-7.81149310980E-02	-1.22221767526E-01	-6.72790254726E-02	-3.48961674281E-04	-6.73253152397E-02	-2.41803967639E-04	-5.65270653351E-02	2.40540042961E-02
1.70350000000E+09	-7.68955829354E-02	-1.19905767717E-01	-6.73186319767E-02	1.14850793304E-03	-6.73750485231E-02	1.25511353642E-03	-5.72259671991E-02	2.83960240534E-02
1.70400000000E+09	-7.54943740988E-02	-1.17676547971E-01	-6.73390205351E-02	2.66581214599E-03	-6.73807552910E-02	2.77877905108E-03	-5.78238012134E-02	3.27246449985E-02
1.70450000000E+09	-7.40232599045E-02	-1.15474132786E-01	-6.73002322071E-02	4.17659372228E-03	-6.73543462297E-02	4.28511340095E-03	-5.82468497895E-02	3.71188293183E-02
1.70500000000E+09	-7.23893443177E-02	-1.13351682898E-01	-6.72518453026E-02	5.68298999227E-03	-6.72860364505E-02	5.79397601868E-03	-5.85466811568E-02	4.15055600343E-02
1.70550000000E+09	-7.06287596158E-02	-1.11323520322E-01	-6.71501301300E-02	7.19338040169E-03	-6.71976115183E-02	7.30534476224E-03	-5.86822679139E-02	4.58800133448E-02
1.70600000000E+09	-6.87472716199E-02	-1.09341016249E-01	-6.70321062777E-02	8.72873776712E-03	-6.70612428332E-02	8.82419071990E-03	-5.86900431301E-02	5.02702287100E-02
1.70650000000E+09	-6.67597814469E-02	-1.07454598620E-01	-6.68414733546E-02	1.02238071345E-02	-6.68845723179E-02	1.03348824007E-02	-5.85608401539E-02	5.46551446600E-02
1.70700000000E+09	-6.46766030422E-02	-1.05674654970E-01	-6.66408171759E-02	1.17585911324E-02	-6.66717894490E-02	1.18580661161E-02	-5.82795106177E-02	5.90402925619E-02
1.70750000000E+09	-6.24800502051E-02	-1.03990834981E-01	-6.64000913017E-02	1.32485964322E-02	-6.64092822901E-02	1.33646764334E-02	-5.78783458592E-02	6.33881593087E-02
1.70800000000E+09	-6.01959026955E-02	-1.02401231789E-01	-6.61128349178E-02	1.47548139211E-02	-6.61253664786E-02	1.48609615470E-02	-5.73115514505E-02	6.77368499469E-02
1.70850000000E+09	-5.78054056526E-02	-1.00934494446E-01	-6.57908242525E-02	1.62468573702E-02	-6.58173418543E-02	1.63701052371E-02	-5.66007819692E-02	7.20737977229E-02
1.70900000000E+09	-5.53702906685E-02	-9.95489457834E-02	-6.54135771917E-02	1.77606683192E-02	-6.54602911688E-02	1.78626366025E-02	-5.57869870684E-02	7.63631098467E-02
1.70950000000E+09	-5.28704658007E-02	-9.83167092573E-02	-6.50277209868E-02	1.92102342224E-02	-6.50552749531E-02	1.93479508145E-02	-5.48234258602E-02	8.06343358792E-02
1.71000000000E+09	-5.02844690158E-02	-9.71675314754E-02	-6.45960263077E-02	2.06938146956E-02	-6.46032412297E-02	2.08064585619E-02	-5.37039185724E-02	8.48608174009E-02
1.71050000000E+09	-4.76490042376E-02	-9.61515265311E-02	-6.41279161564E-02	2.21534193421E-02	-6.41342928250E-02	2.22799455700E-02	-5.25033766889E-02	8.90403053781E-02
1.71100000000E+09	-4.49717636152E-02	-9.52463370596E-02	-6.36226055119E-02	2.36134342807E-02	-6.36272863715E-02	2.37261110845E-02	-5.10960754298E-02	9.32058001727E-02
1.71150000000E+09	-4.22584649536E-02	-9.44590408448E-02	-6.30610319959E-02	2.50382662433E-02	-6.30692894026E-02	2.51590016874E-02	-4.95791094649E-02	9.73128167775E-02
1.71200000000E+09	-3.94962125709E-02	-9.37944289421E-02	-6.25124838642E-02	2.64584668648E-02	-6.25031720166E-02	2.65894330324E-02	-4.79612016990E-02	1.01359813973E-01
1.71250000000E+09	-3.67009215154E-02	-9.32733136965E-02	-6.18726892657E-02	2.78676146612E-02	-6.18750455849E-02	2.79979562171E-02	-4.61924655165E-02	1.05327309030E-01
1.71300000000E+09	-3.39228213848E-02	-9.28608206953E-02	-6.12217452825E-02	2.92642780098E-02	-6.12271017604E-02	2.93808035889E-02	-4.43247643050E-02	1.09269258682E-01
1.71350000000E+09	-3.11181032405E-02	-9.25459471005E-02	-6.05387120745E-02	3.06391947412E-02	-6.05484434917E-02	3.07576415906E-02	-4.23235122319E-02	1.13108556252E-01
1.71400000000E+09	-2.82867998970E-02	-9.23709829282E-02	-5.98257287182E-02	3.19905805541E-02	-5.98270783896E-02	3.21009217195E-02	-4.02067895633E-02	1.16914111998E-01
1.71450000000E+09	-2.54557061855E-02	-9.23185781450E-02	-5.90725526867E-02	3.33232094788E-02	-5.90776348724E-02	3.34492383650E-02	-3.79432639477E-02	1.20635181576E-01
1.71500000000E+09	-2.26393515444E-02	-9.23587528092E-02	-5.83031217698E-02	3.46408161904E-02	-5.82785082461E-02	3.47578777150E-02	-3.55974206253E-02	1.24292017205E-01
1.71550000000E+09	-1.98270099331E-02	-9.25213422845E-02	-5.74907504096E-02	3.59403149831E-02	-5.74668904369E-02	3.60499476835E-02	-3.30883636068E-02	1.27841265096E-01
1.71600000000E+09	-1.70305435938E-02	-9.28185105763E-02	-5.66418220040E-02	3.72140601044E-02	-5.66312833112E-02	3.73146311923E-02	-3.05485732167E-02	1.31351556773E-01
1.71650000000E+09	-1.42503827251E-02	-9.32079227545E-02	-5.57674977894E-02	3.84554597985E-02	-5.57371589124E-02	3.85713510350E-02	-2.78356086162E-02	1.34762365039E-01
1.71700000000E+09	-1.14909962410E-02	-9.36881373283E-02	-5.48833031022E-02	3.96847677345E-02	-5.48388185586E-02	3.97972776273E-02	-2.50447169813E-02	1.38053745671E-01
1.71750000000E+09	-8.77290968038E-03	-9.42904247567E-02	-5.39368041759E-02	4.08745231729E-02	-5.39092276089E-02	4.10143650836E-02	-2.21332150747E-02	1.41254297913E-01
1.71800000000E+09	-6.07812743988E-03	-9.50081426760E-02	-5.29795632125E-02	4.20521253740E-02	-5.29428227628E-02	4.21654980715E-02	-1.91465240581E-02	1.44370733315E-01
1.71850000000E+09	-3.43696916918E-03	-9.58236311682E-02	-5.20055882345E-02	4.32069805372E-02	-5.19690503371E-02	4.33238325380E-02	-1.60676380042E-02	1.47406717312E-01
1.71900000000E+09	-8.42978658116E-04	-9.67241091160E-02	-5.09930774978E-02	4.43394840633E-02	-5.09557378971E-02	4.44456872580E-02	-1.28858562321E-02	1.50318344453E-01
1.71950000000E+09	1.71985761609E-03	-9.77164055701E-02	-4.99684626520E-02	4.54316147100E-02	-4.99259039601E-02	4.55614365422E-02	-9.61831462863E-03	1.53123526693E-01
1.72000000000E+09	4.22869546786E-03	-9.88180804634E-02	-4.89156550540E-02	4.65201241257E-02	-4.88603716869E-02	4.66066637008E-02	-6.29898026286E-03	1.55844942388E-01
1.72050000000E+09	6.68920478322E-03	-9.99644550824E-02	-4.78132013528E-02	4.75469351431E-02	-4.77776957827E-02	4.76606517401E-02	-2.87369407375E-03	1.58412829588E-01
1.72100000000E+09	9.10271129631E-03	-1.01246501425E-01	-4.67389603890E-02	4.85687791159E-02	-4.66730702587E-02	4.86809049839E-02	6.38536800109E-04	1.60920794381E-01
1.72150000000E+09	1.14327665905E-02	-1.02561627843E-01	-4.56167039887E-02	4.95553630057E-02	-4.55595300015E-02	4.96579428145E-02	4.23368881624E-03	1.63306907248E-01
1.72200000000E+09	1.37280170307E-02	-1.03970870932E-01	-4.44587385689E-02	5.05088634766E-02	-4.44110869782E-02	5.06136425005E-02	7.87649416417E-03	1.65570475265E-01
1.72250000000E+09	1.59477910823E-02	-1.05440933063E-01	-4.33107963138E-02	5.14356808160E-02	-4.32480181972E-02	5.15299850984E-02	1.15802728470E-02	1.67711406157E-01
1.72300000000E+09	1.80894907823E-02	-1.07015290889E-01	-4.21319102778E-02	5.23389271247E-02	-4.20584138741E-02	5.24333559451E-02	1.53322139541E-02	1.69700049829E-01
1.72350000000E+09	2.01839571354E-02	-1.08622311393E-01	-4.09257732508E-02	5.32019951737E-02	-4.08665775489E-02	5.33091094743E-02	1.91615827992E-02	1.71629133927E-01
1.72400000000E+09	2.21946883371E-02	-1.10307335280E-01	-3.97170213872E-02	5.40418828081E-02	-3.96566351069E-02	5.41549860126E-02	2.30665619726E-02	1.73420106554E-01
1.72450000000E+09	2.41388551040E-02	-1.12056991641E-01	-3.84928810442E-02	5.48672405821E-02	-3.84213366642E-02	5.49652009546E-02	2.70024513402E-02	1.75079324631E-01
1.72500000000E+09	2.60332873896E-02	-1.13832722808E-01	-3.72451773092E-02	5.56352872934E-02	-3.71667518975E-02	5.57423396301E-02	3.09308614328E-02	1.76597958874E-01
1.72550000000E+09	2.78362790427E-02	-1.15689523308E-01	-3.59824938370E-02	5.64097847569E-02	-3.59081587433E-02	5.64861591116E-02	3.49904170851E-02	1.77997102237E-01
1.72600000000E+09	2.95705031747E-02	-1.17601093350E-01	-3.47232947117E-02	5.71098936019E-02	-3.46471954456E-02	5.72043655550E-02	3.90010155403E-02	1.79263289514E-01
1.72650000000E+09	3.12104074893E-02	-1.19538438856E-01	-3.34390630595E-02	5.77966472648E-02	-3.33588046399E-02	5.78876669984E-02	4.30929117749E-02	1.80401060831E-01
1.72700000000E+09	3.28011513126E-02	-1.21510198734E-01	-3.21432745979E-02	5.84518116962E-02	-3.20571459178E-02	5.85440715089E-02	4.72434239179E-02	1.81404523925E-01
1.72750000000E+09	3.43041698150E-02	-1.23549755671E-01	-3.08287777216E-02	5.90857039459E-02	-3.07530356676E-02	5.91611920675E-02	5.13419307000E-02	1.82308232025E-01
1.72800000000E+09	3.57302203690E-02	-1.25607031934E-01	-2.95270159741E-02	5.96887479897E-02	-2.94493294519E-02	5.97651185897E-02	5.55172119055E-02	1.83075572836E-01
1.72850000000E+09	3.70672632561E-02	-1.27718544236E-01	-2.81889967947E-02	6.02438355293E-02	-2.81145887493E-02	6.03107059303E-02	5.96865935891E-02	1.83664516262E-01
1.72900000000E+09	3.83542936514E-02	-1.29845585991E-01	-2.68719123769E-02	6.07793387889E-02	-2.67821585622E-02	6.08608392692E-02	6.38832036013E-02	1.84197459616E-01
1.72950000000E+09	3.95463675033E-02	-1.31986052935E-01	-2.55088043107E-02	6.12890620817E-02	-2.54242795151E-02	6.13624593040E-02	6.80971267307E-02	1.84559807328E-01
1.73000000000E+09	4.06664593017E-02	-1.34182309300E-01	-2.41693663749E-02	6.17523279939E-02	-2.40926727382E-02	6.18327143608E-02	7.22454139210E-02	1.84778394166E-01
1.73050000000E+09	4.17139909419E-02	-1.36370182252E-01	-2.28363841198E-02	6.21924971876E-02	-2.27307240456E-02	6.22854363856E-02	7.64665389075E-02	1.84908456771E-01
1.73100000000E+09	4.26626664430E-02	-1.38596607763E-01	-2.14918369908E-02	6.26259309950E-02	-2.13741186699E-02	6.26799213481E-02	8.06503484095E-02	1.84873999600E-01
1.73150000000E+09	4.35508569102E-02	-1.40814034794E-01	-2.01002687048E-02	6.29940748324E-02	-2.00222871338E-02	6.30473319434E-02	8.48433812881E-02	1.84730933437E-01
1.73200000000E+09	4.43637454908E-02	-1.43048110077E-01	-1.87467990045E-02	6.33480951377E-02	-1.86610917295E-02	6.34177489835E-02	8.89971336051E-02	1.84427762707E-01
1.73250000000E+09	4.50964657580E-02	-1.45288092405E-01	-1.73865711008E-02	6.36723547551E-02	-1.72837019912E-02	6.37325386954E-02	9.31546475785E-02	1.84014214465E-01
1.73300000000E+09	4.57371310969E-02	-1.47544520701E-01	-1.60063012237E-02	6.39520689472E-02	-1.59149240329E-02	6.40225165916E-02	9.72757881594E-02	1.83490709149E-01
1.73350000000E+09	4.63330125689E-02	-1.49836512573E-01	-1.46228203843E-02	6.42184379287E-02	-1.45373422145E-02	6.42873079290E-02	1.01395178137E-01	1.82840947659E-01
1.73400000000E+09	4.68394681726E-02	-1.52102186069E-01	-1.32461864096E-02	6.44644254312E-02	-1.31581503796E-02	6.45199041328E-02	1.05511415883E-01	1.82021009437E-01
1.73450000000E+09	4.72605181005E-02	-1.54352221832E-01	-1.18815465584E-02	6.46759452960E-02	-1.17814460750E-02	6.47285333125E-02	1.09558913202E-01	1.81124737807E-01
1.73500000000E+09	4.76136491270E-02	-1.56651951292E-01	-1.05079108158E-02	6.48452954983E-02	-1.04053199766E-02	6.48961122799E-02	1.13564896109E-01	1.80081821252E-01
1.73550000000E+09	4.79185109720E-02	-1.58900585929E-01	-9.12476010556E-03	6.49807856361E-02	-9.02653606093E-03	6.50222891643E-02	1.17530997019E-01	1.78904232950E-01
1.73600000000E+09	4.81080784906E-02	-1.61166130130E-01	-7.76383445282E-03	6.51045445634E-02	-7.65697780972E-03	6.51337532497E-02	1.21462880329E-01	1.77656506813E-01
1.73650000000E+09	4.82640929939E-02	-1.63410414760E-01	-6.37313596871E-03	6.51971993383E-02	-6.28830442780E-03	6.52247330101E-02	1.25368604034E-01	1.76272246065E-01
1.73700000000E+09	4.83538269604E-02	-1.65650558495E-01	-5.01277530867E-03	6.52483276685E-02	-4.90739864554E-03	6.52860893193E-02	1.29187790255E-01	1.74735933633E-01
1.73750000000E+09	4.83430523916E-02	-1.67875516072E-01	-3.64638339271E-03	6.52869435110E-02	-3.54208741675E-03	6.53062630258E-02	1.32972240126E-01	1.73120573377E-01
1.73800000000E+09	4.82949456669E-02	-1.70100447419E-01	-2.27940988395E-03	6.52800034138E-02	-2.18140797456E-03	6.53259548499E-02	1.36688165513E-01	1.71344171024E-01
1.73850000000E+09	4.81633581477E-02	-1.72303082038E-01	-9.14461529680E-04	6.52657169452E-02	-8.14869498689E-04	6.52981741102E-02	1.40355603179E-01	1.69525624472E-01
1.73900000000E+09	4.79597985174E-02	-1.74481852754E-01	4.27440720208E-04	6.52154587449E-02	5.50315298322E-04	6.52450972772E-02	1.43971666472E-01	1.67549322110E-01
1.73950000000E+09	4.77122208174E-02	-1.76650080465E-01	1.80629598135E-03	6.51402400141E-02	1.88746096208E-03	6.51621638788E-02	1.47502734155E-01	1.65492040293E-01
1.74000000000E+09	4.73865582667E-02	-1.78854305669E-01	3.12904343082E-03	6.50306906539E-02	3.24168901525E-03	6.50761388380E-02	1.50970856597E-01	1.63323018676E-01
1.74050000000E+09	4.69644138462E-02	-1.80963084680E-01	4.47798878974E-03	6.49072576737E-02	4.58727209138E-03	6.49394459545E-02	1.54333637051E-01	1.61035330610E-01
1.74100000000E+09	4.65011401901E-02	-1.83092508026E-01	5.81889431895E-03	6.47528288442E-02	5.93565919711E-03	6.47734168056E-02	1.57650595949E-01	1.58630891300E-01
1.74150000000E+09	4.59644778024E-02	-1.85181086647E-01	7.17416953804E-03	6.45555122321E-02	7.25203194008E-03	6.45927325213E-02	1.60890664841E-01	1.56177758148E-01
1.74200000000E+09	4.53977236093E-02	-1.87227556210E-01	8.47668023096E-03	6.43576525923E-02	8.56857095179E-03	6.43671544175E-02	1.64059811428E-01	1.53618212905E-01
1.74250000000E+09	4.47188255821E-02	-1.89265166246E-01	9.78541679297E-03	6.41364833084E-02	9.89821961303E-03	6.41601791292E-02	1.67139439131E-01	1.50941127533E-01
1.74300000000E+09	4.40294061321E-02	-1.91269476117E-01	1.11056538431E-02	6.38691728595E-02	1.11940002475E-02	6.38915091901E-02	1.70122840979E-01	1.48192840411E-01
1.74350000000E+09	4.32369063489E-02	-1.93244352462E-01	1.23895013527E-02	6.35910940582E-02	1.25057299217E-02	6.35981368348E-02	1.73014488932E-01	1.45333927565E-01
1.74400000000E+09	4.23997704958E-02	-1.95196342264E-01	1.36802649667E-02	6.32845096980E-02	1.38060575820E-02	6.32951413929E-02	1.75807471784E-01	1.42417176063E-01
1.74450000000E+09	4.15100433884E-02	-1.97138666016E-01	1.49579946668E-02	6.29512066092E-02	1.50844680798E-02	6.29718027053E-02	1.78512049320E-01	1.39421324675E-01
1.74500000000E+09	4.05444464412E-02	-1.99000969892E-01	1.62476291322E-02	6.26001288107E-02	1.63469542611E-02	6.26189505810E-02	1.81133397739E-01	1.36376436022E-01
1.74550000000E+09	3.95079202785E-02	-2.00835792155E-01	1.75187876449E-02	6.22156899724E-02	1.76117591072E-02	6.22381334870E-02	1.83616301824E-01	1.33202978660E-01
1.74600000000E+09	3.84575727899E-02	-2.02651988554E-01	1.87598952114E-02	6.18129558943E-02	1.88580215321E-02	6.18382548577E-02	1.86063849322E-01	1.29971406588E-01
1.74650000000E+09	3.73041854998E-02	-2.04413870078E-01	2.00145579848E-02	6.13872203373E-02	2.01005504064E-02	6.14086453008E-02	1.88362001948E-01	1.26678432532E-01
1.74700000000E+09	3.60934714597E-02	-2.06143126935E-01	2.12328016777E-02	6.09488155460E-02	2.13522580543E-02	6.09521130890E-02	1.90539985210E-01	1.23327952042E-01
1.74750000000E+09	3.48618646360E-02	-2.07813319631E-01	2.24608767254E-02	6.04769405770E-02	2.25624769118E-02	6.05050812792E-02	1.92663217492E-01	1.19918900148E-01
1.74800000000E+09	3.35408969601E-02	-2.09451803057E-01	2.36865999691E-02	5.99904165675E-02	2.37770282020E-02	5.99947066648E-02	1.94620509215E-01	1.16418131220E-01
1.74850000000E+09	3.21718695631E-02	-2.11013142655E-01	2.48680916334E-02	5.94763807757E-02	2.49866589224E-02	5.94811030121E-02	1.96489149245E-01	1.12888641056E-01
1.74900000000E+09	3.07528852290E-02	-2.12548624603E-01	2.60658497740E-02	5.89425197210E-02	2.61700401982E-02	5.89427640896E-02	1.98253773999E-01	1.09294384118E-01
1.74950000000E+09	2.92680681519E-02	-2.14028536948E-01	2.72532006963E-02	5.83850970251E-02	2.73446492017E-02	5.83794134392E-02	1.99898352245E-01	1.05684809992E-01
1.75000000000E+09	2.77170976980E-02	-2.15453723631E-01	2.84193041584E-02	5.78200140782E-02	2.85273592667E-02	5.78094131044E-02	2.01440928506E-01	1.01998325379E-01
1.75050000000E+09	2.61382429079E-02	-2.16803874736E-01	2.95855289207E-02	5.72195918853E-02	2.96885224312E-02	5.72184611256E-02	2.02850857030E-01	9.82675699962E-02
1.75100000000E+09	2.45201553362E-02	-2.18130242128E-01	3.07164812804E-02	5.66090161999E-02	3.08174648963E-02	5.66132811607E-02	2.04174260417E-01	9.45017571725E-02
1.75150000000E+09	2.28031539785E-02	-2.19377371358E-01	3.18509461120E-02	5.59772929801E-02	3.19575604470E-02	5.59435486926E-02	2.05354786638E-01	9.07410011026E-02
1.75200000000E+09	2.10610719170E-02	-2.20543437248E-01	3.29567431205E-02	5.53012247990E-02	3.30701575962E-02	5.52887724491E-02	2.06427204974E-01	8.68892593587E-02
1.75250000000E+09	1.92846237042E-02	-2.21653636503E-01	3.40733101555E-02	5.46299736068E-02	3.41795729236E-02	5.46214682847E-02	2.07375537012E-01	8.30589323897E-02
1.75300000000E+09	1.74581449019E-02	-2.22642411802E-01	3.51595244923E-02	5.39331420092E-02	3.52873884009E-02	5.39221085695E-02	2.08181384607E-01	7.91838735159E-02
1.75350000000E+09	1.56033711848E-02	-2.23629087959E-01	3.62470621875E-02	5.32284814881E-02	3.63485476516E-02	5.32132612477E-02	2.08862842119E-01	7.53027504988E-02
1.75400000000E+09	1.36681825148E-02	-2.24487454364E-01	3.73027026759E-02	5.24907018708E-02	3.74270453941E-02	5.24593210583E-02	2.09446795341E-01	7.14161283320E-02
1.75450000000E+09	1.17562059831E-02	-2.25257920937E-01	3.83617907119E-02	5.17338550280E-02	3.84558014298E-02	5.17095858923E-02	2.09936919406E-01	6.74737277067E-02
1.75500000000E+09	9.74466579304E-03	-2.25979874480E-01	3.94065964825E-02	5.09536056096E-02	3.95185905236E-02	5.09241709718E-02	2.10293433925E-01	6.35432746815E-02
1.75550000000E+09	7.75087203028E-03	-2.26600074398E-01	4.04252165778E-02	5.01735033432E-02	4.05398440611E-02	5.01360313747E-02	2.10480660572E-01	5.96048422274E-02
1.75600000000E+09	5.72356472417E-03	-2.27157046279E-01	4.14174946536E-02	4.93611363101E-02	4.15249551726E-02	4.93377794987E-02	2.10571720561E-01	5.57074572770E-02
1.75650000000E+09	3.64469996388E-03	-2.27564277870E-01	4.24377142219E-02	4.85261583467E-02	4.25347902386E-02	4.84920364641E-02	2.10552460173E-01	5.17513494629E-02
1.75700000000E+09	1.57463661649E-03	-2.27943236067E-01	4.34068115009E-02	4.76762210624E-02	4.34967744826E-02	4.76650501062E-02	2.10409480886E-01	4.78712636696E-02
1.75750000000E+09	-5.09829402440E-04	-2.28204142968E-01	4.43650400084E-02	4.68239225575E-02	4.44853282671E-02	4.67980364005E-02	2.10117961940E-01	4.39627147622E-02
1.75800000000E+09	-2.62331321761E-03	-2.28349418680E-01	4.53293860973E-02	4.59394063802E-02	4.54296572238E-02	4.59163416405E-02	2.09737080833E-01	4.00611202559E-02
1.75850000000E+09	-4.75134712004E-03	-2.28437205936E-01	4.62607762718E-02	4.50473460090E-02	4.63646225063E-02	4.50137717501E-02	2.09227323244E-01	3.61748535539E-02
1.75900000000E+09	-6.88841907979E-03	-2.28371395834E-01	4.71841899846E-02	4.41264811202E-02	4.72980462919E-02	4.40839873190E-02	2.08602963988E-01	3.23494172857E-02
