# Hz S RI R 50
! CMT, CMT808U, 21440046, 21.4.3/4
! Date: 11/12/2025 3:22:41 PM
! Data: Format (Calibration Info)
! Freq	S11:Re/Im(F2)	S41:Re/Im(F2)	S14:Re/Im(F2)	S44:Re/Im(F2)
1.70000000000E+09	-1.38214648328E-01	-1.19656077249E-01	-5.57628030305E-02	-3.34821532431E-02	-5.57694758898E-02	-3.34679033818E-02	-1.30615305936E-01	4.74452610436E-02
1.70050000000E+09	-1.37693056124E-01	-1.17253523999E-01	-5.64714449099E-02	-3.23443047732E-02	-5.64756979537E-02	-3.23465093880E-02	-1.30612114849E-01	5.34166632928E-02
1.70100000000E+09	-1.37037977272E-01	-1.14864004288E-01	-5.71737062234E-02	-3.11986132632E-02	-5.71734790102E-02	-3.12042183121E-02	-1.30429536114E-01	5.93362512317E-02
1.70150000000E+09	-1.36200938555E-01	-1.12497778818E-01	-5.78407356175E-02	-3.00338658907E-02	-5.78435572771E-02	-3.00363817430E-02	-1.30048122438E-01	6.52326378074E-02
1.70200000000E+09	-1.35233367667E-01	-1.10187939493E-01	-5.84983007152E-02	-2.88655087478E-02	-5.84991719009E-02	-2.88571080522E-02	-1.29462036046E-01	7.11472545869E-02
1.70250000000E+09	-1.34108267642E-01	-1.07852555243E-01	-5.91331801210E-02	-2.76641352178E-02	-5.91435900165E-02	-2.76632389122E-02	-1.28679384708E-01	7.70327010395E-02
1.70300000000E+09	-1.32832096415E-01	-1.05575197446E-01	-5.97328693770E-02	-2.64466172949E-02	-5.97295533176E-02	-2.64614472861E-02	-1.27760926046E-01	8.28694410344E-02
1.70350000000E+09	-1.31433618506E-01	-1.03367043670E-01	-6.03107779696E-02	-2.52316631922E-02	-6.03284522601E-02	-2.52421028182E-02	-1.26614022445E-01	8.86726710679E-02
1.70400000000E+09	-1.29878191359E-01	-1.01221360960E-01	-6.08974744795E-02	-2.39855097472E-02	-6.08987139786E-02	-2.39971934630E-02	-1.25288446700E-01	9.44016973182E-02
1.70450000000E+09	-1.28206783725E-01	-9.91378564790E-02	-6.14234005178E-02	-2.27374368199E-02	-6.14382731858E-02	-2.27381265123E-02	-1.23736356207E-01	1.00096559545E-01
1.70500000000E+09	-1.26418898692E-01	-9.71275261487E-02	-6.19700418740E-02	-2.14793871790E-02	-6.19541875450E-02	-2.14720587547E-02	-1.22047153569E-01	1.05762903953E-01
1.70550000000E+09	-1.24500664896E-01	-9.51883173628E-02	-6.24421453949E-02	-2.01794539992E-02	-6.24519178805E-02	-2.01693189799E-02	-1.20167464276E-01	1.11323835586E-01
1.70600000000E+09	-1.22467739157E-01	-9.33607550743E-02	-6.29208468713E-02	-1.88860953434E-02	-6.29156051349E-02	-1.88863584622E-02	-1.18124323025E-01	1.16814735549E-01
1.70650000000E+09	-1.20337099530E-01	-9.15881039457E-02	-6.33609910280E-02	-1.75843140726E-02	-6.33552231014E-02	-1.75781738345E-02	-1.15860699296E-01	1.22248114347E-01
1.70700000000E+09	-1.18105011015E-01	-8.99436268188E-02	-6.37725992540E-02	-1.62431697487E-02	-6.37801981383E-02	-1.62385778964E-02	-1.13461064480E-01	1.27587625407E-01
1.70750000000E+09	-1.15767083387E-01	-8.84019394994E-02	-6.41482221381E-02	-1.49109701126E-02	-6.41761157614E-02	-1.49075990131E-02	-1.10924590956E-01	1.32861493467E-01
1.70800000000E+09	-1.13366067885E-01	-8.69456191847E-02	-6.45344152652E-02	-1.35632135446E-02	-6.45305672505E-02	-1.35634729821E-02	-1.08169001143E-01	1.38012912972E-01
1.70850000000E+09	-1.10875932278E-01	-8.56184067966E-02	-6.48631045167E-02	-1.21818252350E-02	-6.48660423131E-02	-1.22002621442E-02	-1.05245294322E-01	1.43090992369E-01
1.70900000000E+09	-1.08325114813E-01	-8.43719380143E-02	-6.51685940933E-02	-1.08189335221E-02	-6.51723753894E-02	-1.08213001808E-02	-1.02216348355E-01	1.48041940838E-01
1.70950000000E+09	-1.05710023606E-01	-8.32952789030E-02	-6.54339228561E-02	-9.43656700456E-03	-6.54393414661E-02	-9.43494193048E-03	-9.90168092195E-02	1.52891238907E-01
1.71000000000E+09	-1.03044120889E-01	-8.23080507295E-02	-6.56890530819E-02	-8.03625887369E-03	-6.56840123263E-02	-8.04289684026E-03	-9.56316173705E-02	1.57626061516E-01
1.71050000000E+09	-1.00307288303E-01	-8.14047349431E-02	-6.59086070433E-02	-6.64504910986E-03	-6.58944028731E-02	-6.63078826702E-03	-9.21748983303E-02	1.62248026422E-01
1.71100000000E+09	-9.75589518832E-02	-8.06560390228E-02	-6.60908752039E-02	-5.23306922566E-03	-6.60790001467E-02	-5.23816476352E-03	-8.85006864353E-02	1.66755595843E-01
1.71150000000E+09	-9.47384722587E-02	-8.00085829840E-02	-6.62352931922E-02	-3.81634167491E-03	-6.62300136983E-02	-3.81613301212E-03	-8.47036472517E-02	1.71153059793E-01
1.71200000000E+09	-9.19062932720E-02	-7.94734086199E-02	-6.63562140051E-02	-2.39572067559E-03	-6.63601821992E-02	-2.39019518907E-03	-8.08247513406E-02	1.75392807026E-01
1.71250000000E+09	-8.90784514288E-02	-7.90816835290E-02	-6.64397500157E-02	-9.67847796295E-04	-6.64428182497E-02	-9.53001517512E-04	-7.67602089251E-02	1.79481192411E-01
1.71300000000E+09	-8.62000884543E-02	-7.88270855216E-02	-6.64957508004E-02	4.67117994196E-04	-6.65130680435E-02	4.72429761818E-04	-7.25989530944E-02	1.83503868601E-01
1.71350000000E+09	-8.33321240501E-02	-7.86613802066E-02	-6.65226706798E-02	1.91114811274E-03	-6.65356911074E-02	1.90039239475E-03	-6.83435682826E-02	1.87318927646E-01
1.71400000000E+09	-8.04420213944E-02	-7.86011782881E-02	-6.65141875700E-02	3.34631684956E-03	-6.65234564986E-02	3.35611762772E-03	-6.39512461715E-02	1.91024085089E-01
1.71450000000E+09	-7.75568109486E-02	-7.86690455763E-02	-6.64608463373E-02	4.78599081055E-03	-6.64816234541E-02	4.79718250355E-03	-5.94162160328E-02	1.94562754419E-01
1.71500000000E+09	-7.46849735800E-02	-7.88428188457E-02	-6.63946325363E-02	6.23216786762E-03	-6.63949297519E-02	6.24182365175E-03	-5.48397866708E-02	1.97966660338E-01
1.71550000000E+09	-7.18226052779E-02	-7.91346308985E-02	-6.63002299425E-02	7.67381337223E-03	-6.62963443965E-02	7.68604834061E-03	-5.00723961324E-02	2.01184049253E-01
1.71600000000E+09	-6.89786524477E-02	-7.95490899693E-02	-6.61347537011E-02	9.11984691177E-03	-6.61569337999E-02	9.12167351500E-03	-4.53311122610E-02	2.04313480670E-01
1.71650000000E+09	-6.61582156438E-02	-8.00563045136E-02	-6.59681296901E-02	1.05745627430E-02	-6.59712881709E-02	1.05678986608E-02	-4.04017282295E-02	2.07232002909E-01
1.71700000000E+09	-6.33680970918E-02	-8.06486990027E-02	-6.57665158388E-02	1.19977071236E-02	-6.57767313643E-02	1.20207428100E-02	-3.54653000212E-02	2.09995972072E-01
1.71750000000E+09	-6.06023058432E-02	-8.13621704866E-02	-6.55115604717E-02	1.34289781687E-02	-6.55350881771E-02	1.34482279235E-02	-3.04063758054E-02	2.12601207113E-01
1.71800000000E+09	-5.78568719104E-02	-8.21796097132E-02	-6.52388873772E-02	1.48612344103E-02	-6.52570959107E-02	1.48800426000E-02	-2.52925201399E-02	2.15040034534E-01
1.71850000000E+09	-5.51770682419E-02	-8.31194003116E-02	-6.49315641937E-02	1.62920356365E-02	-6.49334841203E-02	1.63007061470E-02	-2.01144400648E-02	2.17342756249E-01
1.71900000000E+09	-5.25418323083E-02	-8.41023288476E-02	-6.46059673132E-02	1.77251895708E-02	-6.45913125904E-02	1.77131840376E-02	-1.48437217082E-02	2.19438659098E-01
1.71950000000E+09	-4.99028077453E-02	-8.51931299799E-02	-6.42149470991E-02	1.90980591020E-02	-6.42253416511E-02	1.91276002726E-02	-9.56351088202E-03	2.21395825060E-01
1.72000000000E+09	-4.73549839369E-02	-8.63863204053E-02	-6.38251303885E-02	2.05277375171E-02	-6.38231661704E-02	2.05182762879E-02	-4.22620864748E-03	2.23159910141E-01
1.72050000000E+09	-4.48345914391E-02	-8.76643395826E-02	-6.33684458324E-02	2.19053091931E-02	-6.33848076174E-02	2.19304212259E-02	1.19382093858E-03	2.24744241624E-01
1.72100000000E+09	-4.23963209219E-02	-8.90058710387E-02	-6.29016454830E-02	2.32948547868E-02	-6.28974091935E-02	2.33214118335E-02	6.63636244356E-03	2.26201203487E-01
1.72150000000E+09	-3.99854327644E-02	-9.04352182711E-02	-6.23846252472E-02	2.46830810717E-02	-6.23922312825E-02	2.46971426178E-02	1.21102120416E-02	2.27460197838E-01
1.72200000000E+09	-3.76499007314E-02	-9.19413057628E-02	-6.18578004780E-02	2.60576078200E-02	-6.18587873461E-02	2.60546957106E-02	1.76115964495E-02	2.28549710484E-01
1.72250000000E+09	-3.53831264325E-02	-9.35119278693E-02	-6.12881473513E-02	2.73998385167E-02	-6.12882934858E-02	2.74131520911E-02	2.31081759942E-02	2.29472938103E-01
1.72300000000E+09	-3.31742699994E-02	-9.51521867728E-02	-6.07044626748E-02	2.87356848713E-02	-6.06882485279E-02	2.87385265560E-02	2.86408012751E-02	2.30198504523E-01
1.72350000000E+09	-3.10255177040E-02	-9.68625637221E-02	-6.00711100600E-02	3.00605735618E-02	-6.00718197360E-02	3.00585017614E-02	3.41968028744E-02	2.30752588375E-01
1.72400000000E+09	-2.89384893935E-02	-9.86394066524E-02	-5.94019474845E-02	3.13882816664E-02	-5.94039721886E-02	3.13636150145E-02	3.97748703350E-02	2.31164454968E-01
1.72450000000E+09	-2.69436156833E-02	-1.00476639057E-01	-5.87112620553E-02	3.26585978211E-02	-5.87057122342E-02	3.26615479074E-02	4.53521234538E-02	2.31397986140E-01
1.72500000000E+09	-2.49818843863E-02	-1.02367743983E-01	-5.79768058558E-02	3.39352603219E-02	-5.79910549733E-02	3.39432894121E-02	5.08804557860E-02	2.31421784315E-01
1.72550000000E+09	-2.30993720594E-02	-1.04297212888E-01	-5.72437710964E-02	3.52097593869E-02	-5.72383696442E-02	3.52042214180E-02	5.64577140465E-02	2.31297693654E-01
1.72600000000E+09	-2.12842458845E-02	-1.06289897077E-01	-5.64550079452E-02	3.64391935956E-02	-5.64741385006E-02	3.64569881041E-02	6.19696447461E-02	2.31004567366E-01
1.72650000000E+09	-1.95898281202E-02	-1.08327145842E-01	-5.56552648346E-02	3.76695870736E-02	-5.56570723600E-02	3.76710626500E-02	6.74916002574E-02	2.30525229993E-01
1.72700000000E+09	-1.79096008987E-02	-1.10406843489E-01	-5.48100996294E-02	3.88749517840E-02	-5.48243785099E-02	3.88909503142E-02	7.30079760097E-02	2.29849757723E-01
1.72750000000E+09	-1.63508787511E-02	-1.12535381648E-01	-5.39679418000E-02	4.00748565351E-02	-5.39678460959E-02	4.00605014708E-02	7.84363577003E-02	2.29062503180E-01
1.72800000000E+09	-1.48346628507E-02	-1.14677297401E-01	-5.30809651773E-02	4.12322877373E-02	-5.30619240753E-02	4.12313567842E-02	8.38812224214E-02	2.28080878401E-01
1.72850000000E+09	-1.34057987967E-02	-1.16887353392E-01	-5.21546516200E-02	4.23740557858E-02	-5.21578552621E-02	4.23752585236E-02	8.92852068396E-02	2.26927858399E-01
1.72900000000E+09	-1.20494223796E-02	-1.19126180134E-01	-5.12119590753E-02	4.34972532182E-02	-5.12328715049E-02	4.35184062130E-02	9.46306753984E-02	2.25636609755E-01
1.72950000000E+09	-1.07538347698E-02	-1.21361032208E-01	-5.02506360830E-02	4.45911451392E-02	-5.02549495286E-02	4.46097394664E-02	9.99347307070E-02	2.24166850654E-01
1.73000000000E+09	-9.55773196270E-03	-1.23668868108E-01	-4.92634861660E-02	4.56843739570E-02	-4.92657996316E-02	4.56877447120E-02	1.05132124985E-01	2.22523772858E-01
1.73050000000E+09	-8.40832046351E-03	-1.25957234995E-01	-4.82655126905E-02	4.67365927760E-02	-4.82598907987E-02	4.67504132316E-02	1.10360752284E-01	2.20742777612E-01
1.73100000000E+09	-7.36490241596E-03	-1.28302505074E-01	-4.72315316026E-02	4.77754981419E-02	-4.72188906915E-02	4.77737643872E-02	1.15485086832E-01	2.18799337450E-01
1.73150000000E+09	-6.37840287830E-03	-1.30658103630E-01	-4.61504183222E-02	4.87806799438E-02	-4.61570659333E-02	4.87855199700E-02	1.20515638777E-01	2.16664275329E-01
1.73200000000E+09	-5.46015773416E-03	-1.33009671460E-01	-4.50772321766E-02	4.97614937818E-02	-4.50854386358E-02	4.97711538425E-02	1.25490504961E-01	2.14408672860E-01
1.73250000000E+09	-4.62387792868E-03	-1.35396114827E-01	-4.39779896937E-02	5.07226771737E-02	-4.39880815753E-02	5.07372176785E-02	1.30396993598E-01	2.11996821520E-01
1.73300000000E+09	-3.90752905169E-03	-1.37778845264E-01	-4.28583749452E-02	5.16602986916E-02	-4.28590688960E-02	5.16619739290E-02	1.35185977637E-01	2.09460785936E-01
1.73350000000E+09	-3.19845223987E-03	-1.40196655484E-01	-4.17173613290E-02	5.25619448079E-02	-4.17196672060E-02	5.25672363784E-02	1.39935415219E-01	2.06756609326E-01
1.73400000000E+09	-2.58770356031E-03	-1.42627600058E-01	-4.05501993873E-02	5.34416304632E-02	-4.05568722236E-02	5.34411542332E-02	1.44602900747E-01	2.03888897363E-01
1.73450000000E+09	-2.06831690352E-03	-1.45028717188E-01	-3.93574064140E-02	5.42858685512E-02	-3.93684679738E-02	5.42904079255E-02	1.49157983834E-01	2.00901843186E-01
1.73500000000E+09	-1.61073783860E-03	-1.47460923682E-01	-3.81528851448E-02	5.51306258893E-02	-3.81664606535E-02	5.51261718385E-02	1.53576830803E-01	1.97762514418E-01
1.73550000000E+09	-1.20002361000E-03	-1.49901860336E-01	-3.69560699929E-02	5.59154620106E-02	-3.69610050457E-02	5.59214167959E-02	1.57945637141E-01	1.94524385492E-01
1.73600000000E+09	-8.97367635778E-04	-1.52324854505E-01	-3.57115022280E-02	5.66822912185E-02	-3.57136780755E-02	5.66856672522E-02	1.62154190220E-01	1.91140295417E-01
1.73650000000E+09	-6.58152830431E-04	-1.54751150128E-01	-3.44496504062E-02	5.74317706480E-02	-3.44625551766E-02	5.74189310964E-02	1.66286593290E-01	1.87640501682E-01
1.73700000000E+09	-4.77972039491E-04	-1.57175892160E-01	-3.31942182431E-02	5.81163989722E-02	-3.32018676681E-02	5.81365683343E-02	1.70305749580E-01	1.84012338505E-01
1.73750000000E+09	-3.96794700315E-04	-1.59613683355E-01	-3.19257426379E-02	5.88191585038E-02	-3.19183342457E-02	5.88049658188E-02	1.74224806488E-01	1.80283617924E-01
1.73800000000E+09	-3.69698945354E-04	-1.62011816957E-01	-3.06205682841E-02	5.94578071796E-02	-3.06248838743E-02	5.94651507197E-02	1.77965169855E-01	1.76328317924E-01
1.73850000000E+09	-4.16625581686E-04	-1.64408950057E-01	-2.93201268974E-02	6.00751094987E-02	-2.93270554449E-02	6.00910324957E-02	1.81641077014E-01	1.72409611347E-01
1.73900000000E+09	-5.33982140704E-04	-1.66818616328E-01	-2.79945550604E-02	6.06650404091E-02	-2.80107754558E-02	6.06803928733E-02	1.85163556494E-01	1.68286974018E-01
1.73950000000E+09	-6.98976647325E-04	-1.69198749327E-01	-2.66649099076E-02	6.12423792090E-02	-2.66668993329E-02	6.12271288998E-02	1.88558319043E-01	1.64094204428E-01
1.74000000000E+09	-9.81724716450E-04	-1.71614024626E-01	-2.53354095386E-02	6.17601075719E-02	-2.53367700432E-02	6.17739199460E-02	1.91805709420E-01	1.59823663612E-01
1.74050000000E+09	-1.32410520428E-03	-1.73960781679E-01	-2.39831537399E-02	6.22729289721E-02	-2.39807693591E-02	6.22589010981E-02	1.94918950498E-01	1.55428141700E-01
1.74100000000E+09	-1.72339542304E-03	-1.76303224581E-01	-2.26207148721E-02	6.27301991243E-02	-2.26302640746E-02	6.27300685937E-02	1.97887360201E-01	1.50941994525E-01
1.74150000000E+09	-2.20858469959E-03	-1.78600813412E-01	-2.12636717740E-02	6.31619330471E-02	-2.12613339315E-02	6.31755030156E-02	2.00743123629E-01	1.46346142482E-01
1.74200000000E+09	-2.72806115599E-03	-1.80923014268E-01	-1.98835488506E-02	6.35610742754E-02	-1.98769798029E-02	6.35663215575E-02	2.03400880988E-01	1.41706383668E-01
1.74250000000E+09	-3.37597749918E-03	-1.83208433025E-01	-1.84999662400E-02	6.39445351763E-02	-1.84880160509E-02	6.39431161104E-02	2.05993750339E-01	1.36958611862E-01
1.74300000000E+09	-4.03588904052E-03	-1.85480701721E-01	-1.71212969656E-02	6.42769129372E-02	-1.71257648388E-02	6.42948683708E-02	2.08376293656E-01	1.32141825258E-01
1.74350000000E+09	-4.83053964731E-03	-1.87708391259E-01	-1.57116315210E-02	6.46049018188E-02	-1.57276191739E-02	6.46009683822E-02	2.10631813670E-01	1.27263680726E-01
1.74400000000E+09	-5.62458816104E-03	-1.89916848855E-01	-1.43190281519E-02	6.48808079768E-02	-1.43255573359E-02	6.48748313654E-02	2.12684773793E-01	1.22290373636E-01
1.74450000000E+09	-6.53281024312E-03	-1.92108802429E-01	-1.29352305838E-02	6.51268245988E-02	-1.29218453643E-02	6.51379175792E-02	2.14640592170E-01	1.17287838008E-01
1.74500000000E+09	-7.49207078228E-03	-1.94221444409E-01	-1.15142425274E-02	6.53260162693E-02	-1.15225547233E-02	6.53517983526E-02	2.16423620797E-01	1.12253181362E-01
1.74550000000E+09	-8.55247944893E-03	-1.96359468912E-01	-1.01235252117E-02	6.55150592876E-02	-1.01106464059E-02	6.55324719894E-02	2.18024764933E-01	1.07133260962E-01
1.74600000000E+09	-9.65240734742E-03	-1.98431280007E-01	-8.71097089683E-03	6.56908656173E-02	-8.70061498455E-03	6.56852575490E-02	2.19500026558E-01	1.01930545644E-01
1.74650000000E+09	-1.08532309225E-02	-2.00454879088E-01	-7.29301471044E-03	6.58164659299E-02	-7.28910251773E-03	6.58212141464E-02	2.20755476956E-01	9.67495888221E-02
1.74700000000E+09	-1.21079853491E-02	-2.02444690229E-01	-5.89370963074E-03	6.58871848638E-02	-5.90278649763E-03	6.59037662338E-02	2.21850985392E-01	9.14768027493E-02
1.74750000000E+09	-1.33975927372E-02	-2.04406673770E-01	-4.50086164548E-03	6.59577880248E-02	-4.50740436312E-03	6.59637327853E-02	2.22848817049E-01	8.62473753182E-02
1.74800000000E+09	-1.47801645691E-02	-2.06316308847E-01	-3.08747048892E-03	6.59807061781E-02	-3.08328900389E-03	6.59760623664E-02	2.23615867778E-01	8.09509347708E-02
1.74850000000E+09	-1.62573817632E-02	-2.08128200094E-01	-1.68392888134E-03	6.59785768838E-02	-1.69557074579E-03	6.59803331822E-02	2.24231123635E-01	7.56126375746E-02
1.74900000000E+09	-1.77797312662E-02	-2.09917875862E-01	-3.02046477530E-04	6.59540731591E-02	-2.99307804418E-04	6.59431084042E-02	2.24678905070E-01	7.02642323833E-02
1.74950000000E+09	-1.93623543976E-02	-2.11656914402E-01	1.09067309171E-03	6.58782283468E-02	1.08917395417E-03	6.58927092173E-02	2.24975329133E-01	6.49150309191E-02
1.75000000000E+09	-2.10410745093E-02	-2.13341393543E-01	2.48678259880E-03	6.58045263182E-02	2.47845111357E-03	6.57904844092E-02	2.25077672421E-01	5.95559053520E-02
1.75050000000E+09	-2.27371292137E-02	-2.14952539444E-01	3.86766521926E-03	6.56900044680E-02	3.87659801588E-03	6.56876064690E-02	2.25023710580E-01	5.42306002031E-02
1.75100000000E+09	-2.44961374952E-02	-2.16520728094E-01	5.23055669594E-03	6.55303426096E-02	5.24119229002E-03	6.55311931705E-02	2.24798504403E-01	4.88535397692E-02
1.75150000000E+09	-2.63467689663E-02	-2.18003227675E-01	6.59875855074E-03	6.53447111964E-02	6.61044987855E-03	6.53460835419E-02	2.24422105220E-01	4.35296954197E-02
1.75200000000E+09	-2.82594188906E-02	-2.19384804086E-01	7.97717063144E-03	6.51372632853E-02	7.96188939472E-03	6.51496910806E-02	2.23866459830E-01	3.81967188201E-02
1.75250000000E+09	-3.02143165911E-02	-2.20729358822E-01	9.31432661260E-03	6.49007180959E-02	9.33032076605E-03	6.49129370431E-02	2.23107793541E-01	3.29119039807E-02
1.75300000000E+09	-3.22203108879E-02	-2.21959601925E-01	1.06438272755E-02	6.46316837431E-02	1.06641500485E-02	6.46556552659E-02	2.22196665570E-01	2.76453132457E-02
1.75350000000E+09	-3.42819075197E-02	-2.23142393523E-01	1.19865607420E-02	6.43382135607E-02	1.19972990260E-02	6.43402049059E-02	2.21117990230E-01	2.23867373416E-02
1.75400000000E+09	-3.64122865812E-02	-2.24196629214E-01	1.33235203449E-02	6.40183149395E-02	1.33254982617E-02	6.40171961075E-02	2.19874627525E-01	1.71932148260E-02
1.75450000000E+09	-3.85388305721E-02	-2.25176538902E-01	1.46281412763E-02	6.36727703649E-02	1.46236047523E-02	6.36950838638E-02	2.18460757361E-01	1.20167658891E-02
1.75500000000E+09	-4.07571529599E-02	-2.26074859888E-01	1.59441273876E-02	6.33092240293E-02	1.59396317321E-02	6.33180982768E-02	2.16891733875E-01	6.90613952108E-03
1.75550000000E+09	-4.29794438854E-02	-2.26857423581E-01	1.72114234487E-02	6.29117656939E-02	1.72254535727E-02	6.29222780702E-02	2.15148284079E-01	1.83123925388E-03
1.75600000000E+09	-4.52444179610E-02	-2.27552768579E-01	1.84893183359E-02	6.24794285461E-02	1.84944907635E-02	6.24993568642E-02	2.13245067910E-01	-3.16979695392E-03
1.75650000000E+09	-4.75352634838E-02	-2.28124402012E-01	1.97602042665E-02	6.20495698072E-02	1.97616934393E-02	6.20517479473E-02	2.11203614455E-01	-8.11558152950E-03
1.75700000000E+09	-4.98759953855E-02	-2.28594661180E-01	2.10249377822E-02	6.15727135057E-02	2.10156359378E-02	6.15705265445E-02	2.08964641804E-01	-1.29637076777E-02
1.75750000000E+09	-5.22137023982E-02	-2.29007406965E-01	2.22476578142E-02	6.10902101239E-02	2.22562251654E-02	6.10797255982E-02	2.06582659656E-01	-1.77671692440E-02
1.75800000000E+09	-5.45765221439E-02	-2.29254750653E-01	2.34818581715E-02	6.05614518333E-02	2.34808046185E-02	6.05665329751E-02	2.04070167620E-01	-2.25097049762E-02
1.75850000000E+09	-5.69576448668E-02	-2.29412616463E-01	2.46791942543E-02	6.00330924928E-02	2.46859692152E-02	6.00578593176E-02	2.01362963165E-01	-2.71273092978E-02
