# Hz S RI R 50
! CMT, CMT808U, 21440046, 21.4.3/4
! Date: 11/17/2025 2:51:12 PM
! Data: Format (Calibration Info)
! Freq	S11:Re/Im(F2)	S41:Re/Im(F2)	S14:Re/Im(F2)	S44:Re/Im(F2)
1.70000000000E+09	-8.22652154343E-02	-1.31193882896E-01	-5.59290088216E-02	-3.96405371485E-02	-5.60345210975E-02	-3.96226938894E-02	-1.05103097462E-01	5.19828336898E-02
1.70050000000E+09	-8.16611392789E-02	-1.28826964610E-01	-5.67902198852E-02	-3.84259633379E-02	-5.68885809075E-02	-3.83886070467E-02	-1.04842649753E-01	5.77012311111E-02
1.70100000000E+09	-8.08953240275E-02	-1.26495066180E-01	-5.76341396110E-02	-3.71977701050E-02	-5.77351787684E-02	-3.71290656245E-02	-1.04367793970E-01	6.33989295398E-02
1.70150000000E+09	-8.00101819946E-02	-1.24162966783E-01	-5.84520501344E-02	-3.59205114021E-02	-5.85429956249E-02	-3.58730501018E-02	-1.03734909203E-01	6.90883330763E-02
1.70200000000E+09	-7.89732620530E-02	-1.21893766075E-01	-5.92415083929E-02	-3.46345166201E-02	-5.93155802381E-02	-3.45753694525E-02	-1.02895138874E-01	7.47531294458E-02
1.70250000000E+09	-7.77536194930E-02	-1.19624505971E-01	-5.99852448810E-02	-3.33440288133E-02	-6.00620557212E-02	-3.32885229812E-02	-1.01857212208E-01	8.03483976159E-02
1.70300000000E+09	-7.64290493675E-02	-1.17403103685E-01	-6.07279821265E-02	-3.20288052916E-02	-6.08103834133E-02	-3.19598768560E-02	-1.00629317863E-01	8.59224852278E-02
1.70350000000E+09	-7.49722601474E-02	-1.15235106974E-01	-6.14095611934E-02	-3.06768161556E-02	-6.14992596931E-02	-3.06341235724E-02	-9.92674623716E-02	9.14432411438E-02
1.70400000000E+09	-7.33614981530E-02	-1.13135992554E-01	-6.20749063179E-02	-2.93307383971E-02	-6.21658089391E-02	-2.92601638513E-02	-9.76847677271E-02	9.69144402026E-02
1.70450000000E+09	-7.16373687075E-02	-1.11108192542E-01	-6.27090358462E-02	-2.79589202331E-02	-6.28011676433E-02	-2.78860580678E-02	-9.59484889815E-02	1.02342329207E-01
1.70500000000E+09	-6.97878826785E-02	-1.09158972923E-01	-6.33062909679E-02	-2.65667439793E-02	-6.33827927504E-02	-2.64924494083E-02	-9.40032221047E-02	1.07697957369E-01
1.70550000000E+09	-6.78250448656E-02	-1.07288199974E-01	-6.38753259577E-02	-2.51728378160E-02	-6.39575635854E-02	-2.50933328393E-02	-9.19352522243E-02	1.12965983138E-01
1.70600000000E+09	-6.57626209369E-02	-1.05517555619E-01	-6.44186753705E-02	-2.37615312521E-02	-6.44969350822E-02	-2.36835602293E-02	-8.96453336619E-02	1.18168024182E-01
1.70650000000E+09	-6.35889165487E-02	-1.03839063454E-01	-6.49182912706E-02	-2.23202756340E-02	-6.49987977516E-02	-2.22544497789E-02	-8.71855995384E-02	1.23279879747E-01
1.70700000000E+09	-6.13519971925E-02	-1.02262522837E-01	-6.53989000555E-02	-2.08864675224E-02	-6.54826337374E-02	-2.08167401413E-02	-8.45945491118E-02	1.28301023387E-01
1.70750000000E+09	-5.89694997975E-02	-1.00792861854E-01	-6.58288221225E-02	-1.94480550397E-02	-6.59089181934E-02	-1.93563768006E-02	-8.18485220083E-02	1.33236793654E-01
1.70800000000E+09	-5.65532478435E-02	-9.94173724385E-02	-6.62366010213E-02	-1.79755359640E-02	-6.63075920578E-02	-1.78989314485E-02	-7.89077047130E-02	1.38107068359E-01
1.70850000000E+09	-5.40619685998E-02	-9.81729145389E-02	-6.66210613078E-02	-1.65109466807E-02	-6.66708193234E-02	-1.64381364321E-02	-7.58329163902E-02	1.42836998532E-01
1.70900000000E+09	-5.14804118938E-02	-9.70246477211E-02	-6.69432053231E-02	-1.50185248181E-02	-6.69910018815E-02	-1.49603045521E-02	-7.25971239204E-02	1.47459819017E-01
1.70950000000E+09	-4.88819574389E-02	-9.60277402479E-02	-6.72278782185E-02	-1.35550879723E-02	-6.73044396369E-02	-1.34722836187E-02	-6.92491396837E-02	1.51998852642E-01
1.71000000000E+09	-4.62121461954E-02	-9.51208082672E-02	-6.75044235899E-02	-1.20573426615E-02	-6.75624752924E-02	-1.19764770248E-02	-6.57193155980E-02	1.56371866836E-01
1.71050000000E+09	-4.34890586884E-02	-9.43487961232E-02	-6.77322694292E-02	-1.05769902100E-02	-6.77959738301E-02	-1.04971261314E-02	-6.21057171416E-02	1.60677277273E-01
1.71100000000E+09	-4.07538283264E-02	-9.36749187216E-02	-6.79283462343E-02	-9.07839711237E-03	-6.79613499358E-02	-8.99440507116E-03	-5.82938488487E-02	1.64831075261E-01
1.71150000000E+09	-3.79837185305E-02	-9.31237797600E-02	-6.80612444507E-02	-7.57929264712E-03	-6.81280577075E-02	-7.48232613191E-03	-5.43630490905E-02	1.68880010869E-01
1.71200000000E+09	-3.51640071582E-02	-9.27086463105E-02	-6.81793277983E-02	-6.08383975318E-03	-6.82425755161E-02	-5.99627142375E-03	-5.03342570360E-02	1.72764509235E-01
1.71250000000E+09	-3.23846481544E-02	-9.24323366354E-02	-6.82842286114E-02	-4.57844791943E-03	-6.83305844646E-02	-4.49452497090E-03	-4.61534211063E-02	1.76518655756E-01
1.71300000000E+09	-2.95585554192E-02	-9.22378477685E-02	-6.83415621569E-02	-3.07818786091E-03	-6.83800533141E-02	-2.97095890710E-03	-4.18897797844E-02	1.80142600795E-01
1.71350000000E+09	-2.67529363613E-02	-9.21779858830E-02	-6.83593630619E-02	-1.57318391136E-03	-6.83866967654E-02	-1.48764616105E-03	-3.75327231567E-02	1.83606922664E-01
1.71400000000E+09	-2.39322649673E-02	-9.22489765943E-02	-6.83234119208E-02	-7.23685447887E-05	-6.83745730024E-02	4.12926720961E-06	-3.30462107632E-02	1.86942284210E-01
1.71450000000E+09	-2.11275094136E-02	-9.24211979809E-02	-6.82616216914E-02	1.41982695541E-03	-6.83135677683E-02	1.51893909802E-03	-2.84260300050E-02	1.90128161322E-01
1.71500000000E+09	-1.83420600239E-02	-9.27091453542E-02	-6.81726702269E-02	2.89898863881E-03	-6.82242665527E-02	3.01528837034E-03	-2.37454619704E-02	1.93158534681E-01
1.71550000000E+09	-1.55672880484E-02	-9.30859555657E-02	-6.80531327136E-02	4.40603660317E-03	-6.80874411296E-02	4.50106587275E-03	-1.89311977150E-02	1.96036915736E-01
1.71600000000E+09	-1.28314529760E-02	-9.36070644661E-02	-6.79058952769E-02	5.88240621875E-03	-6.79274586920E-02	5.97824199374E-03	-1.41107952003E-02	1.98766356073E-01
1.71650000000E+09	-1.01160544127E-02	-9.42118200213E-02	-6.76980111469E-02	7.37884696086E-03	-6.77380049881E-02	7.47587714945E-03	-9.12206287151E-03	2.01332396302E-01
1.71700000000E+09	-7.43481588057E-03	-9.49295065111E-02	-6.74785025864E-02	8.82595805901E-03	-6.74997243223E-02	8.92911889549E-03	-4.14197576863E-03	2.03722772930E-01
1.71750000000E+09	-4.80450150812E-03	-9.57222294438E-02	-6.72132658730E-02	1.02920358568E-02	-6.72573126647E-02	1.03932677483E-02	9.77997297631E-04	2.05941041469E-01
1.71800000000E+09	-2.19932385195E-03	-9.66338170065E-02	-6.69370477593E-02	1.17331253493E-02	-6.69402381826E-02	1.18392869063E-02	6.11388121614E-03	2.08012777874E-01
1.71850000000E+09	3.39206552677E-04	-9.76489616377E-02	-6.66067801258E-02	1.31795901153E-02	-6.66241566336E-02	1.32780639572E-02	1.13035921212E-02	2.09901820547E-01
1.71900000000E+09	2.84178955910E-03	-9.87323690676E-02	-6.62460758763E-02	1.45816504081E-02	-6.62580813024E-02	1.47058483349E-02	1.66237971602E-02	2.11631707754E-01
1.71950000000E+09	5.28814371273E-03	-9.99062951238E-02	-6.58479348492E-02	1.60081168777E-02	-6.58674895309E-02	1.61085463109E-02	2.18984318076E-02	2.13173726413E-01
1.72000000000E+09	7.67084760794E-03	-1.01169543489E-01	-6.54293874101E-02	1.74261055008E-02	-6.54510299795E-02	1.75114883938E-02	2.72425008027E-02	2.14606278368E-01
1.72050000000E+09	1.00082400150E-02	-1.02498636928E-01	-6.49798580436E-02	1.87915425147E-02	-6.49940819936E-02	1.89134401627E-02	3.26497385911E-02	2.15784945234E-01
1.72100000000E+09	1.22821406329E-02	-1.03949444513E-01	-6.45078637734E-02	2.01865007599E-02	-6.45159091072E-02	2.02762709773E-02	3.81007329485E-02	2.16833482403E-01
1.72150000000E+09	1.44811700793E-02	-1.05424824384E-01	-6.40079622100E-02	2.15517844625E-02	-6.40055972413E-02	2.16285941660E-02	4.35691292821E-02	2.17740225344E-01
1.72200000000E+09	1.66292210976E-02	-1.06977467081E-01	-6.34637533132E-02	2.28969844074E-02	-6.34679980773E-02	2.29969605196E-02	4.90293373373E-02	2.18417748246E-01
1.72250000000E+09	1.86869538209E-02	-1.08601655235E-01	-6.28952195940E-02	2.42150044734E-02	-6.29032976988E-02	2.43148743633E-02	5.44944987443E-02	2.18951193758E-01
1.72300000000E+09	2.06719594979E-02	-1.10292253177E-01	-6.22987012181E-02	2.55341607584E-02	-6.22839748356E-02	2.56237997010E-02	5.99782259783E-02	2.19261997294E-01
1.72350000000E+09	2.26021301820E-02	-1.12024712011E-01	-6.17019609707E-02	2.68180739266E-02	-6.16852321240E-02	2.69259556502E-02	6.54909486573E-02	2.19446536872E-01
1.72400000000E+09	2.44533179999E-02	-1.13831860927E-01	-6.10377428955E-02	2.80869840799E-02	-6.10239488237E-02	2.82013146629E-02	7.10008554535E-02	2.19460863577E-01
1.72450000000E+09	2.62362984110E-02	-1.15700631568E-01	-6.03745253394E-02	2.93630075989E-02	-6.03572417390E-02	2.94729808978E-02	7.65357252271E-02	2.19272298082E-01
1.72500000000E+09	2.79516025351E-02	-1.17578626697E-01	-5.96784648617E-02	3.06102913110E-02	-5.96600710522E-02	3.06994788509E-02	8.19713252555E-02	2.18924760755E-01
1.72550000000E+09	2.95882876192E-02	-1.19515225169E-01	-5.89441020373E-02	3.18273405962E-02	-5.89312119337E-02	3.19220742410E-02	8.74452601094E-02	2.18400545843E-01
1.72600000000E+09	3.11399181586E-02	-1.21494261111E-01	-5.82031942582E-02	3.30312123172E-02	-5.81930931315E-02	3.31303297378E-02	9.28747809450E-02	2.17721553619E-01
1.72650000000E+09	3.25878700692E-02	-1.23527091827E-01	-5.74559141067E-02	3.42226663742E-02	-5.74248764902E-02	3.43139731533E-02	9.83034065510E-02	2.16855041897E-01
1.72700000000E+09	3.40217765770E-02	-1.25572558097E-01	-5.66459502377E-02	3.53782986805E-02	-5.66245552662E-02	3.54602380220E-02	1.03687428746E-01	2.15799061754E-01
1.72750000000E+09	3.53204951120E-02	-1.27673401449E-01	-5.58309263588E-02	3.65192571994E-02	-5.58324308443E-02	3.66103791491E-02	1.09030863107E-01	2.14628696201E-01
1.72800000000E+09	3.65585015268E-02	-1.29776082218E-01	-5.50039682531E-02	3.76518832442E-02	-5.49852779507E-02	3.77253367498E-02	1.14322368544E-01	2.13249700270E-01
1.72850000000E+09	3.77187901209E-02	-1.31917188972E-01	-5.41522030178E-02	3.87387701908E-02	-5.41413604412E-02	3.88446041941E-02	1.19584093750E-01	2.11704450437E-01
1.72900000000E+09	3.88136679290E-02	-1.34076258297E-01	-5.32781379254E-02	3.98299879600E-02	-5.32613976996E-02	3.99141707827E-02	1.24793606091E-01	2.10006953517E-01
1.72950000000E+09	3.98212250650E-02	-1.36268210893E-01	-5.24053963256E-02	4.08943468806E-02	-5.23609420936E-02	4.09744500437E-02	1.29921107354E-01	2.08163857230E-01
1.73000000000E+09	4.07496287386E-02	-1.38476838070E-01	-5.14954819040E-02	4.19119281996E-02	-5.14577701621E-02	4.20151399387E-02	1.34999743598E-01	2.06128086431E-01
1.73050000000E+09	4.16041743980E-02	-1.40656350394E-01	-5.05521985293E-02	4.29388192429E-02	-5.05279395678E-02	4.30364903178E-02	1.40011502588E-01	2.03967383524E-01
1.73100000000E+09	4.23699090226E-02	-1.42885974482E-01	-4.96265073785E-02	4.39272065310E-02	-4.95887244253E-02	4.40240565080E-02	1.44972406402E-01	2.01622015939E-01
1.73150000000E+09	4.30620428352E-02	-1.45119877569E-01	-4.86586414029E-02	4.49118607770E-02	-4.86276461297E-02	4.49912832620E-02	1.49832569972E-01	1.99127341212E-01
1.73200000000E+09	4.37076450775E-02	-1.47342413019E-01	-4.76834896900E-02	4.58675208532E-02	-4.76474112938E-02	4.59320893285E-02	1.54595971516E-01	1.96468433727E-01
1.73250000000E+09	4.42426591511E-02	-1.49581172480E-01	-4.67045459705E-02	4.67960969415E-02	-4.66648026594E-02	4.68696166129E-02	1.59287815962E-01	1.93717555574E-01
1.73300000000E+09	4.47005774778E-02	-1.51816604935E-01	-4.56716164039E-02	4.77132818397E-02	-4.56509935344E-02	4.77872339101E-02	1.63880477945E-01	1.90782946580E-01
1.73350000000E+09	4.50909070081E-02	-1.54069492886E-01	-4.46626346824E-02	4.85971264717E-02	-4.46358032759E-02	4.86686730308E-02	1.68382073269E-01	1.87725117032E-01
1.73400000000E+09	4.54311217663E-02	-1.56299299991E-01	-4.36317957669E-02	4.94499443417E-02	-4.36161468575E-02	4.95324038959E-02	1.72835027340E-01	1.84483624986E-01
1.73450000000E+09	4.56754250608E-02	-1.58507994793E-01	-4.25869369598E-02	5.02997801165E-02	-4.25373134253E-02	5.03823497346E-02	1.77147970330E-01	1.81141621644E-01
1.73500000000E+09	4.58628590417E-02	-1.60738227672E-01	-4.15299142134E-02	5.11247772195E-02	-4.14926254585E-02	5.12095952682E-02	1.81335053529E-01	1.77637207386E-01
1.73550000000E+09	4.59663909767E-02	-1.62939532540E-01	-4.04420390686E-02	5.19424704484E-02	-4.04229307711E-02	5.20272031916E-02	1.85428996964E-01	1.74038323753E-01
1.73600000000E+09	4.60088137816E-02	-1.65116629301E-01	-3.93610171156E-02	5.27243246167E-02	-3.93234831464E-02	5.27816033119E-02	1.89371213144E-01	1.70342260132E-01
1.73650000000E+09	4.59856406425E-02	-1.67296131843E-01	-3.82607008602E-02	5.34525176748E-02	-3.82238067918E-02	5.35427274110E-02	1.93230827332E-01	1.66490105236E-01
1.73700000000E+09	4.59093665091E-02	-1.69456770816E-01	-3.71549330230E-02	5.42074984467E-02	-3.71074312843E-02	5.42785261422E-02	1.96938018344E-01	1.62499227134E-01
1.73750000000E+09	4.57468562173E-02	-1.71594386137E-01	-3.60362266786E-02	5.49247193959E-02	-3.59944501214E-02	5.49954581959E-02	2.00556388154E-01	1.58419426786E-01
1.73800000000E+09	4.54989195368E-02	-1.73738707567E-01	-3.49059497298E-02	5.56203247784E-02	-3.48491951381E-02	5.56991618323E-02	2.04006712674E-01	1.54201374846E-01
1.73850000000E+09	4.52235905459E-02	-1.75842207645E-01	-3.37614747902E-02	5.63058189261E-02	-3.37096897523E-02	5.63703171595E-02	2.07369752991E-01	1.49926966357E-01
1.73900000000E+09	4.48663149138E-02	-1.77912558429E-01	-3.25979989910E-02	5.69426512175E-02	-3.25483393511E-02	5.70212179998E-02	2.10550134925E-01	1.45496069653E-01
1.73950000000E+09	4.44826375944E-02	-1.79969926311E-01	-3.14176483396E-02	5.75725019591E-02	-3.13860107564E-02	5.76374277889E-02	2.13632570660E-01	1.40997364411E-01
1.74000000000E+09	4.39831407983E-02	-1.82036044654E-01	-3.02620678557E-02	5.81799959908E-02	-3.02063552544E-02	5.82539641230E-02	2.16542224261E-01	1.36391753007E-01
1.74050000000E+09	4.34451112583E-02	-1.84021377836E-01	-2.90576469536E-02	5.87676816210E-02	-2.90152379119E-02	5.88435928944E-02	2.19291185843E-01	1.31692102541E-01
1.74100000000E+09	4.28357349089E-02	-1.86012059345E-01	-2.78646427105E-02	5.93298928136E-02	-2.77997387623E-02	5.94156106862E-02	2.21914992719E-01	1.26906076409E-01
1.74150000000E+09	4.21785478019E-02	-1.87972518898E-01	-2.66571050399E-02	5.98634089727E-02	-2.65969023650E-02	5.99498328838E-02	2.24408034928E-01	1.22054810271E-01
1.74200000000E+09	4.14755521741E-02	-1.89882095568E-01	-2.54391424882E-02	6.03994022183E-02	-2.53900862681E-02	6.04670670498E-02	2.26723602447E-01	1.17158147838E-01
1.74250000000E+09	4.06795078483E-02	-1.91756432868E-01	-2.42061502624E-02	6.08955985213E-02	-2.41384005880E-02	6.09646148221E-02	2.28902186267E-01	1.12147253823E-01
1.74300000000E+09	3.98608742046E-02	-1.93637950400E-01	-2.29784247642E-02	6.13628704238E-02	-2.29211483067E-02	6.14466211423E-02	2.30904197576E-01	1.07066914344E-01
1.74350000000E+09	3.89626792571E-02	-1.95428048751E-01	-2.17257417752E-02	6.18294317623E-02	-2.16756490767E-02	6.18940147907E-02	2.32740661755E-01	1.01940108437E-01
1.74400000000E+09	3.80293496787E-02	-1.97201499117E-01	-2.04734099512E-02	6.22756913457E-02	-2.04110891274E-02	6.23266870523E-02	2.34415478039E-01	9.67296958610E-02
1.74450000000E+09	3.70343484297E-02	-1.98969952135E-01	-1.92112353040E-02	6.26727954269E-02	-1.91432993614E-02	6.27427004923E-02	2.35967309748E-01	9.15133622575E-02
1.74500000000E+09	3.59794219486E-02	-2.00654119234E-01	-1.79401553464E-02	6.30720577117E-02	-1.78690116445E-02	6.31168866389E-02	2.37354059726E-01	8.62656692796E-02
1.74550000000E+09	3.48776383295E-02	-2.02326578979E-01	-1.66591858939E-02	6.34337885980E-02	-1.65911072013E-02	6.34788522673E-02	2.38519258590E-01	8.09238540807E-02
1.74600000000E+09	3.37193531891E-02	-2.03947878835E-01	-1.53860130658E-02	6.37633553261E-02	-1.52970363574E-02	6.38213271342E-02	2.39568486061E-01	7.55635222200E-02
1.74650000000E+09	3.25088313823E-02	-2.05510167652E-01	-1.40674109248E-02	6.40784974326E-02	-1.40194319611E-02	6.41197578137E-02	2.40414384798E-01	7.01816059342E-02
1.74700000000E+09	3.12475905078E-02	-2.07048672142E-01	-1.27634181703E-02	6.43539642048E-02	-1.27005411848E-02	6.44198994214E-02	2.41086648729E-01	6.47433880920E-02
1.74750000000E+09	2.99535412070E-02	-2.08523589650E-01	-1.14612323902E-02	6.46353598798E-02	-1.14027912483E-02	6.47009431896E-02	2.41663739478E-01	5.93255783577E-02
1.74800000000E+09	2.85995717048E-02	-2.09970784224E-01	-1.01471648724E-02	6.48715727985E-02	-1.00698977154E-02	6.49305916563E-02	2.41981230370E-01	5.38525800486E-02
1.74850000000E+09	2.71850414905E-02	-2.11321005824E-01	-8.81650142372E-03	6.50923208843E-02	-8.75289602428E-03	6.51321185704E-02	2.42145944655E-01	4.84132147552E-02
1.74900000000E+09	2.57238905290E-02	-2.12659276134E-01	-7.50009450056E-03	6.52745031973E-02	-7.40882803469E-03	6.53304717390E-02	2.42156340525E-01	4.29223968034E-02
1.74950000000E+09	2.42297319661E-02	-2.13910138400E-01	-6.14775077568E-03	6.54490923167E-02	-6.08534606684E-03	6.54975070922E-02	2.42004275529E-01	3.74665041684E-02
1.75000000000E+09	2.26844527573E-02	-2.15122954164E-01	-4.81249996021E-03	6.55810562136E-02	-4.74173189313E-03	6.56326499324E-02	2.41676975433E-01	3.19911118155E-02
1.75050000000E+09	2.10869387261E-02	-2.16269953327E-01	-3.47390473496E-03	6.56985655665E-02	-3.39476824598E-03	6.57483107589E-02	2.41157618077E-01	2.65436114506E-02
1.75100000000E+09	1.94979459371E-02	-2.17385655919E-01	-2.13885505428E-03	6.57828218509E-02	-2.05242370277E-03	6.58198256122E-02	2.40481429493E-01	2.11024840298E-02
1.75150000000E+09	1.77864511051E-02	-2.18402688920E-01	-7.81330924820E-04	6.58429791492E-02	-6.96034940841E-04	6.58895142676E-02	2.39650992023E-01	1.57074208051E-02
1.75200000000E+09	1.60625969767E-02	-2.19338656683E-01	5.74743409122E-04	6.58834882662E-02	6.60862200053E-04	6.59143504934E-02	2.38633096475E-01	1.02851719486E-02
1.75250000000E+09	1.43309395428E-02	-2.20236821315E-01	1.93108799406E-03	6.58682573473E-02	2.01544783661E-03	6.59310874890E-02	2.37442483739E-01	4.98759155974E-03
1.75300000000E+09	1.25559294365E-02	-2.21012174335E-01	3.28617861828E-03	6.58468475516E-02	3.37670058724E-03	6.59049724710E-02	2.36067699005E-01	-3.59958790514E-04
1.75350000000E+09	1.07454832848E-02	-2.21772251272E-01	4.65087815688E-03	6.57885729855E-02	4.73352599467E-03	6.58579133616E-02	2.34573204925E-01	-5.64526428551E-03
1.75400000000E+09	8.90539550550E-03	-2.22420748524E-01	6.02013166388E-03	6.57151247451E-02	6.10401527963E-03	6.57624362484E-02	2.32857635107E-01	-1.08546212129E-02
1.75450000000E+09	7.05385911237E-03	-2.22985992176E-01	7.37568879392E-03	6.56267225856E-02	7.45553754744E-03	6.56494015478E-02	2.31003718089E-01	-1.60615522730E-02
1.75500000000E+09	5.14838226413E-03	-2.23479041937E-01	8.73638964490E-03	6.54930657107E-02	8.81168223971E-03	6.55294350356E-02	2.29007632194E-01	-2.11801082292E-02
1.75550000000E+09	3.24510015914E-03	-2.23864948980E-01	1.00802037882E-02	6.53218220307E-02	1.01667376398E-02	6.53563396781E-02	2.26809084504E-01	-2.62254599874E-02
1.75600000000E+09	1.34623328588E-03	-2.24229469962E-01	1.14555864490E-02	6.51371378390E-02	1.15310625092E-02	6.51805048785E-02	2.24465425175E-01	-3.12013817643E-02
1.75650000000E+09	-6.18361476996E-04	-2.24472868507E-01	1.27953321113E-02	6.49310074011E-02	1.28998546912E-02	6.49557043323E-02	2.21982306864E-01	-3.61365422198E-02
1.75700000000E+09	-2.56205172360E-03	-2.24608498220E-01	1.41656027945E-02	6.46720572772E-02	1.42493294942E-02	6.47014840987E-02	2.19316143243E-01	-4.09325392314E-02
1.75750000000E+09	-4.50775401894E-03	-2.24692032175E-01	1.54940147385E-02	6.44199765969E-02	1.55955018128E-02	6.44331925447E-02	2.16509166453E-01	-4.56889632180E-02
1.75800000000E+09	-6.47230627284E-03	-2.24636557959E-01	1.68400286946E-02	6.40876717591E-02	1.69434311119E-02	6.41260733032E-02	2.13539066221E-01	-5.03785100173E-02
1.75850000000E+09	-8.40702044176E-03	-2.24537903446E-01	1.81837883408E-02	6.37722897276E-02	1.82830102162E-02	6.38139367193E-02	2.10436129141E-01	-5.49425515979E-02
