# Hz S RI R 50
! CMT, CMT808U, 21440046, 21.4.3/4
! Date: 11/12/2025 3:01:42 PM
! Data: Format (Calibration Info)
! Freq	S11:Re/Im(F2)	S41:Re/Im(F2)	S14:Re/Im(F2)	S44:Re/Im(F2)
1.70000000000E+09	-1.40797061567E-01	-1.20304488047E-01	-6.78177685480E-02	-2.38791466417E-02	-6.77936397161E-02	-2.39152959606E-02	-4.91441735809E-02	1.11356694027E-01
1.70050000000E+09	-1.40289284742E-01	-1.17975638116E-01	-6.83341625740E-02	-2.24458192595E-02	-6.83275060628E-02	-2.24974669088E-02	-4.72316588810E-02	1.16345744074E-01
1.70100000000E+09	-1.39609846492E-01	-1.15615339710E-01	-6.88286335313E-02	-2.09993796518E-02	-6.88161665242E-02	-2.10349138554E-02	-4.51352202919E-02	1.21251663549E-01
1.70150000000E+09	-1.38765549794E-01	-1.13301089251E-01	-6.92868193243E-02	-1.95468573952E-02	-6.92727740395E-02	-1.95850848251E-02	-4.28994601772E-02	1.26079655439E-01
1.70200000000E+09	-1.37797197634E-01	-1.11027091914E-01	-6.97217971493E-02	-1.80967614276E-02	-6.97024565371E-02	-1.81150891892E-02	-4.05069593377E-02	1.30844240793E-01
1.70250000000E+09	-1.36677183538E-01	-1.08768709564E-01	-7.01212478140E-02	-1.66029998819E-02	-7.01123202215E-02	-1.66219213513E-02	-3.79174737805E-02	1.35521335346E-01
1.70300000000E+09	-1.35394369602E-01	-1.06540915252E-01	-7.04976426963E-02	-1.51042916822E-02	-7.04990944457E-02	-1.51391006993E-02	-3.52436608008E-02	1.40126621057E-01
1.70350000000E+09	-1.34018219494E-01	-1.04359953931E-01	-7.08244106341E-02	-1.36051020721E-02	-7.08221417058E-02	-1.36331836084E-02	-3.23689018116E-02	1.44620395627E-01
1.70400000000E+09	-1.32447216452E-01	-1.02272518582E-01	-7.11302956727E-02	-1.20973392065E-02	-7.11179175268E-02	-1.21140826433E-02	-2.93762440719E-02	1.49015150289E-01
1.70450000000E+09	-1.30815528310E-01	-1.00244740414E-01	-7.14029516920E-02	-1.05510062427E-02	-7.13986948633E-02	-1.06023940186E-02	-2.62413001412E-02	1.53326690010E-01
1.70500000000E+09	-1.29042720065E-01	-9.82485164135E-02	-7.16454137286E-02	-9.01418309984E-03	-7.16339891306E-02	-9.06190675570E-03	-2.29470288150E-02	1.57547937408E-01
1.70550000000E+09	-1.27128863432E-01	-9.63910635524E-02	-7.18381229231E-02	-7.49727008431E-03	-7.18250168969E-02	-7.52651055984E-03	-1.95350698841E-02	1.61626335127E-01
1.70600000000E+09	-1.25129880445E-01	-9.45874376699E-02	-7.20209663468E-02	-5.93959424637E-03	-7.20123939176E-02	-5.98905446680E-03	-1.59811998927E-02	1.65587589035E-01
1.70650000000E+09	-1.23012238075E-01	-9.28689832213E-02	-7.21437403807E-02	-4.39778361283E-03	-7.21381739417E-02	-4.43603095304E-03	-1.23061802009E-02	1.69481335378E-01
1.70700000000E+09	-1.20821049121E-01	-9.12694514549E-02	-7.22331103944E-02	-2.83974443059E-03	-7.22401819754E-02	-2.86386115191E-03	-8.50313796402E-03	1.73214198376E-01
1.70750000000E+09	-1.18510921262E-01	-8.97400443790E-02	-7.22988270315E-02	-1.27030620415E-03	-7.22950987426E-02	-1.30984752649E-03	-4.62668046168E-03	1.76826326741E-01
1.70800000000E+09	-1.16125697158E-01	-8.83318351494E-02	-7.23150129207E-02	2.92991326540E-04	-7.23275124424E-02	2.42684402148E-04	-5.78106848735E-04	1.80295885513E-01
1.70850000000E+09	-1.13648890677E-01	-8.70432598861E-02	-7.23097043841E-02	1.86744527692E-03	-7.23030378474E-02	1.81325133947E-03	3.54621920435E-03	1.83669988424E-01
1.70900000000E+09	-1.11134165935E-01	-8.58414924134E-02	-7.22768429980E-02	3.42766526358E-03	-7.22710880921E-02	3.36937512107E-03	7.78222770837E-03	1.86896862969E-01
1.70950000000E+09	-1.08565581975E-01	-8.47915325461E-02	-7.21659251176E-02	4.97586229422E-03	-7.21676514038E-02	4.94428269602E-03	1.21059266863E-02	1.89958048222E-01
1.71000000000E+09	-1.05910197139E-01	-8.38334041878E-02	-7.20732216111E-02	6.54543878842E-03	-7.20675856879E-02	6.50334734526E-03	1.65751842509E-02	1.92904009518E-01
1.71050000000E+09	-1.03211674654E-01	-8.29800549068E-02	-7.18885235708E-02	8.09566425947E-03	-7.19036164195E-02	8.06280371514E-03	2.10647409699E-02	1.95706278414E-01
1.71100000000E+09	-1.00494892087E-01	-8.22342403195E-02	-7.17144826033E-02	9.65988894220E-03	-7.17127377763E-02	9.62900433356E-03	2.57048049535E-02	1.98344107814E-01
1.71150000000E+09	-9.77317561860E-02	-8.16232886603E-02	-7.14813943021E-02	1.12190784977E-02	-7.15175284872E-02	1.11708281036E-02	3.03887115777E-02	2.00916589220E-01
1.71200000000E+09	-9.49291974255E-02	-8.11239900650E-02	-7.12366458132E-02	1.27521236992E-02	-7.12344141075E-02	1.27154993664E-02	3.51582058104E-02	2.03231954877E-01
1.71250000000E+09	-9.21127545440E-02	-8.07593071387E-02	-7.09273781515E-02	1.43032038719E-02	-7.09224225323E-02	1.42656883818E-02	3.99938016433E-02	2.05419625554E-01
1.71300000000E+09	-8.92886390074E-02	-8.05024411995E-02	-7.05860116119E-02	1.58287944898E-02	-7.05976086161E-02	1.57903336251E-02	4.49035952393E-02	2.07498788446E-01
1.71350000000E+09	-8.64538246857E-02	-8.03611800811E-02	-7.02286673308E-02	1.73512259106E-02	-7.02231617784E-02	1.73137726748E-02	4.98539305256E-02	2.09366452487E-01
1.71400000000E+09	-8.35940518410E-02	-8.03243693738E-02	-6.98242641780E-02	1.88732722309E-02	-6.98345795101E-02	1.88049782754E-02	5.48597178170E-02	2.11121803150E-01
1.71450000000E+09	-8.07527141499E-02	-8.04111821803E-02	-6.93800588692E-02	2.03508741204E-02	-6.93896878710E-02	2.03259799923E-02	5.99419197361E-02	2.12679543914E-01
1.71500000000E+09	-7.79120715140E-02	-8.06004364758E-02	-6.89110381318E-02	2.18522207073E-02	-6.89268395099E-02	2.18253265588E-02	6.50372173020E-02	2.14127981904E-01
1.71550000000E+09	-7.50979986430E-02	-8.09037927238E-02	-6.84028023507E-02	2.33350677605E-02	-6.84127009325E-02	2.32942302273E-02	7.02289214053E-02	2.15364185638E-01
1.71600000000E+09	-7.22944374854E-02	-8.13292598904E-02	-6.78518047663E-02	2.48102399123E-02	-6.78738872033E-02	2.47623483764E-02	7.54074846215E-02	2.16473660688E-01
1.71650000000E+09	-6.94987020696E-02	-8.18439925503E-02	-6.72888972117E-02	2.62554417011E-02	-6.72808126772E-02	2.62389880905E-02	8.06568628223E-02	2.17386337244E-01
1.71700000000E+09	-6.67395078855E-02	-8.24585264859E-02	-6.66664683876E-02	2.76994297745E-02	-6.66903770586E-02	2.76598650451E-02	8.58904656623E-02	2.18158586154E-01
1.71750000000E+09	-6.40063307939E-02	-8.31708799412E-02	-6.60318969252E-02	2.91077444515E-02	-6.60550805344E-02	2.90923742194E-02	9.11761035342E-02	2.18752445715E-01
1.71800000000E+09	-6.12990143577E-02	-8.40144828388E-02	-6.53665763823E-02	3.05238163154E-02	-6.53946815320E-02	3.04919484445E-02	9.64638020926E-02	2.19187150339E-01
1.71850000000E+09	-5.86623969157E-02	-8.49368197212E-02	-6.46623174203E-02	3.19191967500E-02	-6.46887929925E-02	3.18872214959E-02	1.01740722439E-01	2.19481125158E-01
1.71900000000E+09	-5.60427862454E-02	-8.59300669346E-02	-6.39481890397E-02	3.33019015801E-02	-6.39643744242E-02	3.32500568570E-02	1.07091278942E-01	2.19589447979E-01
1.71950000000E+09	-5.34731723688E-02	-8.70400869709E-02	-6.31833788310E-02	3.46414765184E-02	-6.31805872768E-02	3.45934337690E-02	1.12371222822E-01	2.19511524901E-01
1.72000000000E+09	-5.09512989423E-02	-8.82173302533E-02	-6.23930817457E-02	3.59820458336E-02	-6.24179435831E-02	3.59447970809E-02	1.17656553922E-01	2.19322610593E-01
1.72050000000E+09	-4.84706735110E-02	-8.94886725892E-02	-6.15625379838E-02	3.72916181794E-02	-6.15906894727E-02	3.72603461745E-02	1.22943999743E-01	2.18909218060E-01
1.72100000000E+09	-4.60444309302E-02	-9.08329508572E-02	-6.07050092924E-02	3.85755693471E-02	-6.07490280637E-02	3.85455934588E-02	1.28202606657E-01	2.18383077834E-01
1.72150000000E+09	-4.36746708348E-02	-9.22557748219E-02	-5.98524056099E-02	3.98599391546E-02	-5.98457165984E-02	3.98338296105E-02	1.33501809293E-01	2.17676997094E-01
1.72200000000E+09	-4.13760289100E-02	-9.37542245261E-02	-5.89379584012E-02	4.11130394259E-02	-5.89660992432E-02	4.10770995366E-02	1.38737576229E-01	2.16822251478E-01
1.72250000000E+09	-3.91350607878E-02	-9.53298838714E-02	-5.80138724914E-02	4.23432913284E-02	-5.80361385730E-02	4.23213367543E-02	1.43915877522E-01	2.15796060191E-01
1.72300000000E+09	-3.69469536610E-02	-9.69827967120E-02	-5.70679433985E-02	4.35412543741E-02	-5.70850044184E-02	4.35039441304E-02	1.49033839731E-01	2.14587665935E-01
1.72350000000E+09	-3.48413119483E-02	-9.86684804556E-02	-5.60767312873E-02	4.47501800970E-02	-5.61068722627E-02	4.47104647760E-02	1.54204211012E-01	2.13266270117E-01
1.72400000000E+09	-3.27890358118E-02	-1.00449013644E-01	-5.50828180971E-02	4.58876193841E-02	-5.51048223182E-02	4.58730754123E-02	1.59297821867E-01	2.11773281541E-01
1.72450000000E+09	-3.08083492313E-02	-1.02276319623E-01	-5.40433725342E-02	4.70307320191E-02	-5.40678611782E-02	4.69995273768E-02	1.64314524517E-01	2.10114490701E-01
1.72500000000E+09	-2.88806884994E-02	-1.04148702020E-01	-5.29930293725E-02	4.81443793050E-02	-5.30052743323E-02	4.80901246146E-02	1.69275623383E-01	2.08277606693E-01
1.72550000000E+09	-2.70285925200E-02	-1.06067115924E-01	-5.19237979868E-02	4.92237648613E-02	-5.19435998930E-02	4.91908113288E-02	1.74242124993E-01	2.06319742950E-01
1.72600000000E+09	-2.52408285842E-02	-1.08053843535E-01	-5.08286449039E-02	5.02854975844E-02	-5.08501121443E-02	5.02583364323E-02	1.79060367826E-01	2.04214620981E-01
1.72650000000E+09	-2.35431989584E-02	-1.10096157181E-01	-4.97222277600E-02	5.13286658674E-02	-4.97349492255E-02	5.13013839391E-02	1.83888315575E-01	2.01958320197E-01
1.72700000000E+09	-2.19169109546E-02	-1.12162221699E-01	-4.85685706288E-02	5.23378305828E-02	-4.86053374411E-02	5.23020853109E-02	1.88630363057E-01	1.99525205109E-01
1.72750000000E+09	-2.03530158712E-02	-1.14275214701E-01	-4.74173767016E-02	5.33112700598E-02	-4.74472795754E-02	5.32801936832E-02	1.93268427348E-01	1.97003132860E-01
1.72800000000E+09	-1.88710280927E-02	-1.16427928984E-01	-4.62396591564E-02	5.42866719665E-02	-4.62771777302E-02	5.42393723694E-02	1.97832620976E-01	1.94342304000E-01
1.72850000000E+09	-1.74617690753E-02	-1.18612867747E-01	-4.50642307220E-02	5.52087247262E-02	-4.50808880395E-02	5.51682761815E-02	2.02324696903E-01	1.91493139378E-01
1.72900000000E+09	-1.61095756570E-02	-1.20838289396E-01	-4.38414773036E-02	5.61023799751E-02	-4.38625811641E-02	5.60831446787E-02	2.06743507500E-01	1.88551647020E-01
1.72950000000E+09	-1.48501953289E-02	-1.23062682655E-01	-4.26056119238E-02	5.69793167777E-02	-4.26293814799E-02	5.69565056772E-02	2.11057562262E-01	1.85439383165E-01
1.73000000000E+09	-1.36723979008E-02	-1.25351368692E-01	-4.13656925263E-02	5.78198570993E-02	-4.14042039585E-02	5.77988665568E-02	2.15243803409E-01	1.82234781999E-01
1.73050000000E+09	-1.25476148158E-02	-1.27626979880E-01	-4.01173298554E-02	5.86324700642E-02	-4.01427182467E-02	5.86000998646E-02	2.19393401243E-01	1.78874804183E-01
1.73100000000E+09	-1.15229958860E-02	-1.29960674429E-01	-3.88405845834E-02	5.94204400297E-02	-3.88756791922E-02	5.94010011967E-02	2.23418179680E-01	1.75413054509E-01
1.73150000000E+09	-1.05396351579E-02	-1.32285335322E-01	-3.75362080254E-02	6.01882520306E-02	-3.75947617122E-02	6.01602783870E-02	2.27321650061E-01	1.71798470905E-01
1.73200000000E+09	-9.64385218383E-03	-1.34640946857E-01	-3.62376509750E-02	6.09219322830E-02	-3.62624404142E-02	6.08892677629E-02	2.31104113663E-01	1.68082327603E-01
1.73250000000E+09	-8.83692494211E-03	-1.37015355982E-01	-3.49301650010E-02	6.16130639173E-02	-3.49633028430E-02	6.15895256187E-02	2.34782696763E-01	1.64266218423E-01
1.73300000000E+09	-8.09682614294E-03	-1.39385133415E-01	-3.35952788567E-02	6.22838187941E-02	-3.36391739721E-02	6.22712981363E-02	2.38346855756E-01	1.60347290047E-01
1.73350000000E+09	-7.43738657943E-03	-1.41787045300E-01	-3.22558581309E-02	6.29323151651E-02	-3.22917926265E-02	6.29084868418E-02	2.41815465736E-01	1.56294250175E-01
1.73400000000E+09	-6.82502939147E-03	-1.44201214201E-01	-3.09207640483E-02	6.35505580407E-02	-3.09576514829E-02	6.35214564894E-02	2.45148735778E-01	1.52117489197E-01
1.73450000000E+09	-6.30416570787E-03	-1.46593907192E-01	-2.95524655878E-02	6.41304927583E-02	-2.95735238166E-02	6.41132177918E-02	2.48367130446E-01	1.47865745447E-01
1.73500000000E+09	-5.88401167498E-03	-1.49012034007E-01	-2.81640576249E-02	6.46955149495E-02	-2.82205336648E-02	6.46729417929E-02	2.51431855255E-01	1.43524967813E-01
1.73550000000E+09	-5.47372788514E-03	-1.51428253979E-01	-2.67965901138E-02	6.52029148895E-02	-2.68509838274E-02	6.51919850808E-02	2.54360033006E-01	1.39096901747E-01
1.73600000000E+09	-5.18179302663E-03	-1.53829270723E-01	-2.54090488589E-02	6.57159682019E-02	-2.54524536879E-02	6.56882814532E-02	2.57171963525E-01	1.34597652617E-01
1.73650000000E+09	-4.96587453235E-03	-1.56238916724E-01	-2.40165383570E-02	6.61571406237E-02	-2.40543415610E-02	6.61538459492E-02	2.59824837376E-01	1.29961430066E-01
1.73700000000E+09	-4.78001331112E-03	-1.58659644573E-01	-2.26231325084E-02	6.66089657212E-02	-2.26556326816E-02	6.65849906513E-02	2.62344198770E-01	1.25258801050E-01
1.73750000000E+09	-4.70679083294E-03	-1.61049133323E-01	-2.11998338372E-02	6.70177262348E-02	-2.12360949571E-02	6.69892567661E-02	2.64735486374E-01	1.20511540169E-01
1.73800000000E+09	-4.68266575380E-03	-1.63467038624E-01	-1.97807362997E-02	6.73864115134E-02	-1.98212979408E-02	6.73745955966E-02	2.66947937291E-01	1.15622662022E-01
1.73850000000E+09	-4.74056072039E-03	-1.65852122435E-01	-1.83697034335E-02	6.77196488970E-02	-1.84143565143E-02	6.77168296335E-02	2.69077664334E-01	1.10745386574E-01
1.73900000000E+09	-4.86832259634E-03	-1.68252773097E-01	-1.69686004684E-02	6.80503442373E-02	-1.69947513274E-02	6.80380924594E-02	2.71028213953E-01	1.05782243848E-01
1.73950000000E+09	-5.03578271988E-03	-1.70610319734E-01	-1.55216392006E-02	6.83217299276E-02	-1.55574239711E-02	6.83121208172E-02	2.72818614977E-01	1.00723054522E-01
1.74000000000E+09	-5.31395665313E-03	-1.73000872318E-01	-1.40980518587E-02	6.85927752250E-02	-1.41284423228E-02	6.85717991800E-02	2.74442521664E-01	9.56722475309E-02
1.74050000000E+09	-5.65616210204E-03	-1.75325345716E-01	-1.26583029584E-02	6.88084058014E-02	-1.27158277316E-02	6.88005344540E-02	2.75928928797E-01	9.05197811810E-02
1.74100000000E+09	-6.07365774033E-03	-1.77656856772E-01	-1.12326788949E-02	6.90090528357E-02	-1.12603510853E-02	6.89912603015E-02	2.77282903096E-01	8.53026701638E-02
1.74150000000E+09	-6.54291666994E-03	-1.79982266586E-01	-9.78235596687E-03	6.91707411106E-02	-9.84755026292E-03	6.91512431733E-02	2.78448900020E-01	8.01062101760E-02
1.74200000000E+09	-7.06918236942E-03	-1.82266426637E-01	-8.35720551272E-03	6.92993074453E-02	-8.39180717840E-03	6.92909065055E-02	2.79453968461E-01	7.48544192897E-02
1.74250000000E+09	-7.71092508500E-03	-1.84550979835E-01	-6.91977605625E-03	6.94131861382E-02	-6.96111982630E-03	6.93886022916E-02	2.80313588195E-01	6.95598282146E-02
1.74300000000E+09	-8.38704869410E-03	-1.86804130004E-01	-5.47807319483E-03	6.94930431536E-02	-5.52117464546E-03	6.94793217202E-02	2.81007901463E-01	6.42251094718E-02
1.74350000000E+09	-9.14358642347E-03	-1.89023441199E-01	-4.05001914023E-03	6.95460463361E-02	-4.09112060712E-03	6.95271758431E-02	2.81525074315E-01	5.88837739081E-02
1.74400000000E+09	-9.97431804838E-03	-1.91214532933E-01	-2.60442433553E-03	6.95563309125E-02	-2.66299612696E-03	6.95422097517E-02	2.81892172665E-01	5.35439551928E-02
1.74450000000E+09	-1.08833071372E-02	-1.93411939551E-01	-1.19028579286E-03	6.95514719169E-02	-1.21245246339E-03	6.95461173569E-02	2.82140242544E-01	4.81526238803E-02
1.74500000000E+09	-1.18457388612E-02	-1.95534955145E-01	2.43452488781E-04	6.95071631882E-02	2.12898452798E-04	6.94903422542E-02	2.82186734884E-01	4.27854143089E-02
1.74550000000E+09	-1.28886016353E-02	-1.97646450864E-01	1.65879757269E-03	6.94357655815E-02	1.62089314855E-03	6.94431290505E-02	2.82059217720E-01	3.74207531937E-02
1.74600000000E+09	-1.39747345083E-02	-1.99722851649E-01	3.08329157031E-03	6.93341417038E-02	3.04162556956E-03	6.93333195268E-02	2.81770338124E-01	3.20171807227E-02
1.74650000000E+09	-1.51858079519E-02	-2.01739359598E-01	4.49450273348E-03	6.92194317315E-02	4.46041455520E-03	6.92002764784E-02	2.81288052868E-01	2.66535698363E-02
1.74700000000E+09	-1.64537044481E-02	-2.03724048971E-01	5.91355655541E-03	6.90598904229E-02	5.87307893149E-03	6.90597862601E-02	2.80669854467E-01	2.12698069807E-02
1.74750000000E+09	-1.77430303913E-02	-2.05653932672E-01	7.30389724091E-03	6.88810649529E-02	7.26557171121E-03	6.88739063763E-02	2.79905104557E-01	1.59737146074E-02
1.74800000000E+09	-1.91343002592E-02	-2.07566607572E-01	8.71876831634E-03	6.86686646183E-02	8.67857939197E-03	6.86820512984E-02	2.78943003734E-01	1.06474976464E-02
1.74850000000E+09	-2.05860963527E-02	-2.09389220563E-01	1.00986965368E-02	6.84375031316E-02	1.00417681182E-02	6.84443505739E-02	2.77833350240E-01	5.34223742559E-03
1.74900000000E+09	-2.21212632116E-02	-2.11173376491E-01	1.14791847630E-02	6.81705497419E-02	1.14398054796E-02	6.81764163864E-02	2.76558846733E-01	9.00833888416E-05
1.74950000000E+09	-2.37057091104E-02	-2.12899555581E-01	1.28571515675E-02	6.78767315814E-02	1.28085208205E-02	6.78780060521E-02	2.75127018077E-01	-5.12780848605E-03
1.75000000000E+09	-2.53704427036E-02	-2.14570375384E-01	1.42309878645E-02	6.75515254767E-02	1.41770003920E-02	6.75481237668E-02	2.73525826261E-01	-1.03128092850E-02
1.75050000000E+09	-2.70674547956E-02	-2.16179936248E-01	1.55893079390E-02	6.72233140229E-02	1.55537606278E-02	6.72235033391E-02	2.71772364577E-01	-1.54222933426E-02
1.75100000000E+09	-2.88369771810E-02	-2.17729719030E-01	1.69320174222E-02	6.68435319871E-02	1.68844523183E-02	6.68483785511E-02	2.69876372879E-01	-2.05346142579E-02
1.75150000000E+09	-3.06910630893E-02	-2.19206931467E-01	1.82649214430E-02	6.64640123876E-02	1.82165995268E-02	6.64555852850E-02	2.67780654408E-01	-2.55107112585E-02
1.75200000000E+09	-3.26128231992E-02	-2.20597719993E-01	1.95978269488E-02	6.60401889315E-02	1.95415209411E-02	6.60405528251E-02	2.65576068276E-01	-3.04942002980E-02
1.75250000000E+09	-3.45437756766E-02	-2.21921330063E-01	2.09207762969E-02	6.55884077433E-02	2.08789965193E-02	6.55942246934E-02	2.63197187259E-01	-3.53828669067E-02
1.75300000000E+09	-3.65504307586E-02	-2.23157541417E-01	2.22171022182E-02	6.51191484295E-02	2.21831460509E-02	6.51351245241E-02	2.60640150837E-01	-4.01757301781E-02
1.75350000000E+09	-3.85886391434E-02	-2.24333262003E-01	2.35227995386E-02	6.46424365779E-02	2.34743992048E-02	6.46575644226E-02	2.57941790821E-01	-4.49206926487E-02
1.75400000000E+09	-4.07208961255E-02	-2.25364631398E-01	2.47897040084E-02	6.40992082361E-02	2.47572134211E-02	6.41190659986E-02	2.55083168242E-01	-4.95608190759E-02
1.75450000000E+09	-4.28554398134E-02	-2.26355985322E-01	2.60695213271E-02	6.35847823077E-02	2.60368817236E-02	6.35879110155E-02	2.52099959776E-01	-5.41641339521E-02
1.75500000000E+09	-4.50550263216E-02	-2.27219189051E-01	2.73375911955E-02	6.30076495983E-02	2.72833428350E-02	6.30255962238E-02	2.48991758875E-01	-5.86294307852E-02
1.75550000000E+09	-4.72729998558E-02	-2.27998664159E-01	2.85666404369E-02	6.24284573241E-02	2.85231932335E-02	6.24267275889E-02	2.45679573997E-01	-6.30170457299E-02
1.75600000000E+09	-4.95281462611E-02	-2.28705777954E-01	2.97879927079E-02	6.18361868799E-02	2.97803897333E-02	6.18319735187E-02	2.42289468803E-01	-6.72950481487E-02
1.75650000000E+09	-5.18301003254E-02	-2.29267574746E-01	3.10154722907E-02	6.11762369113E-02	3.09809616135E-02	6.12005738586E-02	2.38761316056E-01	-7.14519531076E-02
1.75700000000E+09	-5.41363539631E-02	-2.29737935510E-01	3.22185296905E-02	6.05370896587E-02	3.21959175675E-02	6.05683932590E-02	2.35066578459E-01	-7.54932638971E-02
1.75750000000E+09	-5.64714863882E-02	-2.30117886515E-01	3.34278504390E-02	5.98658943014E-02	3.33887154083E-02	5.98876397506E-02	2.31259112604E-01	-7.94470371725E-02
1.75800000000E+09	-5.88303777195E-02	-2.30364440832E-01	3.45979034360E-02	5.91763852283E-02	3.45494470111E-02	5.91876004892E-02	2.27314621722E-01	-8.32686290061E-02
1.75850000000E+09	-6.11881159075E-02	-2.30536634742E-01	3.57463744003E-02	5.84522281940E-02	3.57277073189E-02	5.84756816536E-02	2.23270326799E-01	-8.69755301061E-02
