# Hz S RI R 50
! CMT, CMT808U, 21440046, 21.4.3/4
! Date: 11/12/2025 3:15:21 PM
! Data: Format (Calibration Info)
! Freq	S11:Re/Im(F2)	S41:Re/Im(F2)	S14:Re/Im(F2)	S44:Re/Im(F2)
1.70000000000E+09	-1.36923999332E-01	-1.15748963308E-01	-5.87253294295E-02	-3.67144452281E-02	-5.87282546225E-02	-3.67126212393E-02	-9.03201330147E-02	4.73529619625E-02
1.70050000000E+09	-1.36279401934E-01	-1.13384715061E-01	-5.95311350015E-02	-3.54243563972E-02	-5.95229628841E-02	-3.54227028702E-02	-9.02284858820E-02	5.27776955230E-02
1.70100000000E+09	-1.35481110769E-01	-1.11001755385E-01	-6.02875760276E-02	-3.41049829613E-02	-6.02884094247E-02	-3.41247227034E-02	-8.99342330623E-02	5.81721832760E-02
1.70150000000E+09	-1.34537821024E-01	-1.08664375382E-01	-6.10230494121E-02	-3.27738372626E-02	-6.10293521954E-02	-3.27739963309E-02	-8.94925762377E-02	6.35545258746E-02
1.70200000000E+09	-1.33437421804E-01	-1.06390303915E-01	-6.17334949529E-02	-3.14516304087E-02	-6.17229421567E-02	-3.14221712326E-02	-8.88544353465E-02	6.89301064295E-02
1.70250000000E+09	-1.32187487292E-01	-1.04099009139E-01	-6.24211787996E-02	-3.00621338094E-02	-6.24041025139E-02	-3.00655791646E-02	-8.80203162860E-02	7.42772944933E-02
1.70300000000E+09	-1.30800151335E-01	-1.01868284576E-01	-6.30595034758E-02	-2.86858332696E-02	-6.30629394731E-02	-2.86837850329E-02	-8.70388887656E-02	7.95737674929E-02
1.70350000000E+09	-1.29304192161E-01	-9.97152383267E-02	-6.36814452116E-02	-2.72890518217E-02	-6.36693793050E-02	-2.72781733682E-02	-8.58779417381E-02	8.48314706505E-02
1.70400000000E+09	-1.27640460794E-01	-9.76331427677E-02	-6.42566548456E-02	-2.58934339446E-02	-6.42668885632E-02	-2.58806167490E-02	-8.45667457661E-02	9.00385742400E-02
1.70450000000E+09	-1.25865168052E-01	-9.56105327725E-02	-6.47983530923E-02	-2.44556711382E-02	-6.47988455072E-02	-2.44587889153E-02	-8.30404152042E-02	9.52131885615E-02
1.70500000000E+09	-1.23981493793E-01	-9.36610894472E-02	-6.53125112860E-02	-2.30211298991E-02	-6.53260140082E-02	-2.30220978889E-02	-8.13447885089E-02	1.00339349849E-01
1.70550000000E+09	-1.21976843361E-01	-9.17913260960E-02	-6.57930866829E-02	-2.15688043801E-02	-6.58058109055E-02	-2.15754243110E-02	-7.95002970806E-02	1.05396297506E-01
1.70600000000E+09	-1.19879001082E-01	-9.00321853814E-02	-6.62431636124E-02	-2.01132847691E-02	-6.62440205111E-02	-2.01107501622E-02	-7.75046676194E-02	1.10359534223E-01
1.70650000000E+09	-1.17657405441E-01	-8.83569484176E-02	-6.66609969436E-02	-1.86463552000E-02	-6.66616440475E-02	-1.86506510197E-02	-7.53079854280E-02	1.15289143553E-01
1.70700000000E+09	-1.15399885891E-01	-8.67769517305E-02	-6.70357658230E-02	-1.71470853856E-02	-6.70341705144E-02	-1.71630336035E-02	-7.29962867090E-02	1.20123719249E-01
1.70750000000E+09	-1.12982350157E-01	-8.53130073852E-02	-6.73752520962E-02	-1.56724038097E-02	-6.73778801561E-02	-1.56845825569E-02	-7.05205288107E-02	1.24865692028E-01
1.70800000000E+09	-1.10519206059E-01	-8.39490829614E-02	-6.76830793568E-02	-1.41794233193E-02	-6.76916501858E-02	-1.41795079188E-02	-6.78582890006E-02	1.29539213415E-01
1.70850000000E+09	-1.07967336161E-01	-8.26879154407E-02	-6.79653795338E-02	-1.26850690235E-02	-6.79674624983E-02	-1.26782906371E-02	-6.50704586617E-02	1.34084251568E-01
1.70900000000E+09	-1.05354379192E-01	-8.15351398763E-02	-6.81990722431E-02	-1.11850603150E-02	-6.81950072613E-02	-1.11830312424E-02	-6.21497937815E-02	1.38554789661E-01
1.70950000000E+09	-1.02703328953E-01	-8.05397262589E-02	-6.83898531528E-02	-9.66696998820E-03	-6.83934816128E-02	-9.67124574613E-03	-5.90561675383E-02	1.42924264147E-01
1.71000000000E+09	-1.00000151827E-01	-7.96304852620E-02	-6.85706612216E-02	-8.15542678476E-03	-6.85526362190E-02	-8.16884728951E-03	-5.58311168998E-02	1.47177204267E-01
1.71050000000E+09	-9.72413117734E-02	-7.88330867986E-02	-6.86811110791E-02	-6.64499598246E-03	-6.86806582586E-02	-6.64632926617E-03	-5.24972519375E-02	1.51333671853E-01
1.71100000000E+09	-9.44610704271E-02	-7.81431942328E-02	-6.87834949399E-02	-5.14299496478E-03	-6.87739526426E-02	-5.13877860146E-03	-4.90098331981E-02	1.55352554678E-01
1.71150000000E+09	-9.16259130953E-02	-7.75840308784E-02	-6.88498415126E-02	-3.62465237275E-03	-6.88438285205E-02	-3.61028442212E-03	-4.53676654639E-02	1.59310069883E-01
1.71200000000E+09	-8.87647035134E-02	-7.71410857422E-02	-6.88628019310E-02	-2.12290349250E-03	-6.88672147885E-02	-2.10048843502E-03	-4.16663584960E-02	1.63089404931E-01
1.71250000000E+09	-8.59001719619E-02	-7.68473482417E-02	-6.88429034467E-02	-5.98572426587E-04	-6.88428168936E-02	-5.96694649323E-04	-3.78082769846E-02	1.66744301510E-01
1.71300000000E+09	-8.30385736093E-02	-7.66572467775E-02	-6.87849312073E-02	8.97954591753E-04	-6.87844853821E-02	9.09876797797E-04	-3.38392194999E-02	1.70263274228E-01
1.71350000000E+09	-8.01647246228E-02	-7.65506066713E-02	-6.87116584875E-02	2.40993335278E-03	-6.87038120182E-02	2.40552833998E-03	-2.97607962478E-02	1.73676803568E-01
1.71400000000E+09	-7.72559427491E-02	-7.65858608791E-02	-6.85890279381E-02	3.88928203180E-03	-6.85825187064E-02	3.90239468017E-03	-2.56084835109E-02	1.76935773388E-01
1.71450000000E+09	-7.43717527714E-02	-7.67338504756E-02	-6.84392244965E-02	5.37984691687E-03	-6.84328482579E-02	5.40241371055E-03	-2.12936769959E-02	1.80065973456E-01
1.71500000000E+09	-7.15100636947E-02	-7.69792497820E-02	-6.82511198109E-02	6.88187045581E-03	-6.82461385010E-02	6.86769054054E-03	-1.69427949983E-02	1.83066196914E-01
1.71550000000E+09	-6.86336858217E-02	-7.73339443521E-02	-6.80305439194E-02	8.36085386177E-03	-6.80198547315E-02	8.35428470736E-03	-1.24553049959E-02	1.85892811497E-01
1.71600000000E+09	-6.58165990915E-02	-7.78238457595E-02	-6.77740496016E-02	9.80685149144E-03	-6.77741722262E-02	9.82711407301E-03	-7.93843732314E-03	1.88590283544E-01
1.71650000000E+09	-6.29853421179E-02	-7.83845853767E-02	-6.74903451990E-02	1.12689369202E-02	-6.74841638348E-02	1.12777344181E-02	-3.28208008214E-03	1.91136716375E-01
1.71700000000E+09	-6.02037551755E-02	-7.90708793846E-02	-6.71752470298E-02	1.27270272736E-02	-6.71723238396E-02	1.27227541452E-02	1.41487176143E-03	1.93509582220E-01
1.71750000000E+09	-5.74466716315E-02	-7.98392467335E-02	-6.68129294886E-02	1.41524316474E-02	-6.68119699332E-02	1.41521885533E-02	6.22145884581E-03	1.95737536786E-01
1.71800000000E+09	-5.47218722722E-02	-8.07172660621E-02	-6.64321145834E-02	1.55800514966E-02	-6.64340103750E-02	1.55724916770E-02	1.10397393763E-02	1.97810246301E-01
1.71850000000E+09	-5.20573605454E-02	-8.17227052887E-02	-6.60185262546E-02	1.69866489989E-02	-6.60244206108E-02	1.69699017178E-02	1.59276349740E-02	1.99743890349E-01
1.71900000000E+09	-4.94259140486E-02	-8.27814648239E-02	-6.55969504580E-02	1.83723056299E-02	-6.55726853954E-02	1.83776017822E-02	2.09186231984E-02	2.01481804937E-01
1.71950000000E+09	-4.68132123100E-02	-8.39085751003E-02	-6.51025565502E-02	1.97465284861E-02	-6.51022772860E-02	1.97475055836E-02	2.59002419747E-02	2.03063319427E-01
1.72000000000E+09	-4.42832675186E-02	-8.51686461889E-02	-6.46117514355E-02	2.11110285566E-02	-6.46185658486E-02	2.11205237795E-02	3.09680257656E-02	2.04505623040E-01
1.72050000000E+09	-4.17980645210E-02	-8.64754535823E-02	-6.40788000510E-02	2.24723278184E-02	-6.40797206728E-02	2.24834674064E-02	3.60420535131E-02	2.05768503605E-01
1.72100000000E+09	-3.93684244008E-02	-8.79105151614E-02	-6.35391983573E-02	2.38121086341E-02	-6.35263094020E-02	2.38081215513E-02	4.11830797312E-02	2.06888217431E-01
1.72150000000E+09	-3.69865488802E-02	-8.93759281343E-02	-6.29455036363E-02	2.51232946611E-02	-6.29314062632E-02	2.51062088619E-02	4.63433840911E-02	2.07852697269E-01
1.72200000000E+09	-3.46780919418E-02	-9.09224053558E-02	-6.23246260853E-02	2.64339609982E-02	-6.23426053152E-02	2.64292247210E-02	5.15451008467E-02	2.08636938424E-01
1.72250000000E+09	-3.24178797818E-02	-9.25642119566E-02	-6.16902707603E-02	2.77271593443E-02	-6.17006734949E-02	2.77199222151E-02	5.67210603448E-02	2.09241903151E-01
1.72300000000E+09	-3.02382080628E-02	-9.42489075693E-02	-6.10257570927E-02	2.89746882956E-02	-6.10243475847E-02	2.89717480088E-02	6.19119185016E-02	2.09652720021E-01
1.72350000000E+09	-2.81151745890E-02	-9.60217995625E-02	-6.03553141920E-02	3.02227633814E-02	-6.03397107332E-02	3.02300464361E-02	6.71584992704E-02	2.09926694781E-01
1.72400000000E+09	-2.60745205602E-02	-9.78280294629E-02	-5.96406088621E-02	3.14608090973E-02	-5.96517524456E-02	3.14587339520E-02	7.23758138784E-02	2.10069197262E-01
1.72450000000E+09	-2.40913045948E-02	-9.97151716254E-02	-5.89132955634E-02	3.26669657504E-02	-5.89067973225E-02	3.26746248271E-02	7.76061031023E-02	2.10022386937E-01
1.72500000000E+09	-2.21730665575E-02	-1.01650257553E-01	-5.81619933122E-02	3.38693832166E-02	-5.81660911605E-02	3.38557297122E-02	8.27863884044E-02	2.09799104174E-01
1.72550000000E+09	-2.03202922615E-02	-1.03614354851E-01	-5.73844693653E-02	3.50409879379E-02	-5.73966875560E-02	3.50335334572E-02	8.80067658763E-02	2.09413200798E-01
1.72600000000E+09	-1.85370585947E-02	-1.05664639948E-01	-5.65933094943E-02	3.61818029108E-02	-5.65789981140E-02	3.61846558047E-02	9.31798852259E-02	2.08858695547E-01
1.72650000000E+09	-1.68543085893E-02	-1.07736804785E-01	-5.57736016844E-02	3.73145869974E-02	-5.57794530262E-02	3.73240883576E-02	9.83298761501E-02	2.08155178940E-01
1.72700000000E+09	-1.52229723285E-02	-1.09866794055E-01	-5.49341056366E-02	3.84376128053E-02	-5.49347288523E-02	3.84237767777E-02	1.03463025631E-01	2.07240167042E-01
1.72750000000E+09	-1.36748886841E-02	-1.12039717976E-01	-5.40706773968E-02	3.95270391184E-02	-5.40752678662E-02	3.95249500596E-02	1.08562770344E-01	2.06243944977E-01
1.72800000000E+09	-1.22287528211E-02	-1.14226370218E-01	-5.31895398997E-02	4.05995584669E-02	-5.32109697755E-02	4.06015992706E-02	1.13619883255E-01	2.05032702034E-01
1.72850000000E+09	-1.08182306017E-02	-1.16489096230E-01	-5.22976126042E-02	4.16514339021E-02	-5.23214044470E-02	4.16544422092E-02	1.18621107706E-01	2.03659865350E-01
1.72900000000E+09	-9.49323399175E-03	-1.18760779015E-01	-5.14102652400E-02	4.26966819613E-02	-5.13971227333E-02	4.26891718459E-02	1.23618641323E-01	2.02161654239E-01
1.72950000000E+09	-8.22902878378E-03	-1.21054618142E-01	-5.04759681193E-02	4.36964384165E-02	-5.04735448103E-02	4.36963045884E-02	1.28511727671E-01	2.00511207081E-01
1.73000000000E+09	-7.07626133462E-03	-1.23379973211E-01	-4.95408210353E-02	4.46878889315E-02	-4.95386751482E-02	4.46825820526E-02	1.33340525751E-01	1.98667801575E-01
1.73050000000E+09	-5.98344404086E-03	-1.25705649630E-01	-4.85873674318E-02	4.56604061714E-02	-4.85785505172E-02	4.56584062795E-02	1.38153440676E-01	1.96717601002E-01
1.73100000000E+09	-4.96500228623E-03	-1.28087572004E-01	-4.75896019419E-02	4.66147068203E-02	-4.76024984241E-02	4.66117783591E-02	1.42885495701E-01	1.94595532544E-01
1.73150000000E+09	-4.02620767940E-03	-1.30472587435E-01	-4.66004366086E-02	4.75540412092E-02	-4.65917780255E-02	4.75384249516E-02	1.47525623726E-01	1.92317868740E-01
1.73200000000E+09	-3.15123136944E-03	-1.32863613539E-01	-4.55881918104E-02	4.84450710728E-02	-4.55973808603E-02	4.84569864787E-02	1.52133754214E-01	1.89888717735E-01
1.73250000000E+09	-2.37443120443E-03	-1.35282706338E-01	-4.45739090550E-02	4.93407629631E-02	-4.45822530594E-02	4.93400794905E-02	1.56584778507E-01	1.87358480884E-01
1.73300000000E+09	-1.67704077096E-03	-1.37700003688E-01	-4.35355158218E-02	5.01986396167E-02	-4.35418696580E-02	5.02032746973E-02	1.61000190787E-01	1.84689819905E-01
1.73350000000E+09	-1.03801598376E-03	-1.40170397767E-01	-4.24855046306E-02	5.10545191609E-02	-4.24923084476E-02	5.10380326910E-02	1.65318733768E-01	1.81870120209E-01
1.73400000000E+09	-4.89490582402E-04	-1.42595188244E-01	-4.14349917181E-02	5.18936672948E-02	-4.14319219668E-02	5.18959017574E-02	1.69576619092E-01	1.78888845014E-01
1.73450000000E+09	-2.76938932491E-07	-1.45056030978E-01	-4.03576093266E-02	5.26958656724E-02	-4.03420419749E-02	5.27007184846E-02	1.73707474940E-01	1.75783138402E-01
1.73500000000E+09	3.87933111658E-04	-1.47508076062E-01	-3.92589805226E-02	5.34824106100E-02	-3.92619558287E-02	5.34845601936E-02	1.77744558964E-01	1.72578327315E-01
1.73550000000E+09	7.29698283365E-04	-1.49953168076E-01	-3.81597640727E-02	5.42550831470E-02	-3.81607051763E-02	5.42670642612E-02	1.81663461924E-01	1.69230361484E-01
1.73600000000E+09	9.80177161896E-04	-1.52406917455E-01	-3.70413180748E-02	5.50029435776E-02	-3.70492577780E-02	5.49991676529E-02	1.85464144106E-01	1.65789826192E-01
1.73650000000E+09	1.15447336172E-03	-1.54856539791E-01	-3.59253716907E-02	5.57375175634E-02	-3.59131053662E-02	5.57261119649E-02	1.89143739220E-01	1.62236322391E-01
1.73700000000E+09	1.26721233239E-03	-1.57306497437E-01	-3.47581222414E-02	5.64412563825E-02	-3.47694772377E-02	5.64212386689E-02	1.92761246315E-01	1.58528057947E-01
1.73750000000E+09	1.29951429031E-03	-1.59739812276E-01	-3.36107601587E-02	5.71145566412E-02	-3.36131381164E-02	5.71133234533E-02	1.96248183846E-01	1.54742447149E-01
1.73800000000E+09	1.25845714414E-03	-1.62161122435E-01	-3.24484716402E-02	5.77675435956E-02	-3.24616184795E-02	5.77823319133E-02	1.99563060119E-01	1.50824737590E-01
1.73850000000E+09	1.12321516526E-03	-1.64582699422E-01	-3.12723691753E-02	5.84238143940E-02	-3.12974703011E-02	5.84218060336E-02	2.02790346456E-01	1.46839895758E-01
1.73900000000E+09	9.43021708610E-04	-1.66988225357E-01	-3.01037952267E-02	5.90406014716E-02	-3.00918158748E-02	5.90457473567E-02	2.05912560104E-01	1.42724056485E-01
1.73950000000E+09	7.30616465759E-04	-1.69376500705E-01	-2.89138771031E-02	5.96332791675E-02	-2.89021744367E-02	5.96455293592E-02	2.08865991247E-01	1.38546559924E-01
1.74000000000E+09	3.72099740485E-04	-1.71793248722E-01	-2.76798905882E-02	6.02200493766E-02	-2.76798084409E-02	6.02093046823E-02	2.11690347471E-01	1.34255274076E-01
1.74050000000E+09	-5.49323379374E-05	-1.74125686087E-01	-2.64546958836E-02	6.07673998087E-02	-2.64649063208E-02	6.07668912167E-02	2.14380598701E-01	1.29913608994E-01
1.74100000000E+09	-5.28430846806E-04	-1.76479550829E-01	-2.52260857176E-02	6.13257262824E-02	-2.52228722921E-02	6.13066179621E-02	2.16934030495E-01	1.25445131455E-01
1.74150000000E+09	-1.07409625641E-03	-1.78775111153E-01	-2.39649409322E-02	6.18298474034E-02	-2.39724212579E-02	6.18225438825E-02	2.19348352016E-01	1.20917380105E-01
1.74200000000E+09	-1.66878655540E-03	-1.81078303263E-01	-2.27258921400E-02	6.23056093293E-02	-2.27312505495E-02	6.23149643551E-02	2.21630326167E-01	1.16340997372E-01
1.74250000000E+09	-2.37171253950E-03	-1.83347086153E-01	-2.14569061769E-02	6.27867286644E-02	-2.14518368487E-02	6.27776644970E-02	2.23776798231E-01	1.11667511254E-01
1.74300000000E+09	-3.12100439386E-03	-1.85593503946E-01	-2.01736982942E-02	6.32251196073E-02	-2.01782691438E-02	6.32423048854E-02	2.25736896283E-01	1.06936079738E-01
1.74350000000E+09	-3.94970148758E-03	-1.87807167003E-01	-1.88967104918E-02	6.36242363332E-02	-1.89015258141E-02	6.36554237714E-02	2.27572876359E-01	1.02172778300E-01
1.74400000000E+09	-4.85318775040E-03	-1.89993207841E-01	-1.75826320850E-02	6.40462168086E-02	-1.75956092980E-02	6.40497421737E-02	2.29232474390E-01	9.73154778881E-02
1.74450000000E+09	-5.83839891465E-03	-1.92145644688E-01	-1.62915588679E-02	6.44177670887E-02	-1.62805715034E-02	6.44128436551E-02	2.30808256894E-01	9.24055250439E-02
1.74500000000E+09	-6.86426140486E-03	-1.94246240636E-01	-1.49760586396E-02	6.47686829785E-02	-1.49772738852E-02	6.47582440404E-02	2.32175548456E-01	8.75060368600E-02
1.74550000000E+09	-7.98963050742E-03	-1.96321989060E-01	-1.36494014552E-02	6.50820043944E-02	-1.36360633569E-02	6.50898518271E-02	2.33378602137E-01	8.25148642044E-02
1.74600000000E+09	-9.14238973216E-03	-1.98356838717E-01	-1.23301089568E-02	6.53856044658E-02	-1.23214051740E-02	6.53882251075E-02	2.34477520036E-01	7.74982253873E-02
1.74650000000E+09	-1.04060921501E-02	-2.00356268543E-01	-1.09804262066E-02	6.56548144049E-02	-1.09781882344E-02	6.56484312637E-02	2.35333166540E-01	7.24808571675E-02
1.74700000000E+09	-1.17340256975E-02	-2.02307666777E-01	-9.62165825406E-03	6.58956673189E-02	-9.61488943439E-03	6.58930696055E-02	2.36063931409E-01	6.73979729224E-02
1.74750000000E+09	-1.31294817997E-02	-2.04191956188E-01	-8.25800341762E-03	6.61209804549E-02	-8.26592138498E-03	6.61105312049E-02	2.36684484627E-01	6.23335780865E-02
1.74800000000E+09	-1.45464488143E-02	-2.06047501471E-01	-6.90273768528E-03	6.62887435309E-02	-6.90737120277E-03	6.63142041536E-02	2.37104590018E-01	5.72259306832E-02
1.74850000000E+09	-1.60687934795E-02	-2.07813551516E-01	-5.53503750619E-03	6.64637555002E-02	-5.53936714760E-03	6.64632249249E-02	2.37373069392E-01	5.21296624338E-02
1.74900000000E+09	-1.76497303947E-02	-2.09544835353E-01	-4.15033883527E-03	6.65940083608E-02	-4.14670751526E-03	6.66066848831E-02	2.37477963597E-01	4.69825318024E-02
1.74950000000E+09	-1.93019383625E-02	-2.11218078856E-01	-2.78928660518E-03	6.67065718280E-02	-2.77490773440E-03	6.67113105589E-02	2.37448471004E-01	4.18767626425E-02
1.75000000000E+09	-2.10177375927E-02	-2.12812050545E-01	-1.38231831697E-03	6.67944736070E-02	-1.39487650595E-03	6.68018079586E-02	2.37254113470E-01	3.67643873487E-02
1.75050000000E+09	-2.27842392676E-02	-2.14359903524E-01	2.31603967657E-07	6.68551479703E-02	3.37697613366E-07	6.68268288395E-02	2.36851884515E-01	3.16544114783E-02
1.75100000000E+09	-2.45719467671E-02	-2.15851822639E-01	1.38503717101E-03	6.68646170061E-02	1.38949654675E-03	6.68769572021E-02	2.36356863030E-01	2.65482409760E-02
1.75150000000E+09	-2.64859648225E-02	-2.17253571599E-01	2.78402564092E-03	6.68745087403E-02	2.77330658377E-03	6.68658564092E-02	2.35668678729E-01	2.15004139388E-02
1.75200000000E+09	-2.84024411665E-02	-2.18554317045E-01	4.17684485431E-03	6.68277337128E-02	4.17911208501E-03	6.68252010620E-02	2.34821369746E-01	1.64197845266E-02
1.75250000000E+09	-3.03860972395E-02	-2.19805520507E-01	5.57243278962E-03	6.67566026405E-02	5.58120191329E-03	6.67576317130E-02	2.33792023313E-01	1.14352011600E-02
1.75300000000E+09	-3.24241010566E-02	-2.20968648669E-01	6.96553081566E-03	6.66563943199E-02	6.97611384902E-03	6.66734139474E-02	2.32629746493E-01	6.43085652611E-03
1.75350000000E+09	-3.45173135461E-02	-2.22067875654E-01	8.36967062713E-03	6.65460666980E-02	8.36012121927E-03	6.65505859856E-02	2.31303883118E-01	1.46150481679E-03
1.75400000000E+09	-3.66558892503E-02	-2.23030166208E-01	9.77350248091E-03	6.63872607429E-02	9.76839365555E-03	6.63806609570E-02	2.29807805594E-01	-3.43967321179E-03
1.75450000000E+09	-3.88091653933E-02	-2.23914161105E-01	1.11659022136E-02	6.61945046439E-02	1.11685910256E-02	6.62058931479E-02	2.28202422044E-01	-8.30857287353E-03
1.75500000000E+09	-4.10231060816E-02	-2.24701109220E-01	1.25508505190E-02	6.59979707570E-02	1.25498711275E-02	6.59909495514E-02	2.26421527600E-01	-1.31149820740E-02
1.75550000000E+09	-4.32537622578E-02	-2.25397385040E-01	1.39371957149E-02	6.57325710868E-02	1.39535233396E-02	6.57357867862E-02	2.24445250040E-01	-1.79044673771E-02
1.75600000000E+09	-4.55437380173E-02	-2.26015579183E-01	1.53304918562E-02	6.54731114273E-02	1.53241176201E-02	6.54700824560E-02	2.22374665400E-01	-2.25711950709E-02
1.75650000000E+09	-4.78252108937E-02	-2.26484777468E-01	1.67082944155E-02	6.51616332180E-02	1.67154648362E-02	6.51739326675E-02	2.20135779180E-01	-2.72031437251E-02
1.75700000000E+09	-5.01419023350E-02	-2.26853360481E-01	1.80745564118E-02	6.48376414197E-02	1.80951746581E-02	6.48369029672E-02	2.17769790251E-01	-3.17313230816E-02
1.75750000000E+09	-5.24741715397E-02	-2.27137216893E-01	1.94495055395E-02	6.44709954595E-02	1.94530621252E-02	6.44615010796E-02	2.15225464291E-01	-3.61964097202E-02
1.75800000000E+09	-5.48148050640E-02	-2.27299896273E-01	2.08226967296E-02	6.40811238078E-02	2.08102270994E-02	6.40669341901E-02	2.12567158977E-01	-4.05979102463E-02
1.75850000000E+09	-5.71729385150E-02	-2.27374196997E-01	2.21813476914E-02	6.36612009184E-02	2.21927737243E-02	6.36632724760E-02	2.09766000670E-01	-4.49370716275E-02
