# Hz S RI R 50
! CMT, CMT808U, 21440046, 21.4.3/4
! Date: 11/12/2025 10:04:16 AM
! Data: Format (Calibration Info)
! Freq	S11:Re/Im(F2)	S41:Re/Im(F2)	S14:Re/Im(F2)	S44:Re/Im(F2)
1.60000000000E+09	-2.87308704508E-01	-2.33913479045E-01	7.17840229162E-03	6.37169754719E-02	6.33006841349E-03	6.34888654237E-02	-1.08662324668E-01	3.82988239656E-02
1.60100000000E+09	-2.82426738429E-01	-2.32322349316E-01	9.98159496613E-03	6.34302724608E-02	9.12084835151E-03	6.32390032677E-02	-1.09447612396E-01	5.08313162539E-02
1.60200000000E+09	-2.77703516886E-01	-2.31275506263E-01	1.27686506380E-02	6.30087545552E-02	1.19063527843E-02	6.28551580398E-02	-1.09389199973E-01	6.33907280234E-02
1.60300000000E+09	-2.73200873708E-01	-2.30761179509E-01	1.55413431208E-02	6.24526959182E-02	1.46670779930E-02	6.23326813869E-02	-1.08481758647E-01	7.59022045063E-02
1.60400000000E+09	-2.69001083312E-01	-2.30741714260E-01	1.82817566796E-02	6.17603265725E-02	1.74041753759E-02	6.16812468519E-02	-1.06745902977E-01	8.83242662916E-02
1.60500000000E+09	-2.65184551615E-01	-2.31181792536E-01	2.09886399372E-02	6.09386856494E-02	2.01068733731E-02	6.08963542663E-02	-1.04178272811E-01	1.00583481120E-01
1.60600000000E+09	-2.61802361686E-01	-2.32021061262E-01	2.36447672055E-02	5.99862886108E-02	2.27624866451E-02	5.99804053571E-02	-1.00799768202E-01	1.12629683564E-01
1.60700000000E+09	-2.58934906396E-01	-2.33195266159E-01	2.62519126410E-02	5.89076313374E-02	2.53712164033E-02	5.89402998360E-02	-9.66299345741E-02	1.24412513780E-01
1.60800000000E+09	-2.56613103835E-01	-2.34626977727E-01	2.87974266140E-02	5.77096299284E-02	2.79215348561E-02	5.77785901390E-02	-9.16953192023E-02	1.35870187686E-01
1.60900000000E+09	-2.54879904049E-01	-2.36223072878E-01	3.12759638155E-02	5.63956723856E-02	3.04057363399E-02	5.65019162508E-02	-8.60176582261E-02	1.46963393812E-01
1.61000000000E+09	-2.53754263028E-01	-2.37887646571E-01	3.36847327627E-02	5.49687060619E-02	3.28162694301E-02	5.51169250281E-02	-7.96172085255E-02	1.57630827791E-01
1.61100000000E+09	-2.53234114409E-01	-2.39539313995E-01	3.60104816311E-02	5.34441128867E-02	3.51533418841E-02	5.36198250722E-02	-7.25390400206E-02	1.67837095646E-01
1.61200000000E+09	-2.53313037536E-01	-2.41080505350E-01	3.82577008495E-02	5.18175612431E-02	3.74097423949E-02	5.20300355171E-02	-6.48199773945E-02	1.77535648603E-01
1.61300000000E+09	-2.53942483248E-01	-2.42405926978E-01	4.04184580122E-02	5.00992528970E-02	3.95826226094E-02	5.03422405663E-02	-5.64886423743E-02	1.86687842712E-01
1.61400000000E+09	-2.55085589070E-01	-2.43458704867E-01	4.24913920135E-02	4.82953101525E-02	4.16650217733E-02	4.85726481053E-02	-4.75922626926E-02	1.95256246557E-01
1.61500000000E+09	-2.56694220236E-01	-2.44162280637E-01	4.44709379281E-02	4.64140925058E-02	4.36577385227E-02	4.67222165446E-02	-3.81614492119E-02	2.03204580778E-01
1.61600000000E+09	-2.58697500135E-01	-2.44453698986E-01	4.63588873377E-02	4.44570378507E-02	4.55630896579E-02	4.47956236435E-02	-2.82549393741E-02	2.10495913817E-01
1.61700000000E+09	-2.61018562663E-01	-2.44291270403E-01	4.81560857930E-02	4.24325220168E-02	4.73681390322E-02	4.28029118845E-02	-1.79123324618E-02	2.17116688086E-01
1.61800000000E+09	-2.63584549073E-01	-2.43653978738E-01	4.98546757772E-02	4.03442671418E-02	4.90874359904E-02	4.07431923694E-02	-7.18070659025E-03	2.23038279641E-01
1.61900000000E+09	-2.66319746928E-01	-2.42512080335E-01	5.14576637706E-02	3.82003651118E-02	5.07078669143E-02	3.86283912377E-02	3.89248141743E-03	2.28231057098E-01
1.62000000000E+09	-2.69148834033E-01	-2.40862062293E-01	5.29676998420E-02	3.59993620294E-02	5.22343331319E-02	3.64549170450E-02	1.52592130986E-02	2.32691780521E-01
1.62100000000E+09	-2.72010832318E-01	-2.38719866919E-01	5.43819120120E-02	3.37506490927E-02	5.36658728183E-02	3.42354090413E-02	2.68698352934E-02	2.36387718009E-01
1.62200000000E+09	-2.74827371123E-01	-2.36090531915E-01	5.57001874617E-02	3.14537718364E-02	5.50010541897E-02	3.19652074510E-02	3.86756176137E-02	2.39322597808E-01
1.62300000000E+09	-2.77554806102E-01	-2.33005495509E-01	5.69180058963E-02	2.91219694223E-02	5.62407895718E-02	2.96555528764E-02	5.06212216332E-02	2.41487301484E-01
1.62400000000E+09	-2.80130566043E-01	-2.29485820017E-01	5.80445205542E-02	2.67477368362E-02	5.73895321738E-02	2.73103284250E-02	6.26680630467E-02	2.42875341850E-01
1.62500000000E+09	-2.82524459552E-01	-2.25568649116E-01	5.90758234234E-02	2.43392980296E-02	5.84400335752E-02	2.49279867983E-02	7.47544303946E-02	2.43476419226E-01
1.62600000000E+09	-2.84684070025E-01	-2.21291724421E-01	6.00067491559E-02	2.18983946834E-02	5.93920187783E-02	2.25116362083E-02	8.68361247143E-02	2.43307121385E-01
1.62700000000E+09	-2.86589663849E-01	-2.16678114764E-01	6.08470145924E-02	1.94311631555E-02	6.02509411252E-02	2.00687442468E-02	9.88540214219E-02	2.42360015290E-01
1.62800000000E+09	-2.88206843994E-01	-2.11773516663E-01	6.15881151367E-02	1.69406195125E-02	6.10166446983E-02	1.76005012849E-02	1.10781955625E-01	2.40642325929E-01
1.62900000000E+09	-2.89525795987E-01	-2.06617182806E-01	6.22366156495E-02	1.44230868579E-02	6.16844375501E-02	1.51052466032E-02	1.22550785929E-01	2.38177818520E-01
1.63000000000E+09	-2.90517677078E-01	-2.01228259107E-01	6.27857203045E-02	1.18894031465E-02	6.22565542286E-02	1.25927387525E-02	1.34130858863E-01	2.34973738599E-01
1.63100000000E+09	-2.91189562832E-01	-1.95676835693E-01	6.32409796972E-02	9.33696102585E-03	6.27398047731E-02	1.00661318212E-02	1.45470347544E-01	2.31042991256E-01
1.63200000000E+09	-2.91516173801E-01	-1.89961295099E-01	6.35984197986E-02	6.76787252898E-03	6.31208361722E-02	7.52039189358E-03	1.56533514705E-01	2.26401283571E-01
1.63300000000E+09	-2.91505347256E-01	-1.84137756424E-01	6.38580993123E-02	4.19193685517E-03	6.34071581353E-02	4.96525600757E-03	1.67260512932E-01	2.21074481664E-01
1.63400000000E+09	-2.91148841109E-01	-1.78217472399E-01	6.40205563910E-02	1.60199474134E-03	6.36018729479E-02	2.39768242832E-03	1.77629557543E-01	2.15082080395E-01
1.63500000000E+09	-2.90450691395E-01	-1.72244803944E-01	6.40861794784E-02	-9.90371576626E-04	6.36982987170E-02	-1.71821134814E-04	1.87581272728E-01	2.08449254592E-01
1.63600000000E+09	-2.89414972525E-01	-1.66235676884E-01	6.40558514080E-02	-3.58914491237E-03	6.36969312762E-02	-2.75062894405E-03	1.97099711856E-01	2.01204686776E-01
1.63700000000E+09	-2.88041222346E-01	-1.60227325526E-01	6.39291209045E-02	-6.18443309034E-03	6.35990610352E-02	-5.32875911651E-03	2.06130307531E-01	1.93380856026E-01
1.63800000000E+09	-2.86330638008E-01	-1.54227457091E-01	6.37024756023E-02	-8.78032468524E-03	6.34055803824E-02	-7.90022872116E-03	2.14653748483E-01	1.84998878070E-01
1.63900000000E+09	-2.84299422863E-01	-1.48275009988E-01	6.33757819115E-02	-1.13708545767E-02	6.31177440448E-02	-1.04733484662E-02	2.22628231122E-01	1.76105137402E-01
1.64000000000E+09	-2.81936824011E-01	-1.42377230352E-01	6.29526822744E-02	-1.39547133639E-02	6.27291806123E-02	-1.30381986611E-02	2.30027384876E-01	1.66733076933E-01
1.64100000000E+09	-2.79264510145E-01	-1.36569139093E-01	6.24262720095E-02	-1.65228617725E-02	6.22432428906E-02	-1.55952292107E-02	2.36828402306E-01	1.56905751398E-01
1.64200000000E+09	-2.76289123289E-01	-1.30853359918E-01	6.18017968731E-02	-1.90802749457E-02	6.16574166997E-02	-1.81326048921E-02	2.42998305881E-01	1.46663953796E-01
1.64300000000E+09	-2.73007830441E-01	-1.25269573361E-01	6.10786364353E-02	-2.16171319921E-02	6.09758371330E-02	-2.06570637241E-02	2.48512836386E-01	1.36063465334E-01
1.64400000000E+09	-2.69447284140E-01	-1.19812320059E-01	6.02572617326E-02	-2.41328676361E-02	6.01971872237E-02	-2.31665480624E-02	2.53351791889E-01	1.25126699711E-01
1.64500000000E+09	-2.65598931943E-01	-1.14509783887E-01	5.93331056975E-02	-2.66259265956E-02	5.93147241907E-02	-2.56477933387E-02	2.57500532008E-01	1.13904121224E-01
1.64600000000E+09	-2.61477088796E-01	-1.09379738598E-01	5.83095782180E-02	-2.90893328921E-02	5.83343271703E-02	-2.81020734004E-02	2.60932504475E-01	1.02432204090E-01
1.64700000000E+09	-2.57088788037E-01	-1.04428819092E-01	5.71848570736E-02	-3.15201035898E-02	5.72568952990E-02	-3.05312076117E-02	2.63646453828E-01	9.07580562781E-02
1.64800000000E+09	-2.52438935414E-01	-9.96850531209E-02	5.59608633566E-02	-3.39153799154E-02	5.60770916017E-02	-3.29259476111E-02	2.65618213672E-01	7.89265194156E-02
1.64900000000E+09	-2.47545913000E-01	-9.51697483040E-02	5.46382824638E-02	-3.62716559227E-02	5.48000015743E-02	-3.52817965949E-02	2.66847176273E-01	6.69852320243E-02
1.65000000000E+09	-2.42420131447E-01	-9.08893531218E-02	5.32123234596E-02	-3.85854804025E-02	5.34240655084E-02	-3.75960133664E-02	2.67319008581E-01	5.49786170392E-02
1.65100000000E+09	-2.37071686020E-01	-8.68625573157E-02	5.16918747001E-02	-4.08497257519E-02	5.19533011399E-02	-3.98660849410E-02	2.67033361392E-01	4.29626509616E-02
1.65200000000E+09	-2.31505393500E-01	-8.31074147241E-02	5.00735783537E-02	-4.30607350862E-02	5.03794485069E-02	-4.20862659726E-02	2.65985054675E-01	3.09614431387E-02
1.65300000000E+09	-2.25751806552E-01	-7.96449790964E-02	4.83560499849E-02	-4.52173857781E-02	4.87077642960E-02	-4.42511293802E-02	2.64180388277E-01	1.90358051692E-02
1.65400000000E+09	-2.19818373929E-01	-7.64778808103E-02	4.65422563873E-02	-4.73095060938E-02	4.69413839530E-02	-4.63582437336E-02	2.61625232628E-01	7.23100143214E-03
1.65500000000E+09	-2.13724066296E-01	-7.36396923095E-02	4.46321060405E-02	-4.93370345623E-02	4.50797224907E-02	-4.84014932381E-02	2.58314606615E-01	-4.39465413191E-03
1.65600000000E+09	-2.07478342361E-01	-7.11340497134E-02	4.26285311395E-02	-5.12944006456E-02	4.31210438508E-02	-5.03799362322E-02	2.54269648127E-01	-1.58123049901E-02
1.65700000000E+09	-2.01120726231E-01	-6.89750302748E-02	4.05354283938E-02	-5.31794184363E-02	4.10715634157E-02	-5.22822347847E-02	2.49497493811E-01	-2.69528804869E-02
1.65800000000E+09	-1.94649108588E-01	-6.71823724105E-02	3.83520672184E-02	-5.49776432414E-02	3.89312766495E-02	-5.41084090588E-02	2.44012249049E-01	-3.77877200780E-02
1.65900000000E+09	-1.88092999811E-01	-6.57718097153E-02	3.60786533806E-02	-5.66945159271E-02	3.67009515479E-02	-5.58503023911E-02	2.37833875717E-01	-4.82751534705E-02
1.66000000000E+09	-1.81486335257E-01	-6.47485305005E-02	3.37232409243E-02	-5.83187773405E-02	3.43892396575E-02	-5.75024657357E-02	2.30988938353E-01	-5.83522477155E-02
1.66100000000E+09	-1.74852027370E-01	-6.41313237511E-02	3.12839475023E-02	-5.98511140233E-02	3.19895456746E-02	-5.90641426870E-02	2.23491614827E-01	-6.79851136598E-02
1.66200000000E+09	-1.68217217598E-01	-6.39280327728E-02	2.87684435569E-02	-6.12812416289E-02	2.95119966673E-02	-6.05266773037E-02	2.15374967748E-01	-7.71269819292E-02
1.66300000000E+09	-1.61619778670E-01	-6.41524762043E-02	2.61808857926E-02	-6.26059320873E-02	2.69590774827E-02	-6.18845315127E-02	2.06666148878E-01	-8.57392992166E-02
1.66400000000E+09	-1.55088304337E-01	-6.47984031662E-02	2.35244711489E-02	-6.38206244370E-02	2.43346473391E-02	-6.31346036532E-02	1.97409741770E-01	-9.37880636459E-02
1.66500000000E+09	-1.48656734735E-01	-6.58829637363E-02	2.08007803375E-02	-6.49196500025E-02	2.16441187800E-02	-6.42728764630E-02	1.87622585870E-01	-1.01218741486E-01
1.66600000000E+09	-1.42373237842E-01	-6.73923838537E-02	1.80163811739E-02	-6.59008602804E-02	1.88906522955E-02	-6.52919835221E-02	1.77349737256E-01	-1.08011262167E-01
1.66700000000E+09	-1.36270111104E-01	-6.93360946959E-02	1.51840684155E-02	-6.67599107595E-02	1.60817921820E-02	-6.61904610268E-02	1.66642498000E-01	-1.14129933353E-01
1.66800000000E+09	-1.30388126655E-01	-7.16900382361E-02	1.22965319387E-02	-6.74888778279E-02	1.32234723620E-02	-6.69628239743E-02	1.55532745382E-01	-1.19533648329E-01
1.66900000000E+09	-1.24763501961E-01	-7.44616631003E-02	9.36892616098E-03	-6.80885830199E-02	1.03169857706E-02	-6.76028067545E-02	1.44068441473E-01	-1.24203940274E-01
1.67000000000E+09	-1.19453233912E-01	-7.76252731544E-02	6.40481886216E-03	-6.85525218861E-02	7.37554205396E-03	-6.81115460970E-02	1.32299466336E-01	-1.28112183921E-01
1.67100000000E+09	-1.14491111344E-01	-8.11638045721E-02	3.41483400637E-03	-6.88805283871E-02	4.40537307504E-03	-6.84841962326E-02	1.20278793964E-01	-1.31241033130E-01
1.67200000000E+09	-1.09926788715E-01	-8.50473417127E-02	4.03859566587E-04	-6.90688820492E-02	1.41033365423E-03	-6.87165228516E-02	1.08049234937E-01	-1.33557287734E-01
1.67300000000E+09	-1.05801858354E-01	-8.92386119845E-02	-2.61863600836E-03	-6.91173333309E-02	-1.59677609594E-03	-6.88088555021E-02	9.56737247226E-02	-1.35062470327E-01
1.67400000000E+09	-1.02153449994E-01	-9.37092295021E-02	-5.64732296472E-03	-6.90240913694E-02	-4.61288300882E-03	-6.87613167300E-02	8.32061652077E-02	-1.35732478739E-01
1.67500000000E+09	-9.90220780464E-02	-9.83993672313E-02	-8.67289028642E-03	-6.87867657811E-02	-7.62195667237E-03	-6.85713279614E-02	7.06997673954E-02	-1.35565378450E-01
1.67600000000E+09	-9.64415224264E-02	-1.03258934122E-01	-1.16815374142E-02	-6.84085370501E-02	-1.06291151413E-02	-6.82429963959E-02	5.82104241611E-02	-1.34557978368E-01
1.67700000000E+09	-9.44400523935E-02	-1.08234272654E-01	-1.46799424745E-02	-6.78886528682E-02	-1.36151767772E-02	-6.77679143685E-02	4.57975040441E-02	-1.32702342238E-01
1.67800000000E+09	-9.30357287107E-02	-1.13245252344E-01	-1.76481169703E-02	-6.72326585310E-02	-1.65825932546E-02	-6.71581470696E-02	3.35221625850E-02	-1.30012740500E-01
1.67900000000E+09	-9.22356055751E-02	-1.18232525517E-01	-2.05829099909E-02	-6.64410460778E-02	-1.95115176988E-02	-6.64148523233E-02	2.14377766397E-02	-1.26490884973E-01
1.68000000000E+09	-9.20518371640E-02	-1.23117841432E-01	-2.34719623393E-02	-6.55133465421E-02	-2.24040217011E-02	-6.55314495883E-02	9.59951536582E-03	-1.22155049454E-01
1.68100000000E+09	-9.24709694917E-02	-1.27821029263E-01	-2.63189421230E-02	-6.44524266762E-02	-2.52474512642E-02	-6.45179934082E-02	-1.93068456444E-03	-1.17014228305E-01
1.68200000000E+09	-9.34681817819E-02	-1.32267816470E-01	-2.91062293356E-02	-6.32669557153E-02	-2.80431261114E-02	-6.33809666722E-02	-1.31007304013E-02	-1.11096279759E-01
1.68300000000E+09	-9.50219478882E-02	-1.36380685928E-01	-3.18408400852E-02	-6.19552928841E-02	-3.07783527226E-02	-6.21189582276E-02	-2.38528560012E-02	-1.04424702962E-01
1.68400000000E+09	-9.70865274667E-02	-1.40087089258E-01	-3.45045326481E-02	-6.05284376116E-02	-3.34488130983E-02	-6.07364588403E-02	-3.41435466868E-02	-9.70249415959E-02
1.68500000000E+09	-9.96024473176E-02	-1.43317022733E-01	-3.71004261225E-02	-5.89823122122E-02	-3.60548480404E-02	-5.92425248149E-02	-4.39130021499E-02	-8.89351533766E-02
1.68600000000E+09	-1.02493636663E-01	-1.46012374949E-01	-3.96182491115E-02	-5.73276147266E-02	-3.85884443845E-02	-5.76310043749E-02	-5.31166576707E-02	-8.01892407941E-02
1.68700000000E+09	-1.05712052628E-01	-1.48133031429E-01	-4.20649585999E-02	-5.55635495288E-02	-4.10455275779E-02	-5.59159691497E-02	-6.17090708935E-02	-7.08327602701E-02
1.68800000000E+09	-1.09158592792E-01	-1.49627287384E-01	-4.44252764131E-02	-5.36983377552E-02	-4.34210060777E-02	-5.40923781551E-02	-6.96554276477E-02	-6.08996349388E-02
1.68900000000E+09	-1.12754424703E-01	-1.50478101456E-01	-4.66976777538E-02	-5.17340216886E-02	-4.57167117453E-02	-5.21790646656E-02	-7.69103725813E-02	-5.04531397484E-02
1.69000000000E+09	-1.16406708463E-01	-1.50658987420E-01	-4.88849656223E-02	-4.96740654622E-02	-4.79197699067E-02	-5.01603316501E-02	-8.34435667483E-02	-3.95216502760E-02
1.69100000000E+09	-1.20019942483E-01	-1.50184485635E-01	-5.09766796441E-02	-4.75268498086E-02	-5.00350040713E-02	-4.80544846938E-02	-8.92180934199E-02	-2.81704885271E-02
1.69200000000E+09	-1.23503648149E-01	-1.49054627839E-01	-5.29725853211E-02	-4.52888619583E-02	-5.20578472792E-02	-4.58563056910E-02	-9.42194958232E-02	-1.64502687686E-02
1.69300000000E+09	-1.26765742543E-01	-1.47314631403E-01	-5.48687640610E-02	-4.29681961433E-02	-5.39825166281E-02	-4.35741648337E-02	-9.84105973290E-02	-4.41805508062E-03
1.69400000000E+09	-1.29731565217E-01	-1.44994243351E-01	-5.66622190760E-02	-4.05695425026E-02	-5.58020016702E-02	-4.12110733275E-02	-1.01786216154E-01	7.86500630108E-03
1.69500000000E+09	-1.32324503188E-01	-1.42144804255E-01	-5.83506913632E-02	-3.80896537243E-02	-5.75184242140E-02	-3.87768106764E-02	-1.04323040022E-01	2.03493733453E-02
1.69600000000E+09	-1.34485272482E-01	-1.38847634379E-01	-5.99231843500E-02	-3.55473904509E-02	-5.91254421119E-02	-3.62686512833E-02	-1.06010499696E-01	3.29663108025E-02
1.69700000000E+09	-1.36168052491E-01	-1.35148961957E-01	-6.13883194743E-02	-3.29359845157E-02	-6.06185494917E-02	-3.36872111216E-02	-1.06855494416E-01	4.56634278110E-02
1.69800000000E+09	-1.37329941887E-01	-1.31128091137E-01	-6.27302103238E-02	-3.02648863214E-02	-6.20016182752E-02	-3.10504338697E-02	-1.06850012969E-01	5.83843184285E-02
1.69900000000E+09	-1.37935574803E-01	-1.26864576157E-01	-6.39575180950E-02	-2.75395718255E-02	-6.32633042068E-02	-2.83549039699E-02	-1.06000432633E-01	7.10656545634E-02
1.70000000000E+09	-1.37975309593E-01	-1.22425338459E-01	-6.50608358808E-02	-2.47620473649E-02	-6.44071519570E-02	-2.56070248088E-02	-1.04318448420E-01	8.36495329498E-02
1.70100000000E+09	-1.37439323679E-01	-1.17887794103E-01	-6.60403174069E-02	-2.19467998135E-02	-6.54228541834E-02	-2.28180465441E-02	-1.01797445278E-01	9.60878567656E-02
1.70200000000E+09	-1.36332360619E-01	-1.13331793267E-01	-6.68938226091E-02	-1.90871358296E-02	-6.63130045707E-02	-1.99851069079E-02	-9.84791322201E-02	1.08317971595E-01
1.70300000000E+09	-1.34664841799E-01	-1.08817708977E-01	-6.76226677114E-02	-1.62013803434E-02	-6.70832262347E-02	-1.71244265068E-02	-9.43703314904E-02	1.20286561722E-01
1.70400000000E+09	-1.32455737593E-01	-1.04417510988E-01	-6.82196046643E-02	-1.32949333676E-02	-6.77222633982E-02	-1.42332894560E-02	-8.94966939589E-02	1.31936006330E-01
1.70500000000E+09	-1.29734875298E-01	-1.00183718245E-01	-6.86922506255E-02	-1.03620694355E-02	-6.82324929124E-02	-1.13229391794E-02	-8.38799491065E-02	1.43237590550E-01
1.70600000000E+09	-1.26536300534E-01	-9.61745876648E-02	-6.90319737528E-02	-7.42207019476E-03	-6.86149558567E-02	-8.40039874393E-03	-7.75621644036E-02	1.54118271778E-01
1.70700000000E+09	-1.22897518676E-01	-9.24290137225E-02	-6.92433887442E-02	-4.47035293788E-03	-6.88738328002E-02	-5.46667437175E-03	-7.05697982804E-02	1.64559315222E-01
1.70800000000E+09	-1.18856886379E-01	-8.89960508415E-02	-6.93296479039E-02	-1.52055220826E-03	-6.89985559894E-02	-2.53118866531E-03	-6.29272644860E-02	1.74505925680E-01
1.70900000000E+09	-1.14461974596E-01	-8.59043769769E-02	-6.92882169474E-02	1.42167765589E-03	-6.90028790303E-02	4.00837195291E-04	-5.46832619372E-02	1.83924087533E-01
1.71000000000E+09	-1.09753679471E-01	-8.31778411783E-02	-6.91210475131E-02	4.35181821476E-03	-6.88775702908E-02	3.32237388862E-03	-4.58858863963E-02	1.92776167165E-01
1.71100000000E+09	-1.04774977314E-01	-8.08375903962E-02	-6.88269925637E-02	7.26772740655E-03	-6.86299776586E-02	6.22815586084E-03	-3.65608805350E-02	2.01027982782E-01
1.71200000000E+09	-9.95745247809E-02	-7.88987194034E-02	-6.84140651102E-02	1.01664260672E-02	-6.82590406193E-02	9.12103255963E-03	-2.67569097610E-02	2.08655345343E-01
1.71300000000E+09	-9.41870362729E-02	-7.73791362631E-02	-6.78773638149E-02	1.30335630226E-02	-6.77693879398E-02	1.19799577550E-02	-1.65168758899E-02	2.15636256928E-01
1.71400000000E+09	-8.86593700202E-02	-7.62783807592E-02	-6.72273931433E-02	1.58699629716E-02	-6.71626050252E-02	1.48139615183E-02	-5.89546125886E-03	2.21946268163E-01
1.71500000000E+09	-8.30309309156E-02	-7.55954800273E-02	-6.64563233352E-02	1.86750205166E-02	-6.64388022653E-02	1.76173582875E-02	5.06365923883E-03	2.27551066889E-01
1.71600000000E+09	-7.73410650370E-02	-7.53425680127E-02	-6.55701782828E-02	2.14386050498E-02	-6.55961954887E-02	2.03779472481E-02	1.63191321301E-02	2.32454448957E-01
1.71700000000E+09	-7.16245713203E-02	-7.55088468824E-02	-6.45748649894E-02	2.41574138191E-02	-6.46455703143E-02	2.31019952323E-02	2.78303428126E-02	2.36641163431E-01
