# Hz S RI R 50
! CMT, CMT808U, 21440046, 21.4.3/4
! Date: 11/12/2025 3:23:35 PM
! Data: Format (Calibration Info)
! Freq	S11:Re/Im(F2)	S41:Re/Im(F2)	S14:Re/Im(F2)	S44:Re/Im(F2)
1.70000000000E+09	-1.38116264102E-01	-1.18845761434E-01	-5.55907525175E-02	-3.48409509075E-02	-5.55792441593E-02	-3.48327933267E-02	-1.07899416303E-01	3.23748669421E-02
1.70050000000E+09	-1.37560206989E-01	-1.16487870327E-01	-5.63383263686E-02	-3.37174425133E-02	-5.63310491749E-02	-3.37271105786E-02	-1.08327909029E-01	3.80916759642E-02
1.70100000000E+09	-1.36842134956E-01	-1.14083258742E-01	-5.70560169290E-02	-3.25644304338E-02	-5.70517546392E-02	-3.25806633102E-02	-1.08533844641E-01	4.38138619041E-02
1.70150000000E+09	-1.35988534979E-01	-1.11727525400E-01	-5.77549882227E-02	-3.13946533077E-02	-5.77676409636E-02	-3.14127742220E-02	-1.08572208459E-01	4.95466922145E-02
1.70200000000E+09	-1.34941336058E-01	-1.09447128870E-01	-5.84508868018E-02	-3.02419909672E-02	-5.84488912153E-02	-3.02483897345E-02	-1.08397715590E-01	5.52747437752E-02
1.70250000000E+09	-1.33778274824E-01	-1.07133629467E-01	-5.91144348330E-02	-2.90414297804E-02	-5.91141983011E-02	-2.90499027667E-02	-1.08036732473E-01	6.09908003978E-02
1.70300000000E+09	-1.32476727536E-01	-1.04898295847E-01	-5.97689415319E-02	-2.78491473907E-02	-5.97750862466E-02	-2.78419589973E-02	-1.07511855144E-01	6.66896317439E-02
1.70350000000E+09	-1.31053478960E-01	-1.02705310819E-01	-6.03885088536E-02	-2.66122011197E-02	-6.04015491435E-02	-2.66196300978E-02	-1.06790952754E-01	7.23236694506E-02
1.70400000000E+09	-1.29439921999E-01	-1.00589450108E-01	-6.09860723015E-02	-2.53767893949E-02	-6.09934698527E-02	-2.53667582509E-02	-1.05836836803E-01	7.79519846023E-02
1.70450000000E+09	-1.27734664887E-01	-9.85442053800E-02	-6.15758092891E-02	-2.41272283360E-02	-6.15743651351E-02	-2.41233202036E-02	-1.04747164934E-01	8.35909294615E-02
1.70500000000E+09	-1.25917939307E-01	-9.65534046824E-02	-6.21263554333E-02	-2.28448227785E-02	-6.21367890196E-02	-2.28408673858E-02	-1.03451479638E-01	8.91304037321E-02
1.70550000000E+09	-1.23970955086E-01	-9.46754113157E-02	-6.26654234290E-02	-2.15482890600E-02	-6.26681562232E-02	-2.15384177623E-02	-1.02006757186E-01	9.46251146385E-02
1.70600000000E+09	-1.21939995502E-01	-9.28667179000E-02	-6.31729915820E-02	-2.02322589357E-02	-6.31632720033E-02	-2.02409835501E-02	-1.00327959341E-01	1.00091911733E-01
1.70650000000E+09	-1.19762978081E-01	-9.11326185760E-02	-6.36404486735E-02	-1.89235618340E-02	-6.36475047119E-02	-1.89223429679E-02	-9.84814827643E-02	1.05463924806E-01
1.70700000000E+09	-1.17546762706E-01	-8.95086382187E-02	-6.40923131264E-02	-1.75882609861E-02	-6.41165597994E-02	-1.75774484861E-02	-9.64710735052E-02	1.10792761832E-01
1.70750000000E+09	-1.15179425100E-01	-8.80122842910E-02	-6.45211923455E-02	-1.62248609019E-02	-6.45338145835E-02	-1.62255858480E-02	-9.43116605002E-02	1.16035545093E-01
1.70800000000E+09	-1.12753746879E-01	-8.65881792584E-02	-6.48941988662E-02	-1.48719998329E-02	-6.49154351256E-02	-1.48610433830E-02	-9.19572118069E-02	1.21199054282E-01
1.70850000000E+09	-1.10250752462E-01	-8.52996996311E-02	-6.52740646736E-02	-1.35041244419E-02	-6.52795544679E-02	-1.34845634898E-02	-8.94130130355E-02	1.26279917096E-01
1.70900000000E+09	-1.07691178786E-01	-8.40998916440E-02	-6.55925812893E-02	-1.20954586376E-02	-6.56062683214E-02	-1.21021380960E-02	-8.67588508386E-02	1.31258074914E-01
1.70950000000E+09	-1.05070187776E-01	-8.30306599444E-02	-6.59193938318E-02	-1.07119325621E-02	-6.59188768764E-02	-1.06833154803E-02	-8.39141794170E-02	1.36165919591E-01
1.71000000000E+09	-1.02384416698E-01	-8.20811876857E-02	-6.61880004900E-02	-9.28318721772E-03	-6.62026623775E-02	-9.30202778008E-03	-8.09169365410E-02	1.40924748893E-01
1.71050000000E+09	-9.96596280667E-02	-8.12401841660E-02	-6.64309105353E-02	-7.87175888384E-03	-6.64326056994E-02	-7.86349136540E-03	-7.77770651057E-02	1.45642414198E-01
1.71100000000E+09	-9.68982047076E-02	-8.05043252679E-02	-6.66391670702E-02	-6.44637375982E-03	-6.66431254286E-02	-6.43059324515E-03	-7.44645104124E-02	1.50209693212E-01
1.71150000000E+09	-9.40932272648E-02	-7.99062540066E-02	-6.68224336803E-02	-4.98792083974E-03	-6.68229496237E-02	-4.99662389648E-03	-7.10112650664E-02	1.54702661632E-01
1.71200000000E+09	-9.12785916777E-02	-7.94084741065E-02	-6.69744172911E-02	-3.54780430309E-03	-6.69768606528E-02	-3.55539387859E-03	-6.74344943827E-02	1.59017972611E-01
1.71250000000E+09	-8.84081986143E-02	-7.90609661293E-02	-6.70828976513E-02	-2.08835505203E-03	-6.70715138699E-02	-2.09115779581E-03	-6.37184892996E-02	1.63234997241E-01
1.71300000000E+09	-8.55667245072E-02	-7.88181515402E-02	-6.71553987085E-02	-6.54043998968E-04	-6.71733920483E-02	-6.38446170218E-04	-5.98727019719E-02	1.67336938244E-01
1.71350000000E+09	-8.26964212450E-02	-7.86772099774E-02	-6.72107154374E-02	8.12209701307E-04	-6.72114166765E-02	8.17031244471E-04	-5.59133597380E-02	1.71311037708E-01
1.71400000000E+09	-7.98009079529E-02	-7.86648458237E-02	-6.72060970311E-02	2.27415040662E-03	-6.72225604256E-02	2.28033724547E-03	-5.18328531660E-02	1.75139731501E-01
1.71450000000E+09	-7.69387128977E-02	-7.87535284251E-02	-6.72003840027E-02	3.74727638705E-03	-6.71950524846E-02	3.74880901752E-03	-4.75824410496E-02	1.78818698438E-01
1.71500000000E+09	-7.40674991482E-02	-7.89715332690E-02	-6.71393998540E-02	5.20974536111E-03	-6.71395764836E-02	5.22676933511E-03	-4.32645568302E-02	1.82398785045E-01
1.71550000000E+09	-7.12197265274E-02	-7.92792713210E-02	-6.70536017968E-02	6.68016667083E-03	-6.70728383419E-02	6.69382538394E-03	-3.88016063157E-02	1.85779017275E-01
1.71600000000E+09	-6.84041903411E-02	-7.97184125027E-02	-6.69203502958E-02	8.14815533522E-03	-6.69405263565E-02	8.15196162128E-03	-3.43002081836E-02	1.89050252244E-01
1.71650000000E+09	-6.55962701176E-02	-8.02312990906E-02	-6.67712074353E-02	9.60926099565E-03	-6.67790414289E-02	9.62292750018E-03	-2.96409103459E-02	1.92149706559E-01
1.71700000000E+09	-6.28108490291E-02	-8.08804203796E-02	-6.65701305333E-02	1.10784316763E-02	-6.65763988587E-02	1.10788546163E-02	-2.48924021512E-02	1.95099800033E-01
1.71750000000E+09	-6.00639172506E-02	-8.16098583744E-02	-6.63333237681E-02	1.25344088677E-02	-6.63455814898E-02	1.25438650887E-02	-2.00598092711E-02	1.97916750019E-01
1.71800000000E+09	-5.73164085460E-02	-8.24606879818E-02	-6.60670064137E-02	1.39925054027E-02	-6.60771038370E-02	1.39976152502E-02	-1.51723169376E-02	2.00534215637E-01
1.71850000000E+09	-5.46494470604E-02	-8.33916766363E-02	-6.57693493128E-02	1.54403554589E-02	-6.57942997116E-02	1.54613495131E-02	-1.01983667511E-02	2.03029714841E-01
1.71900000000E+09	-5.20400581790E-02	-8.44317874110E-02	-6.54589444447E-02	1.69022894321E-02	-6.54557242683E-02	1.69014760677E-02	-5.12400744007E-03	2.05330661193E-01
1.71950000000E+09	-4.94555292699E-02	-8.55277335252E-02	-6.50794820696E-02	1.83333397004E-02	-6.50830823331E-02	1.83375195197E-02	-2.92403770663E-05	2.07456478878E-01
1.72000000000E+09	-4.69082635557E-02	-8.67416666219E-02	-6.46933340589E-02	1.97602002222E-02	-6.46939439298E-02	1.97650119142E-02	5.14845276528E-03	2.09472684482E-01
1.72050000000E+09	-4.44070990646E-02	-8.80125274827E-02	-6.42466349521E-02	2.11806540246E-02	-6.42357331060E-02	2.11785044555E-02	1.04042724811E-02	2.11258624077E-01
1.72100000000E+09	-4.19785989261E-02	-8.94097890944E-02	-6.38057927741E-02	2.25831959829E-02	-6.37857326443E-02	2.25919838137E-02	1.56921237871E-02	2.12916645990E-01
1.72150000000E+09	-3.95960258928E-02	-9.08302600306E-02	-6.32861874849E-02	2.39870749575E-02	-6.32971147688E-02	2.39944543933E-02	2.10266634785E-02	2.14405598827E-01
1.72200000000E+09	-3.72804771176E-02	-9.23330297895E-02	-6.27583320049E-02	2.53790546375E-02	-6.27831702734E-02	2.53914282850E-02	2.64265754967E-02	2.15736993673E-01
1.72250000000E+09	-3.50341020629E-02	-9.39335340370E-02	-6.21826710645E-02	2.67539777112E-02	-6.21882796828E-02	2.67597831413E-02	3.18455615102E-02	2.16846176879E-01
1.72300000000E+09	-3.28481128607E-02	-9.55906848802E-02	-6.15961819775E-02	2.80941010487E-02	-6.15922946195E-02	2.81153471746E-02	3.72474444799E-02	2.17803807937E-01
1.72350000000E+09	-3.06933250657E-02	-9.73071458167E-02	-6.09584222957E-02	2.94396771283E-02	-6.09713336942E-02	2.94641153854E-02	4.27412087016E-02	2.18591040871E-01
1.72400000000E+09	-2.86564877902E-02	-9.90997668236E-02	-6.02907840006E-02	3.07849319998E-02	-6.03121410870E-02	3.07898646072E-02	4.82015835152E-02	2.19230218307E-01
1.72450000000E+09	-2.66626699217E-02	-1.00957047940E-01	-5.96234205868E-02	3.21035298036E-02	-5.96171222433E-02	3.21168551882E-02	5.37351485381E-02	2.19671905097E-01
1.72500000000E+09	-2.47253028467E-02	-1.02843968991E-01	-5.88996118316E-02	3.33899570283E-02	-5.88995245546E-02	3.34164271911E-02	5.92072614350E-02	2.19934226618E-01
1.72550000000E+09	-2.28826614852E-02	-1.04773626464E-01	-5.81381664331E-02	3.46827130611E-02	-5.81473053399E-02	3.46891584525E-02	6.47190617945E-02	2.20017060763E-01
1.72600000000E+09	-2.10878187784E-02	-1.06775863392E-01	-5.73660433405E-02	3.59533577387E-02	-5.73697357080E-02	3.59523652161E-02	7.01909595684E-02	2.19948917270E-01
1.72650000000E+09	-1.94077755296E-02	-1.08823923793E-01	-5.65626591312E-02	3.71964317773E-02	-5.65593039256E-02	3.72007825209E-02	7.56967423402E-02	2.19716985794E-01
1.72700000000E+09	-1.77579681364E-02	-1.10913894345E-01	-5.57230355631E-02	3.83992245026E-02	-5.57238409573E-02	3.84326695639E-02	8.12043386743E-02	2.19259718611E-01
1.72750000000E+09	-1.61997470208E-02	-1.13046556719E-01	-5.48539505240E-02	3.96311159277E-02	-5.48562662486E-02	3.96367938091E-02	8.66524239993E-02	2.18685428694E-01
1.72800000000E+09	-1.47026742866E-02	-1.15199056665E-01	-5.39650976057E-02	4.08049387385E-02	-5.39697853471E-02	4.08227959208E-02	9.21080864664E-02	2.17929590052E-01
1.72850000000E+09	-1.33121207730E-02	-1.17414534343E-01	-5.30486460286E-02	4.19657028079E-02	-5.30618850392E-02	4.19793217411E-02	9.74885080971E-02	2.16977723546E-01
1.72900000000E+09	-1.19583851895E-02	-1.19642240205E-01	-5.21036634710E-02	4.31206808470E-02	-5.21079154079E-02	4.31139802176E-02	1.02883147905E-01	2.15867523116E-01
1.72950000000E+09	-1.06773696410E-02	-1.21887599313E-01	-5.11456393795E-02	4.42324514624E-02	-5.11372788992E-02	4.42498165586E-02	1.08242206443E-01	2.14587503456E-01
1.73000000000E+09	-9.51315428936E-03	-1.24185824839E-01	-5.01358384702E-02	4.53118516010E-02	-5.01460480493E-02	4.53232186687E-02	1.13459468058E-01	2.13143465767E-01
1.73050000000E+09	-8.39324507990E-03	-1.26473692508E-01	-4.91258562190E-02	4.63857149763E-02	-4.91204156690E-02	4.63979661687E-02	1.18748958115E-01	2.11583739790E-01
1.73100000000E+09	-7.34060677863E-03	-1.28822089051E-01	-4.80784584871E-02	4.74326455449E-02	-4.80833585605E-02	4.74419476184E-02	1.23933611837E-01	2.09807900815E-01
1.73150000000E+09	-6.39136274735E-03	-1.31156681426E-01	-4.70112230869E-02	4.84699510233E-02	-4.70158122133E-02	4.84673868485E-02	1.29076300495E-01	2.07884853237E-01
1.73200000000E+09	-5.49329623894E-03	-1.33520976720E-01	-4.59308220163E-02	4.94551950637E-02	-4.59304850517E-02	4.94684193319E-02	1.34113734300E-01	2.05801608926E-01
1.73250000000E+09	-4.67617187646E-03	-1.35909643638E-01	-4.48203089693E-02	5.04298475423E-02	-4.48080892989E-02	5.04349938785E-02	1.39128924217E-01	2.03544867895E-01
1.73300000000E+09	-3.95644035464E-03	-1.38293771177E-01	-4.36783801939E-02	5.13749938074E-02	-4.36918219308E-02	5.13721237096E-02	1.44009068856E-01	2.01211457189E-01
1.73350000000E+09	-3.28428917393E-03	-1.40714780226E-01	-4.25217826505E-02	5.22932829694E-02	-4.25356961746E-02	5.22932399793E-02	1.48871570703E-01	1.98669288089E-01
1.73400000000E+09	-2.67696273752E-03	-1.43124144926E-01	-4.13551934071E-02	5.31779067536E-02	-4.13745822728E-02	5.31861550994E-02	1.53646698100E-01	1.95966804443E-01
1.73450000000E+09	-2.17284633022E-03	-1.45535431454E-01	-4.01991702758E-02	5.40402885770E-02	-4.01705016079E-02	5.40313806023E-02	1.58312370331E-01	1.93118579287E-01
1.73500000000E+09	-1.74041407126E-03	-1.47973938343E-01	-3.89870661511E-02	5.48554069926E-02	-3.89807874224E-02	5.48683043007E-02	1.62879982099E-01	1.90137616381E-01
1.73550000000E+09	-1.36177722800E-03	-1.50387385365E-01	-3.77539383509E-02	5.56690138673E-02	-3.77650749728E-02	5.56845778081E-02	1.67404716762E-01	1.87014370156E-01
1.73600000000E+09	-1.07454922433E-03	-1.52818653080E-01	-3.65277114882E-02	5.64409547961E-02	-3.65139378642E-02	5.64474200215E-02	1.71759637734E-01	1.83769256141E-01
1.73650000000E+09	-8.57681008125E-04	-1.55225397293E-01	-3.52684800589E-02	5.71931281188E-02	-3.52611148382E-02	5.71986040460E-02	1.76082153833E-01	1.80402189503E-01
1.73700000000E+09	-6.71724844204E-04	-1.57668846765E-01	-3.40048296734E-02	5.78922534781E-02	-3.40004304377E-02	5.79033916945E-02	1.80217965313E-01	1.76862844182E-01
1.73750000000E+09	-6.17557283617E-04	-1.60068358655E-01	-3.27135927446E-02	5.85994361412E-02	-3.27142346241E-02	5.85945690336E-02	1.84311238822E-01	1.73258839188E-01
1.73800000000E+09	-6.14804378610E-04	-1.62478705141E-01	-3.14043830777E-02	5.92460411045E-02	-3.14302347797E-02	5.92457146068E-02	1.88230127679E-01	1.69428593569E-01
1.73850000000E+09	-6.81677388426E-04	-1.64865896792E-01	-3.01147113763E-02	5.98766210952E-02	-3.01238878959E-02	5.98762086803E-02	1.92088063644E-01	1.65555753768E-01
1.73900000000E+09	-8.13425367697E-04	-1.67260702474E-01	-2.87859745170E-02	6.04659970084E-02	-2.87935706184E-02	6.04597232498E-02	1.95787796931E-01	1.61528386953E-01
1.73950000000E+09	-9.80953062414E-04	-1.69639654086E-01	-2.74517713073E-02	6.10282571678E-02	-2.74607687001E-02	6.10397020919E-02	1.99388746003E-01	1.57419244442E-01
1.74000000000E+09	-1.28734923266E-03	-1.72041175908E-01	-2.61348758373E-02	6.15551934754E-02	-2.61082499008E-02	6.15670731155E-02	2.02869151156E-01	1.53188145698E-01
1.74050000000E+09	-1.64920918016E-03	-1.74383911512E-01	-2.47721780125E-02	6.20526428698E-02	-2.47686482275E-02	6.20619274392E-02	2.06166925100E-01	1.48857792092E-01
1.74100000000E+09	-2.07595452609E-03	-1.76698680581E-01	-2.34123511934E-02	6.25356149520E-02	-2.33981688631E-02	6.25364373289E-02	2.09371736918E-01	1.44389336420E-01
1.74150000000E+09	-2.57327641977E-03	-1.78999609371E-01	-2.20381237660E-02	6.29605583414E-02	-2.20425818698E-02	6.29598038684E-02	2.12393168370E-01	1.39860650097E-01
1.74200000000E+09	-3.11259251257E-03	-1.81317897454E-01	-2.06520759603E-02	6.33612863244E-02	-2.06702420619E-02	6.33829707463E-02	2.15309229335E-01	1.35247642426E-01
1.74250000000E+09	-3.76822010286E-03	-1.83584302829E-01	-1.92771580631E-02	6.37644933989E-02	-1.92748354539E-02	6.37505682924E-02	2.18092254102E-01	1.30503266548E-01
1.74300000000E+09	-4.45178568691E-03	-1.85848646980E-01	-1.78910358205E-02	6.40904810043E-02	-1.79021627884E-02	6.41042559281E-02	2.20713939556E-01	1.25675083371E-01
1.74350000000E+09	-5.24919572926E-03	-1.88068487353E-01	-1.65001541440E-02	6.43976096704E-02	-1.65129052255E-02	6.44018477340E-02	2.23178824618E-01	1.20802213116E-01
1.74400000000E+09	-6.09090678136E-03	-1.90240676677E-01	-1.51151327118E-02	6.46840663019E-02	-1.51131067691E-02	6.46951969593E-02	2.25479582730E-01	1.15840919277E-01
1.74450000000E+09	-6.98630182590E-03	-1.92420340973E-01	-1.37170454064E-02	6.49431492463E-02	-1.37169229284E-02	6.49317857393E-02	2.27669415883E-01	1.10796867873E-01
1.74500000000E+09	-7.96822224928E-03	-1.94548715806E-01	-1.23117614798E-02	6.51491820044E-02	-1.23224441579E-02	6.51411345381E-02	2.29686780635E-01	1.05701467682E-01
1.74550000000E+09	-9.05148305119E-03	-1.96645291309E-01	-1.09139620487E-02	6.53306874503E-02	-1.09211914177E-02	6.53400762134E-02	2.31513465069E-01	1.00550113577E-01
1.74600000000E+09	-1.01672615888E-02	-1.98710268146E-01	-9.51255102221E-03	6.54912544635E-02	-9.51158226464E-03	6.54957707153E-02	2.33240288227E-01	9.53132269996E-02
1.74650000000E+09	-1.13779540894E-02	-2.00723319085E-01	-8.10140856955E-03	6.56235755634E-02	-8.12481298928E-03	6.56194414827E-02	2.34752668606E-01	9.00531143925E-02
1.74700000000E+09	-1.26463488293E-02	-2.02698598711E-01	-6.71764800137E-03	6.57017236142E-02	-6.71349780352E-03	6.57072335949E-02	2.36087916966E-01	8.47061453118E-02
1.74750000000E+09	-1.39569901509E-02	-2.04608659918E-01	-5.31899390572E-03	6.57659420850E-02	-5.31963179649E-03	6.57756836251E-02	2.37312448428E-01	7.93614054120E-02
1.74800000000E+09	-1.53572708115E-02	-2.06514221451E-01	-3.92804741370E-03	6.57773406500E-02	-3.92954757684E-03	6.57958109706E-02	2.38336856745E-01	7.39159702809E-02
1.74850000000E+09	-1.68360392004E-02	-2.08304930395E-01	-2.54074900083E-03	6.58045224211E-02	-2.53050779281E-03	6.57849841919E-02	2.39185436714E-01	6.84995477987E-02
1.74900000000E+09	-1.83700660712E-02	-2.10094747384E-01	-1.14924521456E-03	6.57671580968E-02	-1.14641030303E-03	6.57755058217E-02	2.39910137307E-01	6.30355002527E-02
1.74950000000E+09	-1.99661955671E-02	-2.11795735200E-01	2.23840043127E-04	6.57021238493E-02	2.10045873412E-04	6.57041888258E-02	2.40398632976E-01	5.75526302124E-02
1.75000000000E+09	-2.16447187932E-02	-2.13446935053E-01	1.61065206562E-03	6.56095234145E-02	1.60575926946E-03	6.56151743449E-02	2.40778426056E-01	5.20350224523E-02
1.75050000000E+09	-2.33640938152E-02	-2.15047200766E-01	2.95831449377E-03	6.54884590709E-02	2.97750002568E-03	6.54864651796E-02	2.40950317161E-01	4.65329476327E-02
1.75100000000E+09	-2.51202912360E-02	-2.16598434042E-01	4.33710996883E-03	6.53481481679E-02	4.34413537604E-03	6.53433483049E-02	2.40951208547E-01	4.09880591215E-02
1.75150000000E+09	-2.69839369372E-02	-2.18035137672E-01	5.68513024447E-03	6.51629795505E-02	5.69401988142E-03	6.51683455062E-02	2.40802920208E-01	3.54962994121E-02
1.75200000000E+09	-2.89119584770E-02	-2.19409990470E-01	7.05161030253E-03	6.49651245642E-02	7.04131654314E-03	6.49703288538E-02	2.40462456986E-01	2.99360580610E-02
1.75250000000E+09	-3.08648220625E-02	-2.20721920128E-01	8.36583812236E-03	6.47396024354E-02	8.38175639289E-03	6.47342562942E-02	2.39958743534E-01	2.44400038902E-02
1.75300000000E+09	-3.28704340305E-02	-2.21916442197E-01	9.71092691583E-03	6.44685807077E-02	9.70652788536E-03	6.44845696110E-02	2.39270291566E-01	1.89524326793E-02
1.75350000000E+09	-3.49346371152E-02	-2.23066162177E-01	1.10242790856E-02	6.41963909675E-02	1.10184510212E-02	6.41846641196E-02	2.38395147804E-01	1.34603144293E-02
1.75400000000E+09	-3.70567935942E-02	-2.24095814503E-01	1.23260314999E-02	6.38856535620E-02	1.23161009396E-02	6.38840415567E-02	2.37343272585E-01	8.02580199523E-03
1.75450000000E+09	-3.92132863987E-02	-2.25050982787E-01	1.36200214261E-02	6.35333443441E-02	1.36322731504E-02	6.35446005624E-02	2.36164173002E-01	2.57837138249E-03
1.75500000000E+09	-4.14234241274E-02	-2.25910828767E-01	1.49166362652E-02	6.31839944548E-02	1.49269575742E-02	6.31756478457E-02	2.34820531192E-01	-2.81847776984E-03
1.75550000000E+09	-4.36490411531E-02	-2.26654056351E-01	1.61834578730E-02	6.27839721928E-02	1.61897108768E-02	6.27929135282E-02	2.33250545865E-01	-8.17108415476E-03
1.75600000000E+09	-4.59009782983E-02	-2.27330223256E-01	1.74311105764E-02	6.23859475798E-02	1.74450233251E-02	6.24020574156E-02	2.31553203033E-01	-1.34721919164E-02
1.75650000000E+09	-4.82077403986E-02	-2.27866545568E-01	1.86871002730E-02	6.19527913214E-02	1.86891500119E-02	6.19529355377E-02	2.29682260896E-01	-1.87250378237E-02
1.75700000000E+09	-5.05246783178E-02	-2.28305020627E-01	1.99333993590E-02	6.14980481601E-02	1.99283845199E-02	6.15014973203E-02	2.27643754528E-01	-2.38852413575E-02
1.75750000000E+09	-5.28659598049E-02	-2.28644933412E-01	2.11446313348E-02	6.10311312274E-02	2.11359598361E-02	6.10201124878E-02	2.25399263661E-01	-2.89975203907E-02
1.75800000000E+09	-5.52349070018E-02	-2.28883224847E-01	2.23465138534E-02	6.05204963273E-02	2.23425985760E-02	6.05294982530E-02	2.23040021436E-01	-3.40975790780E-02
1.75850000000E+09	-5.75872581396E-02	-2.28991726933E-01	2.35264085929E-02	6.00014723821E-02	2.35415919054E-02	6.00044955020E-02	2.20499447091E-01	-3.90816507413E-02
