# Hz S RI R 50
! CMT, CMT808U, 21440046, 21.4.3/4
! Date: 11/12/2025 10:35:26 AM
! Data: Format (Calibration Info)
! Freq	S11:Re/Im(F2)	S41:Re/Im(F2)	S14:Re/Im(F2)	S44:Re/Im(F2)
1.60000000000E+09	-2.87287527969E-01	-2.33274074364E-01	7.04583738166E-03	5.63740293642E-02	6.28987003255E-03	5.61801875227E-02	-3.02752271450E-02	-4.55200242757E-02
1.60100000000E+09	-2.82673613803E-01	-2.31506813367E-01	9.64790334559E-03	5.61343989553E-02	8.87946281695E-03	5.59743323961E-02	-3.71987479347E-02	-3.91740154627E-02
1.60200000000E+09	-2.78209034380E-01	-2.30239167513E-01	1.22385590409E-02	5.57648081866E-02	1.14619128485E-02	5.56341582950E-02	-4.36709649771E-02	-3.23582630730E-02
1.60300000000E+09	-2.73939631264E-01	-2.29444703538E-01	1.48137407009E-02	5.52535642213E-02	1.40305919694E-02	5.51601084110E-02	-4.96620147612E-02	-2.51158108647E-02
1.60400000000E+09	-2.69946186380E-01	-2.29107561014E-01	1.73598566421E-02	5.46095691816E-02	1.65683618668E-02	5.45490049876E-02	-5.51338878870E-02	-1.74723227096E-02
1.60500000000E+09	-2.66297352348E-01	-2.29177191520E-01	1.98677072159E-02	5.38317473702E-02	1.90733775764E-02	5.38041507575E-02	-6.00636768449E-02	-9.47067451078E-03
1.60600000000E+09	-2.63043028795E-01	-2.29613511899E-01	2.23286096545E-02	5.29287141874E-02	2.15334051064E-02	5.29389144276E-02	-6.44373910944E-02	-1.15820301109E-03
1.60700000000E+09	-2.60244307492E-01	-2.30340028920E-01	2.47359171827E-02	5.19009846387E-02	2.39390494592E-02	5.19468656132E-02	-6.82272054841E-02	7.43667633828E-03
1.60800000000E+09	-2.57938792470E-01	-2.31294181060E-01	2.70769855689E-02	5.07594428812E-02	2.62807088541E-02	5.08370287151E-02	-7.14179966857E-02	1.62661315120E-02
1.60900000000E+09	-2.56149937470E-01	-2.32391532443E-01	2.93495859184E-02	4.95042496814E-02	2.85609407366E-02	4.96189249606E-02	-7.39971806186E-02	2.52943140906E-02
1.61000000000E+09	-2.54897151818E-01	-2.33552656534E-01	3.15464105931E-02	4.81452365510E-02	3.07620582930E-02	4.82947487909E-02	-7.59450116842E-02	3.44662068679E-02
1.61100000000E+09	-2.54172913982E-01	-2.34701543809E-01	3.36660034749E-02	4.66979935239E-02	3.28870053269E-02	4.68753224128E-02	-7.72677023026E-02	4.37481225000E-02
1.61200000000E+09	-2.53972918871E-01	-2.35753020106E-01	3.57020184740E-02	4.51565189042E-02	3.49316485521E-02	4.53690073701E-02	-7.79517775615E-02	5.30940596038E-02
1.61300000000E+09	-2.54257818252E-01	-2.36624288582E-01	3.76511198535E-02	4.35334485462E-02	3.68907806849E-02	4.37792675000E-02	-7.79963525570E-02	6.24558011752E-02
1.61400000000E+09	-2.54995417717E-01	-2.37246363789E-01	3.95173324052E-02	4.18360456838E-02	3.87678870628E-02	4.21144692860E-02	-7.74035231321E-02	7.17910505961E-02
1.61500000000E+09	-2.56122188364E-01	-2.37568154394E-01	4.12948460928E-02	4.00715718760E-02	4.05576098213E-02	4.03812547234E-02	-7.61752541873E-02	8.10579056032E-02
1.61600000000E+09	-2.57600067544E-01	-2.37537001653E-01	4.29838299764E-02	3.82465874947E-02	4.22615604448E-02	3.85838395089E-02	-7.43297331602E-02	9.02073809217E-02
1.61700000000E+09	-2.59356220912E-01	-2.37104858647E-01	4.45926605337E-02	3.63599624190E-02	4.38824652504E-02	3.67288161279E-02	-7.18627336297E-02	9.92097297053E-02
1.61800000000E+09	-2.61311449141E-01	-2.36260188645E-01	4.61121007726E-02	3.44215647804E-02	4.54164125491E-02	3.48180102317E-02	-6.87971598738E-02	1.08012243120E-01
1.61900000000E+09	-2.63415839868E-01	-2.34981210053E-01	4.75484207432E-02	3.24331048690E-02	4.68729323665E-02	3.28580624148E-02	-6.51489366523E-02	1.16574116366E-01
1.62000000000E+09	-2.65600610866E-01	-2.33261939899E-01	4.89043771944E-02	3.03988441208E-02	4.82446698521E-02	3.08471189281E-02	-6.09292364033E-02	1.24869038965E-01
1.62100000000E+09	-2.67800456516E-01	-2.31110659932E-01	5.01755848750E-02	2.83151734472E-02	4.95322673791E-02	2.87905902398E-02	-5.61689912297E-02	1.32842523277E-01
1.62200000000E+09	-2.69949293176E-01	-2.28552865966E-01	5.13663066894E-02	2.61865760541E-02	5.07424660196E-02	2.66877401259E-02	-5.08870622002E-02	1.40468076643E-01
1.62300000000E+09	-2.72011703802E-01	-2.25593157083E-01	5.24718141534E-02	2.40163440439E-02	5.18692447286E-02	2.45458727447E-02	-4.51101198926E-02	1.47723388790E-01
1.62400000000E+09	-2.73941331049E-01	-2.22267308593E-01	5.34944957325E-02	2.18050786458E-02	5.29109587582E-02	2.23622535172E-02	-3.88674934690E-02	1.54558733136E-01
1.62500000000E+09	-2.75689716704E-01	-2.18600159338E-01	5.44355572989E-02	1.95548170422E-02	5.38713638745E-02	2.01359440665E-02	-3.21900977458E-02	1.60957352305E-01
1.62600000000E+09	-2.77226741049E-01	-2.14637027926E-01	5.52843375871E-02	1.72654512407E-02	5.47430989774E-02	1.78699054708E-02	-2.51083217988E-02	1.66881643229E-01
1.62700000000E+09	-2.78536070615E-01	-2.10395809937E-01	5.60445903299E-02	1.49428459491E-02	5.55271378007E-02	1.55704036481E-02	-1.76549741601E-02	1.72312715896E-01
1.62800000000E+09	-2.79585999358E-01	-2.05930508899E-01	5.67207015110E-02	1.25844295506E-02	5.62224240246E-02	1.32329050443E-02	-9.86305152323E-03	1.77235824696E-01
1.62900000000E+09	-2.80366226018E-01	-2.01259500923E-01	5.73007248348E-02	1.01901974147E-02	5.68232047333E-02	1.08640766259E-02	-1.77335214054E-03	1.81626219936E-01
1.63000000000E+09	-2.80872456132E-01	-1.96420848951E-01	5.77839431260E-02	7.77078120893E-03	5.73342177994E-02	8.46667330677E-03	6.58307373650E-03	1.85464214680E-01
1.63100000000E+09	-2.81097892364E-01	-1.91452995527E-01	5.81697874295E-02	5.32699630971E-03	5.77459036485E-02	6.04514687368E-03	1.51626085382E-02	1.88733258192E-01
1.63200000000E+09	-2.81035237100E-01	-1.86377003482E-01	5.84551020388E-02	2.85653040758E-03	5.80612484553E-02	3.59790964250E-03	2.39326388031E-02	1.91434939497E-01
1.63300000000E+09	-2.80682340759E-01	-1.81228365008E-01	5.86416474255E-02	3.72605309637E-04	5.82767433415E-02	1.13338375311E-03	3.28522913726E-02	1.93546540669E-01
1.63400000000E+09	-2.80047816016E-01	-1.76022608410E-01	5.87213473155E-02	-2.12734653453E-03	5.83844164298E-02	-1.34911163327E-03	4.18872708236E-02	1.95070339289E-01
1.63500000000E+09	-2.79139853539E-01	-1.70788678706E-01	5.86982450369E-02	-4.63871342689E-03	5.83942621636E-02	-3.83925594750E-03	5.09833463695E-02	1.95997653654E-01
1.63600000000E+09	-2.77962725905E-01	-1.65549337518E-01	5.85683522254E-02	-7.15605038713E-03	5.83001089891E-02	-6.33633607295E-03	6.01213147282E-02	1.96331804124E-01
1.63700000000E+09	-2.76516241028E-01	-1.60313617607E-01	5.83319156697E-02	-9.66723521799E-03	5.80955597978E-02	-8.83371678416E-03	6.92557139617E-02	1.96064926276E-01
1.63800000000E+09	-2.74807110643E-01	-1.55107776046E-01	5.79889971475E-02	-1.21764565055E-02	5.77897804580E-02	-1.13286674909E-02	7.83509723004E-02	1.95211289936E-01
1.63900000000E+09	-2.72852909775E-01	-1.49934423600E-01	5.75407467462E-02	-1.46775727492E-02	5.73719744517E-02	-1.38170163874E-02	8.73663266089E-02	1.93774292967E-01
1.64000000000E+09	-2.70641073245E-01	-1.44814905299E-01	5.69792592608E-02	-1.71638567611E-02	5.68551027717E-02	-1.62873696135E-02	9.62619718585E-02	1.91757410596E-01
1.64100000000E+09	-2.68192888233E-01	-1.39761237097E-01	5.63126101183E-02	-1.96292735195E-02	5.62233050772E-02	-1.87457341754E-02	1.05010332932E-01	1.89169181616E-01
1.64200000000E+09	-2.65507668445E-01	-1.34774209320E-01	5.55454101693E-02	-2.20756965597E-02	5.54919904823E-02	-2.11793558620E-02	1.13566850008E-01	1.86030076997E-01
1.64300000000E+09	-2.62588159092E-01	-1.29884365780E-01	5.46632438255E-02	-2.44894655390E-02	5.46548367647E-02	-2.35870071430E-02	1.21906660276E-01	1.82348870211E-01
1.64400000000E+09	-2.59446745452E-01	-1.25095083554E-01	5.36815398148E-02	-2.68728351191E-02	5.37154917907E-02	-2.59649003172E-02	1.29994565650E-01	1.78138317020E-01
1.64500000000E+09	-2.56077701616E-01	-1.20405762151E-01	5.25978404551E-02	-2.92162616010E-02	5.26712051516E-02	-2.83063229186E-02	1.37793614377E-01	1.73434394486E-01
1.64600000000E+09	-2.52488358152E-01	-1.15830368954E-01	5.14127760227E-02	-3.15232046587E-02	5.15273460828E-02	-3.06119919428E-02	1.45281175686E-01	1.68233289093E-01
1.64700000000E+09	-2.48676909606E-01	-1.11385133239E-01	5.01243524095E-02	-3.37836044962E-02	5.02845790832E-02	-3.28703188966E-02	1.52424032698E-01	1.62565876005E-01
1.64800000000E+09	-2.44640679779E-01	-1.07083938150E-01	4.87378685134E-02	-3.59921044509E-02	4.89438199020E-02	-3.50812649829E-02	1.59190186083E-01	1.56461631754E-01
1.64900000000E+09	-2.40391615229E-01	-1.02943541362E-01	4.72573727718E-02	-3.81505849500E-02	4.75030177409E-02	-3.72436772552E-02	1.65555741150E-01	1.49941021519E-01
1.65000000000E+09	-2.35934843372E-01	-9.89706453625E-02	4.56774680522E-02	-4.02512402476E-02	4.59712211102E-02	-3.93516700565E-02	1.71501504972E-01	1.43029111984E-01
1.65100000000E+09	-2.31263012665E-01	-9.51954047135E-02	4.40066220437E-02	-4.22908763210E-02	4.43435339165E-02	-4.14027726170E-02	1.76998600333E-01	1.35757341063E-01
1.65200000000E+09	-2.26390600610E-01	-9.16209470086E-02	4.22412255490E-02	-4.42659836722E-02	4.26230228965E-02	-4.33890327537E-02	1.82023482420E-01	1.28148324491E-01
1.65300000000E+09	-2.21319707227E-01	-8.82762094735E-02	4.03867836810E-02	-4.61674390501E-02	4.08123717656E-02	-4.53065184804E-02	1.86569063704E-01	1.20238977575E-01
1.65400000000E+09	-2.16064844115E-01	-8.51672647773E-02	3.84409393931E-02	-4.80045956202E-02	3.89103886510E-02	-4.71549646699E-02	1.90607482907E-01	1.12051019072E-01
1.65500000000E+09	-2.10638009324E-01	-8.23217963645E-02	3.64115202300E-02	-4.97573674212E-02	3.69211164270E-02	-4.89288105191E-02	1.94119868248E-01	1.03627422129E-01
1.65600000000E+09	-2.05046858416E-01	-7.97590971308E-02	3.42952833204E-02	-5.14285658669E-02	3.48497880362E-02	-5.06234688466E-02	1.97104710146E-01	9.49999040905E-02
1.65700000000E+09	-1.99320690697E-01	-7.74938235820E-02	3.21013939745E-02	-5.30180625947E-02	3.26953136786E-02	-5.22328592876E-02	1.99533174492E-01	8.62029183343E-02
1.65800000000E+09	-1.93460007523E-01	-7.55485806017E-02	2.98252123604E-02	-5.45126499212E-02	3.04600278268E-02	-5.37579002207E-02	2.01412411213E-01	7.72586511551E-02
1.65900000000E+09	-1.87490151638E-01	-7.39370385204E-02	2.74745584044E-02	-5.59138623603E-02	2.81458085917E-02	-5.51885673948E-02	2.02719933499E-01	6.82185105886E-02
1.66000000000E+09	-1.81440035967E-01	-7.26689238957E-02	2.50518388513E-02	-5.72139491877E-02	2.57619604580E-02	-5.65147203629E-02	2.03461976719E-01	5.91107773820E-02
1.66100000000E+09	-1.75334381374E-01	-7.17704483034E-02	2.25605875478E-02	-5.84090070186E-02	2.33016333498E-02	-5.77442851099E-02	2.03630105060E-01	4.99703790650E-02
1.66200000000E+09	-1.69193930957E-01	-7.12531257704E-02	2.00045316207E-02	-5.94941042871E-02	2.07785212646E-02	-5.88639944914E-02	2.03226887144E-01	4.08367469325E-02
1.66300000000E+09	-1.63055815548E-01	-7.11268841597E-02	1.73906093512E-02	-6.04662903681E-02	1.81982290406E-02	-5.98719206059E-02	2.02242292801E-01	3.17501278256E-02
1.66400000000E+09	-1.56946486414E-01	-7.13947497221E-02	1.47177600597E-02	-6.13199655837E-02	1.55581647916E-02	-6.07654590932E-02	2.00695931058E-01	2.27322985134E-02
1.66500000000E+09	-1.50906235346E-01	-7.20651192972E-02	1.20043747279E-02	-6.20540669027E-02	1.28687672959E-02	-6.15350037250E-02	1.98579061938E-01	1.38335408838E-02
1.66600000000E+09	-1.44968959875E-01	-7.31461708061E-02	9.24299216360E-03	-6.26604676279E-02	1.01334622220E-02	-6.21870360616E-02	1.95907113077E-01	5.08830751295E-03
1.66700000000E+09	-1.39178548946E-01	-7.46379338822E-02	6.44183138165E-03	-6.31384794666E-02	7.35935552231E-03	-6.27059261064E-02	1.92681879042E-01	-3.47759037254E-03
1.66800000000E+09	-1.33569806663E-01	-7.65278153536E-02	3.61588937565E-03	-6.34860783358E-02	4.55569865726E-03	-6.30932664171E-02	1.88921326025E-01	-1.18208211690E-02
1.66900000000E+09	-1.28176863033E-01	-7.88115574157E-02	7.71196812368E-04	-6.36926265524E-02	1.72336710833E-03	-6.33512259368E-02	1.84636682266E-01	-1.99134860300E-02
1.67000000000E+09	-1.23060377519E-01	-8.14767836168E-02	-2.09513131453E-03	-6.37661494106E-02	-1.12530041739E-03	-6.34691601566E-02	1.79850070954E-01	-2.77171804908E-02
1.67100000000E+09	-1.18253584103E-01	-8.45015049516E-02	-4.96523118753E-03	-6.37070835457E-02	-3.97802845645E-03	-6.34489132389E-02	1.74573699926E-01	-3.52008519842E-02
1.67200000000E+09	-1.13791292179E-01	-8.78610695225E-02	-7.83433932541E-03	-6.34988037537E-02	-6.83758720399E-03	-6.32907471190E-02	1.68830101784E-01	-4.23362075594E-02
1.67300000000E+09	-1.09728524455E-01	-9.15245039527E-02	-1.06958785052E-02	-6.31550512073E-02	-9.68826339384E-03	-6.29963143284E-02	1.62634857374E-01	-4.90857325696E-02
1.67400000000E+09	-1.06098599508E-01	-9.54578144710E-02	-1.35354549621E-02	-6.26734659897E-02	-1.25215778364E-02	-6.25585789221E-02	1.56022788497E-01	-5.54205621747E-02
1.67500000000E+09	-1.02938011330E-01	-9.96091579616E-02	-1.63507563020E-02	-6.20540036598E-02	-1.53315123805E-02	-6.19863512430E-02	1.49010137782E-01	-6.13229435754E-02
1.67600000000E+09	-1.00275575153E-01	-1.03935939884E-01	-1.91325634140E-02	-6.12996107372E-02	-1.81136556663E-02	-6.12833753529E-02	1.41626902166E-01	-6.67611893809E-02
1.67700000000E+09	-9.81459364592E-02	-1.08380241456E-01	-2.18716438044E-02	-6.04070438608E-02	-2.08514432792E-02	-6.04396715543E-02	1.33916208130E-01	-7.17083313125E-02
1.67800000000E+09	-9.65595856512E-02	-1.12872562885E-01	-2.45595788118E-02	-5.93903109297E-02	-2.35391676675E-02	-5.94649677255E-02	1.25890663677E-01	-7.61421999175E-02
1.67900000000E+09	-9.55280286970E-02	-1.17356241400E-01	-2.71949613938E-02	-5.82452981151E-02	-2.61748188266E-02	-5.83706622494E-02	1.17589775325E-01	-8.00417930744E-02
1.68000000000E+09	-9.50651994651E-02	-1.21757224844E-01	-2.97565474401E-02	-5.69819349439E-02	-2.87481149676E-02	-5.71518178100E-02	1.09051920487E-01	-8.33950006065E-02
1.68100000000E+09	-9.51507301927E-02	-1.26001829243E-01	-3.22534614637E-02	-5.56011183251E-02	-3.12536058348E-02	-5.58208138651E-02	1.00305722049E-01	-8.61731112670E-02
1.68200000000E+09	-9.57713529991E-02	-1.30020370003E-01	-3.46725121317E-02	-5.41126214590E-02	-3.36822250576E-02	-5.43767692197E-02	9.13960043245E-02	-8.83750001782E-02
1.68300000000E+09	-9.68998000298E-02	-1.33742722285E-01	-3.70134303526E-02	-5.25264392840E-02	-3.60346335533E-02	-5.28325292490E-02	8.23571103542E-02	-8.99810622695E-02
1.68400000000E+09	-9.84978753616E-02	-1.37093810584E-01	-3.92676251178E-02	-5.08362994726E-02	-3.83071784524E-02	-5.11894561451E-02	7.32248059980E-02	-9.09791503765E-02
1.68500000000E+09	-1.00501411716E-01	-1.40017034543E-01	-4.14346876770E-02	-4.90618037385E-02	-4.04903439517E-02	-4.94578721539E-02	6.40484140459E-02	-9.13697380753E-02
1.68600000000E+09	-1.02855823177E-01	-1.42459549922E-01	-4.35102656430E-02	-4.72015995343E-02	-4.25875499182E-02	-4.76370031532E-02	5.48671288236E-02	-9.11457452922E-02
1.68700000000E+09	-1.05493572440E-01	-1.44377186419E-01	-4.54986565510E-02	-4.52628432817E-02	-4.45980073527E-02	-4.57438855238E-02	4.57187781521E-02	-9.03058840531E-02
1.68800000000E+09	-1.08333381003E-01	-1.45735764471E-01	-4.73955243734E-02	-4.32538099458E-02	-4.65149898684E-02	-4.37742045652E-02	3.66421174009E-02	-8.88566419806E-02
1.68900000000E+09	-1.11306559396E-01	-1.46504711624E-01	-4.92015765055E-02	-4.11767556494E-02	-4.83447448499E-02	-4.17409873298E-02	2.76904591705E-02	-8.67975886615E-02
1.69000000000E+09	-1.14322699873E-01	-1.46681138509E-01	-5.09147632443E-02	-3.90422060349E-02	-5.00857816713E-02	-3.96395910285E-02	1.88874441316E-02	-8.41360343210E-02
1.69100000000E+09	-1.17297734579E-01	-1.46266686511E-01	-5.25407758073E-02	-3.68442875788E-02	-5.17373259918E-02	-3.74786076144E-02	1.02905053581E-02	-8.08841197457E-02
1.69200000000E+09	-1.20145645117E-01	-1.45265698150E-01	-5.40750931355E-02	-3.45930200557E-02	-5.33057147881E-02	-3.52598605255E-02	1.93132749027E-03	-7.70591932493E-02
1.69300000000E+09	-1.22786458456E-01	-1.43716346827E-01	-5.55234900454E-02	-3.22897440635E-02	-5.47821695998E-02	-3.29854915575E-02	-6.14717996806E-03	-7.26810869201E-02
1.69400000000E+09	-1.25148468999E-01	-1.41648031701E-01	-5.68805651342E-02	-2.99277408160E-02	-5.61705463454E-02	-3.06602687603E-02	-1.39126914839E-02	-6.77648366212E-02
1.69500000000E+09	-1.27156283600E-01	-1.39116786022E-01	-5.81516636085E-02	-2.75206914692E-02	-5.74798854855E-02	-2.82793429736E-02	-2.13166366835E-02	-6.23329163974E-02
1.69600000000E+09	-1.28759591850E-01	-1.36193405104E-01	-5.93329884804E-02	-2.50619315301E-02	-5.86913268829E-02	-2.58511397782E-02	-2.83409422812E-02	-5.64190738040E-02
1.69700000000E+09	-1.29912008281E-01	-1.32930798656E-01	-6.04222592901E-02	-2.25494227369E-02	-5.98161943542E-02	-2.33665795115E-02	-3.49432841564E-02	-5.00446229654E-02
1.69800000000E+09	-1.30582279234E-01	-1.29406099929E-01	-6.14191807717E-02	-1.99888452655E-02	-6.08494176081E-02	-2.08297813602E-02	-4.10993118196E-02	-4.32350638244E-02
1.69900000000E+09	-1.30745881369E-01	-1.25687897549E-01	-6.23201445115E-02	-1.73792992613E-02	-6.17905759075E-02	-1.82471372851E-02	-4.67786231117E-02	-3.60314749970E-02
1.70000000000E+09	-1.30396226830E-01	-1.21842656614E-01	-6.31164133508E-02	-1.47255256024E-02	-6.26266867841E-02	-1.56131793672E-02	-5.19607516066E-02	-2.84616345000E-02
1.70100000000E+09	-1.29526498354E-01	-1.17944954399E-01	-6.38188978212E-02	-1.20217480084E-02	-6.33599306987E-02	-1.29308515668E-02	-5.66191967801E-02	-2.05701099858E-02
1.70200000000E+09	-1.28143397730E-01	-1.14060798984E-01	-6.44022440377E-02	-9.27319531402E-03	-6.39851542670E-02	-1.02013905376E-02	-6.07276638007E-02	-1.23795927091E-02
1.70300000000E+09	-1.26266031690E-01	-1.10248786838E-01	-6.48742628446E-02	-6.48090153988E-03	-6.45016540673E-02	-7.43157269369E-03	-6.42828288943E-02	-3.93949854450E-03
1.70400000000E+09	-1.23911677807E-01	-1.06576906532E-01	-6.52298495840E-02	-3.66086092947E-03	-6.48958783160E-02	-4.62184113809E-03	-6.72632574707E-02	4.71482373445E-03
1.70500000000E+09	-1.21112050992E-01	-1.03081117097E-01	-6.54589792261E-02	-8.04161503120E-04	-6.51657566764E-02	-1.77902533049E-03	-6.96622347866E-02	1.35472845538E-02
1.70600000000E+09	-1.17906294410E-01	-9.98229303452E-02	-6.55591793163E-02	2.07727227322E-03	-6.53113330990E-02	1.08676124303E-03	-7.14612498989E-02	2.25074301287E-02
1.70700000000E+09	-1.14322559571E-01	-9.68321629712E-02	-6.55270048058E-02	4.97972349965E-03	-6.53229290388E-02	3.97635437397E-03	-7.26637903925E-02	3.15693586154E-02
1.70800000000E+09	-1.10415716042E-01	-9.41465148642E-02	-6.53624195977E-02	7.89352385155E-03	-6.51978697383E-02	6.87758006788E-03	-7.32681360908E-02	4.06884146453E-02
1.70900000000E+09	-1.06209647793E-01	-9.17897886798E-02	-6.50529820884E-02	1.08098884935E-02	-6.49383735716E-02	9.78652266824E-03	-7.32670528485E-02	4.98212860262E-02
1.71000000000E+09	-1.01756563617E-01	-8.97873105884E-02	-6.46067586201E-02	1.37212841576E-02	-6.45341798969E-02	1.26918373109E-02	-7.26688361793E-02	5.89282301933E-02
1.71100000000E+09	-9.70939070838E-02	-8.81552252072E-02	-6.40189276776E-02	1.66233030799E-02	-6.39910449443E-02	1.55897589208E-02	-7.14707459405E-02	6.79727989209E-02
1.71200000000E+09	-9.22672441116E-02	-8.68986909331E-02	-6.32898103879E-02	1.94950997701E-02	-6.33084819618E-02	1.84625322722E-02	-6.96818498708E-02	7.69149934203E-02
1.71300000000E+09	-8.73167626816E-02	-8.60366988833E-02	-6.24164059874E-02	2.23428038039E-02	-6.24810293051E-02	2.13089138007E-02	-6.73203182045E-02	8.57145799700E-02
1.71400000000E+09	-8.22828850302E-02	-8.55588686510E-02	-6.14031050762E-02	2.51485955746E-02	-6.15153459429E-02	2.41186126622E-02	-6.43874407315E-02	9.43425860471E-02
1.71500000000E+09	-7.72053164224E-02	-8.54651258969E-02	-6.02503795281E-02	2.79084256966E-02	-6.04103681556E-02	2.68799583880E-02	-6.09039879836E-02	1.02754795286E-01
1.71600000000E+09	-7.21186132876E-02	-8.57597750034E-02	-5.89641307007E-02	3.06078653919E-02	-5.91690989909E-02	2.95858311459E-02	-5.68874622350E-02	1.10919206553E-01
1.71700000000E+09	-6.70564137289E-02	-8.64241430387E-02	-5.75429867391E-02	3.32418671019E-02	-5.77983283435E-02	3.22299447556E-02	-5.23506147368E-02	1.18799464176E-01
