# Hz S RI R 50
! CMT, CMT808U, 21440046, 21.4.3/4
! Date: 11/12/2025 10:21:02 AM
! Data: Format (Calibration Info)
! Freq	S11:Re/Im(F2)	S41:Re/Im(F2)	S14:Re/Im(F2)	S44:Re/Im(F2)
1.60000000000E+09	-2.84408241089E-01	-2.35375089238E-01	-9.47363179184E-03	6.46965224526E-02	-1.02255337392E-02	6.42477279589E-02	-1.12630452107E-01	3.33259425195E-03
1.60100000000E+09	-2.79670928903E-01	-2.34031287719E-01	-6.56983242838E-03	6.51090442695E-02	-7.34883417184E-03	6.46928686793E-02	-1.15934424086E-01	1.45179171085E-02
1.60200000000E+09	-2.75117564443E-01	-2.33211496564E-01	-3.66070628243E-03	6.53710260506E-02	-4.45406190045E-03	6.49883958515E-02	-1.18492077684E-01	2.58943654266E-02
1.60300000000E+09	-2.70811361267E-01	-2.32894378691E-01	-7.41822323286E-04	6.54832497216E-02	-1.55110124299E-03	6.51387767073E-02	-1.20285164632E-01	3.74070259557E-02
1.60400000000E+09	-2.66834240056E-01	-2.33057270006E-01	2.17086212312E-03	6.54470401387E-02	1.34560878333E-03	6.51378731685E-02	-1.21312211523E-01	4.90017064435E-02
1.60500000000E+09	-2.63261215921E-01	-2.33640986122E-01	5.06478697265E-03	6.52660642947E-02	4.22745052495E-03	6.49899709201E-02	-1.21571187578E-01	6.06299556037E-02
1.60600000000E+09	-2.60139781047E-01	-2.34584181765E-01	7.92777788618E-03	6.49412441126E-02	7.07795231558E-03	6.47032159873E-02	-1.21061133633E-01	7.22333652377E-02
1.60700000000E+09	-2.57527967968E-01	-2.35828376471E-01	1.07632216157E-02	6.44786790941E-02	9.90553444016E-03	6.42768176329E-02	-1.19784558250E-01	8.37726362286E-02
1.60800000000E+09	-2.55471896328E-01	-2.37291217643E-01	1.35470427215E-02	6.38847787334E-02	1.26827358944E-02	6.37203316150E-02	-1.17764976536E-01	9.51878323769E-02
1.60900000000E+09	-2.53993785459E-01	-2.38882859634E-01	1.62763580470E-02	6.31657737733E-02	1.54091686190E-02	6.30347571788E-02	-1.14995914453E-01	1.06427465190E-01
1.61000000000E+09	-2.53115470552E-01	-2.40511629149E-01	1.89494161295E-02	6.23279498132E-02	1.80794488409E-02	6.22384366655E-02	-1.11502807511E-01	1.17447458044E-01
1.61100000000E+09	-2.52819585865E-01	-2.42094389264E-01	2.15574663785E-02	6.13802203447E-02	2.06904259082E-02	6.13254226339E-02	-1.07299092514E-01	1.28201245471E-01
1.61200000000E+09	-2.53104644630E-01	-2.43549334163E-01	2.41004300450E-02	6.03312991415E-02	2.32327911204E-02	6.03126864387E-02	-1.02418584994E-01	1.38639391657E-01
1.61300000000E+09	-2.53922431847E-01	-2.44772244750E-01	2.65764781234E-02	5.91878477037E-02	2.57117224132E-02	5.92012057627E-02	-9.68636814857E-02	1.48721338288E-01
1.61400000000E+09	-2.55230096004E-01	-2.45705404369E-01	2.89819680355E-02	5.79567178058E-02	2.81160467270E-02	5.80021835894E-02	-9.06749396611E-02	1.58408953146E-01
1.61500000000E+09	-2.56969703696E-01	-2.46275188934E-01	3.13138343048E-02	5.66411974393E-02	3.04553960634E-02	5.67213790969E-02	-8.38785342425E-02	1.67654004784E-01
1.61600000000E+09	-2.59088823168E-01	-2.46430114059E-01	3.35818641711E-02	5.52483588963E-02	3.27265599279E-02	5.53652486692E-02	-7.65131240919E-02	1.76419303524E-01
1.61700000000E+09	-2.61505001685E-01	-2.46133605296E-01	3.57757994858E-02	5.37886614644E-02	3.49292046069E-02	5.39334786130E-02	-6.86016889161E-02	1.84684228013E-01
1.61800000000E+09	-2.64147696252E-01	-2.45354256715E-01	3.79036639585E-02	5.22572322422E-02	3.70648567431E-02	5.24330095526E-02	-6.01798057848E-02	1.92405509656E-01
1.61900000000E+09	-2.66945109408E-01	-2.44074179473E-01	3.99704179937E-02	5.06626527992E-02	3.91364420982E-02	5.08679876956E-02	-5.12966516724E-02	1.99545522135E-01
1.62000000000E+09	-2.69820392691E-01	-2.42289892437E-01	4.19714259517E-02	4.89994957054E-02	4.11451715218E-02	4.92365904857E-02	-4.19828999395E-02	2.06094520335E-01
1.62100000000E+09	-2.72709660417E-01	-2.40016792762E-01	4.39063267242E-02	4.72791410877E-02	4.30890728743E-02	4.75435982356E-02	-3.22790619034E-02	2.12008334059E-01
1.62200000000E+09	-2.75548123621E-01	-2.37268548405E-01	4.57772556603E-02	4.54924246963E-02	4.49747048093E-02	4.57883094119E-02	-2.22276279719E-02	2.17280605990E-01
1.62300000000E+09	-2.78280678070E-01	-2.34064953633E-01	4.75868696457E-02	4.36489821935E-02	4.67916758566E-02	4.39714921198E-02	-1.18727629177E-02	2.21886145309E-01
1.62400000000E+09	-2.80857302653E-01	-2.30435099861E-01	4.93358564147E-02	4.17373102213E-02	4.85499066523E-02	4.20959889040E-02	-1.26663810714E-03	2.25812111798E-01
1.62500000000E+09	-2.83235731083E-01	-2.26404396718E-01	5.10180277603E-02	3.97709320093E-02	5.02444614053E-02	4.01585189172E-02	9.56292832533E-03	2.29037386292E-01
1.62600000000E+09	-2.85379132750E-01	-2.22023840045E-01	5.26377760281E-02	3.77423626727E-02	5.18719993084E-02	3.81611473683E-02	2.05581283022E-02	2.31562220902E-01
1.62700000000E+09	-2.87257694814E-01	-2.17313947091E-01	5.41886028224E-02	3.56549895361E-02	5.34329120664E-02	3.60994319539E-02	3.16732132254E-02	2.33374215347E-01
1.62800000000E+09	-2.88845492545E-01	-2.12328442030E-01	5.56672487961E-02	3.35052636182E-02	5.49282939451E-02	3.39767121698E-02	4.28708731828E-02	2.34462894866E-01
1.62900000000E+09	-2.90126171005E-01	-2.07086857711E-01	5.70738206958E-02	3.12916011652E-02	5.63503906537E-02	3.17965069796E-02	5.40981827013E-02	2.34838117912E-01
1.63000000000E+09	-2.91082296204E-01	-2.01622372844E-01	5.84084005502E-02	2.90202146633E-02	5.76977711695E-02	2.95551831130E-02	6.53139541305E-02	2.34499899885E-01
1.63100000000E+09	-2.91705827599E-01	-1.95996000055E-01	5.96624394078E-02	2.66894102665E-02	5.89689390934E-02	2.72540742558E-02	7.64693491034E-02	2.33438151755E-01
1.63200000000E+09	-2.91981303449E-01	-1.90214791246E-01	6.08334277774E-02	2.42977665892E-02	6.01617273597E-02	2.48964003878E-02	8.75347530679E-02	2.31681946880E-01
1.63300000000E+09	-2.91916452128E-01	-1.84326795485E-01	6.19235634736E-02	2.18542094097E-02	6.12696811382E-02	2.24813027393E-02	9.84405479230E-02	2.29224025391E-01
1.63400000000E+09	-2.91498279048E-01	-1.78349151659E-01	6.29234555948E-02	1.93498468884E-02	6.22884424684E-02	2.00101660968E-02	1.09167142003E-01	2.26079669721E-01
1.63500000000E+09	-2.90735653212E-01	-1.72325713103E-01	6.38315874871E-02	1.67971642266E-02	6.32167765652E-02	1.74889122284E-02	1.19653403175E-01	2.22266471447E-01
1.63600000000E+09	-2.89630592434E-01	-1.66277817504E-01	6.46391559672E-02	1.41957700423E-02	6.40501983451E-02	1.49185985663E-02	1.29879742178E-01	2.17796650161E-01
1.63700000000E+09	-2.88176201134E-01	-1.60229747463E-01	6.53478811596E-02	1.15471027094E-02	6.47898473764E-02	1.22969285291E-02	1.39788007879E-01	2.12698250537E-01
1.63800000000E+09	-2.86398014971E-01	-1.54204149380E-01	6.59576066464E-02	8.85356249984E-03	6.54226117534E-02	9.63406316279E-03	1.49350462106E-01	2.06984405634E-01
1.63900000000E+09	-2.84294679441E-01	-1.48232269003E-01	6.64597997332E-02	6.11991255408E-03	6.59531721531E-02	6.93128156002E-03	1.58530942654E-01	2.00686714818E-01
1.64000000000E+09	-2.81858485382E-01	-1.42324532164E-01	6.68496265453E-02	3.35292865456E-03	6.63745377847E-02	4.19080497577E-03	1.67284970637E-01	1.93827307947E-01
1.64100000000E+09	-2.79109159432E-01	-1.36510815065E-01	6.71256653832E-02	5.52780967405E-04	6.66856304250E-02	1.41786195676E-03	1.75593545547E-01	1.86428388622E-01
1.64200000000E+09	-2.76058297629E-01	-1.30799471078E-01	6.72869781770E-02	-2.27639844920E-03	6.68827259050E-02	-1.38501635485E-03	1.83417386625E-01	1.78525822873E-01
1.64300000000E+09	-2.72696889851E-01	-1.25214634548E-01	6.73293546793E-02	-5.12630019807E-03	6.69649822563E-02	-4.20936320476E-03	1.90725869727E-01	1.70156453044E-01
1.64400000000E+09	-2.69057756208E-01	-1.19780193244E-01	6.72490273473E-02	-7.99239985923E-03	6.69249573995E-02	-7.05050478596E-03	1.97491278268E-01	1.61341684386E-01
1.64500000000E+09	-2.65129560486E-01	-1.14500626777E-01	6.70484980185E-02	-1.08715170703E-02	6.67623816284E-02	-9.90862692759E-03	2.03688131102E-01	1.52121386611E-01
1.64600000000E+09	-2.60932468312E-01	-1.09397896822E-01	6.67142830867E-02	-1.37574239581E-02	6.64750521013E-02	-1.27735261375E-02	2.09294074649E-01	1.42525302519E-01
1.64700000000E+09	-2.56473839678E-01	-1.04493406672E-01	6.62603900647E-02	-1.66450943533E-02	6.60651194991E-02	-1.56453235806E-02	2.14291107085E-01	1.32595269299E-01
1.64800000000E+09	-2.51754413120E-01	-9.98009559891E-02	6.56710961848E-02	-1.95307962828E-02	6.55243104674E-02	-1.85091280145E-02	2.18656230949E-01	1.22382035917E-01
1.64900000000E+09	-2.46802647359E-01	-9.53422129286E-02	6.49573846983E-02	-2.23972995675E-02	6.48548512019E-02	-2.13663936638E-02	2.22362377270E-01	1.11900600634E-01
1.65000000000E+09	-2.41617098141E-01	-9.11233880233E-02	6.41085217138E-02	-2.52479118473E-02	6.40547133656E-02	-2.42053917080E-02	2.25412434006E-01	1.01216274017E-01
1.65100000000E+09	-2.36214748600E-01	-8.71669190580E-02	6.31274594460E-02	-2.80750626738E-02	6.31269820510E-02	-2.70279436466E-02	2.27780374134E-01	9.03628131220E-02
1.65200000000E+09	-2.30602909559E-01	-8.34902456365E-02	6.20124053923E-02	-3.08697809527E-02	6.20644285217E-02	-2.98151710089E-02	2.29462603584E-01	7.93714277003E-02
1.65300000000E+09	-2.24805615510E-01	-8.01113886970E-02	6.07700303085E-02	-3.36288926135E-02	6.08730705031E-02	-3.25722163713E-02	2.30458010560E-01	6.82881127447E-02
1.65400000000E+09	-2.18843871747E-01	-7.70308862147E-02	5.93916760917E-02	-3.63416956717E-02	5.95463756637E-02	-3.52863710502E-02	2.30750800744E-01	5.71610564816E-02
1.65500000000E+09	-2.12719018492E-01	-7.42847892451E-02	5.78842441535E-02	-3.90015156138E-02	5.80922096497E-02	-3.79500844393E-02	2.30327854753E-01	4.60453686088E-02
1.65600000000E+09	-2.06464940077E-01	-7.18745559540E-02	5.62481048041E-02	-4.16046519288E-02	5.65030944379E-02	-4.05569163211E-02	2.29218393701E-01	3.49611464520E-02
1.65700000000E+09	-2.00093925504E-01	-6.98146364520E-02	5.44827667277E-02	-4.41395540254E-02	5.47911096653E-02	-4.31033285481E-02	2.27403840472E-01	2.39745968739E-02
1.65800000000E+09	-1.93622076444E-01	-6.81244766430E-02	5.25904298566E-02	-4.65985264997E-02	5.29549452871E-02	-4.55747139895E-02	2.24897108699E-01	1.31211142243E-02
1.65900000000E+09	-1.87073868643E-01	-6.68109655397E-02	5.05770797845E-02	-4.89745479146E-02	5.09916030510E-02	-4.79711636313E-02	2.21703411164E-01	2.43500420593E-03
1.66000000000E+09	-1.80485779064E-01	-6.58958251244E-02	4.84459312505E-02	-5.12621187738E-02	4.89098575331E-02	-5.02802227116E-02	2.17832693480E-01	-8.02756429099E-03
1.66100000000E+09	-1.73875969989E-01	-6.53833010963E-02	4.62001863703E-02	-5.34570716989E-02	4.67138569992E-02	-5.24945742571E-02	2.13297699143E-01	-1.82284241991E-02
1.66200000000E+09	-1.67272175496E-01	-6.52890038867E-02	4.38420177245E-02	-5.55473615002E-02	4.44004465048E-02	-5.46101275772E-02	2.08123384594E-01	-2.81240899830E-02
1.66300000000E+09	-1.60716770860E-01	-6.56187328861E-02	4.13769692573E-02	-5.75257240200E-02	4.19827528155E-02	-5.66174351340E-02	2.02317694862E-01	-3.76728834636E-02
1.66400000000E+09	-1.54241609957E-01	-6.63758390022E-02	3.88137128411E-02	-5.93915212268E-02	3.94629870038E-02	-5.85078094228E-02	1.95917887240E-01	-4.68411989867E-02
1.66500000000E+09	-1.47871743726E-01	-6.75625223563E-02	3.61570712792E-02	-6.11302021994E-02	3.68465304893E-02	-6.02812880952E-02	1.88924670513E-01	-5.55713573618E-02
1.66600000000E+09	-1.41666080724E-01	-6.91710433940E-02	3.34168192591E-02	-6.27418297738E-02	3.41449986583E-02	-6.19253765720E-02	1.81380701743E-01	-6.38441171531E-02
1.66700000000E+09	-1.35647072492E-01	-7.12129028117E-02	3.05953640773E-02	-6.42145410749E-02	3.13611635418E-02	-6.34391069880E-02	1.73315118393E-01	-7.16201634771E-02
1.66800000000E+09	-1.29858916240E-01	-7.36641810950E-02	2.76994455895E-02	-6.55515837103E-02	2.85053628301E-02	-6.48119798508E-02	1.64748390594E-01	-7.88509075908E-02
1.66900000000E+09	-1.24342286317E-01	-7.65275101585E-02	2.47428175481E-02	-6.67418563885E-02	2.55760731536E-02	-6.60361062533E-02	1.55724526042E-01	-8.55160308368E-02
1.67000000000E+09	-1.19147110998E-01	-7.97777095039E-02	2.17295212947E-02	-6.77833748979E-02	2.25967068203E-02	-6.71213284394E-02	1.46280182800E-01	-9.15844343913E-02
1.67100000000E+09	-1.14317223778E-01	-8.33891642879E-02	1.86766607443E-02	-6.86756996465E-02	1.95720853207E-02	-6.80524754221E-02	1.36448808298E-01	-9.70290535503E-02
1.67200000000E+09	-1.09888670724E-01	-8.73363600767E-02	1.55836958349E-02	-6.94123698933E-02	1.65080560089E-02	-6.88329170477E-02	1.26275297048E-01	-1.01807270143E-01
1.67300000000E+09	-1.05912188294E-01	-9.15840477659E-02	1.24688173818E-02	-6.99934487698E-02	1.34174586595E-02	-6.94587115076E-02	1.15799550244E-01	-1.05915536807E-01
1.67400000000E+09	-1.02413724511E-01	-9.60949732890E-02	9.34362079742E-03	-7.04201380691E-02	1.03108288285E-02	-6.99300965303E-02	1.05060430000E-01	-1.09322277374E-01
1.67500000000E+09	-9.94485590219E-02	-1.00815050407E-01	6.20799286949E-03	-7.06926798755E-02	7.19747036579E-03	-7.02466871406E-02	9.41109576162E-02	-1.12014609122E-01
1.67600000000E+09	-9.70381712560E-02	-1.05688346484E-01	3.07910643364E-03	-7.08120037489E-02	4.08828772501E-03	-7.04115393764E-02	8.29972784006E-02	-1.13969609407E-01
1.67700000000E+09	-9.52042975509E-02	-1.10665921231E-01	-3.58326663349E-05	-7.07798139282E-02	9.87682651450E-04	-7.04265397912E-02	7.17677712550E-02	-1.15176943498E-01
1.67800000000E+09	-9.39699934460E-02	-1.15659289053E-01	-3.12053189503E-03	-7.06002648002E-02	-2.08659395304E-03	-7.02959391234E-02	6.04711449734E-02	-1.15633003458E-01
1.67900000000E+09	-9.33528299076E-02	-1.20613799046E-01	-6.17948720385E-03	-7.02834175565E-02	-5.13032038331E-03	-7.00231118518E-02	4.91572784095E-02	-1.15325350806E-01
1.68000000000E+09	-9.33452026432E-02	-1.25450257611E-01	-9.19145469872E-03	-6.98274350336E-02	-8.13945181413E-03	-6.96118857005E-02	3.78805442312E-02	-1.14257270484E-01
1.68100000000E+09	-9.39404702894E-02	-1.30084898008E-01	-1.21608201394E-02	-6.92416666048E-02	-1.10996803947E-02	-6.90717033824E-02	2.66859217114E-02	-1.12425231307E-01
1.68200000000E+09	-9.51120437925E-02	-1.34441697542E-01	-1.50726362773E-02	-6.85259045420E-02	-1.40084037952E-02	-6.84066096736E-02	1.56309336678E-02	-1.09841601892E-01
1.68300000000E+09	-9.68302480239E-02	-1.38450996936E-01	-1.79307999840E-02	-6.77016017519E-02	-1.68663991810E-02	-6.76279356686E-02	4.76767302502E-03	-1.06502928571E-01
1.68400000000E+09	-9.90525586113E-02	-1.42026437502E-01	-2.07295365660E-02	-6.67632062808E-02	-1.96572384569E-02	-6.67336967428E-02	-5.85480641986E-03	-1.02426805901E-01
1.68500000000E+09	-1.01707310607E-01	-1.45115889443E-01	-2.34592620647E-02	-6.57222641431E-02	-2.23888760344E-02	-6.57400543395E-02	-1.61851542662E-02	-9.76355333402E-02
1.68600000000E+09	-1.04737198405E-01	-1.47650296293E-01	-2.61227554524E-02	-6.45833552406E-02	-2.50608228890E-02	-6.46491677351E-02	-2.61729211572E-02	-9.21413174919E-02
1.68700000000E+09	-1.08063694547E-01	-1.49591639048E-01	-2.87246710417E-02	-6.33547112273E-02	-2.76612988680E-02	-6.34681309098E-02	-3.57700212446E-02	-8.59702429407E-02
1.68800000000E+09	-1.11603897640E-01	-1.50899541968E-01	-3.12595307272E-02	-6.20465234594E-02	-3.02077099869E-02	-6.22021562600E-02	-4.49288654751E-02	-7.91440521199E-02
1.68900000000E+09	-1.15269144477E-01	-1.51545545352E-01	-3.37316340313E-02	-6.06521023843E-02	-3.26847776218E-02	-6.08534133761E-02	-5.36080530230E-02	-7.17062944665E-02
1.69000000000E+09	-1.18964996074E-01	-1.51521268439E-01	-3.61401772881E-02	-5.91814975232E-02	-3.51067183995E-02	-5.94311158265E-02	-6.17616008422E-02	-6.36808478703E-02
1.69100000000E+09	-1.22605552617E-01	-1.50835853188E-01	-3.84901347182E-02	-5.76379612323E-02	-3.74679762606E-02	-5.79296367320E-02	-6.93446554486E-02	-5.51085876070E-02
1.69200000000E+09	-1.26087771004E-01	-1.49493541529E-01	-4.07828432085E-02	-5.60251809991E-02	-3.97750674360E-02	-5.63588330133E-02	-7.63287300485E-02	-4.60295705315E-02
1.69300000000E+09	-1.29322613332E-01	-1.47540436642E-01	-4.30182550463E-02	-5.43354077896E-02	-4.20242943753E-02	-5.47102114729E-02	-8.26711958521E-02	-3.64901120656E-02
1.69400000000E+09	-1.32230831988E-01	-1.45016886834E-01	-4.51955918771E-02	-5.25718935220E-02	-4.42229852755E-02	-5.29863299227E-02	-8.83543081368E-02	-2.65367058475E-02
1.69500000000E+09	-1.34745734746E-01	-1.41979643511E-01	-4.73231207618E-02	-5.07335720935E-02	-4.63661807083E-02	-5.11902189450E-02	-9.33343476035E-02	-1.62081633445E-02
1.69600000000E+09	-1.36807261574E-01	-1.38500567448E-01	-4.93923043769E-02	-4.88151373011E-02	-4.84584160640E-02	-4.93170024404E-02	-9.76038150592E-02	-5.56691196487E-03
1.69700000000E+09	-1.38371386860E-01	-1.34642497527E-01	-5.14032468896E-02	-4.68223310644E-02	-5.04890446296E-02	-4.73568809787E-02	-1.01134241497E-01	5.34022883769E-03
1.69800000000E+09	-1.39390469895E-01	-1.30482739940E-01	-5.33539161615E-02	-4.47409098682E-02	-5.24649642429E-02	-4.53177572319E-02	-1.03912737411E-01	1.64658886987E-02
1.69900000000E+09	-1.39851529698E-01	-1.26102314501E-01	-5.52375962457E-02	-4.25801543775E-02	-5.43731425608E-02	-4.31926085913E-02	-1.05930239930E-01	2.77492221436E-02
1.70000000000E+09	-1.39740576721E-01	-1.21566903801E-01	-5.70551315694E-02	-4.03303430468E-02	-5.62188698951E-02	-4.09808975305E-02	-1.07182243266E-01	3.91426501146E-02
1.70100000000E+09	-1.39041971799E-01	-1.16964588584E-01	-5.88002565406E-02	-3.79974977350E-02	-5.79883279896E-02	-3.86814963046E-02	-1.07664796081E-01	5.05863147412E-02
1.70200000000E+09	-1.37773697415E-01	-1.12358636450E-01	-6.04605190447E-02	-3.55704974761E-02	-5.96786720672E-02	-3.62930135655E-02	-1.07369074231E-01	6.20416825536E-02
1.70300000000E+09	-1.35950191146E-01	-1.07817870384E-01	-6.20347954495E-02	-3.30633099066E-02	-6.12884474989E-02	-3.38168353075E-02	-1.06311701172E-01	7.34441659438E-02
1.70400000000E+09	-1.33588320930E-01	-1.03407841081E-01	-6.35127440006E-02	-3.04670152189E-02	-6.27982087582E-02	-3.12500875616E-02	-1.04505338439E-01	8.47320666176E-02
1.70500000000E+09	-1.30719577088E-01	-9.91851874752E-02	-6.48883285282E-02	-2.77911088187E-02	-6.42060059167E-02	-2.86030926571E-02	-1.01943353756E-01	9.58802202128E-02
1.70600000000E+09	-1.27380570758E-01	-9.52038416099E-02	-6.61539522224E-02	-2.50322065665E-02	-6.55029584037E-02	-2.58778286377E-02	-9.86570149428E-02	1.06821071643E-01
1.70700000000E+09	-1.23617228077E-01	-9.14962039745E-02	-6.73028098754E-02	-2.21978801379E-02	-6.66911696032E-02	-2.30698997392E-02	-9.46615860068E-02	1.17516113189E-01
1.70800000000E+09	-1.19463547296E-01	-8.81171802443E-02	-6.83283914295E-02	-1.92974064598E-02	-6.77485133311E-02	-2.01974982864E-02	-8.99773127069E-02	1.27918752600E-01
1.70900000000E+09	-1.14965534264E-01	-8.50807121742E-02	-6.92196195639E-02	-1.63321897126E-02	-6.86800463766E-02	-1.72588637893E-02	-8.46259564670E-02	1.37981313537E-01
1.71000000000E+09	-1.10166221325E-01	-8.24203879816E-02	-6.99788228868E-02	-1.33115937466E-02	-6.94777985835E-02	-1.42654614296E-02	-7.86419866864E-02	1.47675245625E-01
1.71100000000E+09	-1.05111120083E-01	-8.01538247979E-02	-7.05925257866E-02	-1.02465675448E-02	-7.01369169941E-02	-1.12163745741E-02	-7.20444607210E-02	1.56948017982E-01
1.71200000000E+09	-9.98399854267E-02	-7.82960795127E-02	-7.10634224241E-02	-7.13982503559E-03	-7.06479546410E-02	-8.13544252540E-03	-6.48682618969E-02	1.65763649592E-01
1.71300000000E+09	-9.44020527968E-02	-7.68524421510E-02	-7.13850576127E-02	-4.00708465964E-03	-7.10143370550E-02	-5.01709640422E-03	-5.71439970685E-02	1.74100540162E-01
1.71400000000E+09	-8.88323076530E-02	-7.58318014415E-02	-7.15575885831E-02	-8.47182274173E-04	-7.12312021859E-02	-1.87754884477E-03	-4.89122664112E-02	1.81922759384E-01
1.71500000000E+09	-8.31714225423E-02	-7.52324442803E-02	-7.15738047452E-02	2.32249352980E-03	-7.12914368369E-02	1.27574177264E-03	-4.02121358144E-02	1.89185858242E-01
1.71600000000E+09	-7.74599128818E-02	-7.50554641878E-02	-7.14373191468E-02	5.49131554580E-03	-7.12017223477E-02	4.43273439766E-03	-3.10695042601E-02	1.95877663973E-01
1.71700000000E+09	-7.17338528504E-02	-7.52967020277E-02	-7.11496346714E-02	8.66081840217E-03	-7.09618075652E-02	7.59059937340E-03	-2.15235033558E-02	2.01976595152E-01
