# Hz S RI R 50
! CMT, CMT808U, 21440046, 21.4.3/4
! Date: 11/17/2025 2:29:56 PM
! Data: Format (Calibration Info)
! Freq	S11:Re/Im(F2)	S41:Re/Im(F2)	S14:Re/Im(F2)	S44:Re/Im(F2)
1.70000000000E+09	-8.20798605612E-02	-1.36144736063E-01	-6.53089889701E-02	-8.61952983464E-03	-6.53475780647E-02	-8.51959618261E-03	-6.10505065657E-02	-1.88389169062E-03
1.70050000000E+09	-8.17345388956E-02	-1.33761437127E-01	-6.55336569265E-02	-7.20335048916E-03	-6.55966604903E-02	-7.09310688826E-03	-6.26530150967E-02	3.06157331947E-03
1.70100000000E+09	-8.12279809748E-02	-1.31378311179E-01	-6.57448470191E-02	-5.74649286418E-03	-6.58021006872E-02	-5.65560242707E-03	-6.40984575309E-02	8.03773596508E-03
1.70150000000E+09	-8.06051344163E-02	-1.28975170001E-01	-6.59275257930E-02	-4.29283933067E-03	-6.59639768926E-02	-4.20636505636E-03	-6.53685522213E-02	1.30802153049E-02
1.70200000000E+09	-7.98049360132E-02	-1.26643789451E-01	-6.60747519603E-02	-2.83588452222E-03	-6.61308594170E-02	-2.74290780258E-03	-6.64607397553E-02	1.81610001715E-02
1.70250000000E+09	-7.88540182449E-02	-1.24299687108E-01	-6.62014965092E-02	-1.38939546302E-03	-6.62351621886E-02	-1.27921914814E-03	-6.73830465845E-02	2.32684819441E-02
1.70300000000E+09	-7.77575934216E-02	-1.21959698115E-01	-6.62617507081E-02	9.32179383514E-05	-6.63029390198E-02	1.90266733099E-04	-6.81651491237E-02	2.84209455381E-02
1.70350000000E+09	-7.65329819642E-02	-1.19704211562E-01	-6.63113168393E-02	1.56759679031E-03	-6.63501714550E-02	1.66414281967E-03	-6.87559129208E-02	3.35920512179E-02
1.70400000000E+09	-7.51563844531E-02	-1.17473608109E-01	-6.63139885348E-02	3.05744588920E-03	-6.63553613995E-02	3.16230227633E-03	-6.91737436309E-02	3.87680480517E-02
1.70450000000E+09	-7.36515119333E-02	-1.15321883382E-01	-6.62698837089E-02	4.54106831980E-03	-6.63261674532E-02	4.65042224360E-03	-6.93958380621E-02	4.39853866760E-02
1.70500000000E+09	-7.20167365411E-02	-1.13188312048E-01	-6.62154258972E-02	6.02849647366E-03	-6.62444319444E-02	6.14145589005E-03	-6.94915609100E-02	4.92069990987E-02
1.70550000000E+09	-7.02643407764E-02	-1.11189998603E-01	-6.61153857175E-02	7.53137395503E-03	-6.61481083497E-02	7.62493843545E-03	-6.93863454314E-02	5.44156784062E-02
1.70600000000E+09	-6.83806742299E-02	-1.09250369676E-01	-6.59660742650E-02	9.02289467474E-03	-6.60157889278E-02	9.13379294720E-03	-6.91022195286E-02	5.96098105625E-02
1.70650000000E+09	-6.63912728029E-02	-1.07393925318E-01	-6.57857391995E-02	1.05133045201E-02	-6.58237724475E-02	1.06121861561E-02	-6.86665463746E-02	6.48069645977E-02
1.70700000000E+09	-6.43203403345E-02	-1.05620405577E-01	-6.55917064898E-02	1.19940361004E-02	-6.55964844849E-02	1.20989768861E-02	-6.80562428053E-02	6.99989859351E-02
1.70750000000E+09	-6.20922557887E-02	-1.03959170268E-01	-6.53211180169E-02	1.34661582656E-02	-6.53503688365E-02	1.35809555567E-02	-6.72833898188E-02	7.51429634202E-02
1.70800000000E+09	-5.98365779338E-02	-1.02393888191E-01	-6.50528950935E-02	1.49459475739E-02	-6.50747608628E-02	1.50606171247E-02	-6.63144370060E-02	8.02694389800E-02
1.70850000000E+09	-5.74703315613E-02	-1.00947952829E-01	-6.47231097281E-02	1.64273915381E-02	-6.47439716130E-02	1.65443703411E-02	-6.51688053819E-02	8.53879313767E-02
1.70900000000E+09	-5.50163810268E-02	-9.95774632310E-02	-6.43433712862E-02	1.78864668209E-02	-6.43649530697E-02	1.80026644698E-02	-6.39123161376E-02	9.04449287860E-02
1.70950000000E+09	-5.25334144871E-02	-9.83627408985E-02	-6.39481889539E-02	1.93414578747E-02	-6.39561994199E-02	1.94546533006E-02	-6.24632501524E-02	9.54393102892E-02
1.71000000000E+09	-4.99495687951E-02	-9.72286889023E-02	-6.35224266960E-02	2.08091522655E-02	-6.35133497996E-02	2.08965681623E-02	-6.08292354545E-02	1.00395512677E-01
1.71050000000E+09	-4.73185574908E-02	-9.62352231059E-02	-6.30437272489E-02	2.22202892602E-02	-6.30454454542E-02	2.23468589122E-02	-5.90630739700E-02	1.05329182543E-01
1.71100000000E+09	-4.46623032434E-02	-9.53352606904E-02	-6.25257067829E-02	2.36570966439E-02	-6.25347803059E-02	2.37694575616E-02	-5.71174599405E-02	1.10168027515E-01
1.71150000000E+09	-4.19528243874E-02	-9.45637735403E-02	-6.19661965353E-02	2.50752096588E-02	-6.19742476323E-02	2.51754605098E-02	-5.50324787268E-02	1.14973590263E-01
1.71200000000E+09	-3.92117499580E-02	-9.39153721672E-02	-6.14006328172E-02	2.64543263283E-02	-6.13944089544E-02	2.65913188085E-02	-5.27802501178E-02	1.19676183606E-01
1.71250000000E+09	-3.64237452819E-02	-9.34116502036E-02	-6.07641720385E-02	2.78492021470E-02	-6.07666969648E-02	2.79686548004E-02	-5.03701497184E-02	1.24285017896E-01
1.71300000000E+09	-3.36345704335E-02	-9.29884114843E-02	-6.01224946862E-02	2.92085544757E-02	-6.01286522611E-02	2.93270152086E-02	-4.78340550641E-02	1.28842300254E-01
1.71350000000E+09	-3.08364058812E-02	-9.27065397429E-02	-5.94265130791E-02	3.05682932821E-02	-5.94287748103E-02	3.06839200073E-02	-4.51250681327E-02	1.33301241208E-01
1.71400000000E+09	-2.80117303439E-02	-9.25279134248E-02	-5.87062569615E-02	3.18840033540E-02	-5.87261878097E-02	3.19955652493E-02	-4.23363537921E-02	1.37695297692E-01
1.71450000000E+09	-2.52076386790E-02	-9.24783631774E-02	-5.79737077521E-02	3.32022486088E-02	-5.79532302457E-02	3.33240852291E-02	-3.93143308411E-02	1.41974596243E-01
1.71500000000E+09	-2.23769005068E-02	-9.25575802053E-02	-5.71986061483E-02	3.44868265076E-02	-5.71741864451E-02	3.46141783052E-02	-3.62284816647E-02	1.46157579231E-01
1.71550000000E+09	-1.95852175372E-02	-9.27234290988E-02	-5.63699822977E-02	3.57585854639E-02	-5.63608200254E-02	3.58831753152E-02	-3.29374349583E-02	1.50223424415E-01
1.71600000000E+09	-1.68131256159E-02	-9.30184179759E-02	-5.55402094821E-02	3.70085461766E-02	-5.55169442693E-02	3.71228724117E-02	-2.95798395155E-02	1.54207324063E-01
1.71650000000E+09	-1.40312883636E-02	-9.34208595649E-02	-5.46859052641E-02	3.82245367102E-02	-5.46400032662E-02	3.83515371854E-02	-2.60725874171E-02	1.58066444637E-01
1.71700000000E+09	-1.12786649560E-02	-9.39356685261E-02	-5.37712195635E-02	3.94221552125E-02	-5.37357291400E-02	3.95376154081E-02	-2.24719955980E-02	1.61810065756E-01
1.71750000000E+09	-8.57703881385E-03	-9.45265926245E-02	-5.28409331691E-02	4.06061924424E-02	-5.27898268494E-02	4.07182843837E-02	-1.87036262803E-02	1.65438123358E-01
1.71800000000E+09	-5.87254974852E-03	-9.52574929368E-02	-5.18804322332E-02	4.17561797995E-02	-5.18517216010E-02	4.18600722755E-02	-1.48649394895E-02	1.68932611226E-01
1.71850000000E+09	-3.26064623688E-03	-9.60632322464E-02	-5.08869738584E-02	4.28704499870E-02	-5.08689216706E-02	4.29849574713E-02	-1.09101400984E-02	1.72306416523E-01
1.71900000000E+09	-6.62404211289E-04	-9.69820662348E-02	-4.98974245042E-02	4.39704282199E-02	-4.98542509423E-02	4.40908909917E-02	-6.83945392970E-03	1.75563178943E-01
1.71950000000E+09	1.89517189426E-03	-9.79660859926E-02	-4.88748883491E-02	4.50382557664E-02	-4.88201387676E-02	4.51522421533E-02	-2.68927878179E-03	1.78668019525E-01
1.72000000000E+09	4.36711882360E-03	-9.90877758814E-02	-4.78088475280E-02	4.60945480829E-02	-4.77604616446E-02	4.61794746046E-02	1.56596501917E-03	1.81656242228E-01
1.72050000000E+09	6.84857122365E-03	-1.00257556150E-01	-4.67434240140E-02	4.71026262227E-02	-4.66950599734E-02	4.72036571723E-02	5.92066442579E-03	1.84477504865E-01
1.72100000000E+09	9.22716580165E-03	-1.01529364168E-01	-4.56376900850E-02	4.80757785394E-02	-4.56039483323E-02	4.81860902618E-02	1.03658716627E-02	1.87182243366E-01
1.72150000000E+09	1.15695426408E-02	-1.02865629620E-01	-4.45139580885E-02	4.90440085747E-02	-4.44842268065E-02	4.91399331934E-02	1.49016864949E-02	1.89767134640E-01
1.72200000000E+09	1.38470108872E-02	-1.04284127848E-01	-4.33928448608E-02	4.99701421374E-02	-4.33319730600E-02	5.00612712108E-02	1.95022812502E-02	1.92165321267E-01
1.72250000000E+09	1.60495593426E-02	-1.05779511585E-01	-4.22296864972E-02	5.08676369760E-02	-4.21844751912E-02	5.09738578708E-02	2.41655380207E-02	1.94436540548E-01
1.72300000000E+09	1.81944587064E-02	-1.07330653038E-01	-4.10609968481E-02	5.17515911432E-02	-4.10047998288E-02	5.18247485996E-02	2.88635346433E-02	1.96529537650E-01
1.72350000000E+09	2.02620645584E-02	-1.08952392015E-01	-3.98804385773E-02	5.25822105624E-02	-3.98127598297E-02	5.26679172379E-02	3.36659181025E-02	1.98487635753E-01
1.72400000000E+09	2.22642463555E-02	-1.10639895037E-01	-3.86716126587E-02	5.33994046463E-02	-3.86160259085E-02	5.34888542765E-02	3.85397922721E-02	2.00312843160E-01
1.72450000000E+09	2.41938349126E-02	-1.12411468411E-01	-3.74551070143E-02	5.41634302619E-02	-3.73794731117E-02	5.42722179254E-02	4.34471024492E-02	2.01968328754E-01
1.72500000000E+09	2.60655567950E-02	-1.14203419609E-01	-3.62139066943E-02	5.49173993604E-02	-3.61643920970E-02	5.50148298995E-02	4.83738211433E-02	2.03458273433E-01
1.72550000000E+09	2.78853638283E-02	-1.16040654227E-01	-3.49790134934E-02	5.56246266053E-02	-3.49143436452E-02	5.57132432564E-02	5.34072712520E-02	2.04783335949E-01
1.72600000000E+09	2.95923692997E-02	-1.17952276481E-01	-3.37128204938E-02	5.63193753304E-02	-3.36538165468E-02	5.64063468003E-02	5.84150266609E-02	2.05967686680E-01
1.72650000000E+09	3.12334923621E-02	-1.19891077191E-01	-3.24547569779E-02	5.69696090522E-02	-3.23791049492E-02	5.70688376603E-02	6.34827932480E-02	2.06994997113E-01
1.72700000000E+09	3.28018498489E-02	-1.21883275177E-01	-3.11682793117E-02	5.75931727104E-02	-3.10933438520E-02	5.76903837450E-02	6.85869838435E-02	2.07815445541E-01
1.72750000000E+09	3.42968122614E-02	-1.23925424260E-01	-2.99006732206E-02	5.81910993882E-02	-2.97952439253E-02	5.82805942230E-02	7.36833689593E-02	2.08552972096E-01
1.72800000000E+09	3.57064057943E-02	-1.25984050864E-01	-2.85855712502E-02	5.87599956829E-02	-2.85099481584E-02	5.88354429014E-02	7.88252771862E-02	2.09114077707E-01
1.72850000000E+09	3.70375822873E-02	-1.28090119103E-01	-2.72737954285E-02	5.92914118836E-02	-2.72147986554E-02	5.93750137764E-02	8.39415467439E-02	2.09481151973E-01
1.72900000000E+09	3.83080140145E-02	-1.30204923581E-01	-2.59527736391E-02	5.97952075379E-02	-2.58799408938E-02	5.98735195989E-02	8.91065915542E-02	2.09694018980E-01
1.72950000000E+09	3.94834897404E-02	-1.32363058102E-01	-2.46640035132E-02	6.02938231706E-02	-2.45700200163E-02	6.03385484518E-02	9.42591661181E-02	2.09769212385E-01
1.73000000000E+09	4.05980455985E-02	-1.34565407711E-01	-2.33202411046E-02	6.07142016004E-02	-2.32489466414E-02	6.07755750478E-02	9.93554811164E-02	2.09651772514E-01
1.73050000000E+09	4.16229681016E-02	-1.36747495379E-01	-2.20016048882E-02	6.11201542539E-02	-2.19066364100E-02	6.11823746291E-02	1.04515815539E-01	2.09413095526E-01
1.73100000000E+09	4.25537646441E-02	-1.38962879837E-01	-2.06751562049E-02	6.14968716002E-02	-2.05851483887E-02	6.15638342555E-02	1.09635254083E-01	2.08988351720E-01
1.73150000000E+09	4.34359596567E-02	-1.41203462272E-01	-1.93151540902E-02	6.18631663687E-02	-1.92693999388E-02	6.19237959196E-02	1.14742669868E-01	2.08435375857E-01
1.73200000000E+09	4.42303901017E-02	-1.43450307732E-01	-1.79886695215E-02	6.21780175084E-02	-1.79040274136E-02	6.22485780931E-02	1.19835170973E-01	2.07671143261E-01
1.73250000000E+09	4.49571733997E-02	-1.45688954067E-01	-1.66432749807E-02	6.24603877328E-02	-1.65606817356E-02	6.25238356302E-02	1.24872084698E-01	2.06774949144E-01
1.73300000000E+09	4.55662675624E-02	-1.47958486854E-01	-1.53152084540E-02	6.27389982381E-02	-1.52235699868E-02	6.27734936531E-02	1.29887232443E-01	2.05766157225E-01
1.73350000000E+09	4.61325193855E-02	-1.50230493095E-01	-1.39827490598E-02	6.29617349200E-02	-1.38827413799E-02	6.30231901312E-02	1.34873908843E-01	2.04568128761E-01
1.73400000000E+09	4.66398806442E-02	-1.52514360006E-01	-1.26230993034E-02	6.31746439673E-02	-1.25384702644E-02	6.32131890375E-02	1.39840422243E-01	2.03184045297E-01
1.73450000000E+09	4.70544301705E-02	-1.54768964068E-01	-1.12823619984E-02	6.33538339973E-02	-1.11966793167E-02	6.34000697591E-02	1.44715670970E-01	2.01713176850E-01
1.73500000000E+09	4.73751240559E-02	-1.57042461558E-01	-9.95694805966E-03	6.34969320201E-02	-9.84994652657E-03	6.35378620661E-02	1.49576883843E-01	2.00059321788E-01
1.73550000000E+09	4.76589328430E-02	-1.59287021844E-01	-8.60568669606E-03	6.36160789419E-02	-8.51333960818E-03	6.36657026858E-02	1.54359186080E-01	1.98264050334E-01
1.73600000000E+09	4.78423690427E-02	-1.61545240259E-01	-7.27193515235E-03	6.37202381506E-02	-7.18174913205E-03	6.37483218028E-02	1.59067477357E-01	1.96338081729E-01
1.73650000000E+09	4.79911985991E-02	-1.63800906115E-01	-5.93226475803E-03	6.37890357947E-02	-5.84511161720E-03	6.38149492105E-02	1.63713364774E-01	1.94258927930E-01
1.73700000000E+09	4.80362950730E-02	-1.66025502141E-01	-4.59455821851E-03	6.38097596611E-02	-4.51003846629E-03	6.38499892890E-02	1.68329300805E-01	1.92044896031E-01
1.73750000000E+09	4.80299162448E-02	-1.68247472012E-01	-3.25632713495E-03	6.38212609308E-02	-3.17613151429E-03	6.38629914950E-02	1.72862302833E-01	1.89692823186E-01
1.73800000000E+09	4.79291234716E-02	-1.70464296324E-01	-1.94801595365E-03	6.38079851549E-02	-1.85854341158E-03	6.38401924266E-02	1.77300744116E-01	1.87156803204E-01
1.73850000000E+09	4.77761556256E-02	-1.72648446708E-01	-6.24735514644E-04	6.37683815426E-02	-5.36156916646E-04	6.37991484095E-02	1.81656475559E-01	1.84564955354E-01
1.73900000000E+09	4.75780903197E-02	-1.74827059920E-01	6.89466724774E-04	6.36864912236E-02	7.83605832986E-04	6.37401684499E-02	1.85936245525E-01	1.81785579386E-01
1.73950000000E+09	4.73277403740E-02	-1.77000633324E-01	1.98929058187E-03	6.36106792386E-02	2.07456453786E-03	6.36319457223E-02	1.90128251183E-01	1.78892326970E-01
1.74000000000E+09	4.69663735532E-02	-1.79190289632E-01	3.29908715539E-03	6.34952485297E-02	3.37773823039E-03	6.35244468740E-02	1.94241025873E-01	1.75909525503E-01
1.74050000000E+09	4.65332184448E-02	-1.81274775230E-01	4.58307492629E-03	6.33552630288E-02	4.67678513284E-03	6.33808453140E-02	1.98240579361E-01	1.72762813794E-01
1.74100000000E+09	4.60802774202E-02	-1.83380346294E-01	5.88511731645E-03	6.31841672497E-02	5.97680029902E-03	6.32021170867E-02	2.02143102737E-01	1.69511753491E-01
1.74150000000E+09	4.55131169345E-02	-1.85445021175E-01	7.16038293407E-03	6.29787554055E-02	7.25061809398E-03	6.30086332621E-02	2.05933742950E-01	1.66164207751E-01
1.74200000000E+09	4.49147717282E-02	-1.87510873728E-01	8.43442044273E-03	6.27714742242E-02	8.51996817996E-03	6.27989389857E-02	2.09626530084E-01	1.62682061675E-01
1.74250000000E+09	4.42324005357E-02	-1.89514659467E-01	9.70287339115E-03	6.25240710043E-02	9.79057557270E-03	6.25422463283E-02	2.13266385802E-01	1.59083089535E-01
1.74300000000E+09	4.35236488983E-02	-1.91511291798E-01	1.09510166448E-02	6.22442364421E-02	1.10465671034E-02	6.22766121539E-02	2.16724621262E-01	1.55367588288E-01
1.74350000000E+09	4.27139237892E-02	-1.93489003756E-01	1.22084560002E-02	6.19822235141E-02	1.22895179281E-02	6.19957322168E-02	2.20064390820E-01	1.51572746999E-01
1.74400000000E+09	4.18809836333E-02	-1.95398261649E-01	1.34495432840E-02	6.16586105265E-02	1.35450792140E-02	6.16724871372E-02	2.23331336527E-01	1.47679689751E-01
1.74450000000E+09	4.09669483074E-02	-1.97308794733E-01	1.46604601537E-02	6.13318727140E-02	1.47613560004E-02	6.13548525795E-02	2.26447505291E-01	1.43682788340E-01
1.74500000000E+09	3.99790397546E-02	-1.99163033386E-01	1.59137719103E-02	6.09790010651E-02	1.59841257858E-02	6.09970285350E-02	2.29469524917E-01	1.39613804889E-01
1.74550000000E+09	3.89449330967E-02	-2.00975047444E-01	1.71002548348E-02	6.06014877164E-02	1.72115764033E-02	6.06202329270E-02	2.32333229326E-01	1.35457265054E-01
1.74600000000E+09	3.78644478371E-02	-2.02784013935E-01	1.83109655094E-02	6.02050713910E-02	1.84129577827E-02	6.02092529525E-02	2.35094335839E-01	1.31180621134E-01
1.74650000000E+09	3.67120283103E-02	-2.04528039677E-01	1.94945753736E-02	5.97840205022E-02	1.95985373515E-02	5.97966236216E-02	2.37676817358E-01	1.26880344986E-01
1.74700000000E+09	3.55035788432E-02	-2.06216313973E-01	2.06736251469E-02	5.93555282709E-02	2.07814356558E-02	5.93649672341E-02	2.40157985295E-01	1.22464770880E-01
1.74750000000E+09	3.42455469485E-02	-2.07880756193E-01	2.18482633163E-02	5.88909449557E-02	2.19474869786E-02	5.88973145630E-02	2.42530314659E-01	1.17994432012E-01
1.74800000000E+09	3.29447019555E-02	-2.09485017207E-01	2.30196764914E-02	5.84259648115E-02	2.31016989186E-02	5.84141125112E-02	2.44715916818E-01	1.13407915410E-01
1.74850000000E+09	3.15474894318E-02	-2.11021120250E-01	2.41596643553E-02	5.79076240384E-02	2.42552165385E-02	5.79110033444E-02	2.46781028459E-01	1.08807575619E-01
1.74900000000E+09	3.01191339025E-02	-2.12548207005E-01	2.53049210527E-02	5.73920711606E-02	2.53918119119E-02	5.73989158168E-02	2.48722200443E-01	1.04151051471E-01
1.74950000000E+09	2.86265165722E-02	-2.13987509481E-01	2.64319005943E-02	5.68598303198E-02	2.65247591553E-02	5.68524501983E-02	2.50512240459E-01	9.94159128772E-02
1.75000000000E+09	2.70730008298E-02	-2.15387176993E-01	2.75497426558E-02	5.62896226714E-02	2.76417902454E-02	5.63050358135E-02	2.52180556189E-01	9.46479856425E-02
1.75050000000E+09	2.54935083927E-02	-2.16714308013E-01	2.86521720960E-02	5.57356711009E-02	2.87378846614E-02	5.57332960224E-02	2.53653986487E-01	8.98447374040E-02
1.75100000000E+09	2.38690694120E-02	-2.18014655321E-01	2.97339912098E-02	5.51392478326E-02	2.98309211027E-02	5.51225297998E-02	2.55031358199E-01	8.49545724733E-02
1.75150000000E+09	2.21648926005E-02	-2.19227547207E-01	3.08031176107E-02	5.45246149461E-02	3.09164774938E-02	5.45073886183E-02	2.56241555456E-01	8.00976909498E-02
1.75200000000E+09	2.04043267738E-02	-2.20334007187E-01	3.18754755329E-02	5.38829680635E-02	3.19816711920E-02	5.38847996879E-02	2.57307385659E-01	7.51331465050E-02
1.75250000000E+09	1.86456082367E-02	-2.21433441636E-01	3.29320001052E-02	5.32391047899E-02	3.30380533703E-02	5.32255016781E-02	2.58227934053E-01	7.01785603612E-02
1.75300000000E+09	1.68139302753E-02	-2.22391528678E-01	3.39794874230E-02	5.25843354253E-02	3.40829601357E-02	5.25557322952E-02	2.58958389139E-01	6.52301953452E-02
1.75350000000E+09	1.49606457855E-02	-2.23330864346E-01	3.50024343763E-02	5.18944776087E-02	3.51121558677E-02	5.18784005116E-02	2.59574518791E-01	6.01781953636E-02
1.75400000000E+09	1.30452790265E-02	-2.24168929515E-01	3.60295396235E-02	5.11960585530E-02	3.61183371786E-02	5.11782239072E-02	2.60014321939E-01	5.52030006689E-02
1.75450000000E+09	1.11126260492E-02	-2.24933240947E-01	3.70297200076E-02	5.04673901612E-02	3.71379642938E-02	5.04592062215E-02	2.60338901908E-01	5.01495145622E-02
1.75500000000E+09	9.13632883696E-03	-2.25605315038E-01	3.80223554132E-02	4.97414413800E-02	3.81253535380E-02	4.97177844188E-02	2.60541211335E-01	4.50844743009E-02
1.75550000000E+09	7.15292876186E-03	-2.26181196903E-01	3.90101774658E-02	4.89920008830E-02	3.90856670287E-02	4.89660408667E-02	2.60477939929E-01	4.00508183996E-02
1.75600000000E+09	5.13939903523E-03	-2.26712405623E-01	3.99733612568E-02	4.82162848066E-02	4.00849448125E-02	4.82045638122E-02	2.60366386430E-01	3.50153982833E-02
1.75650000000E+09	3.09347693998E-03	-2.27111593958E-01	4.09225956188E-02	4.74452069956E-02	4.10292814601E-02	4.74125021087E-02	2.60074912838E-01	2.99969602738E-02
1.75700000000E+09	1.02543129153E-03	-2.27417938199E-01	4.18630734135E-02	4.66488158673E-02	4.19651554140E-02	4.66199270534E-02	2.59610224509E-01	2.49865948131E-02
1.75750000000E+09	-1.03662864406E-03	-2.27671169571E-01	4.27983151444E-02	4.58098173490E-02	4.28937377553E-02	4.57977014230E-02	2.59012344006E-01	2.00061465640E-02
1.75800000000E+09	-3.13129407879E-03	-2.27776761838E-01	4.37184305547E-02	4.49945285399E-02	4.37986408395E-02	4.49507347906E-02	2.58260141014E-01	1.49882486705E-02
1.75850000000E+09	-5.21109376012E-03	-2.27825826576E-01	4.46117519431E-02	4.41392789026E-02	4.47154143656E-02	4.41143101543E-02	2.57343277739E-01	1.00379722812E-02
1.75900000000E+09	-7.32584580790E-03	-2.27751906758E-01	4.54913275520E-02	4.32789405138E-02	4.55836610523E-02	4.32486657098E-02	2.56266778372E-01	5.13966092333E-03
