# Hz S RI R 50
! CMT, CMT808U, 21440046, 21.4.3/4
! Date: 11/12/2025 3:16:40 PM
! Data: Format (Calibration Info)
! Freq	S11:Re/Im(F2)	S41:Re/Im(F2)	S14:Re/Im(F2)	S44:Re/Im(F2)
1.70000000000E+09	-1.38175557548E-01	-1.18176368292E-01	-5.66029560941E-02	-3.62385505083E-02	-5.65987280729E-02	-3.62286704193E-02	-1.22226084080E-01	3.36785467947E-02
1.70050000000E+09	-1.37585372673E-01	-1.15839176474E-01	-5.73597251506E-02	-3.50095361571E-02	-5.73681977240E-02	-3.50162754044E-02	-1.22240858473E-01	3.92955514808E-02
1.70100000000E+09	-1.36865157279E-01	-1.13448464103E-01	-5.81189818209E-02	-3.37581390554E-02	-5.81195949626E-02	-3.37723774234E-02	-1.22078756684E-01	4.49142939012E-02
1.70150000000E+09	-1.35973734870E-01	-1.11091409641E-01	-5.88390814496E-02	-3.24852932757E-02	-5.88369912978E-02	-3.24776102085E-02	-1.21724871009E-01	5.05026167627E-02
1.70200000000E+09	-1.34927370870E-01	-1.08808129325E-01	-5.95507851853E-02	-3.12092986861E-02	-5.95301608166E-02	-3.12120596508E-02	-1.21163201099E-01	5.60976847407E-02
1.70250000000E+09	-1.33761770046E-01	-1.06502252487E-01	-6.02089833094E-02	-2.99082959557E-02	-6.02061275340E-02	-2.99118619576E-02	-1.20402684375E-01	6.16402462039E-02
1.70300000000E+09	-1.32422630173E-01	-1.04250283823E-01	-6.08349850979E-02	-2.85804663214E-02	-6.08281322888E-02	-2.85825033350E-02	-1.19511294249E-01	6.71483107274E-02
1.70350000000E+09	-1.30991906441E-01	-1.02067960426E-01	-6.14297112474E-02	-2.72472673878E-02	-6.14570324514E-02	-2.72493931497E-02	-1.18416232930E-01	7.26230165539E-02
1.70400000000E+09	-1.29370771551E-01	-9.99488971278E-02	-6.20253901564E-02	-2.58945694052E-02	-6.20269157226E-02	-2.58973420899E-02	-1.17153833870E-01	7.80605138766E-02
1.70450000000E+09	-1.27665327770E-01	-9.79107501419E-02	-6.25786444293E-02	-2.45449699491E-02	-6.25701178521E-02	-2.45530780655E-02	-1.15699473084E-01	8.34896442495E-02
1.70500000000E+09	-1.25825211514E-01	-9.59312882433E-02	-6.30854712406E-02	-2.31816745546E-02	-6.30958808030E-02	-2.31645382819E-02	-1.14059723327E-01	8.88359168040E-02
1.70550000000E+09	-1.23870185318E-01	-9.40372055242E-02	-6.35847692326E-02	-2.17962236657E-02	-6.35690934984E-02	-2.17885288754E-02	-1.12269076403E-01	9.41111541572E-02
1.70600000000E+09	-1.21799470009E-01	-9.22329266431E-02	-6.40135701090E-02	-2.03942666903E-02	-6.40253602419E-02	-2.03978810113E-02	-1.10311739477E-01	9.93204699275E-02
1.70650000000E+09	-1.19646000716E-01	-9.05043689685E-02	-6.44462490170E-02	-1.89713295517E-02	-6.44459376615E-02	-1.89860548584E-02	-1.08153346228E-01	1.04466703369E-01
1.70700000000E+09	-1.17376323460E-01	-8.89044387938E-02	-6.48297256696E-02	-1.75754870109E-02	-6.48435232422E-02	-1.75692964471E-02	-1.05838349775E-01	1.09555443455E-01
1.70750000000E+09	-1.15023914133E-01	-8.73836219987E-02	-6.51843747923E-02	-1.61533744494E-02	-6.52042629748E-02	-1.61502999403E-02	-1.03400286479E-01	1.14519742485E-01
1.70800000000E+09	-1.12574952558E-01	-8.59507182851E-02	-6.54928456019E-02	-1.47165579337E-02	-6.55035627019E-02	-1.47178079024E-02	-1.00762483756E-01	1.19427912306E-01
1.70850000000E+09	-1.10067263622E-01	-8.46814567906E-02	-6.58071994959E-02	-1.32766013813E-02	-6.57920964653E-02	-1.32578005009E-02	-9.79512338010E-02	1.24230737819E-01
1.70900000000E+09	-1.07498830295E-01	-8.34782868708E-02	-6.60609545744E-02	-1.18376692401E-02	-6.60684166995E-02	-1.18389359498E-02	-9.50493557052E-02	1.28945026215E-01
1.70950000000E+09	-1.04859232381E-01	-8.24258829440E-02	-6.62779250770E-02	-1.03882300638E-02	-6.62665829695E-02	-1.03917786324E-02	-9.19480172608E-02	1.33576621187E-01
1.71000000000E+09	-1.02178675015E-01	-8.14631955104E-02	-6.64700029429E-02	-8.92924928844E-03	-6.64687262747E-02	-8.93092910726E-03	-8.87248887043E-02	1.38052203823E-01
1.71050000000E+09	-9.94278560899E-02	-8.06351805396E-02	-6.66232846867E-02	-7.46884968463E-03	-6.66200795777E-02	-7.47304499233E-03	-8.53927763563E-02	1.42471262440E-01
1.71100000000E+09	-9.66637192729E-02	-7.98848968834E-02	-6.67185913427E-02	-6.01119015188E-03	-6.67356772135E-02	-6.02970797923E-03	-8.18370784408E-02	1.46747877154E-01
1.71150000000E+09	-9.38436619506E-02	-7.92762880158E-02	-6.68224724759E-02	-4.56444342274E-03	-6.68222232764E-02	-4.54816409554E-03	-7.82016704952E-02	1.50928681904E-01
1.71200000000E+09	-9.09928369035E-02	-7.88034296826E-02	-6.68778403966E-02	-3.11186228417E-03	-6.68788243698E-02	-3.10425183903E-03	-7.44366916688E-02	1.54966311010E-01
1.71250000000E+09	-8.81389932484E-02	-7.84480762232E-02	-6.69017676686E-02	-1.64744587185E-03	-6.68846300799E-02	-1.64348769107E-03	-7.05180928112E-02	1.58874222140E-01
1.71300000000E+09	-8.52832147866E-02	-7.81865614029E-02	-6.68784765316E-02	-1.95158008682E-04	-6.68952325548E-02	-1.80513030583E-04	-6.65058202679E-02	1.62672776067E-01
1.71350000000E+09	-8.23855694584E-02	-7.80632570475E-02	-6.68532566579E-02	1.25855365553E-03	-6.68411441958E-02	1.27092739561E-03	-6.23771082236E-02	1.66311480345E-01
1.71400000000E+09	-7.94825563504E-02	-7.80551607748E-02	-6.67544741058E-02	2.70573365110E-03	-6.67647193351E-02	2.71707663496E-03	-5.81381428404E-02	1.69825969487E-01
1.71450000000E+09	-7.66075463737E-02	-7.81437508317E-02	-6.66285833920E-02	4.14694084915E-03	-6.66406610495E-02	4.15486779819E-03	-5.37565527325E-02	1.73209924619E-01
1.71500000000E+09	-7.37358885608E-02	-7.83529581355E-02	-6.64834491048E-02	5.59942231180E-03	-6.64884678931E-02	5.60187025915E-03	-4.93095635338E-02	1.76422434622E-01
1.71550000000E+09	-7.08510033718E-02	-7.86690004726E-02	-6.63084465730E-02	7.03660990625E-03	-6.63042754510E-02	7.04012070428E-03	-4.46952568450E-02	1.79466355335E-01
1.71600000000E+09	-6.80172677427E-02	-7.91039126279E-02	-6.60927988773E-02	8.43696715347E-03	-6.61102528146E-02	8.44213579669E-03	-4.00769756087E-02	1.82439756388E-01
1.71650000000E+09	-6.51963030612E-02	-7.96470308805E-02	-6.58595571501E-02	9.85483737387E-03	-6.58538696813E-02	9.86894700144E-03	-3.53045983150E-02	1.85190167397E-01
1.71700000000E+09	-6.23911789541E-02	-8.02830722406E-02	-6.55776739579E-02	1.12828924472E-02	-6.55872055391E-02	1.12681834755E-02	-3.04977791791E-02	1.87839699266E-01
1.71750000000E+09	-5.96230218083E-02	-8.10031425122E-02	-6.52785510721E-02	1.26687757728E-02	-6.52804158808E-02	1.26667237151E-02	-2.55687771533E-02	1.90313517618E-01
1.71800000000E+09	-5.68706436145E-02	-8.18568949875E-02	-6.49340260124E-02	1.40598337668E-02	-6.49413667809E-02	1.40461458934E-02	-2.05921599747E-02	1.92603660335E-01
1.71850000000E+09	-5.41773811030E-02	-8.27968701833E-02	-6.45761491511E-02	1.54246126633E-02	-6.45834375806E-02	1.54401409078E-02	-1.55382007044E-02	1.94763658542E-01
1.71900000000E+09	-5.15393895096E-02	-8.38389935841E-02	-6.41825531473E-02	1.67953545174E-02	-6.41839806596E-02	1.67909429659E-02	-1.04173740330E-02	1.96734695158E-01
1.71950000000E+09	-4.89159281430E-02	-8.49442650139E-02	-6.37633491966E-02	1.81493858084E-02	-6.37573131554E-02	1.81502605047E-02	-5.24843476294E-03	1.98533703790E-01
1.72000000000E+09	-4.63685585514E-02	-8.61695686256E-02	-6.33002673134E-02	1.94762407145E-02	-6.33077230439E-02	1.94835486084E-02	-3.82886829382E-05	2.00192343689E-01
1.72050000000E+09	-4.38694361397E-02	-8.74615106340E-02	-6.28340680132E-02	2.08101780353E-02	-6.28342253959E-02	2.08105520340E-02	5.23261787124E-03	2.01664999019E-01
1.72100000000E+09	-4.13913194431E-02	-8.88433619817E-02	-6.23146445349E-02	2.21253298369E-02	-6.23198801221E-02	2.21189495557E-02	1.05600774182E-02	2.02980645721E-01
1.72150000000E+09	-3.89925954856E-02	-9.02892406793E-02	-6.17868609637E-02	2.34164861168E-02	-6.17859505547E-02	2.34343698008E-02	1.59242774084E-02	2.04125422402E-01
1.72200000000E+09	-3.66520639410E-02	-9.18174667829E-02	-6.12280197639E-02	2.47047407215E-02	-6.12314131961E-02	2.47003039814E-02	2.13010026929E-02	2.05104515333E-01
1.72250000000E+09	-3.43855139775E-02	-9.34222669715E-02	-6.06304044199E-02	2.59641253399E-02	-6.06444873667E-02	2.59712163194E-02	2.67202861958E-02	2.05914044999E-01
1.72300000000E+09	-3.21768370300E-02	-9.50977767382E-02	-6.00290847293E-02	2.72166529337E-02	-6.00391002155E-02	2.72222058767E-02	3.21358900998E-02	2.06504244534E-01
1.72350000000E+09	-3.00390177155E-02	-9.68268020072E-02	-5.93919853164E-02	2.84479890197E-02	-5.93978987729E-02	2.84439667870E-02	3.75701057345E-02	2.06945601490E-01
1.72400000000E+09	-2.79489057022E-02	-9.86401529829E-02	-5.87640436052E-02	2.96717964204E-02	-5.87357520013E-02	2.96724518435E-02	4.30269082049E-02	2.07252758104E-01
1.72450000000E+09	-2.59342023878E-02	-1.00509695013E-01	-5.80652924488E-02	3.08591799036E-02	-5.80638944547E-02	3.08740555254E-02	4.84998013362E-02	2.07357197119E-01
1.72500000000E+09	-2.39962127697E-02	-1.02406410369E-01	-5.73675992349E-02	3.20526440479E-02	-5.73643711687E-02	3.20588982136E-02	5.39384550973E-02	2.07286205757E-01
1.72550000000E+09	-2.21134346414E-02	-1.04375339224E-01	-5.66397284267E-02	3.32236348800E-02	-5.66400783169E-02	3.32301562902E-02	5.94118834331E-02	2.07027253915E-01
1.72600000000E+09	-2.03155563137E-02	-1.06397934013E-01	-5.58867599160E-02	3.43589531752E-02	-5.58742162244E-02	3.43620066274E-02	6.48040282038E-02	2.06631361962E-01
1.72650000000E+09	-1.85996163568E-02	-1.08466352802E-01	-5.51252015032E-02	3.54829998814E-02	-5.51216355850E-02	3.54833056693E-02	7.02483182362E-02	2.06025829568E-01
1.72700000000E+09	-1.69442742386E-02	-1.10580654340E-01	-5.43227023048E-02	3.65905058058E-02	-5.43356182700E-02	3.66045086404E-02	7.56501893736E-02	2.05257389223E-01
1.72750000000E+09	-1.53825782487E-02	-1.12736540647E-01	-5.35296492534E-02	3.76806901933E-02	-5.35186370533E-02	3.76953273852E-02	8.09996554566E-02	2.04344370580E-01
1.72800000000E+09	-1.38812801447E-02	-1.14927064092E-01	-5.26995103751E-02	3.87527149652E-02	-5.27025491339E-02	3.87664157115E-02	8.63507932190E-02	2.03250720424E-01
1.72850000000E+09	-1.24535274136E-02	-1.17162561705E-01	-5.18455758997E-02	3.98086841619E-02	-5.18648735247E-02	3.98268119504E-02	9.16225913451E-02	2.01974428363E-01
1.72900000000E+09	-1.11078327106E-02	-1.19437682837E-01	-5.10042401888E-02	4.08639069226E-02	-5.09952124378E-02	4.08429158853E-02	9.68659536884E-02	2.00546874129E-01
1.72950000000E+09	-9.84138931929E-03	-1.21708515824E-01	-5.01098970393E-02	4.18677014107E-02	-5.01218548677E-02	4.18680420724E-02	1.02055866372E-01	1.98944993331E-01
1.73000000000E+09	-8.64407278104E-03	-1.24052484616E-01	-4.92205376944E-02	4.28632484398E-02	-4.92178204295E-02	4.28693745577E-02	1.07197574912E-01	1.97172744398E-01
1.73050000000E+09	-7.53139256094E-03	-1.26369432930E-01	-4.83080124403E-02	4.38345980589E-02	-4.83096637276E-02	4.38550921622E-02	1.12288823060E-01	1.95268464144E-01
1.73100000000E+09	-6.46975682148E-03	-1.28745826147E-01	-4.73708862847E-02	4.48097878161E-02	-4.73722600744E-02	4.48093979672E-02	1.17337923152E-01	1.93180054671E-01
1.73150000000E+09	-5.51807960757E-03	-1.31126644638E-01	-4.64323466222E-02	4.57341814079E-02	-4.64287679512E-02	4.57510680845E-02	1.22260306878E-01	1.90943070285E-01
1.73200000000E+09	-4.62011515176E-03	-1.33505661042E-01	-4.54598571909E-02	4.66668572497E-02	-4.54641333976E-02	4.66672218467E-02	1.27167368216E-01	1.88548673355E-01
1.73250000000E+09	-3.80996947612E-03	-1.35923173867E-01	-4.44920671581E-02	4.75726887742E-02	-4.44813109487E-02	4.75609066649E-02	1.31944655820E-01	1.86025796890E-01
1.73300000000E+09	-3.10391287925E-03	-1.38354289765E-01	-4.34853850822E-02	4.84391032400E-02	-4.34947614063E-02	4.84504857413E-02	1.36656803284E-01	1.83351297461E-01
1.73350000000E+09	-2.42438116160E-03	-1.40805396563E-01	-4.24789696513E-02	4.93141452337E-02	-4.24884084270E-02	4.93165284901E-02	1.41297988441E-01	1.80499382305E-01
1.73400000000E+09	-1.85915687244E-03	-1.43269191458E-01	-4.14568325083E-02	5.01505916852E-02	-4.14468219716E-02	5.01563084830E-02	1.45851511152E-01	1.77466771634E-01
1.73450000000E+09	-1.34271410086E-03	-1.45714537516E-01	-4.04189904496E-02	5.09757597630E-02	-4.03945330677E-02	5.09905052869E-02	1.50312190604E-01	1.74364398150E-01
1.73500000000E+09	-9.27351483657E-04	-1.48161477052E-01	-3.93562056497E-02	5.17872620994E-02	-3.93559959866E-02	5.17852961308E-02	1.54619735335E-01	1.71108767679E-01
1.73550000000E+09	-5.68543747712E-04	-1.50615599958E-01	-3.82837880532E-02	5.25856372574E-02	-3.82961168358E-02	5.25743102208E-02	1.58862207046E-01	1.67694517114E-01
1.73600000000E+09	-3.04677923823E-04	-1.53059910672E-01	-3.72137450646E-02	5.33496270007E-02	-3.72092989710E-02	5.33461919231E-02	1.62966634589E-01	1.64176106321E-01
1.73650000000E+09	-8.84907545765E-05	-1.55508564776E-01	-3.61084406246E-02	5.40823490740E-02	-3.61202872798E-02	5.40892954640E-02	1.66974534222E-01	1.60537553659E-01
1.73700000000E+09	2.83929378271E-05	-1.57978626291E-01	-3.50076592729E-02	5.48155533443E-02	-3.50164264701E-02	5.48120212936E-02	1.70858772846E-01	1.56742265435E-01
1.73750000000E+09	7.40484681147E-05	-1.60408452091E-01	-3.38857721718E-02	5.55126198914E-02	-3.38935102242E-02	5.54953820495E-02	1.74630873229E-01	1.52858265509E-01
1.73800000000E+09	6.86990047832E-05	-1.62846589158E-01	-3.27466562774E-02	5.61926470579E-02	-3.27528621617E-02	5.62025668084E-02	1.78258559850E-01	1.48807944420E-01
1.73850000000E+09	-1.40225386169E-05	-1.65265992090E-01	-3.15925710434E-02	5.68456893212E-02	-3.15983502579E-02	5.68726795099E-02	1.81800374715E-01	1.44681627806E-01
1.73900000000E+09	-2.11979757022E-04	-1.67667829896E-01	-3.04333089578E-02	5.74994525093E-02	-3.04331121780E-02	5.75029159499E-02	1.85180399552E-01	1.40468452445E-01
1.73950000000E+09	-4.11588167172E-04	-1.70048572865E-01	-2.92688984057E-02	5.81252086179E-02	-2.92631097473E-02	5.81177454793E-02	1.88425959836E-01	1.36116527465E-01
1.74000000000E+09	-7.30849815552E-04	-1.72482734686E-01	-2.80782111325E-02	5.87355769515E-02	-2.80619989476E-02	5.87259321832E-02	1.91525602141E-01	1.31679501030E-01
1.74050000000E+09	-1.12410889592E-03	-1.74823622349E-01	-2.68613678812E-02	5.92814667504E-02	-2.68737263451E-02	5.93012464434E-02	1.94478286497E-01	1.27146208941E-01
1.74100000000E+09	-1.57854240717E-03	-1.77168198564E-01	-2.56451864693E-02	5.98580509639E-02	-2.56606201042E-02	5.98683131432E-02	1.97314435395E-01	1.22528154986E-01
1.74150000000E+09	-2.11692575578E-03	-1.79481682533E-01	-2.44323935702E-02	6.04008384846E-02	-2.44386924257E-02	6.03884216599E-02	2.00001362154E-01	1.17813020999E-01
1.74200000000E+09	-2.68088636689E-03	-1.81786516276E-01	-2.31900854799E-02	6.08980051958E-02	-2.31841538454E-02	6.09141091241E-02	2.02526226302E-01	1.13015030505E-01
1.74250000000E+09	-3.37934205058E-03	-1.84086166400E-01	-2.19444435214E-02	6.13924254329E-02	-2.19362764433E-02	6.13913609184E-02	2.04922770819E-01	1.08133215901E-01
1.74300000000E+09	-4.09825617694E-03	-1.86349621060E-01	-2.06837069382E-02	6.18561688377E-02	-2.06882334408E-02	6.18637768297E-02	2.07152895420E-01	1.03185001519E-01
1.74350000000E+09	-4.92318979128E-03	-1.88554221475E-01	-1.94134002017E-02	6.23004794879E-02	-1.94087610884E-02	6.23100030961E-02	2.09212042293E-01	9.81728376977E-02
1.74400000000E+09	-5.79394667609E-03	-1.90714717429E-01	-1.81299981996E-02	6.26995830971E-02	-1.81249251591E-02	6.27119524089E-02	2.11117331600E-01	9.30818517791E-02
1.74450000000E+09	-6.74444774859E-03	-1.92921964496E-01	-1.68194549146E-02	6.31144649106E-02	-1.68267278786E-02	6.31223847556E-02	2.12862246378E-01	8.79246763990E-02
1.74500000000E+09	-7.75953261287E-03	-1.95022821797E-01	-1.55320750641E-02	6.34791688681E-02	-1.55269042119E-02	6.34747961172E-02	2.14474742893E-01	8.27855936443E-02
1.74550000000E+09	-8.85703829720E-03	-1.97101575382E-01	-1.42039324060E-02	6.38263278408E-02	-1.42245806004E-02	6.38088550615E-02	2.15884851948E-01	7.75548140407E-02
1.74600000000E+09	-9.99687248370E-03	-1.99164528211E-01	-1.28943006933E-02	6.41319114092E-02	-1.28891697803E-02	6.41377596500E-02	2.17153749982E-01	7.22306712723E-02
1.74650000000E+09	-1.12409431606E-02	-2.01165374772E-01	-1.15657679945E-02	6.44230111181E-02	-1.15677272837E-02	6.44174497520E-02	2.18240158384E-01	6.69566111561E-02
1.74700000000E+09	-1.25516699207E-02	-2.03125328363E-01	-1.02344592958E-02	6.46828628800E-02	-1.02191422913E-02	6.46850605890E-02	2.19153029824E-01	6.15984216377E-02
1.74750000000E+09	-1.38968272450E-02	-2.05042821084E-01	-8.87406910703E-03	6.49261946448E-02	-8.88895061192E-03	6.49091769002E-02	2.19912085855E-01	5.62305557815E-02
1.74800000000E+09	-1.53052602782E-02	-2.06914526166E-01	-7.53030899962E-03	6.51335437098E-02	-7.52705816306E-03	6.51276311485E-02	2.20522251050E-01	5.08076757698E-02
1.74850000000E+09	-1.68189808157E-02	-2.08704322607E-01	-6.16324869696E-03	6.53033835664E-02	-6.16567717106E-03	6.52801571278E-02	2.20906583803E-01	4.53948898764E-02
1.74900000000E+09	-1.83696496029E-02	-2.10442657992E-01	-4.79402025220E-03	6.54400312297E-02	-4.80916177519E-03	6.54416823576E-02	2.21157130843E-01	3.99773853333E-02
1.74950000000E+09	-1.99925878706E-02	-2.12140547266E-01	-3.41684372599E-03	6.55587145636E-02	-3.42758117864E-03	6.55724375088E-02	2.21257520542E-01	3.45239097560E-02
1.75000000000E+09	-2.17043668783E-02	-2.13763329011E-01	-2.05645271812E-03	6.56616206679E-02	-2.05031505575E-03	6.56609034166E-02	2.21185519635E-01	2.90808476407E-02
1.75050000000E+09	-2.34245418296E-02	-2.15316745117E-01	-6.71783050864E-04	6.57127223627E-02	-6.44477394557E-04	6.57261638476E-02	2.20881379355E-01	2.36675548102E-02
1.75100000000E+09	-2.52017179280E-02	-2.16853447297E-01	7.20710964648E-04	6.57665101535E-02	7.29649066601E-04	6.57603976217E-02	2.20447757474E-01	1.82203559159E-02
1.75150000000E+09	-2.70735209422E-02	-2.18266298413E-01	2.10624050355E-03	6.57582940827E-02	2.10671420194E-03	6.57617036906E-02	2.19858331796E-01	1.28411002503E-02
1.75200000000E+09	-2.90150095802E-02	-2.19593419180E-01	3.50450992662E-03	6.57307681639E-02	3.49263849493E-03	6.57360353845E-02	2.19074610539E-01	7.42184259344E-03
1.75250000000E+09	-3.09790007862E-02	-2.20871857378E-01	4.88980292888E-03	6.56782136585E-02	4.89175921446E-03	6.56865332352E-02	2.18120091882E-01	2.06796390595E-03
1.75300000000E+09	-3.29971702998E-02	-2.22054975893E-01	6.27106506960E-03	6.56116025233E-02	6.27107496251E-03	6.56169533450E-02	2.17024882394E-01	-3.26553507060E-03
1.75350000000E+09	-3.50523058511E-02	-2.23190455135E-01	7.65118848573E-03	6.54751752287E-02	7.67145104839E-03	6.54923387356E-02	2.15726958346E-01	-8.57209433201E-03
1.75400000000E+09	-3.71944917007E-02	-2.24189675957E-01	9.05916479163E-03	6.53381341587E-02	9.06785722847E-03	6.53363621077E-02	2.14256133984E-01	-1.38314030294E-02
1.75450000000E+09	-3.93393837410E-02	-2.25089759665E-01	1.04602965442E-02	6.51528534994E-02	1.04457390588E-02	6.51604910156E-02	2.12677849107E-01	-1.90441937959E-02
1.75500000000E+09	-4.15454397813E-02	-2.25909150987E-01	1.18230196333E-02	6.49460965569E-02	1.18387497526E-02	6.49531100582E-02	2.10888723453E-01	-2.42346393415E-02
1.75550000000E+09	-4.37585180785E-02	-2.26654574100E-01	1.32186082847E-02	6.47249376365E-02	1.32152261728E-02	6.47128312623E-02	2.08910352866E-01	-2.93274306017E-02
1.75600000000E+09	-4.59878063563E-02	-2.27313970323E-01	1.45961518609E-02	6.44402413896E-02	1.46045963626E-02	6.44465420892E-02	2.06828555951E-01	-3.43978000298E-02
1.75650000000E+09	-4.82899517318E-02	-2.27815377134E-01	1.59631173780E-02	6.41415032249E-02	1.59815003703E-02	6.41571070337E-02	2.04555415159E-01	-3.93768943999E-02
1.75700000000E+09	-5.05877622013E-02	-2.28226009490E-01	1.73319399757E-02	6.38174273175E-02	1.73390663852E-02	6.38137916078E-02	2.02127961393E-01	-4.42717739394E-02
1.75750000000E+09	-5.29087031458E-02	-2.28574342174E-01	1.86817671901E-02	6.34526538384E-02	1.87057504872E-02	6.34593608637E-02	1.99548326068E-01	-4.90850309353E-02
1.75800000000E+09	-5.52616054208E-02	-2.28749495843E-01	2.00489599493E-02	6.30703131967E-02	2.00454902770E-02	6.30611201503E-02	1.96784909408E-01	-5.38467668255E-02
1.75850000000E+09	-5.76293254030E-02	-2.28859869630E-01	2.13991324737E-02	6.26491434719E-02	2.14001818565E-02	6.26558534330E-02	1.93905046280E-01	-5.85188958675E-02
