# Hz S RI R 50
! CMT, CMT808U, 21440046, 21.4.3/4
! Date: 11/17/2025 2:53:11 PM
! Data: Format (Calibration Info)
! Freq	S11:Re/Im(F2)	S41:Re/Im(F2)	S14:Re/Im(F2)	S44:Re/Im(F2)
1.70000000000E+09	-8.79095640379E-02	-1.36694502182E-01	-5.57741395447E-02	-4.11753712193E-02	-5.58671781408E-02	-4.11178355044E-02	-9.70380618279E-02	4.20758886493E-02
1.70050000000E+09	-8.75721364077E-02	-1.34085714146E-01	-5.66541209831E-02	-4.00359055696E-02	-5.67585826250E-02	-3.99758803611E-02	-9.72961970854E-02	4.75327922972E-02
1.70100000000E+09	-8.70466063724E-02	-1.31456363936E-01	-5.75326882787E-02	-3.88705035444E-02	-5.76187311304E-02	-3.88253532021E-02	-9.73653092360E-02	5.29748268147E-02
1.70150000000E+09	-8.63764130435E-02	-1.28827764885E-01	-5.83921711608E-02	-3.76958742622E-02	-5.84846221438E-02	-3.76495878692E-02	-9.72533907995E-02	5.84432995989E-02
1.70200000000E+09	-8.55466221666E-02	-1.26250501819E-01	-5.92295767821E-02	-3.64942163565E-02	-5.93082732633E-02	-3.64522793005E-02	-9.69515933939E-02	6.38997885693E-02
1.70250000000E+09	-8.45413583331E-02	-1.23672489088E-01	-6.00199511291E-02	-3.52827245212E-02	-6.01155512127E-02	-3.52282776827E-02	-9.64577984624E-02	6.93179504121E-02
1.70300000000E+09	-8.33913660371E-02	-1.21107258991E-01	-6.08185035934E-02	-3.40596664657E-02	-6.09015833354E-02	-3.39875681303E-02	-9.58009833613E-02	7.47184184772E-02
1.70350000000E+09	-8.21152453242E-02	-1.18618901610E-01	-6.15631997468E-02	-3.27887496681E-02	-6.16635282920E-02	-3.27190728107E-02	-9.49735589320E-02	8.00991055067E-02
1.70400000000E+09	-8.06236181313E-02	-1.16203195730E-01	-6.23148058111E-02	-3.15044816225E-02	-6.24024153670E-02	-3.14488730186E-02	-9.39583945973E-02	8.54159274428E-02
1.70450000000E+09	-7.90461276654E-02	-1.13823409373E-01	-6.30192517187E-02	-3.02084120737E-02	-6.31079976021E-02	-3.01499105552E-02	-9.27670580693E-02	9.07336098241E-02
1.70500000000E+09	-7.73060138257E-02	-1.11503360774E-01	-6.36970247534E-02	-2.88938841103E-02	-6.38005538256E-02	-2.88356874205E-02	-9.13869554349E-02	9.60200385329E-02
1.70550000000E+09	-7.54541594865E-02	-1.09309262952E-01	-6.43572592143E-02	-2.75559520192E-02	-6.44515655150E-02	-2.74766651658E-02	-8.98435120597E-02	1.01187355173E-01
1.70600000000E+09	-7.34777781154E-02	-1.07176694401E-01	-6.49861904262E-02	-2.62118842936E-02	-6.50795586153E-02	-2.61238108887E-02	-8.81412667552E-02	1.06350257699E-01
1.70650000000E+09	-7.13514360089E-02	-1.05138630619E-01	-6.55742635786E-02	-2.48147078342E-02	-6.56862870382E-02	-2.47674685623E-02	-8.62578637865E-02	1.11435142660E-01
1.70700000000E+09	-6.91509071565E-02	-1.03190779201E-01	-6.61665323665E-02	-2.34371030797E-02	-6.62440703339E-02	-2.33398394106E-02	-8.41904092046E-02	1.16452834455E-01
1.70750000000E+09	-6.68311462590E-02	-1.01372576393E-01	-6.67106968844E-02	-2.20306617564E-02	-6.67828003787E-02	-2.19431538132E-02	-8.20258712741E-02	1.21401279251E-01
1.70800000000E+09	-6.44097189646E-02	-9.96345792671E-02	-6.72096391795E-02	-2.06092131883E-02	-6.73017916547E-02	-2.05257119494E-02	-7.96418654065E-02	1.26266338190E-01
1.70850000000E+09	-6.19035519451E-02	-9.80299166165E-02	-6.77006979524E-02	-1.91577927583E-02	-6.77594870351E-02	-1.90790578130E-02	-7.71186446915E-02	1.31031625852E-01
1.70900000000E+09	-5.93055113236E-02	-9.65224357354E-02	-6.81449807397E-02	-1.76998837769E-02	-6.82357626433E-02	-1.76444330649E-02	-7.44841788744E-02	1.35731998036E-01
1.70950000000E+09	-5.66766248558E-02	-9.51782731721E-02	-6.85463301269E-02	-1.62344965371E-02	-6.86340137260E-02	-1.61529240101E-02	-7.16442818520E-02	1.40312533751E-01
1.71000000000E+09	-5.39528061706E-02	-9.39328869866E-02	-6.89421451826E-02	-1.47722164749E-02	-6.90036945338E-02	-1.46803931516E-02	-6.86575101219E-02	1.44826792129E-01
1.71050000000E+09	-5.11800118405E-02	-9.28081366023E-02	-6.92881987011E-02	-1.32915746847E-02	-6.93666168479E-02	-1.31847639887E-02	-6.56119395505E-02	1.49200777232E-01
1.71100000000E+09	-4.83554579646E-02	-9.18032704855E-02	-6.95934867562E-02	-1.17818695708E-02	-6.96584262445E-02	-1.16877540019E-02	-6.23225560260E-02	1.53468057999E-01
1.71150000000E+09	-4.54749368477E-02	-9.09070874216E-02	-6.98699158834E-02	-1.02566240643E-02	-6.99343349162E-02	-1.01666748626E-02	-5.89331941300E-02	1.57682494503E-01
1.71200000000E+09	-4.25773381812E-02	-9.01525136132E-02	-7.00952317421E-02	-8.74383751428E-03	-7.01824370091E-02	-8.64254049751E-03	-5.54158878274E-02	1.61726583085E-01
1.71250000000E+09	-3.96504390816E-02	-8.95618395390E-02	-7.03244773303E-02	-7.22392676150E-03	-7.03819845619E-02	-7.11952296872E-03	-5.17735272795E-02	1.65658174865E-01
1.71300000000E+09	-3.67058595824E-02	-8.90697627571E-02	-7.05015850009E-02	-5.68523235497E-03	-7.05534470066E-02	-5.59572748269E-03	-4.80061927387E-02	1.69471963655E-01
1.71350000000E+09	-3.37587508425E-02	-8.86800995755E-02	-7.06351119495E-02	-4.15509873075E-03	-7.06937704358E-02	-4.06018132975E-03	-4.41459859815E-02	1.73164939065E-01
1.71400000000E+09	-3.07436850227E-02	-8.84519383748E-02	-7.07412661710E-02	-2.61147774492E-03	-7.07930113804E-02	-2.50815003717E-03	-4.01635875024E-02	1.76736007220E-01
1.71450000000E+09	-2.77748075773E-02	-8.83103819598E-02	-7.07799518309E-02	-1.06362052742E-03	-7.08534198492E-02	-9.53878489271E-04	-3.60222394720E-02	1.80139831505E-01
1.71500000000E+09	-2.47891914263E-02	-8.83031730234E-02	-7.08133203362E-02	4.58645597466E-04	-7.08775002184E-02	5.91304979570E-04	-3.18402252306E-02	1.83450505886E-01
1.71550000000E+09	-2.18310290112E-02	-8.84100094748E-02	-7.08058516580E-02	2.01864607467E-03	-7.08571192338E-02	2.13235293501E-03	-2.75145821123E-02	1.86570864426E-01
1.71600000000E+09	-1.88742748022E-02	-8.86515451218E-02	-7.07670413205E-02	3.57362990126E-03	-7.08060846503E-02	3.68017187584E-03	-2.31444751463E-02	1.89590946323E-01
1.71650000000E+09	-1.59491949481E-02	-8.89959028886E-02	-7.07014641439E-02	5.12348664375E-03	-7.07335454919E-02	5.21780569387E-03	-1.86232889526E-02	1.92478679509E-01
1.71700000000E+09	-1.30325574310E-02	-8.94509565151E-02	-7.05812684194E-02	6.66639220784E-03	-7.06057361944E-02	6.77546742643E-03	-1.40449225755E-02	1.95171239768E-01
1.71750000000E+09	-1.01534903244E-02	-9.00026908532E-02	-7.04261380880E-02	8.19722296780E-03	-7.04568117210E-02	8.33510854289E-03	-9.37119511673E-03	1.97729011204E-01
1.71800000000E+09	-7.29023600646E-03	-9.06846855392E-02	-7.02180497441E-02	9.75697139836E-03	-7.02662138662E-02	9.86107019177E-03	-4.64837565577E-03	2.00126120417E-01
1.71850000000E+09	-4.46638422539E-03	-9.14724412334E-02	-6.99906382760E-02	1.12794119993E-02	-7.00403227196E-02	1.13795005428E-02	1.59899205541E-04	2.02412674986E-01
1.71900000000E+09	-1.72486111347E-03	-9.23566606670E-02	-6.97361782323E-02	1.28016704895E-02	-6.97645061360E-02	1.29280988002E-02	5.05964771056E-03	2.04504600072E-01
1.71950000000E+09	1.00797469670E-03	-9.33271424188E-02	-6.94376981004E-02	1.43320160201E-02	-6.94543886702E-02	1.44271335290E-02	9.97342296952E-03	2.06424860912E-01
1.72000000000E+09	3.67798897306E-03	-9.44102904731E-02	-6.90980576095E-02	1.58376944075E-02	-6.91072911425E-02	1.59513508364E-02	1.49443672980E-02	2.08199157854E-01
1.72050000000E+09	6.32974035991E-03	-9.55615886888E-02	-6.87341198317E-02	1.73524736554E-02	-6.87340147345E-02	1.74458139334E-02	2.00061219593E-02	2.09816132013E-01
1.72100000000E+09	8.90403773534E-03	-9.68293111670E-02	-6.83289881300E-02	1.88286283171E-02	-6.83457172878E-02	1.89519833403E-02	2.50912796583E-02	2.11289499983E-01
1.72150000000E+09	1.14192752431E-02	-9.81442253546E-02	-6.78849247846E-02	2.03355817509E-02	-6.78990878376E-02	2.04276150566E-02	3.02212659778E-02	2.12596960740E-01
1.72200000000E+09	1.38850083426E-02	-9.95725525314E-02	-6.74136146753E-02	2.17965977729E-02	-6.74314542403E-02	2.19186988911E-02	3.53924544446E-02	2.13728114702E-01
1.72250000000E+09	1.62837199010E-02	-1.01065380637E-01	-6.69042250800E-02	2.32722459805E-02	-6.69190997585E-02	2.33692365810E-02	4.05803512295E-02	2.14679631672E-01
1.72300000000E+09	1.86160225611E-02	-1.02644912930E-01	-6.63757116703E-02	2.47047584199E-02	-6.63699826986E-02	2.48232490909E-02	4.57633169031E-02	2.15471622626E-01
1.72350000000E+09	2.08740498998E-02	-1.04280652868E-01	-6.58117650396E-02	2.61454976010E-02	-6.57973107417E-02	2.62545675694E-02	5.09951367575E-02	2.16132678268E-01
1.72400000000E+09	2.30864320796E-02	-1.06001088854E-01	-6.52042147898E-02	2.75667377461E-02	-6.52076051108E-02	2.76751078496E-02	5.62779615874E-02	2.16604709045E-01
1.72450000000E+09	2.52105582883E-02	-1.07790008346E-01	-6.45622782912E-02	2.89518990039E-02	-6.45632439650E-02	2.90760989942E-02	6.15435407401E-02	2.16916273521E-01
1.72500000000E+09	2.72742910877E-02	-1.09623658967E-01	-6.39139787519E-02	3.03490426196E-02	-6.38831563941E-02	3.04700663980E-02	6.67857873805E-02	2.17061397760E-01
1.72550000000E+09	2.92631114356E-02	-1.11530843385E-01	-6.31980943499E-02	3.17127409022E-02	-6.31940917197E-02	3.18298256101E-02	7.20709222593E-02	2.17016297607E-01
1.72600000000E+09	3.11803409806E-02	-1.13490340461E-01	-6.24650979326E-02	3.30714297534E-02	-6.24613406036E-02	3.31935179684E-02	7.72907645635E-02	2.16843822744E-01
1.72650000000E+09	3.30042519952E-02	-1.15499642050E-01	-6.16956323225E-02	3.44083269980E-02	-6.16906153496E-02	3.45349620594E-02	8.25696927202E-02	2.16451373925E-01
1.72700000000E+09	3.47878511127E-02	-1.17577476481E-01	-6.09292679179E-02	3.57211779567E-02	-6.08942391489E-02	3.58471632853E-02	8.77897003661E-02	2.15947739985E-01
1.72750000000E+09	3.64605138402E-02	-1.19690622680E-01	-6.01055096075E-02	3.70186396420E-02	-6.00988228482E-02	3.71361319809E-02	9.29842268657E-02	2.15261928798E-01
1.72800000000E+09	3.80760646196E-02	-1.21835550324E-01	-5.92387859369E-02	3.82930277492E-02	-5.92434109702E-02	3.84015141008E-02	9.81872069787E-02	2.14406795545E-01
1.72850000000E+09	3.96039499305E-02	-1.24058226874E-01	-5.83740626798E-02	3.95519070099E-02	-5.83574453560E-02	3.96625044720E-02	1.03317303994E-01	2.13403783183E-01
1.72900000000E+09	4.10591475359E-02	-1.26294516972E-01	-5.74821067691E-02	4.07833908993E-02	-5.74575637201E-02	4.08950874317E-02	1.08424613536E-01	2.12239285363E-01
1.72950000000E+09	4.24353737621E-02	-1.28546368064E-01	-5.65533841217E-02	4.19900605100E-02	-5.65284205141E-02	4.20958041786E-02	1.13512064744E-01	2.10905584628E-01
1.73000000000E+09	4.37114161370E-02	-1.30905071624E-01	-5.56022218323E-02	4.31674753270E-02	-5.55728602767E-02	4.32873995416E-02	1.18517455885E-01	2.09412902511E-01
1.73050000000E+09	4.49240737122E-02	-1.33211371113E-01	-5.46260749755E-02	4.43270090860E-02	-5.45905275683E-02	4.44290705903E-02	1.23522527237E-01	2.07798891780E-01
1.73100000000E+09	4.60490764351E-02	-1.35609895211E-01	-5.36396181015E-02	4.54682394810E-02	-5.35884229622E-02	4.55823530551E-02	1.28448078935E-01	2.05994143896E-01
1.73150000000E+09	4.70919154745E-02	-1.37997372035E-01	-5.25887506024E-02	4.65873772700E-02	-5.25542375944E-02	4.66937015681E-02	1.33301759054E-01	2.04013569403E-01
1.73200000000E+09	4.80526762693E-02	-1.40409137561E-01	-5.15432592799E-02	4.76886196220E-02	-5.15033622203E-02	4.77820971396E-02	1.38117576287E-01	2.01917860061E-01
1.73250000000E+09	4.89360684760E-02	-1.42848705737E-01	-5.04786313643E-02	4.87288106721E-02	-5.04294013758E-02	4.88492828008E-02	1.42845329677E-01	1.99680700093E-01
1.73300000000E+09	4.96932447325E-02	-1.45288094925E-01	-4.93813728044E-02	4.97687393367E-02	-4.93354059244E-02	4.98801439610E-02	1.47479883555E-01	1.97296684178E-01
1.73350000000E+09	5.04057491611E-02	-1.47768560094E-01	-4.82567662034E-02	5.07938424709E-02	-4.82295471517E-02	5.09002207711E-02	1.52093368625E-01	1.94749148093E-01
1.73400000000E+09	5.10335631935E-02	-1.50249401533E-01	-4.71305985245E-02	5.17926284395E-02	-4.70823477272E-02	5.18803388189E-02	1.56599924704E-01	1.92057788298E-01
1.73450000000E+09	5.15779929282E-02	-1.52724875127E-01	-4.59695198897E-02	5.27259327270E-02	-4.59323260287E-02	5.28388475326E-02	1.60999852846E-01	1.89259353954E-01
1.73500000000E+09	5.20248644930E-02	-1.55215161403E-01	-4.47950802264E-02	5.36650243310E-02	-4.47594895340E-02	5.37681672274E-02	1.65323425333E-01	1.86311344275E-01
1.73550000000E+09	5.24128555826E-02	-1.57709807585E-01	-4.36113310194E-02	5.45600003547E-02	-4.35647445866E-02	5.46669717576E-02	1.69569069296E-01	1.83191473878E-01
1.73600000000E+09	5.26823804312E-02	-1.60204909937E-01	-4.23910986313E-02	5.54482721153E-02	-4.23394899581E-02	5.55298624958E-02	1.73656031483E-01	1.79981522298E-01
1.73650000000E+09	5.28941747536E-02	-1.62693518181E-01	-4.11811122704E-02	5.62890672033E-02	-4.11472272119E-02	5.63866412307E-02	1.77714241055E-01	1.76651954989E-01
1.73700000000E+09	5.30501555286E-02	-1.65199015616E-01	-3.99396736147E-02	5.71102389763E-02	-3.98786646533E-02	5.71987679633E-02	1.81636629936E-01	1.73151497894E-01
1.73750000000E+09	5.30558224639E-02	-1.67662538930E-01	-3.86740737050E-02	5.78994476647E-02	-3.86229691365E-02	5.79801280225E-02	1.85472519849E-01	1.69610650046E-01
1.73800000000E+09	5.30384633823E-02	-1.70172232561E-01	-3.74113433557E-02	5.86606173833E-02	-3.73471649205E-02	5.87495454541E-02	1.89153763678E-01	1.65851291221E-01
1.73850000000E+09	5.29040273713E-02	-1.72618325967E-01	-3.61175520063E-02	5.93871011985E-02	-3.60560531718E-02	5.94788803758E-02	1.92758598486E-01	1.62043759820E-01
1.73900000000E+09	5.27137059159E-02	-1.75076767383E-01	-3.48088840975E-02	6.00883101800E-02	-3.47512962892E-02	6.01760785556E-02	1.96234896031E-01	1.58105303204E-01
1.73950000000E+09	5.24590615700E-02	-1.77506985528E-01	-3.35121040150E-02	6.07595112113E-02	-3.34496027244E-02	6.08388616670E-02	1.99570963557E-01	1.54086561062E-01
1.74000000000E+09	5.20761407875E-02	-1.79967209090E-01	-3.21861526396E-02	6.13915211073E-02	-3.21258086933E-02	6.14758717498E-02	2.02802392619E-01	1.49928656800E-01
1.74050000000E+09	5.16273926045E-02	-1.82351696647E-01	-3.08576857090E-02	6.20075847936E-02	-3.07922986609E-02	6.20920892863E-02	2.05868313476E-01	1.45672407904E-01
1.74100000000E+09	5.10757116025E-02	-1.84724480282E-01	-2.95142873198E-02	6.25856620794E-02	-2.94361462982E-02	6.26706752564E-02	2.08806887572E-01	1.41323330033E-01
1.74150000000E+09	5.04572365167E-02	-1.87059080670E-01	-2.81566909041E-02	6.31285271284E-02	-2.80896675113E-02	6.32068059140E-02	2.11652786254E-01	1.36892872127E-01
1.74200000000E+09	4.97994659389E-02	-1.89383379765E-01	-2.67899219958E-02	6.36473769210E-02	-2.67212009074E-02	6.37415841192E-02	2.14332152205E-01	1.32366303061E-01
1.74250000000E+09	4.89942879445E-02	-1.91665831383E-01	-2.54165502829E-02	6.41391083886E-02	-2.53603441928E-02	6.42113756056E-02	2.16877093290E-01	1.27779458853E-01
1.74300000000E+09	4.81740727810E-02	-1.93917149706E-01	-2.40568140721E-02	6.45918787565E-02	-2.39908437488E-02	6.46727322861E-02	2.19280200787E-01	1.23059894356E-01
1.74350000000E+09	4.72631060022E-02	-1.96151156439E-01	-2.26527033249E-02	6.50290534671E-02	-2.25983386314E-02	6.50926759285E-02	2.21529467064E-01	1.18315521319E-01
1.74400000000E+09	4.62660321049E-02	-1.98292634334E-01	-2.12644242512E-02	6.54162716924E-02	-2.12204456308E-02	6.54856465852E-02	2.23622696233E-01	1.13467740494E-01
1.74450000000E+09	4.52031955809E-02	-2.00454063763E-01	-1.98827569045E-02	6.57937443786E-02	-1.98069554025E-02	6.58651982561E-02	2.25602257528E-01	1.08595962942E-01
1.74500000000E+09	4.40475623230E-02	-2.02525731860E-01	-1.84899495731E-02	6.61271576596E-02	-1.84341931857E-02	6.61940867523E-02	2.27405663008E-01	1.03627462604E-01
1.74550000000E+09	4.28410616792E-02	-2.04571554615E-01	-1.70789652543E-02	6.64407087040E-02	-1.70198726229E-02	6.64884185049E-02	2.29056255223E-01	9.86093005100E-02
1.74600000000E+09	4.15889278452E-02	-2.06555618554E-01	-1.56962193014E-02	6.67116604926E-02	-1.56103573687E-02	6.67503130224E-02	2.30556892139E-01	9.35241090223E-02
1.74650000000E+09	4.02085116213E-02	-2.08489040848E-01	-1.42844162150E-02	6.69462075712E-02	-1.42139428000E-02	6.70107801801E-02	2.31875285019E-01	8.84241441042E-02
1.74700000000E+09	3.87787806495E-02	-2.10369348052E-01	-1.28811608464E-02	6.71860772729E-02	-1.28050287565E-02	6.72243010259E-02	2.33003972936E-01	8.32504901553E-02
1.74750000000E+09	3.73237544552E-02	-2.12197770585E-01	-1.14891463636E-02	6.73383421433E-02	-1.14010515993E-02	6.74164728415E-02	2.34037111891E-01	7.80876352880E-02
1.74800000000E+09	3.57819747008E-02	-2.13966672267E-01	-1.00901007572E-02	6.75022155719E-02	-9.97991243119E-03	6.75631021135E-02	2.34872757544E-01	7.28243180643E-02
1.74850000000E+09	3.41601659576E-02	-2.15658912891E-01	-8.66205517111E-03	6.76223054363E-02	-8.58748165913E-03	6.76910909430E-02	2.35576609409E-01	6.75841374788E-02
1.74900000000E+09	3.24978962068E-02	-2.17288627161E-01	-7.26859375217E-03	6.77098515639E-02	-7.18109715491E-03	6.77830779976E-02	2.36087884371E-01	6.22796914632E-02
1.74950000000E+09	3.07486563443E-02	-2.18857016003E-01	-5.86200065380E-03	6.77911193377E-02	-5.78480069339E-03	6.78369774462E-02	2.36425027969E-01	5.69898444280E-02
1.75000000000E+09	2.89717995360E-02	-2.20365270555E-01	-4.46682242191E-03	6.78254257171E-02	-4.37979015975E-03	6.78884546464E-02	2.36649504933E-01	5.16731825522E-02
1.75050000000E+09	2.71213135743E-02	-2.21789357564E-01	-3.06943691902E-03	6.78310778334E-02	-2.97338391228E-03	6.78816851713E-02	2.36651988220E-01	4.63641146972E-02
1.75100000000E+09	2.52370690139E-02	-2.23168626783E-01	-1.68437337073E-03	6.78135794546E-02	-1.60093629252E-03	6.78623636074E-02	2.36514778959E-01	4.10117421485E-02
1.75150000000E+09	2.32810343112E-02	-2.24437645597E-01	-2.92252238175E-04	6.77722352731E-02	-2.06512018854E-04	6.78214958961E-02	2.36209090624E-01	3.57219337544E-02
1.75200000000E+09	2.12461460839E-02	-2.25610853589E-01	1.07390791404E-03	6.76971566933E-02	1.18198291276E-03	6.77348241774E-02	2.35699172640E-01	3.03837345420E-02
1.75250000000E+09	1.92038546444E-02	-2.26718869233E-01	2.44891510413E-03	6.75948835354E-02	2.54415192924E-03	6.76446379794E-02	2.35058338606E-01	2.50954693831E-02
1.75300000000E+09	1.71276157081E-02	-2.27726274936E-01	3.82194021264E-03	6.74718574540E-02	3.90579105169E-03	6.75048848493E-02	2.34225867891E-01	1.98172670594E-02
1.75350000000E+09	1.50030068683E-02	-2.28661116339E-01	5.17966775733E-03	6.73098852275E-02	5.26842170957E-03	6.73614842790E-02	2.33268223895E-01	1.45679156467E-02
1.75400000000E+09	1.28079590499E-02	-2.29491236188E-01	6.52219200201E-03	6.71143521003E-02	6.63648146406E-03	6.71757001834E-02	2.32067484886E-01	9.32911615666E-03
1.75450000000E+09	1.06345862951E-02	-2.30211344348E-01	7.88181109068E-03	6.69178044651E-02	7.98059085920E-03	6.69498209422E-02	2.30794793086E-01	4.12472779092E-03
1.75500000000E+09	8.37506500454E-03	-2.30844062443E-01	9.22408456723E-03	6.66763287215E-02	9.31543017515E-03	6.67249954113E-02	2.29323233306E-01	-1.05483924721E-03
1.75550000000E+09	6.15543043703E-03	-2.31391327474E-01	1.05452385931E-02	6.64315868890E-02	1.06339236175E-02	6.64647198796E-02	2.27642759622E-01	-6.12944047972E-03
1.75600000000E+09	3.89025544005E-03	-2.31862776812E-01	1.18573949733E-02	6.61421402630E-02	1.19582425499E-02	6.61785113482E-02	2.25839804956E-01	-1.12108443103E-02
1.75650000000E+09	1.58534018140E-03	-2.32173889655E-01	1.31702975996E-02	6.58440869554E-02	1.32677165618E-02	6.58904544468E-02	2.23892467546E-01	-1.62120752544E-02
1.75700000000E+09	-7.11979217743E-04	-2.32400327439E-01	1.44698160404E-02	6.55129048998E-02	1.45699742458E-02	6.55304473136E-02	2.21736188389E-01	-2.11522593445E-02
1.75750000000E+09	-3.00464624021E-03	-2.32560890950E-01	1.57414230719E-02	6.51591062819E-02	1.58610489939E-02	6.51839693932E-02	2.19437350819E-01	-2.60345630192E-02
1.75800000000E+09	-5.33669215899E-03	-2.32574124122E-01	1.70335167627E-02	6.47913344702E-02	1.71342816617E-02	6.48173019871E-02	2.16984627624E-01	-3.08343013820E-02
1.75850000000E+09	-7.65121473000E-03	-2.32506319506E-01	1.82913882414E-02	6.44053741396E-02	1.84109649751E-02	6.44289898137E-02	2.14383370531E-01	-3.55879649896E-02
