# Hz S RI R 50
! CMT, CMT808U, 21440046, 21.4.3/4
! Date: 11/12/2025 10:14:56 AM
! Data: Format (Calibration Info)
! Freq	S11:Re/Im(F2)	S41:Re/Im(F2)	S14:Re/Im(F2)	S44:Re/Im(F2)
1.60000000000E+09	-2.85701382200E-01	-2.35118075370E-01	-7.40291647459E-03	6.26486102393E-02	-8.19245473893E-03	6.22224237890E-02	-1.07494517852E-01	8.49112577313E-03
1.60100000000E+09	-2.80991711786E-01	-2.33704449451E-01	-4.55699980735E-03	6.30165474159E-02	-5.36696603993E-03	6.26302717104E-02	-1.10112460762E-01	1.98773166281E-02
1.60200000000E+09	-2.76463203210E-01	-2.32813258524E-01	-1.69196177848E-03	6.32374124411E-02	-2.51792533449E-03	6.28905001049E-02	-1.11947961150E-01	3.14095677966E-02
1.60300000000E+09	-2.72178094998E-01	-2.32426343524E-01	1.18299405310E-03	6.33094534680E-02	3.42580372046E-04	6.29926832900E-02	-1.13003414488E-01	4.30149903618E-02
1.60400000000E+09	-2.68210756150E-01	-2.32505364569E-01	4.05076027401E-03	6.32232957122E-02	3.20022997686E-03	6.29469946974E-02	-1.13270871801E-01	5.46552527541E-02
1.60500000000E+09	-2.64640670007E-01	-2.33005560506E-01	6.91025018275E-03	6.29865787850E-02	6.04582820636E-03	6.27500260567E-02	-1.12749737282E-01	6.62629580522E-02
1.60600000000E+09	-2.61518954461E-01	-2.33869798084E-01	9.74129155105E-03	6.26024197270E-02	8.86790266532E-03	6.24034181740E-02	-1.11459970484E-01	7.77931290818E-02
1.60700000000E+09	-2.58902941639E-01	-2.35032867724E-01	1.25358330789E-02	6.20757789445E-02	1.16528725640E-02	6.19112524355E-02	-1.09399178419E-01	8.91905673938E-02
1.60800000000E+09	-2.56829998943E-01	-2.36412488456E-01	1.52820097067E-02	6.14054255671E-02	1.43923073074E-02	6.12840140113E-02	-1.06581714376E-01	1.00401302413E-01
1.60900000000E+09	-2.55329780738E-01	-2.37923062790E-01	1.79657529705E-02	6.06023063422E-02	1.70795909820E-02	6.05203794802E-02	-1.03027694958E-01	1.11384010353E-01
1.61000000000E+09	-2.54421441724E-01	-2.39475439092E-01	2.05888311872E-02	5.96755901521E-02	1.97007791004E-02	5.96348600210E-02	-9.87600692278E-02	1.22076294142E-01
1.61100000000E+09	-2.54097547945E-01	-2.40991059141E-01	2.31435100833E-02	5.86361984247E-02	2.22563895160E-02	5.86276069970E-02	-9.37896986972E-02	1.32442878351E-01
1.61200000000E+09	-2.54344015462E-01	-2.42365515725E-01	2.56184900065E-02	5.74872432728E-02	2.47337757928E-02	5.75161394550E-02	-8.81569772941E-02	1.42437430192E-01
1.61300000000E+09	-2.55115948342E-01	-2.43516572677E-01	2.80109670273E-02	5.62403137830E-02	2.71328603661E-02	5.63088079932E-02	-8.18952194201E-02	1.52016502453E-01
1.61400000000E+09	-2.56376946828E-01	-2.44380376062E-01	3.03262941088E-02	5.49075511502E-02	2.94508696671E-02	5.50060379481E-02	-7.50147208078E-02	1.61141864192E-01
1.61500000000E+09	-2.58075470482E-01	-2.44891017621E-01	3.25576597246E-02	5.34924620237E-02	3.16882921753E-02	5.36266577345E-02	-6.75539357642E-02	1.69779947458E-01
1.61600000000E+09	-2.60134687985E-01	-2.44984052031E-01	3.47029227776E-02	5.20063275560E-02	3.38451559874E-02	5.21717671464E-02	-5.95673597515E-02	1.77881399288E-01
1.61700000000E+09	-2.62492657958E-01	-2.44627050650E-01	3.67705932173E-02	5.04537431700E-02	3.59212315588E-02	5.06511153823E-02	-5.10696276123E-02	1.85426141807E-01
1.61800000000E+09	-2.65070944502E-01	-2.43790558655E-01	3.87588922860E-02	4.88384627582E-02	3.79208832930E-02	4.90689626743E-02	-4.21104301624E-02	1.92384412127E-01
1.61900000000E+09	-2.67803557308E-01	-2.42469450697E-01	4.06752881276E-02	4.71705829747E-02	3.98430010426E-02	4.74334953056E-02	-3.27328437265E-02	1.98717941348E-01
1.62000000000E+09	-2.70604131849E-01	-2.40630756481E-01	4.25145099130E-02	4.54478601448E-02	4.16980560577E-02	4.57376424811E-02	-2.29725833099E-02	2.04418976869E-01
1.62100000000E+09	-2.73418749889E-01	-2.38318412147E-01	4.42871876602E-02	4.36765231923E-02	4.34804922535E-02	4.39950217789E-02	-1.28751151765E-02	2.09454532638E-01
1.62200000000E+09	-2.76174492576E-01	-2.35534371072E-01	4.59915050819E-02	4.18514922464E-02	4.51975996918E-02	4.22006551444E-02	-2.48460531505E-03	2.13808205109E-01
1.62300000000E+09	-2.78828569300E-01	-2.32300492007E-01	4.76290188060E-02	3.99818452357E-02	4.68470764548E-02	4.03607912607E-02	8.14997322416E-03	2.17475047932E-01
1.62400000000E+09	-2.81324931141E-01	-2.28643444600E-01	4.92023841899E-02	3.80647531859E-02	4.84347043697E-02	3.84731404674E-02	1.89839840885E-02	2.20426684369E-01
1.62500000000E+09	-2.83617705464E-01	-2.24593882164E-01	5.07132375873E-02	3.60978530591E-02	4.99555440726E-02	3.65323427680E-02	2.99731472857E-02	2.22658878582E-01
1.62600000000E+09	-2.85666321547E-01	-2.20203407509E-01	5.21541648191E-02	3.40810368401E-02	5.14135796276E-02	3.45465586604E-02	4.10711173588E-02	2.24170366054E-01
1.62700000000E+09	-2.87460899976E-01	-2.15489007101E-01	5.35336125535E-02	3.20138183060E-02	5.28098061519E-02	3.25091732116E-02	5.22234985263E-02	2.24958084469E-01
1.62800000000E+09	-2.88962541047E-01	-2.10500911852E-01	5.48516157304E-02	2.98961480437E-02	5.41362637780E-02	3.04217295195E-02	6.33915337502E-02	2.25005395698E-01
1.62900000000E+09	-2.90149826298E-01	-2.05267170272E-01	5.60970660919E-02	2.77297787655E-02	5.53971929268E-02	2.82823712509E-02	7.45273016928E-02	2.24341412132E-01
1.63000000000E+09	-2.91013628200E-01	-1.99825218922E-01	5.72720023398E-02	2.55101088611E-02	5.65905291903E-02	2.60911935867E-02	8.55803433951E-02	2.22957431415E-01
1.63100000000E+09	-2.91552276797E-01	-1.94215698039E-01	5.83736974703E-02	2.32395387521E-02	5.77118078839E-02	2.38532498158E-02	9.65103606002E-02	2.20855295660E-01
1.63200000000E+09	-2.91743721467E-01	-1.88464794396E-01	5.94012507145E-02	2.09173319724E-02	5.87606699723E-02	2.15595812778E-02	1.07278055273E-01	2.18063137506E-01
1.63300000000E+09	-2.91596893680E-01	-1.82619209480E-01	6.03496904728E-02	1.85467648826E-02	5.97266686438E-02	1.92163099179E-02	1.17828029826E-01	2.14579129684E-01
1.63400000000E+09	-2.91107076045E-01	-1.76689741423E-01	6.12162514208E-02	1.61280442657E-02	6.06159498952E-02	1.68261139224E-02	1.28126019817E-01	2.10430426554E-01
1.63500000000E+09	-2.90271751825E-01	-1.70718373057E-01	6.19926689940E-02	1.36612560227E-02	6.14214561722E-02	1.43902694878E-02	1.38120066252E-01	2.05632133736E-01
1.63600000000E+09	-2.89105749849E-01	-1.64728237932E-01	6.26851446496E-02	1.11473323663E-02	6.21346671367E-02	1.19085783288E-02	1.47786651159E-01	2.00203385590E-01
1.63700000000E+09	-2.87596020287E-01	-1.58738873770E-01	6.32818621363E-02	8.59369212956E-03	6.27592455712E-02	9.38161424123E-03	1.57074724326E-01	1.94175038943E-01
1.63800000000E+09	-2.85760998586E-01	-1.52780555598E-01	6.37807771235E-02	5.99427314823E-03	6.32867278314E-02	6.81296809625E-03	1.65961205565E-01	1.87565904395E-01
1.63900000000E+09	-2.83608738690E-01	-1.46877061360E-01	6.41768065040E-02	3.36289447324E-03	6.37142320100E-02	4.21093062641E-03	1.74400693233E-01	1.80408650918E-01
1.64000000000E+09	-2.81135286059E-01	-1.41036724757E-01	6.44724741398E-02	6.95749884195E-04	6.40430315574E-02	1.57116398053E-03	1.82359126276E-01	1.72729222242E-01
1.64100000000E+09	-2.78361173681E-01	-1.35294270574E-01	6.46597846312E-02	-1.99712391329E-03	6.42670551852E-02	-1.10201995706E-03	1.89818407129E-01	1.64558795664E-01
1.64200000000E+09	-2.75279516931E-01	-1.29652642296E-01	6.47349567550E-02	-4.71810020373E-03	6.43789696512E-02	-3.79672810183E-03	1.96737042933E-01	1.55935124891E-01
1.64300000000E+09	-2.71908282088E-01	-1.24141838019E-01	6.46963792594E-02	-7.45856776506E-03	6.43813613296E-02	-6.51677919527E-03	2.03091179441E-01	1.46896067051E-01
1.64400000000E+09	-2.68259198418E-01	-1.18775290571E-01	6.45466832458E-02	-1.02197672043E-02	6.42694006277E-02	-9.25448014617E-03	2.08858333745E-01	1.37460695730E-01
1.64500000000E+09	-2.64331260498E-01	-1.13567654328E-01	6.42707950518E-02	-1.29880588939E-02	6.40374713407E-02	-1.20022410027E-02	2.14015040069E-01	1.27695530913E-01
1.64600000000E+09	-2.60139325262E-01	-1.08535865588E-01	6.38818872176E-02	-1.57638219821E-02	6.36924303416E-02	-1.47594357134E-02	2.18546292949E-01	1.17616158878E-01
1.64700000000E+09	-2.55688499618E-01	-1.03696899671E-01	6.33632267898E-02	-1.85407271439E-02	6.32199376382E-02	-1.75206959531E-02	2.22431951968E-01	1.07264306647E-01
1.64800000000E+09	-2.50985498664E-01	-9.90700710373E-02	6.27218587295E-02	-2.13111283499E-02	6.26252128999E-02	-2.02759776859E-02	2.25646971095E-01	9.66970361139E-02
1.64900000000E+09	-2.46054812696E-01	-9.46679399684E-02	6.19517544833E-02	-2.40711678134E-02	6.19090145751E-02	-2.30261777157E-02	2.28194743928E-01	8.59320387718E-02
1.65000000000E+09	-2.40900014165E-01	-9.05052365639E-02	6.10566442203E-02	-2.68123679145E-02	6.10635519459E-02	-2.57586074492E-02	2.30053981444E-01	7.50394612096E-02
1.65100000000E+09	-2.35533270007E-01	-8.65989405017E-02	6.00384155564E-02	-2.95298901730E-02	6.00895197976E-02	-2.84713065306E-02	2.31221397501E-01	6.40471874702E-02
1.65200000000E+09	-2.29960926452E-01	-8.29670317601E-02	5.88842017411E-02	-3.22174174646E-02	5.89891634813E-02	-3.11518408784E-02	2.31684953657E-01	5.29968216644E-02
1.65300000000E+09	-2.24200840370E-01	-7.96283047259E-02	5.75996457523E-02	-3.48633389516E-02	5.77609664985E-02	-3.38002422937E-02	2.31455462309E-01	4.19370362151E-02
1.65400000000E+09	-2.18283088089E-01	-7.65819771681E-02	5.61925233343E-02	-3.74684755693E-02	5.64027321409E-02	-3.64101412966E-02	2.30522543918E-01	3.09101794778E-02
1.65500000000E+09	-2.12205868444E-01	-7.38656429478E-02	5.46552168078E-02	-4.00218306409E-02	5.49166858616E-02	-3.89684477717E-02	2.28891051720E-01	1.99626568709E-02
1.65600000000E+09	-2.06002976713E-01	-7.14753215930E-02	5.29918920807E-02	-4.25140807059E-02	5.33073092207E-02	-4.14712464188E-02	2.26570908976E-01	9.14612097116E-03
1.65700000000E+09	-1.99681154534E-01	-6.94296293527E-02	5.12008773237E-02	-4.49427359245E-02	5.15706323888E-02	-4.39080162627E-02	2.23562479641E-01	-1.50866437325E-03
1.65800000000E+09	-1.93260576654E-01	-6.77480118444E-02	4.92906516024E-02	-4.72925869728E-02	4.97121655559E-02	-4.62777322533E-02	2.19885183553E-01	-1.19573907541E-02
1.65900000000E+09	-1.86769990615E-01	-6.64446603317E-02	4.72612473137E-02	-4.95666097670E-02	4.77322381020E-02	-4.85688743819E-02	2.15550108079E-01	-2.21482011173E-02
1.66000000000E+09	-1.80227812399E-01	-6.55164187433E-02	4.51098819663E-02	-5.17547152995E-02	4.56315036508E-02	-5.07726014506E-02	2.10570738648E-01	-3.20456438989E-02
1.66100000000E+09	-1.73667671802E-01	-6.49942061488E-02	4.28494627176E-02	-5.38408246175E-02	4.34223641569E-02	-5.28853388814E-02	2.04965671126E-01	-4.16106931711E-02
1.66200000000E+09	-1.67116257869E-01	-6.48815596964E-02	4.04804087447E-02	-5.58280746949E-02	4.10982384518E-02	-5.49029364153E-02	1.98756221308E-01	-5.07933573337E-02
1.66300000000E+09	-1.60610187515E-01	-6.51874914425E-02	3.80068536427E-02	-5.77038208738E-02	3.86690762511E-02	-5.68069792254E-02	1.91968201094E-01	-5.95618113338E-02
1.66400000000E+09	-1.54172097338E-01	-6.59063959017E-02	3.54318805393E-02	-5.94645294007E-02	3.61411289710E-02	-5.86002600001E-02	1.84638555580E-01	-6.78890929666E-02
1.66500000000E+09	-1.47842698998E-01	-6.70571851589E-02	3.27675159678E-02	-6.11005623623E-02	3.35150386887E-02	-6.02702315508E-02	1.76773222123E-01	-7.57112195777E-02
1.66600000000E+09	-1.41668559043E-01	-6.86234389042E-02	3.00180315095E-02	-6.26104098732E-02	3.08066175579E-02	-6.18156120938E-02	1.68426327116E-01	-8.30186339114E-02
1.66700000000E+09	-1.35674536229E-01	-7.06199621640E-02	2.71887012208E-02	-6.39823844576E-02	2.80115499151E-02	-6.32273057155E-02	1.59616382812E-01	-8.97759638449E-02
1.66800000000E+09	-1.29904506904E-01	-7.30211622121E-02	2.42864847405E-02	-6.52132264218E-02	2.51478831109E-02	-6.44990089411E-02	1.50390328948E-01	-9.59421776777E-02
1.66900000000E+09	-1.24406805712E-01	-7.58283231454E-02	2.13242144684E-02	-6.63010906679E-02	2.22167010908E-02	-6.56277285057E-02	1.40772658489E-01	-1.01503324024E-01
1.67000000000E+09	-1.19225072430E-01	-7.90218784999E-02	1.83089728658E-02	-6.72399295375E-02	1.92317431723E-02	-6.66105965542E-02	1.30813447035E-01	-1.06421646579E-01
1.67100000000E+09	-1.14395586920E-01	-8.25765954230E-02	1.52479592541E-02	-6.80238307499E-02	1.62000900700E-02	-6.74394157027E-02	1.20558068704E-01	-1.10680862230E-01
1.67200000000E+09	-1.09964990788E-01	-8.64608315538E-02	1.21480459145E-02	-6.86523248021E-02	1.31299307337E-02	-6.81124457352E-02	1.10032929636E-01	-1.14260203306E-01
1.67300000000E+09	-1.05976504490E-01	-9.06486809397E-02	9.03284131870E-03	-6.91209666954E-02	1.00301421869E-02	-6.86319586657E-02	9.93000300457E-02	-1.17141163980E-01
1.67400000000E+09	-1.02464633702E-01	-9.51000002073E-02	5.89860170394E-03	-6.94345460610E-02	6.92170643152E-03	-6.89895143407E-02	8.83928260781E-02	-1.19305809685E-01
1.67500000000E+09	-9.94702745202E-02	-9.97607699283E-02	2.76076708622E-03	-6.95872266985E-02	3.80128310553E-03	-6.91895182065E-02	7.73622505037E-02	-1.20751099430E-01
1.67600000000E+09	-9.70306580780E-02	-1.04576358421E-01	-3.71634039572E-04	-6.95861258231E-02	6.88771669096E-04	-6.92354140675E-02	6.62585324550E-02	-1.21461492644E-01
1.67700000000E+09	-9.51631039783E-02	-1.09495913569E-01	-3.48132657847E-03	-6.94230829430E-02	-2.41053709061E-03	-6.91260932582E-02	5.51344564861E-02	-1.21431968730E-01
1.67800000000E+09	-9.38898229864E-02	-1.14436718045E-01	-6.56740656179E-03	-6.91088790125E-02	-5.48477563785E-03	-6.88596008483E-02	4.40285550160E-02	-1.20662966572E-01
1.67900000000E+09	-9.32255290504E-02	-1.19342987011E-01	-9.61948315952E-03	-6.86505744699E-02	-8.52774651212E-03	-6.84497610926E-02	3.29960250644E-02	-1.19147682930E-01
1.68000000000E+09	-9.31672044388E-02	-1.24124899314E-01	-1.26222244999E-02	-6.80474474552E-02	-1.15260086839E-02	-6.78966148556E-02	2.20845448685E-02	-1.16912958400E-01
1.68100000000E+09	-9.37019185161E-02	-1.28710571441E-01	-1.55736287382E-02	-6.73035186740E-02	-1.44701597989E-02	-6.72000908949E-02	1.13477388014E-02	-1.13938746561E-01
1.68200000000E+09	-9.48125725785E-02	-1.33025671066E-01	-1.84616336376E-02	-6.64290980760E-02	-1.73578310066E-02	-6.63767929026E-02	8.25760082403E-04	-1.10253321001E-01
1.68300000000E+09	-9.64582417024E-02	-1.36994761885E-01	-2.12843801225E-02	-6.54313694236E-02	-2.01817119398E-02	-6.54257173551E-02	-9.42584840714E-03	-1.05865671639E-01
1.68400000000E+09	-9.86015422885E-02	-1.40534098888E-01	-2.40352338156E-02	-6.43132012139E-02	-2.29308294395E-02	-6.43631226766E-02	-1.93616616821E-02	-1.00794617829E-01
1.68500000000E+09	-1.01174971550E-01	-1.43594515572E-01	-2.67062848761E-02	-6.30927926168E-02	-2.56073878312E-02	-6.31888256060E-02	-2.89348480355E-02	-9.50627272424E-02
1.68600000000E+09	-1.04116641015E-01	-1.46106922161E-01	-2.92993969736E-02	-6.17697245766E-02	-2.82102347918E-02	-6.19152579083E-02	-3.81017203436E-02	-8.86895237189E-02
1.68700000000E+09	-1.07353227599E-01	-1.48040386190E-01	-3.18065247469E-02	-6.03569774052E-02	-3.07240038538E-02	-6.05479518110E-02	-4.68152617543E-02	-8.17154515612E-02
1.68800000000E+09	-1.10798189577E-01	-1.49343154761E-01	-3.42328234319E-02	-5.88572693974E-02	-3.31626854771E-02	-5.90973128257E-02	-5.50401724228E-02	-7.41597083402E-02
1.68900000000E+09	-1.14370135732E-01	-1.49993025606E-01	-3.65766818889E-02	-5.72807834971E-02	-3.55237832345E-02	-5.75646876810E-02	-6.27344624000E-02	-6.60613230705E-02
1.69000000000E+09	-1.17967216163E-01	-1.49985068623E-01	-3.88399388134E-02	-5.56329515871E-02	-3.78021756425E-02	-5.59625414196E-02	-6.98620365788E-02	-5.74595523513E-02
1.69100000000E+09	-1.21513188137E-01	-1.49318898884E-01	-4.10298459515E-02	-5.39195757443E-02	-4.00042173264E-02	-5.42936983858E-02	-7.63828631515E-02	-4.83891636782E-02
1.69200000000E+09	-1.24898642149E-01	-1.48002978490E-01	-4.31408877778E-02	-5.21442850662E-02	-4.21356858290E-02	-5.25596861018E-02	-8.22763191001E-02	-3.88985659888E-02
1.69300000000E+09	-1.28038430075E-01	-1.46097118698E-01	-4.51796746759E-02	-5.03109478406E-02	-4.41963146189E-02	-5.07657203799E-02	-8.75057443031E-02	-2.90313168075E-02
1.69400000000E+09	-1.30852307749E-01	-1.43620858835E-01	-4.71481458486E-02	-4.84176424425E-02	-4.61855522482E-02	-4.89133957336E-02	-9.20508908733E-02	-1.88385498430E-02
1.69500000000E+09	-1.33280779957E-01	-1.40635385169E-01	-4.90534086728E-02	-4.64649334085E-02	-4.81115856082E-02	-4.70024347017E-02	-9.58904211964E-02	-8.35711660774E-03
1.69600000000E+09	-1.35258435252E-01	-1.37227400665E-01	-5.08874206322E-02	-4.44602350636E-02	-4.99755242876E-02	-4.50365648804E-02	-9.90087801355E-02	2.34479419748E-03
1.69700000000E+09	-1.36745991756E-01	-1.33443992669E-01	-5.26647251563E-02	-4.23939854901E-02	-5.17741508568E-02	-4.30047117829E-02	-1.01388252664E-01	1.32305150674E-02
1.69800000000E+09	-1.37698053031E-01	-1.29363641570E-01	-5.43782823819E-02	-4.02649853430E-02	-5.35100016226E-02	-4.09141824767E-02	-1.03029460653E-01	2.42444230570E-02
1.69900000000E+09	-1.38093706975E-01	-1.25065769462E-01	-5.60189543396E-02	-3.80722998981E-02	-5.51848519828E-02	-3.87575940777E-02	-1.03920475139E-01	3.53297686005E-02
1.70000000000E+09	-1.37924894745E-01	-1.20620485011E-01	-5.76032127023E-02	-3.58175608659E-02	-5.67941749295E-02	-3.65353407696E-02	-1.04063575290E-01	4.64400768731E-02
1.70100000000E+09	-1.37178208478E-01	-1.16111747923E-01	-5.91136373621E-02	-3.34927079678E-02	-5.83363649638E-02	-3.42412988827E-02	-1.03466982821E-01	5.75146665076E-02
1.70200000000E+09	-1.35863242895E-01	-1.11599699412E-01	-6.05469884444E-02	-3.10950886788E-02	-5.98027146294E-02	-3.18806248950E-02	-1.02124240672E-01	6.85172149836E-02
1.70300000000E+09	-1.33999978779E-01	-1.07160864663E-01	-6.19078008752E-02	-2.86313661614E-02	-6.11944273157E-02	-2.94475560833E-02	-1.00061578486E-01	7.93846369989E-02
1.70400000000E+09	-1.31611103922E-01	-1.02859451749E-01	-6.31791648275E-02	-2.60961405660E-02	-6.25022285335E-02	-2.69379763832E-02	-9.72827798301E-02	9.00734747975E-02
1.70500000000E+09	-1.28717870599E-01	-9.87411512622E-02	-6.43628421218E-02	-2.34858079500E-02	-6.37219850868E-02	-2.43569564073E-02	-9.38101360491E-02	1.00536054780E-01
1.70600000000E+09	-1.25377503690E-01	-9.48684569925E-02	-6.54480845631E-02	-2.08027829010E-02	-6.48395938609E-02	-2.17091406780E-02	-8.96616685069E-02	1.10722959408E-01
1.70700000000E+09	-1.21611699069E-01	-9.12709665809E-02	-6.64350307406E-02	-1.80586633190E-02	-6.58588711725E-02	-1.89900299116E-02	-8.48604026428E-02	1.20600918034E-01
1.70800000000E+09	-1.17466559009E-01	-8.79976364959E-02	-6.73004099079E-02	-1.52488261897E-02	-6.67679088958E-02	-1.62037100137E-02	-7.94361995491E-02	1.30126824394E-01
1.70900000000E+09	-1.12983325282E-01	-8.50662232068E-02	-6.80496675029E-02	-1.23764310342E-02	-6.75607717643E-02	-1.33567023251E-02	-7.34236149343E-02	1.39256895906E-01
1.71000000000E+09	-1.08211768435E-01	-8.25093617159E-02	-6.86784493137E-02	-9.45490083652E-03	-6.82261640440E-02	-1.04551863648E-02	-6.68432548395E-02	1.47965315165E-01
1.71100000000E+09	-1.03189092705E-01	-8.03436740905E-02	-6.91710696969E-02	-6.48131363571E-03	-6.87660755289E-02	-7.50469553628E-03	-5.97244379333E-02	1.56206714912E-01
1.71200000000E+09	-9.79580833629E-02	-7.85808819931E-02	-6.95313512857E-02	-3.47130675090E-03	-6.91689838777E-02	-4.51411420023E-03	-5.21097275061E-02	1.63958918474E-01
1.71300000000E+09	-9.25648771879E-02	-7.72326132489E-02	-6.97468039468E-02	-4.23833989511E-04	-6.94357218649E-02	-1.48424573089E-03	-4.40304179345E-02	1.71196317333E-01
1.71400000000E+09	-8.70494998547E-02	-7.63052001463E-02	-6.98236337231E-02	2.63784683287E-03	-6.95563367744E-02	1.56565097909E-03	-3.55248960163E-02	1.77885058421E-01
1.71500000000E+09	-8.14504229003E-02	-7.57892256466E-02	-6.97499507359E-02	5.72110400247E-03	-6.95293809252E-02	4.63425966047E-03	-2.66315170071E-02	1.83996674031E-01
1.71600000000E+09	-7.58115458235E-02	-7.56937833478E-02	-6.95264071999E-02	8.81082223012E-03	-6.93551421522E-02	7.70941066208E-03	-1.73887875912E-02	1.89525171983E-01
1.71700000000E+09	-7.01623194173E-02	-7.60056541043E-02	-6.91554262041E-02	1.18931834549E-02	-6.90317023741E-02	1.07846848736E-02	-7.83131391916E-03	1.94449487116E-01
