# Hz S RI R 50
! CMT, CMT808U, 21440046, 21.4.3/4
! Date: 11/12/2025 3:02:55 PM
! Data: Format (Calibration Info)
! Freq	S11:Re/Im(F2)	S41:Re/Im(F2)	S14:Re/Im(F2)	S44:Re/Im(F2)
1.70000000000E+09	-1.41510217090E-01	-1.20490940331E-01	6.08728634849E-02	2.75003301718E-02	6.08444397441E-02	2.75111774032E-02	-1.04174839972E-01	5.81114085667E-02
1.70050000000E+09	-1.40987419985E-01	-1.18127926429E-01	6.14731883746E-02	2.62043216584E-02	6.14506584645E-02	2.62363991747E-02	-1.03998034030E-01	6.44732190887E-02
1.70100000000E+09	-1.40315943216E-01	-1.15738803487E-01	6.20676072400E-02	2.48830593447E-02	6.20581969293E-02	2.49158946043E-02	-1.03595400838E-01	7.07947294164E-02
1.70150000000E+09	-1.39518194578E-01	-1.13392357963E-01	6.26304168057E-02	2.35535114171E-02	6.26055371120E-02	2.35942300161E-02	-1.02988856678E-01	7.71151617341E-02
1.70200000000E+09	-1.38535037586E-01	-1.11102522389E-01	6.31748150262E-02	2.22165316109E-02	6.31451694773E-02	2.22403238257E-02	-1.02171287116E-01	8.34056589717E-02
1.70250000000E+09	-1.37417740847E-01	-1.08796758437E-01	6.36732254420E-02	2.08455326802E-02	6.36522711616E-02	2.08909633989E-02	-1.01146523348E-01	8.96588514611E-02
1.70300000000E+09	-1.36157498519E-01	-1.06536160358E-01	6.41380358544E-02	1.94880669121E-02	6.41193504152E-02	1.95216700399E-02	-9.99023185215E-02	9.58773708212E-02
1.70350000000E+09	-1.34778200166E-01	-1.04346297040E-01	6.45876425787E-02	1.81064892948E-02	6.45667478586E-02	1.81369590810E-02	-9.84868123018E-02	1.02023684709E-01
1.70400000000E+09	-1.33202622562E-01	-1.02219990711E-01	6.50048032940E-02	1.67088801446E-02	6.49988549284E-02	1.67413538713E-02	-9.68476601943E-02	1.08114017309E-01
1.70450000000E+09	-1.31557044543E-01	-1.00153633829E-01	6.53873216327E-02	1.53024746933E-02	6.53627489854E-02	1.53302432937E-02	-9.49974615459E-02	1.14170903789E-01
1.70500000000E+09	-1.29768222032E-01	-9.81448018102E-02	6.57379507137E-02	1.38865057195E-02	6.57406721531E-02	1.39197645063E-02	-9.29567798028E-02	1.20186717390E-01
1.70550000000E+09	-1.27872412544E-01	-9.62287204303E-02	6.60743799841E-02	1.24598978305E-02	6.60334324881E-02	1.24801162983E-02	-9.07345414449E-02	1.26069548066E-01
1.70600000000E+09	-1.25860731496E-01	-9.44060250031E-02	6.63489738544E-02	1.10259980107E-02	6.63456802566E-02	1.10661702447E-02	-8.83300683311E-02	1.31864106365E-01
1.70650000000E+09	-1.23743455843E-01	-9.26503976343E-02	6.65974903605E-02	9.57554393824E-03	6.65910226502E-02	9.62757445964E-03	-8.57102302090E-02	1.37576010405E-01
1.70700000000E+09	-1.21544046749E-01	-9.10087318612E-02	6.68278000521E-02	8.13006508296E-03	6.67994376142E-02	8.15765843940E-03	-8.29150748391E-02	1.43238006053E-01
1.70750000000E+09	-1.19211769090E-01	-8.94754715998E-02	6.69982109504E-02	6.66785600786E-03	6.69941349843E-02	6.72035787068E-03	-7.99675093173E-02	1.48751599599E-01
1.70800000000E+09	-1.16811059565E-01	-8.80224649737E-02	6.71727723539E-02	5.21546902550E-03	6.71603979984E-02	5.23652236085E-03	-7.68101930393E-02	1.54199206334E-01
1.70850000000E+09	-1.14336029636E-01	-8.67088572825E-02	6.72939359310E-02	3.74738707015E-03	6.72854368789E-02	3.77652577768E-03	-7.34742124784E-02	1.59517933113E-01
1.70900000000E+09	-1.11801372871E-01	-8.54866800084E-02	6.73770278897E-02	2.26480087122E-03	6.73782172235E-02	2.31938584949E-03	-7.00294455863E-02	1.64710586363E-01
1.70950000000E+09	-1.09211381951E-01	-8.43840599196E-02	6.74361008814E-02	7.85805560765E-04	6.74227106604E-02	8.31705707051E-04	-6.63691570733E-02	1.69804961844E-01
1.71000000000E+09	-1.06541312790E-01	-8.33990188372E-02	6.74537400723E-02	-6.85534520807E-04	6.74511850764E-02	-6.43158870222E-04	-6.25706093076E-02	1.74746430590E-01
1.71050000000E+09	-1.03833140239E-01	-8.25450121270E-02	6.74446813372E-02	-2.16014231241E-03	6.74311022647E-02	-2.12053495289E-03	-5.86395614447E-02	1.79562237620E-01
1.71100000000E+09	-1.01081464953E-01	-8.17664054620E-02	6.73821009928E-02	-3.62578860707E-03	6.73831718636E-02	-3.58001445662E-03	-5.45149837425E-02	1.84239078515E-01
1.71150000000E+09	-9.82750680518E-02	-8.11146218039E-02	6.72974458010E-02	-5.10573558542E-03	6.72865039975E-02	-5.07624896487E-03	-5.02566078299E-02	1.88833390529E-01
1.71200000000E+09	-9.54698055316E-02	-8.05927505267E-02	6.71685207175E-02	-6.60265218257E-03	6.71884553629E-02	-6.54626664843E-03	-4.58704564702E-02	1.93202955661E-01
1.71250000000E+09	-9.26253040507E-02	-8.02251045499E-02	6.70283852873E-02	-8.06644458018E-03	6.70343758646E-02	-8.02769543428E-03	-4.13229210621E-02	1.97461179705E-01
1.71300000000E+09	-8.97902616759E-02	-7.99195757200E-02	6.68450360502E-02	-9.51887630832E-03	6.68369565146E-02	-9.47868211737E-03	-3.67073531143E-02	2.01567522224E-01
1.71350000000E+09	-8.69133210725E-02	-7.97787503396E-02	6.66236812229E-02	-1.09894444190E-02	6.66143811239E-02	-1.09378312225E-02	-3.19411285678E-02	2.05515634789E-01
1.71400000000E+09	-8.40324732839E-02	-7.97126870596E-02	6.63557558700E-02	-1.24376787082E-02	6.63744894089E-02	-1.23951511345E-02	-2.70618608122E-02	2.09279048653E-01
1.71450000000E+09	-8.11624712294E-02	-7.97844456498E-02	6.60717634097E-02	-1.38961723797E-02	6.60716103201E-02	-1.38500246076E-02	-2.20268059125E-02	2.12913929075E-01
1.71500000000E+09	-7.82975100321E-02	-7.99600846322E-02	6.57578679860E-02	-1.53361088660E-02	6.57719333792E-02	-1.52963258002E-02	-1.69560128999E-02	2.16370647678E-01
1.71550000000E+09	-7.54374400559E-02	-8.02578220797E-02	6.53976628909E-02	-1.67723137256E-02	6.54088866564E-02	-1.67302633656E-02	-1.16976662002E-02	2.19637571494E-01
1.71600000000E+09	-7.26107530043E-02	-8.06728388560E-02	6.50024144650E-02	-1.81820433019E-02	6.50086533827E-02	-1.81548811387E-02	-6.43275428378E-03	2.22771659943E-01
1.71650000000E+09	-6.97874147102E-02	-8.11644683717E-02	6.45904198289E-02	-1.96168368790E-02	6.45930870869E-02	-1.95852102821E-02	-1.02193140329E-03	2.25726866680E-01
1.71700000000E+09	-6.70037664998E-02	-8.17682563459E-02	6.41248583570E-02	-2.09976316063E-02	6.41309849059E-02	-2.09923335914E-02	4.44517322657E-03	2.28485993915E-01
1.71750000000E+09	-6.42563092433E-02	-8.24820133847E-02	6.36509862428E-02	-2.23992608365E-02	6.36523696383E-02	-2.23698362339E-02	1.00258414535E-02	2.31087948117E-01
1.71800000000E+09	-6.14832170808E-02	-8.32969599899E-02	6.31473466913E-02	-2.37765752139E-02	6.31321549969E-02	-2.37481242943E-02	1.56305037416E-02	2.33487654835E-01
1.71850000000E+09	-5.88162673464E-02	-8.42216086606E-02	6.25765228498E-02	-2.51542667145E-02	6.25924175921E-02	-2.51109713000E-02	2.12847983800E-02	2.35721446301E-01
1.71900000000E+09	-5.61803713852E-02	-8.52187339856E-02	6.20217004797E-02	-2.65054503220E-02	6.20180023522E-02	-2.64627726140E-02	2.70767202207E-02	2.37759939593E-01
1.71950000000E+09	-5.35503376560E-02	-8.63048525161E-02	6.14067158646E-02	-2.78276565532E-02	6.14101823445E-02	-2.77767220147E-02	3.28415289254E-02	2.39605186576E-01
1.72000000000E+09	-5.10037501776E-02	-8.75049816811E-02	6.07657692793E-02	-2.91694962078E-02	6.07767889514E-02	-2.91173787600E-02	3.86868269909E-02	2.41310434070E-01
1.72050000000E+09	-4.84954384511E-02	-8.87577693772E-02	6.00882907803E-02	-3.04584418911E-02	6.01061368214E-02	-3.04111039696E-02	4.45547373874E-02	2.42796251649E-01
1.72100000000E+09	-4.60241425789E-02	-9.01324866768E-02	5.93929769753E-02	-3.17453863598E-02	5.94245371323E-02	-3.16968854571E-02	5.04869350839E-02	2.44091489985E-01
1.72150000000E+09	-4.36412466755E-02	-9.15560153093E-02	5.86750034421E-02	-3.30254511475E-02	5.86881428568E-02	-3.29695477023E-02	5.64364068496E-02	2.45234391760E-01
1.72200000000E+09	-4.12928834924E-02	-9.30507251855E-02	5.79240582385E-02	-3.42694550174E-02	5.79486995533E-02	-3.42379749388E-02	6.24335836500E-02	2.46151394931E-01
1.72250000000E+09	-3.90322447093E-02	-9.46326379475E-02	5.71422847797E-02	-3.55027730954E-02	5.71690247298E-02	-3.54631364238E-02	6.84143713356E-02	2.46916253425E-01
1.72300000000E+09	-3.68287374656E-02	-9.62891388136E-02	5.63433802157E-02	-3.67024466288E-02	5.63535538365E-02	-3.66890102195E-02	7.43897016187E-02	2.47467807302E-01
1.72350000000E+09	-3.46717062630E-02	-9.79912389407E-02	5.55123965603E-02	-3.79131230616E-02	5.55217984249E-02	-3.78693809757E-02	8.04116279048E-02	2.47806145962E-01
1.72400000000E+09	-3.25831825420E-02	-9.97790440871E-02	5.46645644169E-02	-3.90748705002E-02	5.46937077878E-02	-3.90502371226E-02	8.64336647266E-02	2.48062525566E-01
1.72450000000E+09	-3.05888674783E-02	-1.01627436205E-01	5.37800074337E-02	-4.02389241841E-02	5.37902638721E-02	-4.01980114997E-02	9.24082333342E-02	2.48043668183E-01
1.72500000000E+09	-2.86202275348E-02	-1.03510998240E-01	5.28696103413E-02	-4.13506844858E-02	5.28904390245E-02	-4.13302962432E-02	9.84014078495E-02	2.47862474034E-01
1.72550000000E+09	-2.67448577825E-02	-1.05437621199E-01	5.19285459299E-02	-4.24531577977E-02	5.19662137323E-02	-4.24344633893E-02	1.04405654508E-01	2.47453583261E-01
1.72600000000E+09	-2.49359226455E-02	-1.07442934759E-01	5.09891020609E-02	-4.35515742773E-02	5.10126397074E-02	-4.35185549551E-02	1.10316723169E-01	2.46915737399E-01
1.72650000000E+09	-2.32260405020E-02	-1.09494366102E-01	5.00221690453E-02	-4.46232570694E-02	5.00279793575E-02	-4.45857176214E-02	1.16259352554E-01	2.46184398430E-01
1.72700000000E+09	-2.15509601218E-02	-1.11601134919E-01	4.90323142828E-02	-4.56652126527E-02	4.90428106484E-02	-4.56298084666E-02	1.22153395611E-01	2.45264984005E-01
1.72750000000E+09	-1.99699790873E-02	-1.13708187197E-01	4.80106344493E-02	-4.66724220171E-02	4.80409809079E-02	-4.66574613264E-02	1.27979442851E-01	2.44196442359E-01
1.72800000000E+09	-1.84602511792E-02	-1.15875966971E-01	4.69713577405E-02	-4.76691166854E-02	4.69920893434E-02	-4.76253906932E-02	1.33808777123E-01	2.42909405979E-01
1.72850000000E+09	-1.70422195421E-02	-1.18091845451E-01	4.59045887501E-02	-4.86408173999E-02	4.59452529747E-02	-4.86016081746E-02	1.39550216704E-01	2.41482827298E-01
1.72900000000E+09	-1.56486234922E-02	-1.20335818865E-01	4.48447826603E-02	-4.95837654440E-02	4.48657472410E-02	-4.95547241959E-02	1.45269729376E-01	2.39845908615E-01
1.72950000000E+09	-1.43846367739E-02	-1.22593110301E-01	4.37448751747E-02	-5.04873113143E-02	4.37651333169E-02	-5.04680348134E-02	1.50901400397E-01	2.38053624940E-01
1.73000000000E+09	-1.31729371988E-02	-1.24913602892E-01	4.26378045641E-02	-5.13882821117E-02	4.26626612910E-02	-5.13704437075E-02	1.56450221082E-01	2.36114935465E-01
1.73050000000E+09	-1.20179236308E-02	-1.27209565573E-01	4.15088417927E-02	-5.22460170144E-02	4.15292394671E-02	-5.22364361731E-02	1.61975718308E-01	2.34003038285E-01
1.73100000000E+09	-1.09881042478E-02	-1.29568456743E-01	4.03593160848E-02	-5.30926389814E-02	4.03815999512E-02	-5.30609029191E-02	1.67411372528E-01	2.31719108517E-01
1.73150000000E+09	-1.00132466818E-02	-1.31919662232E-01	3.92012358518E-02	-5.39139652671E-02	3.92343076924E-02	-5.38822405736E-02	1.72774677703E-01	2.29243457858E-01
1.73200000000E+09	-9.07981869150E-03	-1.34302007197E-01	3.80293988676E-02	-5.47132495595E-02	3.80578136385E-02	-5.46773185833E-02	1.78032498598E-01	2.26636555489E-01
1.73250000000E+09	-8.26709513841E-03	-1.36697626544E-01	3.68271849796E-02	-5.54741487634E-02	3.68621440006E-02	-5.54333252462E-02	1.83209918899E-01	2.23861026673E-01
1.73300000000E+09	-7.51343508817E-03	-1.39089322991E-01	3.56254222638E-02	-5.61950259101E-02	3.56743502792E-02	-5.61677231791E-02	1.88286905976E-01	2.20996639163E-01
1.73350000000E+09	-6.82314745474E-03	-1.41535012822E-01	3.44018971583E-02	-5.69102984178E-02	3.44354755761E-02	-5.68857133894E-02	1.93281683085E-01	2.17915833424E-01
1.73400000000E+09	-6.21648023674E-03	-1.43951563276E-01	3.31797481980E-02	-5.75803793194E-02	3.32060825037E-02	-5.75614884110E-02	1.98200102399E-01	2.14673709099E-01
1.73450000000E+09	-5.69909093572E-03	-1.46388811804E-01	3.19459994388E-02	-5.82376826407E-02	3.19672400917E-02	-5.82208770028E-02	2.02972461915E-01	2.11336308658E-01
1.73500000000E+09	-5.25052063739E-03	-1.48850871208E-01	3.06881540049E-02	-5.88651695904E-02	3.07197710313E-02	-5.88452843944E-02	2.07632282027E-01	2.07834719897E-01
1.73550000000E+09	-4.85463436281E-03	-1.51280140103E-01	2.94317443125E-02	-5.94578198382E-02	2.94540400714E-02	-5.94399573053E-02	2.12218098451E-01	2.04203463564E-01
1.73600000000E+09	-4.54933868399E-03	-1.53710447925E-01	2.81438422948E-02	-6.00266389546E-02	2.81717493641E-02	-6.00121674013E-02	2.16610197040E-01	2.00450991686E-01
1.73650000000E+09	-4.31123046379E-03	-1.56152109937E-01	2.68681766641E-02	-6.05844232988E-02	2.69004444172E-02	-6.05579283485E-02	2.20953677065E-01	1.96561014165E-01
1.73700000000E+09	-4.13083725122E-03	-1.58621245988E-01	2.55684050652E-02	-6.10961010539E-02	2.55980003296E-02	-6.10637287645E-02	2.25134934920E-01	1.92551264226E-01
1.73750000000E+09	-4.07436932143E-03	-1.61034011093E-01	2.42568890846E-02	-6.15863834238E-02	2.42999684901E-02	-6.15617656231E-02	2.29208117678E-01	1.88413601163E-01
1.73800000000E+09	-4.05643375465E-03	-1.63492440306E-01	2.29591338409E-02	-6.20279529515E-02	2.29845391946E-02	-6.20394305222E-02	2.33131682609E-01	1.84122518929E-01
1.73850000000E+09	-4.10702842011E-03	-1.65889243442E-01	2.16326640844E-02	-6.24673154067E-02	2.16761006538E-02	-6.24548076682E-02	2.36922317074E-01	1.79794670574E-01
1.73900000000E+09	-4.23805829224E-03	-1.68304805003E-01	2.03211949295E-02	-6.28735099998E-02	2.03475976474E-02	-6.28620222525E-02	2.40598283204E-01	1.75296208519E-01
1.73950000000E+09	-4.39790493688E-03	-1.70707834382E-01	1.89972615284E-02	-6.32605932242E-02	1.90172053439E-02	-6.32310938284E-02	2.44108706321E-01	1.70743571676E-01
1.74000000000E+09	-4.69856858683E-03	-1.73124161838E-01	1.76565174214E-02	-6.35999790055E-02	1.76990736309E-02	-6.35861578564E-02	2.47495103045E-01	1.66073653778E-01
1.74050000000E+09	-5.03613184834E-03	-1.75484778916E-01	1.63121719243E-02	-6.39042025108E-02	1.63476602061E-02	-6.38986982245E-02	2.50699713499E-01	1.61280990006E-01
1.74100000000E+09	-5.46542592933E-03	-1.77869401262E-01	1.49705600663E-02	-6.42030982610E-02	1.50017565147E-02	-6.41924738835E-02	2.53773934280E-01	1.56418856567E-01
1.74150000000E+09	-5.92860249202E-03	-1.80174633797E-01	1.36407027066E-02	-6.44582173462E-02	1.36584431400E-02	-6.44472806007E-02	2.56685792795E-01	1.51459549086E-01
1.74200000000E+09	-6.48894034995E-03	-1.82536216583E-01	1.22732032522E-02	-6.46872755828E-02	1.23093758081E-02	-6.46948267956E-02	2.59453980265E-01	1.46430303677E-01
1.74250000000E+09	-7.13311917971E-03	-1.84829477384E-01	1.09427002853E-02	-6.48974892994E-02	1.09782550989E-02	-6.48855388602E-02	2.62081390586E-01	1.41334620267E-01
1.74300000000E+09	-7.80239770164E-03	-1.87106210380E-01	9.58082275632E-03	-6.50818119110E-02	9.61797077202E-03	-6.50774647537E-02	2.64548534167E-01	1.36130693921E-01
1.74350000000E+09	-8.60123718284E-03	-1.89370421690E-01	8.23104959651E-03	-6.52222222664E-02	8.25147583173E-03	-6.52119274023E-02	2.66801204894E-01	1.30870282110E-01
1.74400000000E+09	-9.43848868976E-03	-1.91569002793E-01	6.87751031674E-03	-6.53447482711E-02	6.90118386855E-03	-6.53328733586E-02	2.68947958983E-01	1.25582301464E-01
1.74450000000E+09	-1.03582298422E-02	-1.93770432249E-01	5.52495518853E-03	-6.54605439367E-02	5.56434626874E-03	-6.54395471641E-02	2.70899598358E-01	1.20210704957E-01
1.74500000000E+09	-1.13502395146E-02	-1.95934487520E-01	4.15755365299E-03	-6.55267507064E-02	4.19890530743E-03	-6.55243291006E-02	2.72716571346E-01	1.14802611602E-01
1.74550000000E+09	-1.24090231936E-02	-1.98053697513E-01	2.81794931141E-03	-6.55675039083E-02	2.85746089251E-03	-6.55661292517E-02	2.74323948841E-01	1.09350767596E-01
1.74600000000E+09	-1.35290968378E-02	-2.00162671766E-01	1.45470210952E-03	-6.55700726696E-02	1.49516020702E-03	-6.55604185298E-02	2.75813320053E-01	1.03799885442E-01
1.74650000000E+09	-1.47559174858E-02	-2.02216894456E-01	1.14418465755E-04	-6.55468724816E-02	1.39441842629E-04	-6.55624106577E-02	2.77080341624E-01	9.82578146213E-02
1.74700000000E+09	-1.60041050054E-02	-2.04212326126E-01	-1.21942633971E-03	-6.55099080072E-02	-1.18609533344E-03	-6.55150341716E-02	2.78133544339E-01	9.26838737164E-02
1.74750000000E+09	-1.73460846293E-02	-2.06171416927E-01	-2.58021723585E-03	-6.54477205573E-02	-2.54011198160E-03	-6.54406955138E-02	2.79116316328E-01	8.70689833266E-02
1.74800000000E+09	-1.87520752870E-02	-2.08103104927E-01	-3.91193744185E-03	-6.53727474662E-02	-3.88075864717E-03	-6.53481299059E-02	2.79880199471E-01	8.14239130029E-02
1.74850000000E+09	-2.02291175535E-02	-2.09934079739E-01	-5.24592579799E-03	-6.52264119023E-02	-5.21023924340E-03	-6.52277368240E-02	2.80455501714E-01	7.57896806248E-02
1.74900000000E+09	-2.17824658490E-02	-2.11733268561E-01	-6.57290946351E-03	-6.50885697655E-02	-6.54209137568E-03	-6.50777184676E-02	2.80865015971E-01	7.01217615920E-02
1.74950000000E+09	-2.34097022857E-02	-2.13455864035E-01	-7.90672349068E-03	-6.49040828990E-02	-7.87646039176E-03	-6.49203048372E-02	2.81127309093E-01	6.44697298301E-02
1.75000000000E+09	-2.51058924565E-02	-2.15166116833E-01	-9.23557492271E-03	-6.47213985088E-02	-9.18453472051E-03	-6.47028777112E-02	2.81184020341E-01	5.87787533993E-02
1.75050000000E+09	-2.68286425557E-02	-2.16758964738E-01	-1.05340821521E-02	-6.44990891952E-02	-1.05037088300E-02	-6.44925703914E-02	2.81074011654E-01	5.31296029805E-02
1.75100000000E+09	-2.86153263499E-02	-2.18350000882E-01	-1.18619700357E-02	-6.42289062548E-02	-1.18167239212E-02	-6.42535952833E-02	2.80782683137E-01	4.74475470254E-02
1.75150000000E+09	-3.04882755273E-02	-2.19835357820E-01	-1.31399052685E-02	-6.39755006539E-02	-1.31175244913E-02	-6.39658625801E-02	2.80346499684E-01	4.18586031198E-02
1.75200000000E+09	-3.24288441343E-02	-2.21221915470E-01	-1.44399579701E-02	-6.36737967251E-02	-1.44176902533E-02	-6.36654337299E-02	2.79702411247E-01	3.62190224108E-02
1.75250000000E+09	-3.44032974172E-02	-2.22568890674E-01	-1.57224773285E-02	-6.33539755278E-02	-1.56937053534E-02	-6.33678065849E-02	2.78867212232E-01	3.06213422557E-02
1.75300000000E+09	-3.64489129441E-02	-2.23799011393E-01	-1.70072226307E-02	-6.30167312899E-02	-1.69490183701E-02	-6.30139895305E-02	2.77856483316E-01	2.50875794080E-02
1.75350000000E+09	-3.85492676885E-02	-2.24978366461E-01	-1.82725283810E-02	-6.26265113268E-02	-1.82269498979E-02	-6.26519050130E-02	2.76707430499E-01	1.95575775864E-02
1.75400000000E+09	-4.06973533093E-02	-2.26033054736E-01	-1.95278467492E-02	-6.22366038816E-02	-1.94942703949E-02	-6.22468303736E-02	2.75359354678E-01	1.40980155869E-02
1.75450000000E+09	-4.28556319458E-02	-2.26991636578E-01	-2.07938477549E-02	-6.18151743800E-02	-2.07390257531E-02	-6.18275301340E-02	2.73882637788E-01	8.62317905403E-03
1.75500000000E+09	-4.50866350487E-02	-2.27875111559E-01	-2.20230794562E-02	-6.13909956667E-02	-2.19904431097E-02	-6.13839458959E-02	2.72202293750E-01	3.26083885482E-03
1.75550000000E+09	-4.73295815045E-02	-2.28649665143E-01	-2.32434538960E-02	-6.09249629014E-02	-2.32158583587E-02	-6.09171779964E-02	2.70362158646E-01	-2.05734383634E-03
1.75600000000E+09	-4.96133478561E-02	-2.29357022689E-01	-2.44651266855E-02	-6.04304032168E-02	-2.44334292280E-02	-6.04479752989E-02	2.68364159329E-01	-7.31930612810E-03
1.75650000000E+09	-5.19532233197E-02	-2.29918624460E-01	-2.56851942452E-02	-5.99090072129E-02	-2.56437122437E-02	-5.99306633222E-02	2.66187212576E-01	-1.25061154202E-02
1.75700000000E+09	-5.42998397835E-02	-2.30394959080E-01	-2.68740143910E-02	-5.93815437491E-02	-2.68334775104E-02	-5.94073563067E-02	2.63844412467E-01	-1.75742191460E-02
1.75750000000E+09	-5.66537086119E-02	-2.30745514828E-01	-2.80536646905E-02	-5.88467371436E-02	-2.80330437847E-02	-5.88504994749E-02	2.61348007907E-01	-2.26157292785E-02
1.75800000000E+09	-5.90471462825E-02	-2.30983547752E-01	-2.92284396477E-02	-5.82663098543E-02	-2.91982479126E-02	-5.82788127893E-02	2.58682022436E-01	-2.75689062598E-02
1.75850000000E+09	-6.14530513563E-02	-2.31131021270E-01	-3.03873461542E-02	-5.76761901300E-02	-3.03524712206E-02	-5.76949907695E-02	2.55876640559E-01	-3.24218198945E-02
