# Hz S RI R 50
! CMT, CMT808U, 21440046, 21.4.3/4
! Date: 11/12/2025 9:59:32 AM
! Data: Format (Calibration Info)
! Freq	S11:Re/Im(F2)	S41:Re/Im(F2)	S14:Re/Im(F2)	S44:Re/Im(F2)
1.60000000000E+09	-2.80096996310E-01	-2.31862165928E-01	-5.80732611759E-02	3.55578876798E-02	-5.82456280360E-02	3.46066108620E-02	4.19235285402E-02	2.88976590660E-02
1.60100000000E+09	-2.74961664286E-01	-2.31023493285E-01	-5.65243593038E-02	3.81124951816E-02	-5.67417703443E-02	3.71648549516E-02	3.92387350694E-02	3.16226725650E-02
1.60200000000E+09	-2.70072310099E-01	-2.30764764896E-01	-5.48588485375E-02	4.05938259142E-02	-5.51143130882E-02	3.96550183324E-02	3.67171518847E-02	3.45544304822E-02
1.60300000000E+09	-2.65486290675E-01	-2.31070226552E-01	-5.30790401573E-02	4.29943872510E-02	-5.33687149902E-02	4.20666395421E-02	3.43767148850E-02	3.76766142540E-02
1.60400000000E+09	-2.61287995530E-01	-2.31893050752E-01	-5.11831188376E-02	4.53073874707E-02	-5.15149622101E-02	4.43913036892E-02	3.22334053255E-02	4.09856036761E-02
1.60500000000E+09	-2.57575170211E-01	-2.33170935508E-01	-4.91834606781E-02	4.75253889271E-02	-4.95531500684E-02	4.66239919809E-02	3.03033343662E-02	4.44667466144E-02
1.60600000000E+09	-2.54409575911E-01	-2.34852671609E-01	-4.70839998629E-02	4.96482930106E-02	-4.74932188977E-02	4.87556210709E-02	2.85913671303E-02	4.80966527916E-02
1.60700000000E+09	-2.51844227362E-01	-2.36849451909E-01	-4.48917859179E-02	5.16642649072E-02	-4.53369274671E-02	5.07941371505E-02	2.71153257787E-02	5.18716462618E-02
1.60800000000E+09	-2.49932230001E-01	-2.39069679716E-01	-4.26127725755E-02	5.35755461248E-02	-4.30980534699E-02	5.27240878770E-02	2.58820238618E-02	5.57691360050E-02
1.60900000000E+09	-2.48704602908E-01	-2.41396439278E-01	-4.02575140832E-02	5.53697695416E-02	-4.07763459117E-02	5.45405058284E-02	2.49044934733E-02	5.97830556827E-02
1.61000000000E+09	-2.48171769764E-01	-2.43745052254E-01	-3.78337405888E-02	5.70563524987E-02	-3.83821465023E-02	5.62514922070E-02	2.41996546947E-02	6.38826728618E-02
1.61100000000E+09	-2.48325082411E-01	-2.45994985354E-01	-3.53395693627E-02	5.86286747902E-02	-3.59229638238E-02	5.78449671209E-02	2.37685590775E-02	6.80508870107E-02
1.61200000000E+09	-2.49139355307E-01	-2.48050813765E-01	-3.27902527376E-02	6.00833925415E-02	-3.34035481768E-02	5.93314883566E-02	2.36073230924E-02	7.22781577688E-02
1.61300000000E+09	-2.50567475141E-01	-2.49811053069E-01	-3.01923700239E-02	6.14258735287E-02	-3.08364730834E-02	6.06928937238E-02	2.37363117880E-02	7.65421686900E-02
1.61400000000E+09	-2.52549986206E-01	-2.51187487488E-01	-2.75468425611E-02	6.26492861357E-02	-2.82162182278E-02	6.19422849386E-02	2.41530205491E-02	8.08230669570E-02
1.61500000000E+09	-2.55029986917E-01	-2.52121906265E-01	-2.48566573282E-02	6.37600372815E-02	-2.55546734301E-02	6.30817935631E-02	2.48728419044E-02	8.50955790712E-02
1.61600000000E+09	-2.57918101279E-01	-2.52532735411E-01	-2.21362013826E-02	6.47530612273E-02	-2.28566480604E-02	6.41014808215E-02	2.58645313824E-02	8.93388701565E-02
1.61700000000E+09	-2.61125539047E-01	-2.52390222422E-01	-1.93814897087E-02	6.56336849377E-02	-2.01269800305E-02	6.50090344761E-02	2.71562758858E-02	9.35455405129E-02
1.61800000000E+09	-2.64570400887E-01	-2.51666633084E-01	-1.65952928118E-02	6.63988275800E-02	-1.73658373892E-02	6.58033813524E-02	2.87415366541E-02	9.76854588061E-02
1.61900000000E+09	-2.68155265313E-01	-2.50342048063E-01	-1.37887577568E-02	6.70504450417E-02	-1.45826366300E-02	6.64823800009E-02	3.06125187107E-02	1.01733361445E-01
1.62000000000E+09	-2.71813487379E-01	-2.48422233676E-01	-1.09594495620E-02	6.75887470269E-02	-1.17793529388E-02	6.70455010413E-02	3.27605207907E-02	1.05679310731E-01
1.62100000000E+09	-2.75437216343E-01	-2.45915928207E-01	-8.11417012160E-03	6.80096411685E-02	-8.95631699499E-03	6.74984268931E-02	3.51845354288E-02	1.09501396418E-01
1.62200000000E+09	-2.78972772764E-01	-2.42855307560E-01	-5.25677076692E-03	6.83189658478E-02	-6.12080410701E-03	6.78385890219E-02	3.78832279529E-02	1.13176834517E-01
1.62300000000E+09	-2.82360834426E-01	-2.39264517393E-01	-2.38811742635E-03	6.85151776391E-02	-3.27091950004E-03	6.80674721298E-02	4.08354600480E-02	1.16695366664E-01
1.62400000000E+09	-2.85528375207E-01	-2.35178697195E-01	4.90025571959E-04	6.85924647250E-02	-4.17517204553E-04	6.81771712278E-02	4.40368854235E-02	1.20023545396E-01
1.62500000000E+09	-2.88442244205E-01	-2.30642182309E-01	3.36612566138E-03	6.85555550936E-02	2.44393347508E-03	6.81757056304E-02	4.74784106895E-02	1.23156850775E-01
1.62600000000E+09	-2.91043060886E-01	-2.25711868653E-01	6.24210311089E-03	6.84038970166E-02	5.29836222268E-03	6.80572101665E-02	5.11440176916E-02	1.26073160685E-01
1.62700000000E+09	-2.93323554616E-01	-2.20410937290E-01	9.11443054082E-03	6.81355107266E-02	8.15190728741E-03	6.78262705315E-02	5.50248533048E-02	1.28761634741E-01
1.62800000000E+09	-2.95233500988E-01	-2.14805737148E-01	1.19785148354E-02	6.77480239688E-02	1.09971051860E-02	6.74774172811E-02	5.91051318150E-02	1.31194235304E-01
1.62900000000E+09	-2.96768336881E-01	-2.08919083334E-01	1.48243935740E-02	6.72465431501E-02	1.38313326631E-02	6.70140003325E-02	6.33530768290E-02	1.33376013873E-01
1.63000000000E+09	-2.97915147572E-01	-2.02797087541E-01	1.76578836943E-02	6.66243824980E-02	1.66498347002E-02	6.64340944918E-02	6.77743030643E-02	1.35286455402E-01
1.63100000000E+09	-2.98657180863E-01	-1.96501988494E-01	2.04651791669E-02	6.58911115945E-02	1.94397292008E-02	6.57423405956E-02	7.23406593484E-02	1.36908859950E-01
1.63200000000E+09	-2.98978133727E-01	-1.90060113190E-01	2.32453294223E-02	6.50343364633E-02	2.22178858454E-02	6.49311134130E-02	7.70388995221E-02	1.38233827798E-01
1.63300000000E+09	-2.98900450422E-01	-1.83518791463E-01	2.59980780717E-02	6.40679551518E-02	2.49559366468E-02	6.40066059649E-02	8.18366659006E-02	1.39258325328E-01
1.63400000000E+09	-2.98400596942E-01	-1.76907760127E-01	2.87099776178E-02	6.29813877483E-02	2.76611674277E-02	6.29662636593E-02	8.67334541658E-02	1.39968429622E-01
1.63500000000E+09	-2.97495389052E-01	-1.70262306933E-01	3.13819154962E-02	6.17782836604E-02	3.03274566202E-02	6.18097044011E-02	9.16888729743E-02	1.40356546129E-01
1.63600000000E+09	-2.96196982399E-01	-1.63619519912E-01	3.40094018567E-02	6.04672580153E-02	3.29472269296E-02	6.05441163589E-02	9.66957770853E-02	1.40419438071E-01
1.63700000000E+09	-2.94499172061E-01	-1.57003010415E-01	3.65761347642E-02	5.90422814090E-02	3.55205369294E-02	5.91665723494E-02	1.01727198240E-01	1.40155025561E-01
1.63800000000E+09	-2.92420188910E-01	-1.50444124189E-01	3.90959680641E-02	5.75034567696E-02	3.80363490646E-02	5.76754148199E-02	1.06763084318E-01	1.39569649679E-01
1.63900000000E+09	-2.89978194414E-01	-1.43968691167E-01	4.15540798761E-02	5.58598644401E-02	4.04927515416E-02	5.60784127589E-02	1.11783523337E-01	1.38644148024E-01
1.64000000000E+09	-2.87163391031E-01	-1.37597518365E-01	4.39415826465E-02	5.41049728697E-02	4.28859140058E-02	5.43746313371E-02	1.16756853231E-01	1.37394100730E-01
1.64100000000E+09	-2.84005591484E-01	-1.31362286119E-01	4.62552460089E-02	5.22470656031E-02	4.52111967221E-02	5.25657195453E-02	1.21678116144E-01	1.35812751936E-01
1.64200000000E+09	-2.80504858157E-01	-1.25271490803E-01	4.84982475501E-02	5.02860320997E-02	4.74626200626E-02	5.06570626526E-02	1.26515461289E-01	1.33901641716E-01
1.64300000000E+09	-2.76681714654E-01	-1.19359640091E-01	5.06602169468E-02	4.82263248748E-02	4.96362182973E-02	4.86476399720E-02	1.31253154392E-01	1.31672642110E-01
1.64400000000E+09	-2.72550058921E-01	-1.13629568782E-01	5.27339850425E-02	4.60729734369E-02	5.17266483064E-02	4.65461239528E-02	1.35855522942E-01	1.29127349375E-01
1.64500000000E+09	-2.68122042840E-01	-1.08109759249E-01	5.47189489967E-02	4.38263665242E-02	5.37266277682E-02	4.43498568040E-02	1.40310387790E-01	1.26288628320E-01
1.64600000000E+09	-2.63405713146E-01	-1.02809956011E-01	5.66093650948E-02	4.14944253073E-02	5.56402094978E-02	4.20636906653E-02	1.44606605896E-01	1.23134792036E-01
1.64700000000E+09	-2.58411291150E-01	-9.77519999890E-02	5.83988034850E-02	3.90717964033E-02	5.74525855032E-02	3.96916579098E-02	1.48722382562E-01	1.19700790340E-01
1.64800000000E+09	-2.53162310720E-01	-9.29480972451E-02	6.00868931162E-02	3.65671810116E-02	5.91718098494E-02	3.72369467326E-02	1.52619271799E-01	1.15999893960E-01
1.64900000000E+09	-2.47665761113E-01	-8.84276710416E-02	6.16672412267E-02	3.39911915016E-02	6.07791181876E-02	3.47040120425E-02	1.56303573215E-01	1.12020934696E-01
1.65000000000E+09	-2.41946879316E-01	-8.41857814966E-02	6.31379475401E-02	3.13414711123E-02	6.22830101247E-02	3.20949706236E-02	1.59739702281E-01	1.07799960520E-01
1.65100000000E+09	-2.36008336655E-01	-8.02500759054E-02	6.44944231176E-02	2.86235965669E-02	6.36714042628E-02	2.94210985882E-02	1.62915593657E-01	1.03353445076E-01
1.65200000000E+09	-2.29868656970E-01	-7.66341694588E-02	6.57312720911E-02	2.58417059149E-02	6.49466409177E-02	2.66798404414E-02	1.65822602929E-01	9.86742561584E-02
1.65300000000E+09	-2.23549341523E-01	-7.33632777497E-02	6.68475307642E-02	2.30056100633E-02	6.60994401753E-02	2.38858276894E-02	1.68439098532E-01	9.38079385730E-02
1.65400000000E+09	-2.17077619385E-01	-7.04290355636E-02	6.78401369761E-02	2.01143659001E-02	6.71308738428E-02	2.10276744017E-02	1.70758263898E-01	8.87477291828E-02
1.65500000000E+09	-2.10458310775E-01	-6.78760098230E-02	6.87022637884E-02	1.71815273694E-02	6.80406297076E-02	1.81295791951E-02	1.72748600590E-01	8.35359273447E-02
1.65600000000E+09	-2.03722999622E-01	-6.56900575652E-02	6.94362349474E-02	1.42029441340E-02	6.88175867965E-02	1.51841389918E-02	1.74425800535E-01	7.81715457681E-02
1.65700000000E+09	-1.96893031091E-01	-6.38953257186E-02	7.00376770219E-02	1.11924303912E-02	6.94662498243E-02	1.22018861984E-02	1.75753005827E-01	7.26930163934E-02
1.65800000000E+09	-1.89991990109E-01	-6.25015496372E-02	7.05047480105E-02	8.15129387980E-03	6.99847367040E-02	9.18649415939E-03	1.76749694533E-01	6.71168783799E-02
1.65900000000E+09	-1.83037188806E-01	-6.15269344143E-02	7.08385525238E-02	5.09023590185E-03	7.03615334095E-02	6.15021576914E-03	1.77376998010E-01	6.14571742207E-02
1.66000000000E+09	-1.76064580861E-01	-6.09747154706E-02	7.10297629457E-02	2.01284519248E-03	7.06059904454E-02	3.09453340858E-03	1.77652812872E-01	5.57445288740E-02
1.66100000000E+09	-1.69107497705E-01	-6.08583181859E-02	7.10859273120E-02	-1.07561090888E-03	7.07117993624E-02	2.91044084149E-05	1.77561365567E-01	5.00000171291E-02
1.66200000000E+09	-1.62192331662E-01	-6.11854635220E-02	7.10018099146E-02	-4.16031723859E-03	7.06779968986E-02	-3.04375834943E-03	1.77099794540E-01	4.42527779357E-02
1.66300000000E+09	-1.55353552618E-01	-6.19681009076E-02	7.07763085105E-02	-7.24460579682E-03	7.05048978429E-02	-6.11225457542E-03	1.76266602611E-01	3.85297490928E-02
1.66400000000E+09	-1.48631837319E-01	-6.31943286825E-02	7.04087846447E-02	-1.03174359612E-02	7.01939781848E-02	-9.17391346478E-03	1.75073566348E-01	3.28317523387E-02
1.66500000000E+09	-1.42060228237E-01	-6.48788783708E-02	6.99082389135E-02	-1.33698304971E-02	6.97412695713E-02	-1.22156527776E-02	1.73496699177E-01	2.72102601282E-02
1.66600000000E+09	-1.35686891105E-01	-6.70040665821E-02	6.92616969448E-02	-1.63919695213E-02	6.91523756978E-02	-1.52351207693E-02	1.71559012734E-01	2.16803163962E-02
1.66700000000E+09	-1.29550462129E-01	-6.95704767006E-02	6.84813469319E-02	-1.93854026202E-02	6.84238974043E-02	-1.82256089077E-02	1.69260515270E-01	1.62618150782E-02
1.66800000000E+09	-1.23690614309E-01	-7.25629107368E-02	6.75667102659E-02	-2.23413058734E-02	6.75650581651E-02	-2.11750233667E-02	1.66607427957E-01	1.09817382476E-02
1.66900000000E+09	-1.18146369923E-01	-7.59717370603E-02	6.65182651661E-02	-2.52413447596E-02	6.65651249757E-02	-2.40801527418E-02	1.63600494390E-01	5.87018983783E-03
1.67000000000E+09	-1.12973871945E-01	-7.97739046287E-02	6.53373062747E-02	-2.80905039212E-02	6.54395927600E-02	-2.69326715400E-02	1.60254835634E-01	9.46280384243E-04
1.67100000000E+09	-1.08219863631E-01	-8.39416455398E-02	6.40349121024E-02	-3.08804222375E-02	6.41896797322E-02	-2.97276995810E-02	1.56588139381E-01	-3.76977877393E-03
1.67200000000E+09	-1.03907534214E-01	-8.84364319788E-02	6.26084504058E-02	-3.35998713583E-02	6.28118368918E-02	-3.24553239055E-02	1.52593090293E-01	-8.25250410582E-03
1.67300000000E+09	-1.00101068767E-01	-9.32290115276E-02	6.10669986949E-02	-3.62434833103E-02	6.13188879759E-02	-3.51096449825E-02	1.48296226119E-01	-1.24734356445E-02
1.67400000000E+09	-9.68353319458E-02	-9.82690050438E-02	5.94108643411E-02	-3.88054617774E-02	5.97147242622E-02	-3.76854276718E-02	1.43718733535E-01	-1.64215052741E-02
1.67500000000E+09	-9.41446726839E-02	-1.03503202328E-01	5.76460346230E-02	-4.12863541070E-02	5.80035008400E-02	-4.01809640273E-02	1.38868800673E-01	-2.00731021222E-02
1.67600000000E+09	-9.20574815897E-02	-1.08867695123E-01	5.57811016864E-02	-4.36770259817E-02	5.61874822416E-02	-4.25852248425E-02	1.33761573331E-01	-2.34086685209E-02
1.67700000000E+09	-9.06049912240E-02	-1.14308523340E-01	5.38225822478E-02	-4.59724678928E-02	5.42798646934E-02	-4.49001441511E-02	1.28431087228E-01	-2.64014548601E-02
1.67800000000E+09	-8.98056788540E-02	-1.19735774496E-01	5.17793620967E-02	-4.81739614005E-02	5.22764175831E-02	-4.71252418907E-02	1.22877900272E-01	-2.90487334853E-02
1.67900000000E+09	-8.96618924673E-02	-1.25080815540E-01	4.96518380834E-02	-5.02761685033E-02	5.01948850258E-02	-4.92531781685E-02	1.17142375416E-01	-3.13161823361E-02
1.68000000000E+09	-9.01744940023E-02	-1.30258546243E-01	4.74496118414E-02	-5.22799904949E-02	4.80348355772E-02	-5.12808534148E-02	1.11240010136E-01	-3.32094034885E-02
1.68100000000E+09	-9.13296185988E-02	-1.35184701459E-01	4.51783701239E-02	-5.41799147623E-02	4.58045212454E-02	-5.32097268868E-02	1.05191071599E-01	-3.46963880033E-02
1.68200000000E+09	-9.30969340055E-02	-1.39784355626E-01	4.28433381768E-02	-5.59831313833E-02	4.35097895923E-02	-5.50431783711E-02	9.90313237507E-02	-3.57840587898E-02
1.68300000000E+09	-9.54422402016E-02	-1.43970824789E-01	4.04451564943E-02	-5.76839443217E-02	4.11508439546E-02	-5.67711245803E-02	9.27799898029E-02	-3.64465063881E-02
1.68400000000E+09	-9.83139439399E-02	-1.47663153982E-01	3.79937250042E-02	-5.92831173475E-02	3.87423885850E-02	-5.84035044357E-02	8.64666636397E-02	-3.66858755418E-02
1.68500000000E+09	-1.01643419420E-01	-1.50791520285E-01	3.54925073215E-02	-6.07873517615E-02	3.62778995862E-02	-5.99372697023E-02	8.01183358426E-02	-3.64935214510E-02
1.68600000000E+09	-1.05357179197E-01	-1.53295365717E-01	3.29434878309E-02	-6.21895098923E-02	3.37645648434E-02	-6.13761569832E-02	7.37657329008E-02	-3.58586670043E-02
1.68700000000E+09	-1.09376025997E-01	-1.55128875894E-01	3.03502044052E-02	-6.34944159164E-02	3.12046396694E-02	-6.27159486734E-02	6.74414631250E-02	-3.47783428526E-02
1.68800000000E+09	-1.13593753383E-01	-1.56248148042E-01	2.77076909386E-02	-6.47026039999E-02	2.85957585092E-02	-6.39635305643E-02	6.11701295648E-02	-3.32535961345E-02
1.68900000000E+09	-1.17923413296E-01	-1.56624844922E-01	2.50254046525E-02	-6.58186736991E-02	2.59426690752E-02	-6.51141860345E-02	5.49832517824E-02	-3.12914383068E-02
1.69000000000E+09	-1.22253126436E-01	-1.56256224948E-01	2.23022406012E-02	-6.68304095100E-02	2.32492362459E-02	-6.61699514913E-02	4.89121514532E-02	-2.88934255807E-02
1.69100000000E+09	-1.26488730481E-01	-1.55146829437E-01	1.95363356103E-02	-6.77468438016E-02	2.05128401190E-02	-6.71300664151E-02	4.29889343757E-02	-2.60604766983E-02
1.69200000000E+09	-1.30525988513E-01	-1.53314769684E-01	1.67306139903E-02	-6.85642977152E-02	1.77333481213E-02	-6.79871080720E-02	3.72458738533E-02	-2.27960533756E-02
1.69300000000E+09	-1.34261676156E-01	-1.50804534830E-01	1.38848718189E-02	-6.92773187850E-02	1.49133639435E-02	-6.87479152264E-02	3.17138562652E-02	-1.91363625527E-02
1.69400000000E+09	-1.37606467491E-01	-1.47653106817E-01	1.09991983955E-02	-6.98854171063E-02	1.20490924153E-02	-6.93998950032E-02	2.64142742999E-02	-1.50621620903E-02
1.69500000000E+09	-1.40485927729E-01	-1.43939582270E-01	8.07970958940E-03	-7.03824262183E-02	9.14555246163E-03	-6.99456686699E-02	2.13857421144E-02	-1.06023620700E-02
1.69600000000E+09	-1.42827683250E-01	-1.39739060272E-01	5.12347723244E-03	-7.07675364959E-02	6.20703430648E-03	-7.03784488206E-02	1.66495249269E-02	-5.77834525886E-03
1.69700000000E+09	-1.44583188043E-01	-1.35121306302E-01	2.13762195720E-03	-7.10329303336E-02	3.23036858587E-03	-7.06922075693E-02	1.22305211456E-02	-6.05652657958E-04
1.69800000000E+09	-1.45707685272E-01	-1.30184680765E-01	-8.77293280368E-04	-7.11742164443E-02	2.30229176756E-04	-7.08833800281E-02	8.16036623520E-03	4.89706444769E-03
1.69900000000E+09	-1.46173869579E-01	-1.25014654714E-01	-3.91907461690E-03	-7.11916968308E-02	-2.79555917213E-03	-7.09430199473E-02	4.45967579285E-03	1.06986708329E-02
1.70000000000E+09	-1.45973339346E-01	-1.19695842045E-01	-6.97635268349E-03	-7.10783376381E-02	-5.84658853215E-03	-7.08741436444E-02	1.14525931413E-03	1.67840763023E-02
1.70100000000E+09	-1.45090567219E-01	-1.14320641362E-01	-1.00422087525E-02	-7.08225705728E-02	-8.90466151427E-03	-7.06683016069E-02	-1.75385907319E-03	2.31085601151E-02
1.70200000000E+09	-1.43547252597E-01	-1.08974181416E-01	-1.31107744812E-02	-7.04326541758E-02	-1.19701859915E-02	-7.03243712362E-02	-4.22408948175E-03	2.96651919643E-02
1.70300000000E+09	-1.41361839197E-01	-1.03727484309E-01	-1.61824169600E-02	-6.99000474759E-02	-1.50308171607E-02	-6.98416208993E-02	-6.25481645580E-03	3.64043368171E-02
1.70400000000E+09	-1.38563625709E-01	-9.86680299597E-02	-1.92315354926E-02	-6.92244650303E-02	-1.80830767758E-02	-6.92119110048E-02	-7.82786736140E-03	4.33143761357E-02
1.70500000000E+09	-1.35183473434E-01	-9.38525072261E-02	-2.22706902664E-02	-6.84026526494E-02	-2.11179185651E-02	-6.84411893879E-02	-8.92999523308E-03	5.03527746203E-02
1.70600000000E+09	-1.31272440637E-01	-8.93411682786E-02	-2.52737774319E-02	-6.74356166212E-02	-2.41219270270E-02	-6.75242327807E-02	-9.55426516095E-03	5.74794908080E-02
1.70700000000E+09	-1.26881281786E-01	-8.51838227588E-02	-2.82438270832E-02	-6.63239547351E-02	-2.70955656576E-02	-6.64668446214E-02	-9.69880485163E-03	6.46801043333E-02
1.70800000000E+09	-1.22059260150E-01	-8.14330638704E-02	-3.11637640272E-02	-6.50675469794E-02	-3.00230682234E-02	-6.52575202686E-02	-9.34825881122E-03	7.19206098382E-02
1.70900000000E+09	-1.16866465122E-01	-7.81093294260E-02	-3.40303180142E-02	-6.36716411048E-02	-3.28945809148E-02	-6.39106597381E-02	-8.51488369814E-03	7.91500895326E-02
1.71000000000E+09	-1.11351826224E-01	-7.52404906551E-02	-3.68279350915E-02	-6.21354197856E-02	-3.57052459785E-02	-6.24249503724E-02	-7.19871650760E-03	8.63452270076E-02
1.71100000000E+09	-1.05574175253E-01	-7.28473101550E-02	-3.95548303502E-02	-6.04628587378E-02	-3.84468093178E-02	-6.08014988845E-02	-5.39226844126E-03	9.34728090980E-02
1.71200000000E+09	-9.95807403350E-02	-7.09411682663E-02	-4.22011614618E-02	-5.86638512382E-02	-4.11118100238E-02	-5.90495009604E-02	-3.10780239422E-03	1.00493948122E-01
1.71300000000E+09	-9.34262948866E-02	-6.95318026940E-02	-4.47573419644E-02	-5.67323745196E-02	-4.36851859224E-02	-5.71689265079E-02	-3.53916990890E-04	1.07379638575E-01
1.71400000000E+09	-8.71636844353E-02	-6.86115792512E-02	-4.72215188036E-02	-5.46869977147E-02	-4.61673178573E-02	-5.51703322639E-02	2.86071469679E-03	1.14111044317E-01
1.71500000000E+09	-8.08318085559E-02	-6.81802036210E-02	-4.95850731753E-02	-5.25221174226E-02	-4.85505709649E-02	-5.30525046227E-02	6.52892245118E-03	1.20637736997E-01
1.71600000000E+09	-7.44809058810E-02	-6.82410841102E-02	-5.18370897669E-02	-5.02511466290E-02	-5.08257759856E-02	-5.08241244237E-02	1.06344258436E-02	1.26945246934E-01
1.71700000000E+09	-6.81470946580E-02	-6.87723461205E-02	-5.39761329504E-02	-4.78782832505E-02	-5.29928149892E-02	-4.84942139209E-02	1.51609614091E-02	1.32999249779E-01
