# Hz S RI R 50
! CMT, CMT808U, 21440046, 21.4.3/4
! Date: 11/12/2025 10:32:56 AM
! Data: Format (Calibration Info)
! Freq	S11:Re/Im(F2)	S41:Re/Im(F2)	S14:Re/Im(F2)	S44:Re/Im(F2)
1.60000000000E+09	-2.87533000220E-01	-2.38393885373E-01	-4.34926493057E-03	6.01152084736E-02	-5.25017076267E-03	5.96699600318E-02	-1.25807388893E-01	5.73631628724E-03
1.60100000000E+09	-2.83129822539E-01	-2.36726778708E-01	-1.69603582807E-03	6.03131105050E-02	-2.60902110761E-03	5.99287730605E-02	-1.28723549674E-01	1.75896423776E-02
1.60200000000E+09	-2.78839846003E-01	-2.35491350629E-01	9.74549103390E-04	6.03877465764E-02	3.94087136569E-05	6.00566459170E-02	-1.30838102410E-01	2.96066113479E-02
1.60300000000E+09	-2.74753631147E-01	-2.34713104745E-01	3.64927979424E-03	6.03312532542E-02	2.69594636737E-03	6.00525119841E-02	-1.32139146067E-01	4.17156191633E-02
1.60400000000E+09	-2.70946976067E-01	-2.34388579057E-01	6.30052443654E-03	6.01407065991E-02	5.34785214040E-03	5.99223298588E-02	-1.32620630896E-01	5.38812685843E-02
1.60500000000E+09	-2.67483970580E-01	-2.34450797615E-01	8.91866579357E-03	5.98219633489E-02	7.98579439139E-03	5.96615682855E-02	-1.32286707463E-01	6.60339330749E-02
1.60600000000E+09	-2.64406293598E-01	-2.34825578823E-01	1.15345340904E-02	5.93901302025E-02	1.05991910904E-02	5.92713114761E-02	-1.31148144013E-01	7.81160592321E-02
1.60700000000E+09	-2.60316995671E-01	-2.31417800723E-01	1.40967231984E-02	5.88086363754E-02	1.32831467887E-02	5.86789595993E-02	-1.29433699850E-01	8.98035309696E-02
1.60800000000E+09	-2.58109374470E-01	-2.32286532024E-01	1.66432754679E-02	5.81356379259E-02	1.58270244455E-02	5.80425078751E-02	-1.26716882415E-01	1.01611873856E-01
1.60900000000E+09	-2.56405374796E-01	-2.33290385731E-01	1.91459896493E-02	5.73479247697E-02	1.83270951058E-02	5.72886244552E-02	-1.23226896621E-01	1.13197466593E-01
1.61000000000E+09	-2.55231656547E-01	-2.34337968972E-01	2.16001878306E-02	5.64503079148E-02	2.07774526731E-02	5.64284498590E-02	-1.18982727972E-01	1.24503630846E-01
1.61100000000E+09	-2.54563418385E-01	-2.35380927957E-01	2.39933763587E-02	5.54477207887E-02	2.31760526905E-02	5.54597320949E-02	-1.14004421938E-01	1.35485827217E-01
1.61200000000E+09	-2.54404894395E-01	-2.36317922386E-01	2.63276805319E-02	5.43507098693E-02	2.55124331101E-02	5.43916084088E-02	-1.08325820649E-01	1.46096170499E-01
1.61300000000E+09	-2.54711495604E-01	-2.37081474301E-01	2.85987317142E-02	5.31516030743E-02	2.77829575440E-02	5.32299608299E-02	-1.01962081065E-01	1.56289441254E-01
1.61400000000E+09	-2.55462567304E-01	-2.37605873826E-01	3.08002967626E-02	5.18740256496E-02	2.99929376536E-02	5.19797667126E-02	-9.49540167863E-02	1.66021696083E-01
1.61500000000E+09	-2.56596250857E-01	-2.37830317780E-01	3.29367009210E-02	5.05086209834E-02	3.21366257338E-02	5.06477812962E-02	-8.73299904938E-02	1.75254095661E-01
1.61600000000E+09	-2.58078702853E-01	-2.37703948619E-01	3.50058447118E-02	4.90694080911E-02	3.42116393351E-02	4.92363536927E-02	-7.91339735745E-02	1.83944941851E-01
1.61700000000E+09	-2.59819287786E-01	-2.37180230928E-01	3.70063199867E-02	4.75559143454E-02	3.62188587024E-02	4.77555526233E-02	-7.03955820156E-02	1.92071410409E-01
1.61800000000E+09	-2.61767015236E-01	-2.36251923998E-01	3.89334928365E-02	4.59762405126E-02	3.81601841562E-02	4.62060994384E-02	-6.11642422895E-02	1.99595516822E-01
1.61900000000E+09	-2.63856210394E-01	-2.34881470214E-01	4.07955681908E-02	4.43280451100E-02	4.00278406124E-02	4.45907854971E-02	-5.14732529263E-02	2.06471127154E-01
1.62000000000E+09	-2.66014249419E-01	-2.33073367175E-01	4.25885525644E-02	4.26232269619E-02	4.18325928011E-02	4.29113969771E-02	-4.13674821627E-02	2.12704118966E-01
1.62100000000E+09	-2.68182253747E-01	-2.30849213994E-01	4.43113667052E-02	4.08548157493E-02	4.35680771477E-02	4.11688980038E-02	-3.08882105485E-02	2.18242961018E-01
1.62200000000E+09	-2.70306278270E-01	-2.28198378640E-01	4.59667942194E-02	3.90232857733E-02	4.52341432258E-02	3.93694174189E-02	-2.00909097230E-02	2.23075553373E-01
1.62300000000E+09	-2.72337735426E-01	-2.25149101300E-01	4.75572400528E-02	3.71403087044E-02	4.68322620814E-02	3.75115087097E-02	-9.01895796571E-03	2.27193383167E-01
1.62400000000E+09	-2.74213252061E-01	-2.21743832003E-01	4.90730994776E-02	3.51958113258E-02	4.83649686614E-02	3.55983610357E-02	2.28986934476E-03	2.30573757122E-01
1.62500000000E+09	-2.75910265408E-01	-2.17993361174E-01	5.05201814941E-02	3.31978666731E-02	4.98265680888E-02	3.36234597116E-02	1.37732424319E-02	2.33205846297E-01
1.62600000000E+09	-2.77383510596E-01	-2.13951670177E-01	5.18986279847E-02	3.11417895668E-02	5.12117712026E-02	3.15978208032E-02	2.53839144333E-02	2.35085782750E-01
1.62700000000E+09	-2.78617756359E-01	-2.09631831329E-01	5.31943362460E-02	2.90324960860E-02	5.25267045519E-02	2.95179201147E-02	3.70810241015E-02	2.36203645279E-01
1.62800000000E+09	-2.79590923787E-01	-2.05091895738E-01	5.44191278587E-02	2.68713359942E-02	5.37689236416E-02	2.73851746951E-02	4.88170749505E-02	2.36557551495E-01
1.62900000000E+09	-2.80289708317E-01	-2.00351633941E-01	5.55648202476E-02	2.46570053312E-02	5.49306388542E-02	2.51931552992E-02	6.05359322475E-02	2.36154227123E-01
1.63000000000E+09	-2.80702608426E-01	-1.95445918200E-01	5.66295678272E-02	2.23915593845E-02	5.60100792165E-02	2.29605860694E-02	7.21939063476E-02	2.34993539815E-01
1.63100000000E+09	-2.80812880001E-01	-1.90426942232E-01	5.76082922779E-02	2.00792965727E-02	5.70104782398E-02	2.06698811239E-02	8.37448053516E-02	2.33085087317E-01
1.63200000000E+09	-2.80639559655E-01	-1.85311223429E-01	5.84963942125E-02	1.77191703487E-02	5.79187316146E-02	1.83360626402E-02	9.51462372371E-02	2.30437151859E-01
1.63300000000E+09	-2.80164217144E-01	-1.80122831513E-01	5.92950152741E-02	1.53140053582E-02	5.87353938538E-02	1.59615813222E-02	1.06328558778E-01	2.27061667920E-01
1.63400000000E+09	-2.79404624591E-01	-1.74887584078E-01	5.99989293447E-02	1.28691689050E-02	5.94662864753E-02	1.35437750217E-02	1.17277468972E-01	2.22974613621E-01
1.63500000000E+09	-2.78361182039E-01	-1.69633412122E-01	6.06039606505E-02	1.03866725910E-02	6.00954655225E-02	1.10904323916E-02	1.27929472644E-01	2.18196286451E-01
1.63600000000E+09	-2.77041755625E-01	-1.64386067221E-01	6.11147189706E-02	7.87240386683E-03	6.06302989632E-02	8.59994096584E-03	1.38252875473E-01	2.12745742558E-01
1.63700000000E+09	-2.75453495567E-01	-1.59158486360E-01	6.15179313814E-02	5.32815613223E-03	6.10648111344E-02	6.08412504226E-03	1.48198716319E-01	2.06647814808E-01
1.63800000000E+09	-2.73598692412E-01	-1.53972242626E-01	6.18205829387E-02	2.75846576059E-03	6.13958046642E-02	3.53791873028E-03	1.57733927166E-01	1.99927295551E-01
1.63900000000E+09	-2.71497625611E-01	-1.48840078875E-01	6.20154089529E-02	1.67727253827E-04	6.16213727648E-02	9.69009312756E-04	1.66820759288E-01	1.92604572853E-01
1.64000000000E+09	-2.69141899388E-01	-1.43766760278E-01	6.21000765085E-02	-2.43601377492E-03	6.17406507614E-02	-1.61191514508E-03	1.75418257175E-01	1.84723313113E-01
1.64100000000E+09	-2.66546217337E-01	-1.38789940704E-01	6.20773583799E-02	-5.05599330811E-03	6.17492893584E-02	-4.20832299023E-03	1.83499968058E-01	1.76307930252E-01
1.64200000000E+09	-2.63727095275E-01	-1.33887561859E-01	6.19442446530E-02	-7.67627161329E-03	6.16525790789E-02	-6.81001749505E-03	1.91032489762E-01	1.67388211790E-01
1.64300000000E+09	-2.60669446083E-01	-1.29095990368E-01	6.17007600469E-02	-1.03039942289E-02	6.14426023339E-02	-9.41526721160E-03	1.97979140823E-01	1.58012704076E-01
1.64400000000E+09	-2.57402217648E-01	-1.24417482891E-01	6.13430132200E-02	-1.29225691010E-02	6.11273727055E-02	-1.20199013398E-02	2.04313749859E-01	1.48203919745E-01
1.64500000000E+09	-2.53913713119E-01	-1.19857446418E-01	6.08760806741E-02	-1.55350769034E-02	6.07009100047E-02	-1.46175229859E-02	2.10012993892E-01	1.38005083940E-01
1.64600000000E+09	-2.50216086530E-01	-1.15420418319E-01	6.02896183838E-02	-1.81383607438E-02	6.01593198237E-02	-1.72042549649E-02	2.15058368175E-01	1.27461602033E-01
1.64700000000E+09	-2.46308034925E-01	-1.11135374814E-01	5.96009786801E-02	-2.07175717856E-02	5.95097896275E-02	-1.97732370779E-02	2.19429628276E-01	1.16612604137E-01
1.64800000000E+09	-2.42193127061E-01	-1.06993107716E-01	5.87986941110E-02	-2.32814367125E-02	5.87503387194E-02	-2.23260386614E-02	2.23097904535E-01	1.05502280445E-01
1.64900000000E+09	-2.37879552256E-01	-1.03027236647E-01	5.78838984912E-02	-2.58129654301E-02	5.78804712163E-02	-2.48513698778E-02	2.26059465427E-01	9.41681513155E-02
1.65000000000E+09	-2.33366294561E-01	-9.92380849533E-02	5.68590225499E-02	-2.83121153221E-02	5.69016310121E-02	-2.73460119637E-02	2.28294192361E-01	8.26672010272E-02
1.65100000000E+09	-2.28660459876E-01	-9.56418823555E-02	5.57241617684E-02	-3.07790698933E-02	5.58125712180E-02	-2.98087660764E-02	2.29792792836E-01	7.10326572715E-02
1.65200000000E+09	-2.23766166989E-01	-9.22608259394E-02	5.44802786035E-02	-3.32049554518E-02	5.46140030214E-02	-3.22319747110E-02	2.30543140599E-01	5.93144389853E-02
1.65300000000E+09	-2.18691090497E-01	-8.91139165708E-02	5.31282418524E-02	-3.55811192172E-02	5.33086990910E-02	-3.46128181106E-02	2.30555710285E-01	4.75664097492E-02
1.65400000000E+09	-2.13452242291E-01	-8.61924074858E-02	5.16686506636E-02	-3.79096948993E-02	5.18976539938E-02	-3.69447573086E-02	2.29816073760E-01	3.58299133109E-02
1.65500000000E+09	-2.08054171365E-01	-8.35523441904E-02	5.01008607741E-02	-4.01800345130E-02	5.03781109011E-02	-3.92226358448E-02	2.28321434714E-01	2.41542993671E-02
1.65600000000E+09	-2.02522844773E-01	-8.11868112221E-02	4.84321647372E-02	-4.23890376801E-02	4.87585400711E-02	-4.14452625781E-02	2.26087894102E-01	1.25819231873E-02
1.65700000000E+09	-1.96860298049E-01	-7.91129280770E-02	4.66607369196E-02	-4.45345456103E-02	4.70294098239E-02	-4.36051587671E-02	2.23108688314E-01	1.17705735636E-03
1.65800000000E+09	-1.91091083532E-01	-7.73473625917E-02	4.47862627988E-02	-4.66074637966E-02	4.52022657471E-02	-4.56945743500E-02	2.19406241309E-01	-1.00368835914E-02
1.65900000000E+09	-1.85221244680E-01	-7.59187671355E-02	4.28137068086E-02	-4.86053141418E-02	4.32709583184E-02	-4.77058193577E-02	2.14983369585E-01	-2.09905389989E-02
1.66000000000E+09	-1.79284624976E-01	-7.48241432496E-02	4.07444516494E-02	-5.05174572526E-02	4.12518499751E-02	-4.96404802435E-02	2.09870192092E-01	-3.16526984713E-02
1.66100000000E+09	-1.73311398769E-01	-7.40835285766E-02	3.85814478868E-02	-5.23432320561E-02	3.91290009109E-02	-5.14857330101E-02	2.04061157368E-01	-4.19717902061E-02
1.66200000000E+09	-1.67312949290E-01	-7.37172034178E-02	3.63302244194E-02	-5.40730457303E-02	3.69233469588E-02	-5.32483502640E-02	1.97603267931E-01	-5.19015343450E-02
1.66300000000E+09	-1.61336738568E-01	-7.37280286828E-02	3.39962348312E-02	-5.57089181175E-02	3.46270136387E-02	-5.49076795330E-02	1.90504912428E-01	-6.14032649610E-02
1.66400000000E+09	-1.55401113611E-01	-7.41281522287E-02	3.15801299074E-02	-5.72355795499E-02	3.22479165918E-02	-5.64683289389E-02	1.82810147834E-01	-7.04376307227E-02
1.66500000000E+09	-1.49543757234E-01	-7.49145313954E-02	2.90928668667E-02	-5.86589919093E-02	2.97928502686E-02	-5.79192753020E-02	1.74528794769E-01	-7.89448836218E-02
1.66600000000E+09	-1.43806213838E-01	-7.60875898272E-02	2.65240324674E-02	-5.99667619639E-02	2.72645059220E-02	-5.92628618995E-02	1.65709653209E-01	-8.69176192481E-02
1.66700000000E+09	-1.38227047625E-01	-7.76647403308E-02	2.38975066132E-02	-6.11555819956E-02	2.46675383017E-02	-6.04862615991E-02	1.56381748409E-01	-9.42981568457E-02
1.66800000000E+09	-1.32827451969E-01	-7.96147567624E-02	2.12092580070E-02	-6.22225631729E-02	2.20150153789E-02	-6.15916769803E-02	1.46588845114E-01	-1.01059947391E-01
1.66900000000E+09	-1.27665431418E-01	-8.19438945514E-02	1.84672902935E-02	-6.31617971197E-02	1.93012758451E-02	-6.25662586203E-02	1.36357418510E-01	-1.07175223361E-01
1.67000000000E+09	-1.22780553430E-01	-8.46303981490E-02	1.56889157860E-02	-6.39734644589E-02	1.65447854976E-02	-6.34203118616E-02	1.25748971740E-01	-1.12603500817E-01
1.67100000000E+09	-1.18205464794E-01	-8.76491750209E-02	1.28652559079E-02	-6.46537633710E-02	1.37473968097E-02	-6.41394353365E-02	1.14801242610E-01	-1.17335032725E-01
1.67200000000E+09	-1.13983194350E-01	-9.09738157196E-02	1.00131595768E-02	-6.52010550793E-02	1.09195946017E-02	-6.47238366720E-02	1.03548485083E-01	-1.21330225962E-01
1.67300000000E+09	-1.10147807591E-01	-9.45786069719E-02	7.14009913192E-03	-6.56088221136E-02	8.06478930417E-03	-6.51790101827E-02	9.20580039731E-02	-1.24582190311E-01
1.67400000000E+09	-1.06735551723E-01	-9.84365150228E-02	4.24724370606E-03	-6.58831515594E-02	5.19061341239E-03	-6.54961158167E-02	8.03728519755E-02	-1.27065646312E-01
1.67500000000E+09	-1.03775662452E-01	-1.02480265849E-01	1.35106494296E-03	-6.60212772769E-02	2.31284609019E-03	-6.56770676014E-02	6.85418328271E-02	-1.28770634790E-01
1.67600000000E+09	-1.01312986194E-01	-1.06692622650E-01	-1.54487341626E-03	-6.60262286488E-02	-5.68580584602E-04	-6.57216830245E-02	5.66144041660E-02	-1.29690311124E-01
1.67700000000E+09	-9.93601008922E-02	-1.11004589120E-01	-4.43095886108E-03	-6.58907664095E-02	-3.44666563253E-03	-6.56299002184E-02	4.46519680482E-02	-1.29812754813E-01
1.67800000000E+09	-9.79392452161E-02	-1.15345857897E-01	-7.30433728315E-03	-6.56205688235E-02	-6.30617680105E-03	-6.54055914169E-02	3.27013310607E-02	-1.29138927603E-01
1.67900000000E+09	-9.70567715958E-02	-1.19664704397E-01	-1.01518854498E-02	-6.52219969469E-02	-9.14553304307E-03	-6.50528363655E-02	2.08184788871E-02	-1.27671593353E-01
1.68000000000E+09	-9.67203105710E-02	-1.23882914456E-01	-1.29695307360E-02	-6.46954064563E-02	-1.19587281614E-02	-6.45700823788E-02	9.06028055910E-03	-1.25417873950E-01
1.68100000000E+09	-9.69167546268E-02	-1.27931740135E-01	-1.57438428392E-02	-6.40457558497E-02	-1.47321505401E-02	-6.39638418210E-02	-2.52718063287E-03	-1.22376738701E-01
1.68200000000E+09	-9.76203404838E-02	-1.31746283082E-01	-1.84794917332E-02	-6.32709997838E-02	-1.74636897162E-02	-6.32359166526E-02	-1.38821280243E-02	-1.18574318485E-01
1.68300000000E+09	-9.88063282119E-02	-1.35258844759E-01	-2.11713839036E-02	-6.23854069354E-02	-2.01537643637E-02	-6.23960527390E-02	-2.49617593723E-02	-1.14013194989E-01
1.68400000000E+09	-1.00435975279E-01	-1.38405429448E-01	-2.38095898602E-02	-6.13875615328E-02	-2.27906883666E-02	-6.14432753704E-02	-3.57131159428E-02	-1.08720042955E-01
1.68500000000E+09	-1.02441148592E-01	-1.41123506461E-01	-2.63893921327E-02	-6.02810497906E-02	-2.53755053528E-02	-6.03840365163E-02	-4.60885281258E-02	-1.02723055654E-01
1.68600000000E+09	-1.04784565272E-01	-1.43367405895E-01	-2.89100798565E-02	-5.90711718806E-02	-2.79028553644E-02	-5.92176582772E-02	-5.60318553676E-02	-9.60359453212E-02
1.68700000000E+09	-1.07383235882E-01	-1.45104449212E-01	-3.13695168954E-02	-5.77677840761E-02	-3.03681006621E-02	-5.79571441700E-02	-6.55054610049E-02	-8.87051193478E-02
1.68800000000E+09	-1.10169829561E-01	-1.46282998214E-01	-3.37636371167E-02	-5.63659750435E-02	-3.27725341702E-02	-5.66014571054E-02	-7.44662112718E-02	-8.07502595467E-02
1.68900000000E+09	-1.13076596604E-01	-1.46889297009E-01	-3.60933816454E-02	-5.48803402711E-02	-3.51125594512E-02	-5.51571053062E-02	-8.28674623461E-02	-7.22224270511E-02
1.69000000000E+09	-1.16006417990E-01	-1.46920498751E-01	-3.83513181506E-02	-5.33064495317E-02	-3.73849813445E-02	-5.36283865036E-02	-9.06812177236E-02	-6.31448646906E-02
1.69100000000E+09	-1.18882670154E-01	-1.46372720430E-01	-4.05463543025E-02	-5.16513940084E-02	-3.95924312696E-02	-5.20121173928E-02	-9.78583394048E-02	-5.35745445267E-02
1.69200000000E+09	-1.21632256178E-01	-1.45251992732E-01	-4.26639377922E-02	-4.99178781586E-02	-4.17304702659E-02	-5.03186281355E-02	-1.04384339093E-01	-4.35452943178E-02
1.69300000000E+09	-1.24164379338E-01	-1.43598300666E-01	-4.47184617386E-02	-4.81055892414E-02	-4.38049136949E-02	-4.85426843882E-02	-1.10210185389E-01	-3.31127069608E-02
1.69400000000E+09	-1.26404775315E-01	-1.41443155528E-01	-4.67019649257E-02	-4.62181585676E-02	-4.58099062759E-02	-4.66941940997E-02	-1.15333367687E-01	-2.23201521659E-02
1.69500000000E+09	-1.28296429971E-01	-1.38841010866E-01	-4.86109735788E-02	-4.42542401629E-02	-4.77414793816E-02	-4.47703991704E-02	-1.19715315495E-01	-1.12172178535E-02
1.69600000000E+09	-1.29785229494E-01	-1.35859872686E-01	-5.04503910812E-02	-4.22149671810E-02	-4.96055736507E-02	-4.27729708653E-02	-1.23343808318E-01	1.35727141496E-04
1.69700000000E+09	-1.30821008259E-01	-1.32552848845E-01	-5.22165307447E-02	-4.01070348683E-02	-5.13916448896E-02	-4.06983631102E-02	-1.26208025058E-01	1.16984902429E-02
1.69800000000E+09	-1.31380310875E-01	-1.28988162389E-01	-5.39028744615E-02	-3.79190192386E-02	-5.31022961977E-02	-3.85465190351E-02	-1.28295121661E-01	2.34125437947E-02
1.69900000000E+09	-1.31433911037E-01	-1.25241095803E-01	-5.55082946490E-02	-3.56667087423E-02	-5.47412600022E-02	-3.63258994308E-02	-1.29599998411E-01	3.52248182210E-02
1.70000000000E+09	-1.30976400360E-01	-1.21374083835E-01	-5.70317956346E-02	-3.33362317045E-02	-5.62896181724E-02	-3.40294842408E-02	-1.30127806949E-01	4.70726208692E-02
1.70100000000E+09	-1.29992781697E-01	-1.17463096037E-01	-5.84639329811E-02	-3.09418179031E-02	-5.77548189488E-02	-3.16642888574E-02	-1.29874811269E-01	5.89172223588E-02
1.70200000000E+09	-1.28492291337E-01	-1.13570914808E-01	-5.98090229948E-02	-2.84728080236E-02	-5.91287870734E-02	-2.92244899060E-02	-1.28836051722E-01	7.07006384590E-02
1.70300000000E+09	-1.26498238747E-01	-1.09764674734E-01	-6.10479188071E-02	-2.59365916718E-02	-6.04049351569E-02	-2.67187516478E-02	-1.27043343193E-01	8.23684394155E-02
1.70400000000E+09	-1.24029900659E-01	-1.06100185690E-01	-6.21904901337E-02	-2.33347556140E-02	-6.15791817331E-02	-2.41440081814E-02	-1.24499233514E-01	9.38634580381E-02
1.70500000000E+09	-1.21111986956E-01	-1.02634882442E-01	-6.32225712536E-02	-2.06679078804E-02	-6.26482126679E-02	-2.15064909926E-02	-1.21214711961E-01	1.05169768678E-01
1.70600000000E+09	-1.17784232472E-01	-9.94122579026E-02	-6.41403810645E-02	-1.79476518504E-02	-6.35989137240E-02	-1.88107981370E-02	-1.17217542220E-01	1.16194541319E-01
1.70700000000E+09	-1.14092863484E-01	-9.64700959925E-02	-6.49342889012E-02	-1.51734963352E-02	-6.44345882038E-02	-1.60630956210E-02	-1.12530387900E-01	1.26923608528E-01
1.70800000000E+09	-1.10066725031E-01	-9.38500707944E-02	-6.56125710873E-02	-1.23557988400E-02	-6.51434492755E-02	-1.32655283489E-02	-1.07169770277E-01	1.37300158628E-01
1.70900000000E+09	-1.05756626262E-01	-9.15709766621E-02	-6.61562993064E-02	-9.49421720305E-03	-6.57294302425E-02	-1.04249740534E-02	-1.01172524527E-01	1.47297236578E-01
1.71000000000E+09	-1.01204815767E-01	-8.96571467819E-02	-6.65698370368E-02	-6.60378953602E-03	-6.61848012498E-02	-7.55253249663E-03	-9.45732178666E-02	1.56866466983E-01
1.71100000000E+09	-9.64549918408E-02	-8.81272511019E-02	-6.68456259861E-02	-3.68587919689E-03	-6.65012209711E-02	-4.65159024036E-03	-8.73898361677E-02	1.65972391919E-01
1.71200000000E+09	-9.15500976885E-02	-8.69874100289E-02	-6.69836081116E-02	-7.52640278363E-04	-6.66796348872E-02	-1.73204817808E-03	-7.96670618273E-02	1.74579235264E-01
1.71300000000E+09	-8.65329590472E-02	-8.62531862591E-02	-6.69798551324E-02	2.19125850384E-03	-6.67218236921E-02	1.19910044961E-03	-7.14344980928E-02	1.82668658812E-01
1.71400000000E+09	-8.14478304062E-02	-8.59108786225E-02	-6.68352946281E-02	5.13597899989E-03	-6.66207680283E-02	4.13015793120E-03	-6.27349273713E-02	1.90199772379E-01
1.71500000000E+09	-7.63336046082E-02	-8.59669593650E-02	-6.65454847590E-02	8.07318384821E-03	-6.63813321219E-02	7.05733369594E-03	-5.36010933857E-02	1.97151796671E-01
1.71600000000E+09	-7.12321744913E-02	-8.64058696398E-02	-6.61208018671E-02	1.09902873853E-02	-6.59993398348E-02	9.96681121116E-03	-4.40767195390E-02	2.03497351685E-01
1.71700000000E+09	-6.61722351043E-02	-8.72186794525E-02	-6.55545626871E-02	1.38819846224E-02	-6.54804425461E-02	1.28534038585E-02	-3.42049690842E-02	2.09225597224E-01
