# Hz S RI R 50
! CMT, CMT808U, 21440046, 21.4.3/4
! Date: 11/12/2025 10:12:58 AM
! Data: Format (Calibration Info)
! Freq	S11:Re/Im(F2)	S41:Re/Im(F2)	S14:Re/Im(F2)	S44:Re/Im(F2)
1.60000000000E+09	-2.85823266960E-01	-2.35367961082E-01	-8.18305663516E-03	6.61368919683E-02	-8.99010857179E-03	6.56913080724E-02	-9.46066446943E-02	-2.06256506394E-03
1.60100000000E+09	-2.81143180615E-01	-2.33946008013E-01	-5.19130946221E-03	6.65207546316E-02	-6.02274912131E-03	6.61090002331E-02	-9.79864482741E-02	8.34339256973E-03
1.60200000000E+09	-2.76652838293E-01	-2.33044534721E-01	-2.18468028121E-03	6.67465383065E-02	-3.02975037105E-03	6.63691502330E-02	-1.00661955347E-01	1.89468470532E-02
1.60300000000E+09	-2.72391061919E-01	-2.32642055697E-01	8.29182440854E-04	6.68093030698E-02	-3.62682766044E-05	6.64712943298E-02	-1.02632292452E-01	2.96897123892E-02
1.60400000000E+09	-2.68457955197E-01	-2.32706160501E-01	3.83696617801E-03	6.67167495814E-02	2.95977840628E-03	6.64179477267E-02	-1.03876717966E-01	4.05388365933E-02
1.60500000000E+09	-2.64910178751E-01	-2.33198232938E-01	6.82471783197E-03	6.64697297459E-02	5.93357776603E-03	6.62073277582E-02	-1.04399274457E-01	5.14277753824E-02
1.60600000000E+09	-2.61813788193E-01	-2.34041261584E-01	9.78377543285E-03	6.60638421502E-02	8.88092348475E-03	6.58423685528E-02	-1.04199655506E-01	6.23079100361E-02
1.60700000000E+09	-2.59227376592E-01	-2.35183829891E-01	1.27024238199E-02	6.55118173382E-02	1.17893420531E-02	6.53286910633E-02	-1.03287074145E-01	7.31443635880E-02
1.60800000000E+09	-2.57186204673E-01	-2.36550247516E-01	1.55646587208E-02	6.48213986418E-02	1.46515638288E-02	6.46741195824E-02	-1.01664882961E-01	8.38835636641E-02
1.60900000000E+09	-2.55710563387E-01	-2.38043323192E-01	1.83697575185E-02	6.39922630916E-02	1.74512532564E-02	6.38878863321E-02	-9.93370506813E-02	9.44777605518E-02
1.61000000000E+09	-2.54833714256E-01	-2.39568362893E-01	2.11057293179E-02	6.30376335493E-02	2.01861114743E-02	6.29722397299E-02	-9.63277926418E-02	1.04872383562E-01
1.61100000000E+09	-2.54534528472E-01	-2.41048168411E-01	2.37705620296E-02	6.19661202959E-02	2.28527368478E-02	6.19432061728E-02	-9.26447421321E-02	1.15036339555E-01
1.61200000000E+09	-2.54801704104E-01	-2.42390170174E-01	2.63531435577E-02	6.07888070652E-02	2.54420409182E-02	6.08024282757E-02	-8.83115844896E-02	1.24926061709E-01
1.61300000000E+09	-2.55602790071E-01	-2.43499393668E-01	2.88586828664E-02	5.95181094911E-02	2.79445652829E-02	5.95650759167E-02	-8.33490214400E-02	1.34488197675E-01
1.61400000000E+09	-2.56882041572E-01	-2.44318035724E-01	3.12798834452E-02	5.81512154660E-02	3.03706297023E-02	5.82375654153E-02	-7.77832173237E-02	1.43693580390E-01
1.61500000000E+09	-2.58587224054E-01	-2.44774655464E-01	3.36169146677E-02	5.67080286834E-02	3.27162221143E-02	5.68247149442E-02	-7.16304815588E-02	1.52500411386E-01
1.61600000000E+09	-2.60661779804E-01	-2.44821994305E-01	3.58770359472E-02	5.51889603054E-02	3.49860103689E-02	5.53436894763E-02	-6.49288293348E-02	1.60870067383E-01
1.61700000000E+09	-2.63021041743E-01	-2.44405673931E-01	3.80578702477E-02	5.36031146063E-02	3.71719587009E-02	5.37891526589E-02	-5.77081267759E-02	1.68778699065E-01
1.61800000000E+09	-2.65592462168E-01	-2.43514937984E-01	4.01623856878E-02	5.19531278148E-02	3.92876703979E-02	5.21712669220E-02	-4.99989233883E-02	1.76185961628E-01
1.61900000000E+09	-2.68310559598E-01	-2.42130460738E-01	4.21907105647E-02	5.02438583626E-02	4.13261051500E-02	5.04929086423E-02	-4.18369806508E-02	1.83053071392E-01
1.62000000000E+09	-2.71091185158E-01	-2.40244806740E-01	4.41532871493E-02	4.84747011332E-02	4.32971758552E-02	4.87605540910E-02	-3.32574029628E-02	1.89378571915E-01
1.62100000000E+09	-2.73878424533E-01	-2.37874313439E-01	4.60452131075E-02	4.66536051784E-02	4.52001852701E-02	4.69671734018E-02	-2.43060266266E-02	1.95117962330E-01
1.62200000000E+09	-2.76601152124E-01	-2.35037894084E-01	4.78716685173E-02	4.47722821380E-02	4.70383597545E-02	4.51181094983E-02	-1.50075778857E-02	2.00255241990E-01
1.62300000000E+09	-2.79211175789E-01	-2.31751365951E-01	4.96274134699E-02	4.28387992279E-02	4.88091587714E-02	4.32154017186E-02	-5.41213610222E-03	2.04770650413E-01
1.62400000000E+09	-2.81654859336E-01	-2.28053551446E-01	5.13252856985E-02	4.08483597505E-02	5.05180210842E-02	4.12560957238E-02	4.43787923482E-03	2.08650298636E-01
1.62500000000E+09	-2.83890696726E-01	-2.23974829873E-01	5.29519722582E-02	3.88065935670E-02	5.21608137217E-02	3.92418056303E-02	1.45052627809E-02	2.11879452156E-01
1.62600000000E+09	-2.85889933679E-01	-2.19554069395E-01	5.45166442420E-02	3.67045194696E-02	5.37330768672E-02	3.71734109561E-02	2.47462276982E-02	2.14445986225E-01
1.62700000000E+09	-2.87612207882E-01	-2.14819174540E-01	5.60107126773E-02	3.45471459723E-02	5.52445157795E-02	3.50439134881E-02	3.51139941959E-02	2.16342376233E-01
1.62800000000E+09	-2.89046873716E-01	-2.09824243058E-01	5.74379252673E-02	3.23316054058E-02	5.66827031156E-02	3.28622232246E-02	4.55621535878E-02	2.17560056056E-01
1.62900000000E+09	-2.90169672387E-01	-2.04585395036E-01	5.87881727518E-02	3.00548229294E-02	5.80516735493E-02	3.06155148855E-02	5.60602933668E-02	2.18107265274E-01
1.63000000000E+09	-2.90977146825E-01	-1.99148224995E-01	6.00675629306E-02	2.77277167288E-02	5.93481566601E-02	2.83155360037E-02	6.65541332752E-02	2.17980599839E-01
1.63100000000E+09	-2.91446188114E-01	-1.93551386775E-01	6.12647543865E-02	2.53378870155E-02	6.05672389899E-02	2.59571524863E-02	7.70072096584E-02	2.17182932510E-01
1.63200000000E+09	-2.91591125128E-01	-1.87816018930E-01	6.23856972141E-02	2.28905893037E-02	6.17065990714E-02	2.35426073635E-02	8.73798621024E-02	2.15716594545E-01
1.63300000000E+09	-2.91385874764E-01	-1.81989772646E-01	6.34190753934E-02	2.03905098898E-02	6.27615369653E-02	2.10762325010E-02	9.76158684958E-02	2.13594034685E-01
1.63400000000E+09	-2.90842220535E-01	-1.76089175756E-01	6.43626744521E-02	1.78379287445E-02	6.37249457003E-02	1.85533792237E-02	1.07692205426E-01	2.10822592559E-01
1.63500000000E+09	-2.89961799330E-01	-1.70143472840E-01	6.52110508155E-02	1.52328660014E-02	6.46006201491E-02	1.59785088439E-02	1.17554766552E-01	2.07419893360E-01
1.63600000000E+09	-2.88747946719E-01	-1.64191686943E-01	6.59635398543E-02	1.25765438377E-02	6.53805775837E-02	1.33550457038E-02	1.27176385765E-01	2.03396343485E-01
1.63700000000E+09	-2.87204424599E-01	-1.58246662010E-01	6.66141058401E-02	9.87935621005E-03	6.60593942938E-02	1.06844198716E-02	1.36513620299E-01	1.98780247626E-01
1.63800000000E+09	-2.85325763902E-01	-1.52334516293E-01	6.71591679887E-02	7.14151217346E-03	6.66343658094E-02	7.97494585458E-03	1.45530458927E-01	1.93582909885E-01
1.63900000000E+09	-2.83145562004E-01	-1.46471458528E-01	6.75999414591E-02	4.35923798634E-03	6.71092470720E-02	5.22488980626E-03	1.54200294721E-01	1.87833749699E-01
1.64000000000E+09	-2.80652789042E-01	-1.40683392945E-01	6.79270067918E-02	1.54091010115E-03	6.74694121776E-02	2.43910195021E-03	1.62476638079E-01	1.81553172354E-01
1.64100000000E+09	-2.77853858482E-01	-1.34994183059E-01	6.81407421761E-02	-1.30292192437E-03	6.77163592480E-02	-3.81142674861E-04	1.70342226471E-01	1.74759316921E-01
1.64200000000E+09	-2.74758361242E-01	-1.29405168305E-01	6.82329159857E-02	-4.17337048957E-03	6.78482499462E-02	-3.22423371145E-03	1.77754421875E-01	1.67492182550E-01
1.64300000000E+09	-2.71383467061E-01	-1.23944731480E-01	6.82073065167E-02	-7.06825117293E-03	6.78575499807E-02	-6.09426437497E-03	1.84702391829E-01	1.59775248179E-01
1.64400000000E+09	-2.67733176646E-01	-1.18625145772E-01	6.80550645661E-02	-9.97469694266E-03	6.77518668817E-02	-8.98018271028E-03	1.91134793621E-01	1.51634185644E-01
1.64500000000E+09	-2.63810287935E-01	-1.13466792965E-01	6.77796897626E-02	-1.28911477938E-02	6.75213948926E-02	-1.18759884281E-02	1.97046422242E-01	1.43116850734E-01
1.64600000000E+09	-2.59624849183E-01	-1.08482655765E-01	6.73752783237E-02	-1.58145691783E-02	6.71623859354E-02	-1.47805653178E-02	2.02416334265E-01	1.34246234213E-01
1.64700000000E+09	-2.55181160896E-01	-1.03693723990E-01	6.68406000847E-02	-1.87375227105E-02	6.66746146481E-02	-1.76829971902E-02	2.07222174591E-01	1.25045763607E-01
1.64800000000E+09	-2.50494738755E-01	-9.90998269038E-02	6.61726598209E-02	-2.16487667082E-02	6.60575439525E-02	-2.05843141003E-02	2.11438203941E-01	1.15575638269E-01
1.64900000000E+09	-2.45580690168E-01	-9.47422430039E-02	6.53758898593E-02	-2.45502094226E-02	6.53066119955E-02	-2.34725538266E-02	2.15046428629E-01	1.05858116338E-01
1.65000000000E+09	-2.40445609643E-01	-9.06167600794E-02	6.44450868618E-02	-2.74281067833E-02	6.44257885312E-02	-2.63397716887E-02	2.18042793643E-01	9.59384836456E-02
1.65100000000E+09	-2.35099826572E-01	-8.67486932029E-02	6.33776868887E-02	-3.02776047314E-02	6.34105831071E-02	-2.91877689116E-02	2.20415988534E-01	8.58425606324E-02
1.65200000000E+09	-2.29547992730E-01	-8.31480017900E-02	6.21705729689E-02	-3.30968304213E-02	6.22633309063E-02	-3.20006281920E-02	2.22146814604E-01	7.56175441510E-02
1.65300000000E+09	-2.23826313846E-01	-7.98419581499E-02	6.08407167870E-02	-3.58723268397E-02	6.09839515329E-02	-3.47738560343E-02	2.23241280849E-01	6.53056048515E-02
1.65400000000E+09	-2.17934884567E-01	-7.68188183514E-02	5.93714772796E-02	-3.86016312323E-02	5.95684059672E-02	-3.75053064691E-02	2.23683275975E-01	5.49389216741E-02
1.65500000000E+09	-2.11888422236E-01	-7.41245122932E-02	5.77692295164E-02	-4.12725450806E-02	5.80178119651E-02	-4.01829105762E-02	2.23471883848E-01	4.45688853482E-02
1.65600000000E+09	-2.05707788011E-01	-7.17583394838E-02	5.60384766097E-02	-4.38794988601E-02	5.63431048087E-02	-4.27975077436E-02	2.22621393155E-01	3.42217766388E-02
1.65700000000E+09	-1.99425202899E-01	-6.97282724709E-02	5.41782316140E-02	-4.64171543698E-02	5.45378866847E-02	-4.53435035532E-02	2.21110011656E-01	2.39531597578E-02
1.65800000000E+09	-1.93039205742E-01	-6.80578013826E-02	5.21900322048E-02	-4.88783652631E-02	5.26008550298E-02	-4.78223580746E-02	2.18962036878E-01	1.37951237368E-02
1.65900000000E+09	-1.86578447611E-01	-6.67578948016E-02	5.00793584361E-02	-5.12479726340E-02	5.05438102636E-02	-5.02117278614E-02	2.16177921821E-01	3.78535992189E-03
1.66000000000E+09	-1.80070140862E-01	-6.58426361541E-02	4.78493114762E-02	-5.35312671268E-02	4.83640287534E-02	-5.25142907680E-02	2.12762353786E-01	-6.03347404091E-03
1.66100000000E+09	-1.73540625251E-01	-6.53211447580E-02	4.55004142418E-02	-5.57142472552E-02	4.60663608751E-02	-5.47231792619E-02	2.08737050362E-01	-1.56198443288E-02
1.66200000000E+09	-1.67019715640E-01	-6.52124117813E-02	4.30452018989E-02	-5.77876210041E-02	4.36610319624E-02	-5.68222566602E-02	2.04113394340E-01	-2.49366335758E-02
1.66300000000E+09	-1.60548538435E-01	-6.55180490633E-02	4.04777282537E-02	-5.97466284789E-02	4.11429676140E-02	-5.88123773263E-02	1.98902369897E-01	-3.39407608456E-02
1.66400000000E+09	-1.54136625235E-01	-6.62394069085E-02	3.78146213493E-02	-6.15832708475E-02	3.85228411721E-02	-6.06828931754E-02	1.93130839952E-01	-4.26098836849E-02
1.66500000000E+09	-1.47839656304E-01	-6.73871768609E-02	3.50575026617E-02	-6.32922530266E-02	3.58065435583E-02	-6.24266832898E-02	1.86815054869E-01	-5.08963671577E-02
1.66600000000E+09	-1.41692051030E-01	-6.89461237996E-02	3.22104528432E-02	-6.48705740907E-02	3.30031400962E-02	-6.40402328543E-02	1.79981802420E-01	-5.87600652886E-02
1.66700000000E+09	-1.35728997505E-01	-7.09313762408E-02	2.92872464353E-02	-6.63063408860E-02	3.01187494050E-02	-6.55156271295E-02	1.72648925098E-01	-6.61821669042E-02
1.66800000000E+09	-1.29989618098E-01	-7.33240076672E-02	2.62890136583E-02	-6.75970419237E-02	2.71585686688E-02	-6.68448938733E-02	1.64863550910E-01	-7.31242499960E-02
1.66900000000E+09	-1.24513068161E-01	-7.61186482910E-02	2.32299021329E-02	-6.87404366903E-02	2.41335730646E-02	-6.80277199708E-02	1.56629236213E-01	-7.95544964201E-02
1.67000000000E+09	-1.19355773155E-01	-7.92966496355E-02	2.01166552831E-02	-6.97279467748E-02	2.10507557410E-02	-6.90615038872E-02	1.47998932558E-01	-8.54495082230E-02
1.67100000000E+09	-1.14543903933E-01	-8.28362480642E-02	1.69624177406E-02	-7.05572767961E-02	1.79243817137E-02	-6.99360436722E-02	1.39000710401E-01	-9.07755454346E-02
1.67200000000E+09	-1.10136061213E-01	-8.67024891775E-02	1.37683454400E-02	-7.12248854816E-02	1.47566672048E-02	-7.06521846641E-02	1.29670789699E-01	-9.55131342338E-02
1.67300000000E+09	-1.06161517113E-01	-9.08788609665E-02	1.05578085122E-02	-7.17340814099E-02	1.15696764387E-02	-7.12071900241E-02	1.20042638430E-01	-9.96339885016E-02
1.67400000000E+09	-1.02668645549E-01	-9.53101631409E-02	7.32644162572E-03	-7.20801568842E-02	8.36281783057E-03	-7.15986660988E-02	1.10159814992E-01	-1.03123792155E-01
1.67500000000E+09	-9.96937044242E-02	-9.99554823740E-02	4.09950906514E-03	-7.22639338866E-02	5.15555214310E-03	-7.18331143040E-02	1.00058666338E-01	-1.05971594640E-01
1.67600000000E+09	-9.72696189978E-02	-1.04755690881E-01	8.78704725290E-04	-7.22893364933E-02	1.95051803818E-03	-7.19075676485E-02	8.97855807824E-02	-1.08150144899E-01
1.67700000000E+09	-9.54146532461E-02	-1.09652554853E-01	-2.32161047721E-03	-7.21544299749E-02	-1.23565437385E-03	-7.18236856471E-02	7.93834468690E-02	-1.09644766766E-01
1.67800000000E+09	-9.41584894127E-02	-1.14579398708E-01	-5.49707660053E-03	-7.18673481856E-02	-4.39737086154E-03	-7.15812020990E-02	6.88921916694E-02	-1.10459937923E-01
1.67900000000E+09	-9.35061174632E-02	-1.19459139658E-01	-8.63093401236E-03	-7.14279535207E-02	-7.52084925041E-03	-7.11916667390E-02	5.83596007323E-02	-1.10578123473E-01
1.68000000000E+09	-9.34595080944E-02	-1.24223476898E-01	-1.17174299915E-02	-7.08425542049E-02	-1.06012391887E-02	-7.06579183791E-02	4.78290657924E-02	-1.10002682725E-01
1.68100000000E+09	-9.40107199877E-02	-1.28786575061E-01	-1.47495877351E-02	-7.01211757022E-02	-1.36224121623E-02	-6.99883268813E-02	3.73530474452E-02	-1.08720302979E-01
1.68200000000E+09	-9.51361542682E-02	-1.33079198464E-01	-1.77203300434E-02	-6.92696480418E-02	-1.65919441346E-02	-6.91882607613E-02	2.69682646564E-02	-1.06746108582E-01
1.68300000000E+09	-9.67944784470E-02	-1.37015092575E-01	-2.06160071103E-02	-6.82948522085E-02	-1.94914815658E-02	-6.82628351802E-02	1.67289930602E-02	-1.04079705035E-01
1.68400000000E+09	-9.89492002081E-02	-1.40529763854E-01	-2.34447930409E-02	-6.72034481836E-02	-2.23205059297E-02	-6.72228322355E-02	6.67954458141E-03	-1.00728257213E-01
1.68500000000E+09	-1.01534140348E-01	-1.43554594873E-01	-2.61958080747E-02	-6.60084118318E-02	-2.50744981963E-02	-6.60739481326E-02	-3.13751320250E-03	-9.67067342807E-02
1.68600000000E+09	-1.04485091877E-01	-1.46033458859E-01	-2.88714027521E-02	-6.47170841409E-02	-2.77520302396E-02	-6.48306807339E-02	-1.26710107228E-02	-9.20258705044E-02
1.68700000000E+09	-1.07726792588E-01	-1.47925909063E-01	-3.14624497651E-02	-6.33347165253E-02	-3.03539371182E-02	-6.34960084014E-02	-2.18742219550E-02	-8.67167957909E-02
1.68800000000E+09	-1.11169335411E-01	-1.49181741820E-01	-3.39780818659E-02	-6.18640287934E-02	-3.28783093845E-02	-6.20774465313E-02	-3.07044428551E-02	-8.07886792154E-02
1.68900000000E+09	-1.14732484410E-01	-1.49786206701E-01	-3.64103180204E-02	-6.03220610258E-02	-3.53268988329E-02	-6.05788715811E-02	-3.91253772174E-02	-7.42735727666E-02
1.69000000000E+09	-1.18322126508E-01	-1.49723702767E-01	-3.87733705947E-02	-5.87059635686E-02	-3.77045575375E-02	-5.90079656063E-02	-4.70991178875E-02	-6.71985243715E-02
1.69100000000E+09	-1.21844773695E-01	-1.49011512686E-01	-4.10656730556E-02	-5.70250839810E-02	-4.00074778857E-02	-5.73716023070E-02	-5.45705674306E-02	-5.95897283672E-02
1.69200000000E+09	-1.25194748565E-01	-1.47652075015E-01	-4.32874071317E-02	-5.52799087726E-02	-4.22470534379E-02	-5.56691420399E-02	-6.15217799506E-02	-5.14919781585E-02
1.69300000000E+09	-1.28301118690E-01	-1.45696248741E-01	-4.54445700900E-02	-5.34719510294E-02	-4.44246691547E-02	-5.39046018624E-02	-6.79044048572E-02	-4.29374141373E-02
1.69400000000E+09	-1.31079041505E-01	-1.43177926943E-01	-4.75401856730E-02	-5.16030782106E-02	-4.65366783449E-02	-5.20768160312E-02	-7.37017839456E-02	-3.39694803516E-02
1.69500000000E+09	-1.33452473044E-01	-1.40163777819E-01	-4.95704924935E-02	-4.96664656114E-02	-4.85933908819E-02	-5.01860711054E-02	-7.88779118302E-02	-2.46258215984E-02
1.69600000000E+09	-1.35377392520E-01	-1.36721491677E-01	-5.15458008120E-02	-4.76688803505E-02	-5.05897648134E-02	-4.82270605392E-02	-8.34116575014E-02	-1.49617221399E-02
1.69700000000E+09	-1.36799298475E-01	-1.32913838871E-01	-5.34632401968E-02	-4.55988950250E-02	-5.25311154913E-02	-4.61926598207E-02	-8.72831324854E-02	-5.00975251891E-03
1.69800000000E+09	-1.37687678411E-01	-1.28827048136E-01	-5.53213202832E-02	-4.34616389187E-02	-5.44134793024E-02	-4.40962370043E-02	-9.04805950694E-02	5.18002987866E-03
1.69900000000E+09	-1.38016836882E-01	-1.24528968745E-01	-5.71174869626E-02	-4.12498719041E-02	-5.62361819709E-02	-4.19228323426E-02	-9.29815118584E-02	1.55511062893E-02
1.70000000000E+09	-1.37777866909E-01	-1.20089641842E-01	-5.88467033047E-02	-3.89602780774E-02	-5.79956172192E-02	-3.96706645267E-02	-9.47908150345E-02	2.60599464725E-02
1.70100000000E+09	-1.36962310343E-01	-1.15592494095E-01	-6.05077624141E-02	-3.65965980540E-02	-5.96868835527E-02	-3.73409259481E-02	-9.58904586109E-02	3.66590747726E-02
1.70200000000E+09	-1.35583333098E-01	-1.11109675663E-01	-6.20919688398E-02	-3.41406943656E-02	-6.13025559578E-02	-3.49239642114E-02	-9.62849725066E-02	4.73022988211E-02
1.70300000000E+09	-1.33663085127E-01	-1.06712694584E-01	-6.35968955994E-02	-3.16169848693E-02	-6.28399371800E-02	-3.24249922084E-02	-9.59815625334E-02	5.79360207415E-02
1.70400000000E+09	-1.31217658613E-01	-1.02448019215E-01	-6.50132620630E-02	-2.90010996751E-02	-6.42874047105E-02	-2.98452474112E-02	-9.49746760465E-02	6.85122039173E-02
1.70500000000E+09	-1.28281931729E-01	-9.83869228773E-02	-6.63326298902E-02	-2.63075031079E-02	-6.56445519058E-02	-2.71833985757E-02	-9.32825652398E-02	7.89911222512E-02
1.70600000000E+09	-1.24898240020E-01	-9.45647767024E-02	-6.75460889070E-02	-2.35313820679E-02	-6.68973766389E-02	-2.44415099475E-02	-9.09162763848E-02	8.93186188908E-02
1.70700000000E+09	-1.21101406414E-01	-9.10319222033E-02	-6.86512227832E-02	-2.06805818575E-02	-6.80407068630E-02	-2.16193131476E-02	-8.78843927736E-02	9.94658315924E-02
1.70800000000E+09	-1.16933100177E-01	-8.78287946783E-02	-6.96374936832E-02	-1.77627257414E-02	-6.90632728220E-02	-1.87237551481E-02	-8.42090902508E-02	1.09374356393E-01
1.70900000000E+09	-1.12441706197E-01	-8.49619927519E-02	-7.04962987148E-02	-1.47762055486E-02	-6.99624707617E-02	-1.57640619455E-02	-7.99084757707E-02	1.19015018982E-01
1.71000000000E+09	-1.07666602360E-01	-8.24719421557E-02	-7.12231076825E-02	-1.17304306674E-02	-7.07289804611E-02	-1.27465755578E-02	-7.50174335699E-02	1.28351582980E-01
1.71100000000E+09	-1.02647933102E-01	-8.03715574065E-02	-7.18055434464E-02	-8.63274670059E-03	-7.13577667329E-02	-9.67264024020E-03	-6.95355241727E-02	1.37337314804E-01
1.71200000000E+09	-9.74362924534E-02	-7.86705788263E-02	-7.22455269359E-02	-5.49647896803E-03	-7.18453894841E-02	-6.54719774572E-03	-6.35112471236E-02	1.45943310580E-01
1.71300000000E+09	-9.20683267229E-02	-7.73796327046E-02	-7.25378425474E-02	-2.31539516760E-03	-7.21813358482E-02	-3.39450575369E-03	-5.69572648497E-02	1.54141782160E-01
1.71400000000E+09	-8.65844540476E-02	-7.65003582188E-02	-7.26759384928E-02	8.84933407756E-04	-7.23672342730E-02	-2.07711161840E-04	-4.99143925745E-02	1.61898138454E-01
1.71500000000E+09	-8.10213414681E-02	-7.60288820573E-02	-7.26586025752E-02	4.10045661441E-03	-7.23999024399E-02	2.99564152484E-03	-4.24118806320E-02	1.69179819652E-01
1.71600000000E+09	-7.54165260933E-02	-7.59702857415E-02	-7.24829589771E-02	7.32178433089E-03	-7.22739376271E-02	6.20269787410E-03	-3.44755595742E-02	1.75969340996E-01
1.71700000000E+09	-6.98073786099E-02	-7.63137823500E-02	-7.21475410714E-02	1.05438757711E-02	-7.19880728598E-02	9.41255853567E-03	-2.61457722732E-02	1.82236392705E-01
