# Hz S RI R 50
! CMT, CMT808U, 21440046, 21.4.3/4
! Date: 11/12/2025 3:11:28 PM
! Data: Format (Calibration Info)
! Freq	S11:Re/Im(F2)	S41:Re/Im(F2)	S14:Re/Im(F2)	S44:Re/Im(F2)
1.70000000000E+09	-1.38849099476E-01	-1.18370458071E-01	-4.81444497997E-02	-3.06395646559E-02	-4.81616218628E-02	-3.06473447669E-02	-1.27004197152E-01	-1.27142773007E-02
1.70050000000E+09	-1.38258367116E-01	-1.15940490951E-01	-4.87975913201E-02	-2.96588636560E-02	-4.88071840863E-02	-2.96737508951E-02	-1.28965775553E-01	-6.15049254862E-03
1.70100000000E+09	-1.37526998093E-01	-1.13547361225E-01	-4.94588715068E-02	-2.86806539136E-02	-4.94463853669E-02	-2.86902549469E-02	-1.30698582180E-01	4.86533744246E-04
1.70150000000E+09	-1.36615969571E-01	-1.11139202718E-01	-5.00650908248E-02	-2.76690428628E-02	-5.00929692024E-02	-2.76994632354E-02	-1.32241654131E-01	7.14668864038E-03
1.70200000000E+09	-1.35572877931E-01	-1.08795609845E-01	-5.06805615085E-02	-2.66539476020E-02	-5.06833383046E-02	-2.66821349376E-02	-1.33492718713E-01	1.38740319216E-02
1.70250000000E+09	-1.34350524925E-01	-1.06463155611E-01	-5.12826745033E-02	-2.56249701358E-02	-5.12806782718E-02	-2.56519087014E-02	-1.34539801674E-01	2.06306616256E-02
1.70300000000E+09	-1.33015504330E-01	-1.04176689282E-01	-5.18566892882E-02	-2.45707630249E-02	-5.18588419356E-02	-2.45909612077E-02	-1.35401380076E-01	2.74053955012E-02
1.70350000000E+09	-1.31525480812E-01	-1.01972558263E-01	-5.24111562123E-02	-2.35238437195E-02	-5.24247163341E-02	-2.35348810873E-02	-1.36032353712E-01	3.42016495750E-02
1.70400000000E+09	-1.29874022871E-01	-9.98136170378E-02	-5.29574818155E-02	-2.24464015611E-02	-5.29593740431E-02	-2.24523924081E-02	-1.36398590635E-01	4.10083150779E-02
1.70450000000E+09	-1.28150445374E-01	-9.77281176789E-02	-5.34761657026E-02	-2.13514260928E-02	-5.34783066844E-02	-2.13591406781E-02	-1.36550920232E-01	4.78260166624E-02
1.70500000000E+09	-1.26279948407E-01	-9.57152776462E-02	-5.39727057897E-02	-2.02534567425E-02	-5.39864880099E-02	-2.02421593686E-02	-1.36508297668E-01	5.46196152006E-02
1.70550000000E+09	-1.24306186079E-01	-9.38113208688E-02	-5.44676289277E-02	-1.90981932829E-02	-5.44535112443E-02	-1.91252801123E-02	-1.36237807319E-01	6.14130766164E-02
1.70600000000E+09	-1.22219987182E-01	-9.19785364780E-02	-5.49078703722E-02	-1.79659781208E-02	-5.49156968586E-02	-1.79622765237E-02	-1.35719852440E-01	6.81763393759E-02
1.70650000000E+09	-1.20005971765E-01	-9.02508290627E-02	-5.53436497330E-02	-1.68194943646E-02	-5.53533179228E-02	-1.68183042874E-02	-1.35018008917E-01	7.49070435080E-02
1.70700000000E+09	-1.17731539670E-01	-8.86166027760E-02	-5.57498422474E-02	-1.56432932242E-02	-5.57450887808E-02	-1.56380659463E-02	-1.34058739108E-01	8.16433564104E-02
1.70750000000E+09	-1.15333731245E-01	-8.70981918219E-02	-5.61399305503E-02	-1.44364836408E-02	-5.61604390181E-02	-1.44612903132E-02	-1.32914581348E-01	8.82953487706E-02
1.70800000000E+09	-1.12867449538E-01	-8.56613632158E-02	-5.65069406576E-02	-1.32490441460E-02	-5.65132105930E-02	-1.32583925576E-02	-1.31524437264E-01	9.49207844477E-02
1.70850000000E+09	-1.10339846466E-01	-8.43601890183E-02	-5.68351637519E-02	-1.20451032596E-02	-5.68276606560E-02	-1.20460685252E-02	-1.29926250421E-01	1.01468287047E-01
1.70900000000E+09	-1.07715770939E-01	-8.31670900217E-02	-5.71413418596E-02	-1.08167155713E-02	-5.71454665408E-02	-1.08376194663E-02	-1.28138965655E-01	1.07952356290E-01
1.70950000000E+09	-1.05068419885E-01	-8.20985553405E-02	-5.74140759116E-02	-9.58926766451E-03	-5.74426708933E-02	-9.59912636218E-03	-1.26171390315E-01	1.14404916844E-01
1.71000000000E+09	-1.02349481070E-01	-8.11406125681E-02	-5.76694779156E-02	-8.32836718569E-03	-5.76799212270E-02	-8.34866889920E-03	-1.23921884752E-01	1.20745971587E-01
1.71050000000E+09	-9.95759516082E-02	-8.02941298688E-02	-5.79065524806E-02	-7.09146791535E-03	-5.79085883885E-02	-7.08868468034E-03	-1.21546057896E-01	1.26997766949E-01
1.71100000000E+09	-9.67930429268E-02	-7.95601218477E-02	-5.80777420953E-02	-5.82174935584E-03	-5.81020026095E-02	-5.82270626362E-03	-1.18923185563E-01	1.33177477077E-01
1.71150000000E+09	-9.39506738742E-02	-7.89493354460E-02	-5.82649937038E-02	-4.54952189890E-03	-5.82720070183E-02	-4.55262347425E-03	-1.16109765583E-01	1.39295355196E-01
1.71200000000E+09	-9.10830801601E-02	-7.84600040584E-02	-5.84088873447E-02	-3.26443726609E-03	-5.84148081311E-02	-3.25339751996E-03	-1.13147339041E-01	1.45277413232E-01
1.71250000000E+09	-8.82040995008E-02	-7.80960164016E-02	-5.84929430917E-02	-1.97068554913E-03	-5.85271218326E-02	-1.96673438500E-03	-1.09933276721E-01	1.51132898431E-01
1.71300000000E+09	-8.53197636251E-02	-7.78683933208E-02	-5.85838303809E-02	-6.91342013867E-04	-5.85954460437E-02	-6.98659081603E-04	-1.06620992104E-01	1.56888123212E-01
1.71350000000E+09	-8.24122855471E-02	-7.77343869910E-02	-5.86276999299E-02	6.14218945544E-04	-5.86225044848E-02	6.02872039926E-04	-1.03087078717E-01	1.62536477217E-01
1.71400000000E+09	-7.94879577035E-02	-7.77183297221E-02	-5.86347344881E-02	1.89944786989E-03	-5.86373494833E-02	1.90845378651E-03	-9.94003532656E-02	1.68049690781E-01
1.71450000000E+09	-7.65962603959E-02	-7.78361823789E-02	-5.85948626859E-02	3.20700644612E-03	-5.86289631231E-02	3.21667183124E-03	-9.54969956687E-02	1.73435497718E-01
1.71500000000E+09	-7.37045441654E-02	-7.80451969423E-02	-5.85684431803E-02	4.51349684881E-03	-5.85777674292E-02	4.50786801488E-03	-9.14640969367E-02	1.78701270658E-01
1.71550000000E+09	-7.08196693125E-02	-7.83586643518E-02	-5.84784545760E-02	5.81424564137E-03	-5.84907361048E-02	5.82738033190E-03	-8.72224108616E-02	1.83819687191E-01
1.71600000000E+09	-6.79751346382E-02	-7.88138568399E-02	-5.83734683071E-02	7.12411680114E-03	-5.83716818055E-02	7.11473877163E-03	-8.29020942652E-02	1.88794312069E-01
1.71650000000E+09	-6.51164388165E-02	-7.93546746756E-02	-5.82133086947E-02	8.44197127173E-03	-5.82222933529E-02	8.43227714926E-03	-7.83615837447E-02	1.93618063224E-01
1.71700000000E+09	-6.23123438490E-02	-7.99953839723E-02	-5.80170470596E-02	9.74676873454E-03	-5.80519742473E-02	9.73889843494E-03	-7.37261585072E-02	1.98300041004E-01
1.71750000000E+09	-5.95461594868E-02	-8.07284984975E-02	-5.78258625584E-02	1.10232765601E-02	-5.78358228007E-02	1.10445241574E-02	-6.89341658586E-02	2.02828016408E-01
1.71800000000E+09	-5.67790647761E-02	-8.15817767983E-02	-5.75830774666E-02	1.23307677634E-02	-5.75909567449E-02	1.23224547870E-02	-6.40236842549E-02	2.07190900734E-01
1.71850000000E+09	-5.40742628377E-02	-8.25495015502E-02	-5.72972717718E-02	1.36164552431E-02	-5.73031047968E-02	1.36179830233E-02	-5.89897005828E-02	2.11413575081E-01
1.71900000000E+09	-5.14305816796E-02	-8.35799624186E-02	-5.69909606929E-02	1.48997033543E-02	-5.69992299051E-02	1.48941705696E-02	-5.37773380657E-02	2.15425744990E-01
1.71950000000E+09	-4.88041075253E-02	-8.46947343689E-02	-5.66477648849E-02	1.61532632763E-02	-5.66545451739E-02	1.61605559379E-02	-4.84996172579E-02	2.19285884588E-01
1.72000000000E+09	-4.62453631095E-02	-8.59230942848E-02	-5.62922659104E-02	1.74416925022E-02	-5.62885573203E-02	1.74286999920E-02	-4.31145591836E-02	2.22982051767E-01
1.72050000000E+09	-4.37313825649E-02	-8.72020362446E-02	-5.59003453526E-02	1.86957288078E-02	-5.58868974922E-02	1.86889652839E-02	-3.76148239193E-02	2.26471848803E-01
1.72100000000E+09	-4.12666294559E-02	-8.86222266534E-02	-5.54350992578E-02	1.99243090485E-02	-5.54640891557E-02	1.99317503453E-02	-3.19914782557E-02	2.29827188994E-01
1.72150000000E+09	-3.88694012615E-02	-9.00564761359E-02	-5.49884296798E-02	2.11833542728E-02	-5.49896716581E-02	2.11719053438E-02	-2.62927193975E-02	2.32978981690E-01
1.72200000000E+09	-3.65248895290E-02	-9.15946103882E-02	-5.44934219375E-02	2.23917941671E-02	-5.45002632568E-02	2.23951341866E-02	-2.04783925083E-02	2.35962454873E-01
1.72250000000E+09	-3.42258521718E-02	-9.31791669586E-02	-5.39788711041E-02	2.36062899464E-02	-5.39915196784E-02	2.36088778883E-02	-1.46377742208E-02	2.38741292231E-01
1.72300000000E+09	-3.20390855036E-02	-9.48681058128E-02	-5.34085500597E-02	2.48072178711E-02	-5.34170462756E-02	2.47987518617E-02	-8.70563198928E-03	2.41316316906E-01
1.72350000000E+09	-2.98766716176E-02	-9.65973892112E-02	-5.28241305208E-02	2.60048262198E-02	-5.28411141569E-02	2.59888540373E-02	-2.68833378539E-03	2.43717955511E-01
1.72400000000E+09	-2.77816244769E-02	-9.83983258622E-02	-5.22336479951E-02	2.71567810563E-02	-5.22338257842E-02	2.71623174017E-02	3.41858011533E-03	2.45964759121E-01
1.72450000000E+09	-2.57966670147E-02	-1.00281007749E-01	-5.15836823794E-02	2.83021321611E-02	-5.15992374176E-02	2.83124684569E-02	9.54948617366E-03	2.47981018864E-01
1.72500000000E+09	-2.38283375425E-02	-1.02177073812E-01	-5.09201908673E-02	2.94408068480E-02	-5.09370571314E-02	2.94311542182E-02	1.57264499575E-02	2.49806577829E-01
1.72550000000E+09	-2.19585264121E-02	-1.04138364845E-01	-5.02170499515E-02	3.05595958347E-02	-5.02518854619E-02	3.05529686820E-02	2.19787396832E-02	2.51436961725E-01
1.72600000000E+09	-2.01471215482E-02	-1.06159172571E-01	-4.95099456058E-02	3.16503904136E-02	-4.95259117007E-02	3.16461629405E-02	2.82275693746E-02	2.52864393465E-01
1.72650000000E+09	-1.84430715922E-02	-1.08216750398E-01	-4.87816963467E-02	3.27337067556E-02	-4.87824036763E-02	3.27372290868E-02	3.45481099479E-02	2.54120919878E-01
1.72700000000E+09	-1.67857407032E-02	-1.10338655767E-01	-4.79930281991E-02	3.37950839665E-02	-4.80107499790E-02	3.37917327186E-02	4.08971690757E-02	2.55151534167E-01
1.72750000000E+09	-1.52064255299E-02	-1.12480010516E-01	-4.72053687155E-02	3.48326796974E-02	-4.72298021588E-02	3.48357721230E-02	4.72517298653E-02	2.56018028821E-01
1.72800000000E+09	-1.36797927374E-02	-1.14652548503E-01	-4.63943025669E-02	3.58516080952E-02	-4.64123311203E-02	3.58536454684E-02	5.36269421925E-02	2.56658296774E-01
1.72850000000E+09	-1.22646243213E-02	-1.16897324041E-01	-4.55534170964E-02	3.68613028023E-02	-4.55722734532E-02	3.68628767644E-02	5.99999825990E-02	2.57104296283E-01
1.72900000000E+09	-1.08973010555E-02	-1.19145548355E-01	-4.47069103326E-02	3.78316307548E-02	-4.47018683474E-02	3.78080647523E-02	6.63795591041E-02	2.57381912939E-01
1.72950000000E+09	-9.61589288227E-03	-1.21414586451E-01	-4.38136815123E-02	3.87716689856E-02	-4.38328210318E-02	3.87934946621E-02	7.27786089995E-02	2.57443760044E-01
1.73000000000E+09	-8.42251017332E-03	-1.23758137961E-01	-4.29121535094E-02	3.97198556189E-02	-4.29404573916E-02	3.97127869475E-02	7.91254787750E-02	2.57293054023E-01
1.73050000000E+09	-7.26725902311E-03	-1.26082924214E-01	-4.19913330599E-02	4.05997395735E-02	-4.19971329010E-02	4.06258752076E-02	8.55458068809E-02	2.56981059121E-01
1.73100000000E+09	-6.23699006933E-03	-1.28418986632E-01	-4.10387610515E-02	4.14826312155E-02	-4.10659432955E-02	4.15142483711E-02	9.18692588747E-02	2.56462565084E-01
1.73150000000E+09	-5.25266299881E-03	-1.30802447196E-01	-4.00942485598E-02	4.23589032871E-02	-4.00831204868E-02	4.23439612639E-02	9.81947622220E-02	2.55719917749E-01
1.73200000000E+09	-4.32773946527E-03	-1.33193845826E-01	-3.91107752606E-02	4.32003467053E-02	-3.91287692268E-02	4.32147403070E-02	1.04465863408E-01	2.54817041950E-01
1.73250000000E+09	-3.51804382826E-03	-1.35609124335E-01	-3.81170587565E-02	4.40078251721E-02	-3.81303982794E-02	4.40023871359E-02	1.10708747715E-01	2.53696838754E-01
1.73300000000E+09	-2.77692754531E-03	-1.38022887904E-01	-3.71077786277E-02	4.48073164745E-02	-3.71207595526E-02	4.47919191546E-02	1.16888039580E-01	2.52448665007E-01
1.73350000000E+09	-2.08031892994E-03	-1.40472272518E-01	-3.60848104238E-02	4.55528231948E-02	-3.60822183226E-02	4.55506545152E-02	1.23094495465E-01	2.50961930290E-01
1.73400000000E+09	-1.46814065086E-03	-1.42894093695E-01	-3.50361221253E-02	4.62837661182E-02	-3.50508369371E-02	4.62947976979E-02	1.29180511096E-01	2.49273749783E-01
1.73450000000E+09	-9.59945038084E-04	-1.45362644856E-01	-3.39955049518E-02	4.69990066217E-02	-3.39878162791E-02	4.70052086408E-02	1.35254699178E-01	2.47454917361E-01
1.73500000000E+09	-5.03916468334E-04	-1.47818091802E-01	-3.28949860063E-02	4.76795911463E-02	-3.29170955179E-02	4.76693597750E-02	1.41220192180E-01	2.45395488905E-01
1.73550000000E+09	-1.25830365733E-04	-1.50263832458E-01	-3.18327402838E-02	4.83349969391E-02	-3.18384079351E-02	4.83414637785E-02	1.47126582648E-01	2.43204079753E-01
1.73600000000E+09	1.73127727650E-04	-1.52734809015E-01	-3.07328254531E-02	4.89590985592E-02	-3.07397513563E-02	4.89592903593E-02	1.52952930470E-01	2.40831014961E-01
1.73650000000E+09	4.04987084422E-04	-1.55174656714E-01	-2.96224232547E-02	4.95732093327E-02	-2.96361578187E-02	4.95752838411E-02	1.58726976081E-01	2.38279147374E-01
1.73700000000E+09	5.95948944866E-04	-1.57640936841E-01	-2.85083510110E-02	5.01319670189E-02	-2.85264750618E-02	5.01352094414E-02	1.64381805745E-01	2.35533023802E-01
1.73750000000E+09	6.48154085614E-04	-1.60075493080E-01	-2.73813324813E-02	5.06956900974E-02	-2.73881621927E-02	5.06911637693E-02	1.69966701527E-01	2.32648730962E-01
1.73800000000E+09	6.68068517010E-04	-1.62523914338E-01	-2.62333263174E-02	5.12174978986E-02	-2.62440166677E-02	5.12138047038E-02	1.75442160567E-01	2.29526415964E-01
1.73850000000E+09	5.97474498697E-04	-1.64946549147E-01	-2.51017732137E-02	5.17032439922E-02	-2.51029237326E-02	5.17103732054E-02	1.80848450397E-01	2.26347859635E-01
1.73900000000E+09	4.79033803494E-04	-1.67411311540E-01	-2.39541716178E-02	5.21704352416E-02	-2.39489237493E-02	5.21767246768E-02	1.86147255696E-01	2.22951850159E-01
1.73950000000E+09	3.14507279659E-04	-1.69800699043E-01	-2.27868919920E-02	5.26135023358E-02	-2.27909963881E-02	5.26119484107E-02	1.91318539605E-01	2.19414684982E-01
1.74000000000E+09	8.32002795938E-06	-1.72226134913E-01	-2.16107150446E-02	5.30265389599E-02	-2.16161934352E-02	5.30211778158E-02	1.96392485580E-01	2.15682751990E-01
1.74050000000E+09	-3.68204191582E-04	-1.74598916261E-01	-2.04534497240E-02	5.34017896348E-02	-2.04609942772E-02	5.34030564907E-02	2.01300379487E-01	2.11847105278E-01
1.74100000000E+09	-7.91046843592E-04	-1.76998162243E-01	-1.92712671769E-02	5.37690532885E-02	-1.92634123669E-02	5.37729240743E-02	2.06150285443E-01	2.07845540424E-01
1.74150000000E+09	-1.29247285362E-03	-1.79331908502E-01	-1.80749443250E-02	5.40963205416E-02	-1.81010809318E-02	5.40924279986E-02	2.10810647237E-01	2.03694290460E-01
1.74200000000E+09	-1.83704131411E-03	-1.81688949211E-01	-1.69086599083E-02	5.43936497695E-02	-1.69155050715E-02	5.44039705206E-02	2.15388849782E-01	1.99454440738E-01
1.74250000000E+09	-2.47714291914E-03	-1.83984542587E-01	-1.57305035478E-02	5.46690087525E-02	-1.57110809055E-02	5.46795220927E-02	2.19845142467E-01	1.95029941685E-01
1.74300000000E+09	-3.17585764248E-03	-1.86296294557E-01	-1.45330449118E-02	5.49190487714E-02	-1.45414601615E-02	5.49306233556E-02	2.24135152217E-01	1.90465973618E-01
1.74350000000E+09	-3.97259822779E-03	-1.88547444573E-01	-1.33392714566E-02	5.51342885111E-02	-1.33363428062E-02	5.51485307623E-02	2.28268042862E-01	1.85784712481E-01
1.74400000000E+09	-4.82933155048E-03	-1.90762657085E-01	-1.21522557856E-02	5.53473974873E-02	-1.21659196755E-02	5.53475900277E-02	2.32264389177E-01	1.80979803247E-01
1.74450000000E+09	-5.76721168576E-03	-1.92994837633E-01	-1.09491768116E-02	5.54986139877E-02	-1.09592301424E-02	5.55148782419E-02	2.36151705574E-01	1.76053017750E-01
1.74500000000E+09	-6.75182656897E-03	-1.95160265298E-01	-9.76381138557E-03	5.56592750548E-02	-9.78187039059E-03	5.56598123734E-02	2.39847425008E-01	1.71040381518E-01
1.74550000000E+09	-7.84394225490E-03	-1.97305592124E-01	-8.56637212519E-03	5.57595147342E-02	-8.57870693295E-03	5.57824566445E-02	2.43414613299E-01	1.65933074621E-01
1.74600000000E+09	-8.96976309789E-03	-1.99414107250E-01	-7.37602391555E-03	5.58701273333E-02	-7.39435140185E-03	5.58832738559E-02	2.46820876702E-01	1.60664050871E-01
1.74650000000E+09	-1.02037053424E-02	-2.01473049102E-01	-6.20166092860E-03	5.59253310811E-02	-6.20939057738E-03	5.59374151192E-02	2.50015568063E-01	1.55329101642E-01
1.74700000000E+09	-1.15087144825E-02	-2.03462482648E-01	-5.01609563655E-03	5.59657283762E-02	-5.02331067510E-03	5.59797761725E-02	2.53049295468E-01	1.49884055869E-01
1.74750000000E+09	-1.28514210737E-02	-2.05454491516E-01	-3.83202632182E-03	5.59756484777E-02	-3.83129344027E-03	5.59943528084E-02	2.55976656716E-01	1.44363433185E-01
1.74800000000E+09	-1.42970882079E-02	-2.07387132000E-01	-2.66486815918E-03	5.59652146700E-02	-2.66141445353E-03	5.59837927310E-02	2.58689584685E-01	1.38744088211E-01
1.74850000000E+09	-1.57833674682E-02	-2.09237135270E-01	-1.48172386114E-03	5.59341959872E-02	-1.50625002632E-03	5.59422010598E-02	2.61245220941E-01	1.33048612963E-01
1.74900000000E+09	-1.73711747775E-02	-2.11043757038E-01	-3.23344362714E-04	5.58842758837E-02	-3.25736252472E-04	5.58905846525E-02	2.63618081672E-01	1.27270923946E-01
1.74950000000E+09	-1.90149206325E-02	-2.12774555631E-01	8.49525191860E-04	5.57920628850E-02	8.39722430076E-04	5.57990794590E-02	2.65812772311E-01	1.21446679059E-01
1.75000000000E+09	-2.07290702452E-02	-2.14468689810E-01	1.99974097677E-03	5.56840027765E-02	2.00185740024E-03	5.56921961537E-02	2.67825136385E-01	1.15545380059E-01
1.75050000000E+09	-2.25072875357E-02	-2.16101756110E-01	3.14241120446E-03	5.55504120795E-02	3.15684853015E-03	5.55589467336E-02	2.69695912196E-01	1.09580804583E-01
1.75100000000E+09	-2.43234466588E-02	-2.17679627223E-01	4.30340141597E-03	5.54121407000E-02	4.27891927201E-03	5.54061963223E-02	2.71321151900E-01	1.03528584223E-01
1.75150000000E+09	-2.62272633385E-02	-2.19167350256E-01	5.42559493366E-03	5.52250295319E-02	5.41374686449E-03	5.52255962278E-02	2.72791099022E-01	9.75420210535E-02
1.75200000000E+09	-2.81926653523E-02	-2.20546691414E-01	6.53981070338E-03	5.50337168716E-02	6.54663739424E-03	5.50285101600E-02	2.74091269752E-01	9.13790628748E-02
1.75250000000E+09	-3.01966818206E-02	-2.21879145586E-01	7.66818222121E-03	5.47958712080E-02	7.66390372167E-03	5.48099709791E-02	2.75180578600E-01	8.52540089634E-02
1.75300000000E+09	-3.22861372916E-02	-2.23095446013E-01	8.77078751938E-03	5.45603580659E-02	8.76208739482E-03	5.45701036421E-02	2.76067787408E-01	7.90909283692E-02
1.75350000000E+09	-3.43814583213E-02	-2.24266985807E-01	9.86726717971E-03	5.42881772664E-02	9.85176502776E-03	5.43057930241E-02	2.76761562229E-01	7.28472583208E-02
1.75400000000E+09	-3.65675097663E-02	-2.25310965744E-01	1.09577439736E-02	5.40003819156E-02	1.09557102877E-02	5.40115121881E-02	2.77264605892E-01	6.66650070262E-02
1.75450000000E+09	-3.87793420394E-02	-2.26267393803E-01	1.20459106748E-02	5.36799542483E-02	1.20434856615E-02	5.37079406070E-02	2.77610738394E-01	6.04040510537E-02
1.75500000000E+09	-4.10615969218E-02	-2.27126116546E-01	1.31025585709E-02	5.33723634478E-02	1.31091923152E-02	5.33920636781E-02	2.77744698405E-01	5.41349700308E-02
1.75550000000E+09	-4.33236340531E-02	-2.27900295206E-01	1.41729901038E-02	5.30262157190E-02	1.41615948998E-02	5.30371851155E-02	2.77679576386E-01	4.78880399547E-02
1.75600000000E+09	-4.56548255045E-02	-2.28587045875E-01	1.52031680494E-02	5.26799868889E-02	1.52147800241E-02	5.26750197920E-02	2.77439874681E-01	4.16540917405E-02
1.75650000000E+09	-4.80346692039E-02	-2.29091579540E-01	1.62415867493E-02	5.22808714687E-02	1.62447645914E-02	5.22955571180E-02	2.76998178201E-01	3.54201378116E-02
1.75700000000E+09	-5.03990091140E-02	-2.29545595318E-01	1.72630403415E-02	5.18655321281E-02	1.72638927751E-02	5.18973486027E-02	2.76364713646E-01	2.92205180829E-02
1.75750000000E+09	-5.28029692381E-02	-2.29897040319E-01	1.82818911269E-02	5.14570721545E-02	1.82893951126E-02	5.14724701340E-02	2.75493111328E-01	2.30064665655E-02
1.75800000000E+09	-5.52166678676E-02	-2.30092301680E-01	1.92870557732E-02	5.10266730033E-02	1.92917419894E-02	5.10372429741E-02	2.74458685354E-01	1.68251939976E-02
1.75850000000E+09	-5.76456415960E-02	-2.30201224478E-01	2.02769174416E-02	5.05860877648E-02	2.02634718002E-02	5.06080417854E-02	2.73266966322E-01	1.06959575749E-02
