# Hz S RI R 50
! CMT, CMT808U, 21440046, 21.4.3/4
! Date: 11/12/2025 3:21:38 PM
! Data: Format (Calibration Info)
! Freq	S11:Re/Im(F2)	S41:Re/Im(F2)	S14:Re/Im(F2)	S44:Re/Im(F2)
1.70000000000E+09	-1.38093282361E-01	-1.19087635065E-01	-5.55536538700E-02	-3.44526491853E-02	-5.55613556872E-02	-3.44438726435E-02	-1.21242923446E-01	4.48579660179E-02
1.70050000000E+09	-1.37568773410E-01	-1.16718878529E-01	-5.62753608199E-02	-3.33215084623E-02	-5.62923386337E-02	-3.33207276507E-02	-1.21165454194E-01	5.07461195731E-02
1.70100000000E+09	-1.36896247028E-01	-1.14316420291E-01	-5.69961492729E-02	-3.21690773016E-02	-5.70103151270E-02	-3.21706865757E-02	-1.20881785599E-01	5.66187132391E-02
1.70150000000E+09	-1.36036280652E-01	-1.11943548033E-01	-5.76867043167E-02	-3.10118209816E-02	-5.76955702412E-02	-3.10007138142E-02	-1.20406254114E-01	6.24474593253E-02
1.70200000000E+09	-1.35064306974E-01	-1.09647648754E-01	-5.83524642814E-02	-2.98488056940E-02	-5.83627289641E-02	-2.98313662869E-02	-1.19742662557E-01	6.83058262208E-02
1.70250000000E+09	-1.33902712008E-01	-1.07312965860E-01	-5.89979289561E-02	-2.86447239921E-02	-5.90108738956E-02	-2.86530419084E-02	-1.18887941786E-01	7.40761380785E-02
1.70300000000E+09	-1.32610749560E-01	-1.05048543238E-01	-5.96440916033E-02	-2.74454217957E-02	-5.96448866038E-02	-2.74258713770E-02	-1.17862871931E-01	7.98567065442E-02
1.70350000000E+09	-1.31211786177E-01	-1.02837856584E-01	-6.02343400997E-02	-2.62132696044E-02	-6.02448923237E-02	-2.62015989795E-02	-1.16650468337E-01	8.55417980953E-02
1.70400000000E+09	-1.29651455497E-01	-1.00704235094E-01	-6.08250972524E-02	-2.49738307397E-02	-6.08081824992E-02	-2.49763588950E-02	-1.15211488639E-01	9.12146496203E-02
1.70450000000E+09	-1.27947805768E-01	-9.86195065997E-02	-6.13816153591E-02	-2.37181837184E-02	-6.13879040657E-02	-2.37117350173E-02	-1.13619654163E-01	9.68289438889E-02
1.70500000000E+09	-1.26143831533E-01	-9.66200844962E-02	-6.19274863863E-02	-2.24406032498E-02	-6.19271450779E-02	-2.24251236207E-02	-1.11844073611E-01	1.02416130318E-01
1.70550000000E+09	-1.24220928229E-01	-9.47016908931E-02	-6.24321024075E-02	-2.11642865852E-02	-6.24252543550E-02	-2.11397776574E-02	-1.09876013967E-01	1.07892955300E-01
1.70600000000E+09	-1.22188322599E-01	-9.28602966564E-02	-6.29174354927E-02	-1.98445473839E-02	-6.29160433345E-02	-1.98503237662E-02	-1.07758085297E-01	1.13295091070E-01
1.70650000000E+09	-1.20040567902E-01	-9.11211349635E-02	-6.33679032900E-02	-1.85348439635E-02	-6.33862297566E-02	-1.85290132006E-02	-1.05457147946E-01	1.18642620971E-01
1.70700000000E+09	-1.17803936348E-01	-8.94997368858E-02	-6.38041112815E-02	-1.71996811727E-02	-6.38101028457E-02	-1.71984014410E-02	-1.02980966277E-01	1.23890324370E-01
1.70750000000E+09	-1.15465047262E-01	-8.79403082662E-02	-6.41841373816E-02	-1.58644909618E-02	-6.42126517713E-02	-1.58700554715E-02	-1.00350685055E-01	1.29077201860E-01
1.70800000000E+09	-1.13048347078E-01	-8.65089735080E-02	-6.45782323155E-02	-1.45118623342E-02	-6.45835507070E-02	-1.45158576697E-02	-9.75525941910E-02	1.34134481102E-01
1.70850000000E+09	-1.10548959617E-01	-8.52004306704E-02	-6.49380973271E-02	-1.31403613511E-02	-6.49226631137E-02	-1.31504918761E-02	-9.45807430837E-02	1.39099070650E-01
1.70900000000E+09	-1.07956836653E-01	-8.39661703932E-02	-6.52484014237E-02	-1.17779872923E-02	-6.52416791514E-02	-1.17710158437E-02	-9.14926835449E-02	1.43964917819E-01
1.70950000000E+09	-1.05345053666E-01	-8.28933862827E-02	-6.55409992905E-02	-1.03962406791E-02	-6.55397725233E-02	-1.03758903345E-02	-8.82319309699E-02	1.48727592739E-01
1.71000000000E+09	-1.02662289897E-01	-8.19080927230E-02	-6.57965798045E-02	-8.97862294300E-03	-6.57881051269E-02	-8.97989941572E-03	-8.48033385036E-02	1.53383658340E-01
1.71050000000E+09	-9.99457937060E-02	-8.10351706568E-02	-6.60133641532E-02	-7.59892406337E-03	-6.60253068913E-02	-7.57937225412E-03	-8.12805311341E-02	1.57930462966E-01
1.71100000000E+09	-9.71789408955E-02	-8.02878373904E-02	-6.62142731891E-02	-6.16928831277E-03	-6.62096439426E-02	-6.17102319211E-03	-7.75636911256E-02	1.62317850744E-01
1.71150000000E+09	-9.43615820813E-02	-7.96680688829E-02	-6.63660326176E-02	-4.75942549678E-03	-6.63746143760E-02	-4.74354214680E-03	-7.37269016080E-02	1.66635485590E-01
1.71200000000E+09	-9.15296718529E-02	-7.91486951029E-02	-6.65235491568E-02	-3.33093783218E-03	-6.65134932178E-02	-3.31896371615E-03	-6.97830852112E-02	1.70770710113E-01
1.71250000000E+09	-8.86627496113E-02	-7.87808385224E-02	-6.66149636354E-02	-1.90195983656E-03	-6.66044189204E-02	-1.89237773203E-03	-6.56872498689E-02	1.74767688497E-01
1.71300000000E+09	-8.58112340393E-02	-7.85039205867E-02	-6.66840650678E-02	-4.65712124319E-04	-6.66885997970E-02	-4.51947082058E-04	-6.15129507829E-02	1.78660933237E-01
1.71350000000E+09	-8.29398773268E-02	-7.83724975238E-02	-6.67283663893E-02	9.77569472903E-04	-6.67163846177E-02	9.77968996633E-04	-5.72011293760E-02	1.82399471315E-01
1.71400000000E+09	-8.00342683101E-02	-7.83409488233E-02	-6.67205301343E-02	2.40097998151E-03	-6.67356363545E-02	2.40705183141E-03	-5.27839984055E-02	1.86014853337E-01
1.71450000000E+09	-7.71476278444E-02	-7.84142011967E-02	-6.66840137020E-02	3.85916547690E-03	-6.66953496711E-02	3.86308228616E-03	-4.82529674431E-02	1.89450926193E-01
1.71500000000E+09	-7.42850537285E-02	-7.86143372821E-02	-6.66252571299E-02	5.29732395603E-03	-6.66441653927E-02	5.32488830620E-03	-4.36112537042E-02	1.92792914304E-01
1.71550000000E+09	-7.14269779293E-02	-7.89059808959E-02	-6.65366968997E-02	6.75074963565E-03	-6.65309190021E-02	6.76194714236E-03	-3.88429899126E-02	1.95917606697E-01
1.71600000000E+09	-6.85795447759E-02	-7.93264238375E-02	-6.64064838209E-02	8.18811121752E-03	-6.63941830412E-02	8.19775854251E-03	-3.40632857768E-02	1.98940701663E-01
1.71650000000E+09	-6.57703236855E-02	-7.98514930735E-02	-6.62486319165E-02	9.64479224056E-03	-6.62421853894E-02	9.64799859064E-03	-2.91348144413E-02	2.01778156712E-01
1.71700000000E+09	-6.29695033648E-02	-8.04743124047E-02	-6.60539430583E-02	1.10707088661E-02	-6.60406261491E-02	1.10787690903E-02	-2.41621703701E-02	2.04483555830E-01
1.71750000000E+09	-6.02101908904E-02	-8.11810541968E-02	-6.58215433855E-02	1.25184940063E-02	-6.58150071665E-02	1.25300005055E-02	-1.90426698102E-02	2.07002743759E-01
1.71800000000E+09	-5.74569648704E-02	-8.20194510799E-02	-6.55565857582E-02	1.39412809050E-02	-6.55730193033E-02	1.39607574461E-02	-1.39413501960E-02	2.09365627483E-01
1.71850000000E+09	-5.47786599326E-02	-8.29518359363E-02	-6.52707643601E-02	1.53672648220E-02	-6.52668581362E-02	1.53695071909E-02	-8.75345934273E-03	2.11563795374E-01
1.71900000000E+09	-5.21385324983E-02	-8.39704049895E-02	-6.49350480307E-02	1.67837720010E-02	-6.49440625553E-02	1.68037898109E-02	-3.43559418513E-03	2.13597770201E-01
1.71950000000E+09	-4.95222518937E-02	-8.50718222156E-02	-6.45751601029E-02	1.81960630466E-02	-6.45794852470E-02	1.82137718713E-02	1.83390080374E-03	2.15466787770E-01
1.72000000000E+09	-4.69795824208E-02	-8.62830861580E-02	-6.41819933197E-02	1.96113216890E-02	-6.41860975696E-02	1.96215967532E-02	7.18422028255E-03	2.17160018003E-01
1.72050000000E+09	-4.44707796097E-02	-8.75461596518E-02	-6.37404383376E-02	2.10196545297E-02	-6.37460735165E-02	2.10141044799E-02	1.26296409566E-02	2.18690188063E-01
1.72100000000E+09	-4.20278667093E-02	-8.89241562745E-02	-6.32813753304E-02	2.23922273595E-02	-6.33093676317E-02	2.24131821553E-02	1.80778604743E-02	2.20051537421E-01
1.72150000000E+09	-3.96284028502E-02	-9.03488794756E-02	-6.28011597519E-02	2.37743807406E-02	-6.28126181641E-02	2.37783226991E-02	2.35928289767E-02	2.21215062556E-01
1.72200000000E+09	-3.72971031917E-02	-9.18684503710E-02	-6.22956976278E-02	2.51365309457E-02	-6.22797647810E-02	2.51527433164E-02	2.90941184781E-02	2.22255992870E-01
1.72250000000E+09	-3.50268857585E-02	-9.34504539391E-02	-6.17328287555E-02	2.64753409677E-02	-6.17374950745E-02	2.64886171500E-02	3.46331027243E-02	2.23109761809E-01
1.72300000000E+09	-3.28298009390E-02	-9.51158460177E-02	-6.11721690349E-02	2.78281348183E-02	-6.11407444725E-02	2.78359094931E-02	4.01602980903E-02	2.23762675418E-01
1.72350000000E+09	-3.06918435492E-02	-9.68274454971E-02	-6.05381794807E-02	2.91604032605E-02	-6.05495562676E-02	2.91482142874E-02	4.57079429435E-02	2.24244485082E-01
1.72400000000E+09	-2.86227587766E-02	-9.86111847286E-02	-5.98941020694E-02	3.04681920582E-02	-5.99031122211E-02	3.04580867098E-02	5.13181401885E-02	2.24591537510E-01
1.72450000000E+09	-2.66189324619E-02	-1.00451327159E-01	-5.92293927775E-02	3.17536904940E-02	-5.92219403239E-02	3.17715461482E-02	5.68916171324E-02	2.24774016487E-01
1.72500000000E+09	-2.46647326858E-02	-1.02338581656E-01	-5.85288603215E-02	3.30464193844E-02	-5.85217975339E-02	3.30496200061E-02	6.24278469274E-02	2.24713333284E-01
1.72550000000E+09	-2.28074859579E-02	-1.04280358115E-01	-5.77918360232E-02	3.43138232588E-02	-5.77899737651E-02	3.43290656608E-02	6.80334629896E-02	2.24544336933E-01
1.72600000000E+09	-2.10038041037E-02	-1.06280398988E-01	-5.70203127909E-02	3.55503795986E-02	-5.70153877520E-02	3.55641412685E-02	7.35498378376E-02	2.24167064459E-01
1.72650000000E+09	-1.92959466533E-02	-1.08325314141E-01	-5.62376843368E-02	3.67949542204E-02	-5.62440185091E-02	3.67942949051E-02	7.91036074897E-02	2.23635934644E-01
1.72700000000E+09	-1.76255815654E-02	-1.10420888761E-01	-5.54289818822E-02	3.79974977467E-02	-5.54293724560E-02	3.79953314905E-02	8.46000758932E-02	2.22931922769E-01
1.72750000000E+09	-1.60596584458E-02	-1.12555230540E-01	-5.45743061038E-02	3.91819160891E-02	-5.45819606409E-02	3.91921209013E-02	9.00962644104E-02	2.22112091416E-01
1.72800000000E+09	-1.45633512832E-02	-1.14704590847E-01	-5.37062750666E-02	4.03826569982E-02	-5.37069356007E-02	4.03634203459E-02	9.55213193688E-02	2.21052809543E-01
1.72850000000E+09	-1.31615932568E-02	-1.16913840174E-01	-5.28178859415E-02	4.15251714352E-02	-5.28059021515E-02	4.15282292670E-02	1.00931042400E-01	2.19840985770E-01
1.72900000000E+09	-1.18002738988E-02	-1.19151314489E-01	-5.18974455076E-02	4.26512739431E-02	-5.18966438759E-02	4.26625967197E-02	1.06300294577E-01	2.18472429367E-01
1.72950000000E+09	-1.05256606367E-02	-1.21405156215E-01	-5.09423755247E-02	4.37588246764E-02	-5.09449348102E-02	4.37625479858E-02	1.11607531614E-01	2.16964050583E-01
1.73000000000E+09	-9.32743248596E-03	-1.23695745593E-01	-4.99698625609E-02	4.48381376567E-02	-4.99669789812E-02	4.48399256609E-02	1.16869416856E-01	2.15269256674E-01
1.73050000000E+09	-8.18799918984E-03	-1.26006308721E-01	-4.89809787840E-02	4.59115947873E-02	-4.89793122124E-02	4.59280161479E-02	1.22098793987E-01	2.13435309503E-01
1.73100000000E+09	-7.15233218458E-03	-1.28351655228E-01	-4.79628853086E-02	4.69524643975E-02	-4.79707517529E-02	4.69449667698E-02	1.27212139346E-01	2.11422684353E-01
1.73150000000E+09	-6.18349676173E-03	-1.30700319942E-01	-4.69328349700E-02	4.79658486564E-02	-4.69281593774E-02	4.79661026671E-02	1.32302485012E-01	2.09270985464E-01
1.73200000000E+09	-5.27467196472E-03	-1.33055062372E-01	-4.58647136970E-02	4.89586990124E-02	-4.58692921690E-02	4.89566335481E-02	1.37305490917E-01	2.06952874330E-01
1.73250000000E+09	-4.44249995144E-03	-1.35427212253E-01	-4.47828102232E-02	4.99169149869E-02	-4.47853859946E-02	4.99383899500E-02	1.42235242253E-01	2.04495779911E-01
1.73300000000E+09	-3.70977486403E-03	-1.37836589990E-01	-4.36685029531E-02	5.08730219166E-02	-4.36922442076E-02	5.08658311090E-02	1.47070655300E-01	2.01910714181E-01
1.73350000000E+09	-3.03879732147E-03	-1.40263633599E-01	-4.25616967255E-02	5.17792116343E-02	-4.25662932838E-02	5.17836709293E-02	1.51837016506E-01	1.99172608433E-01
1.73400000000E+09	-2.43106496516E-03	-1.42672735259E-01	-4.14189388672E-02	5.26731462533E-02	-4.14207173553E-02	5.26729496099E-02	1.56532112245E-01	1.96255839791E-01
1.73450000000E+09	-1.90953943484E-03	-1.45087369290E-01	-4.02394828377E-02	5.35107139628E-02	-4.02531571793E-02	5.35385497229E-02	1.61126820559E-01	1.93198603902E-01
1.73500000000E+09	-1.45255893106E-03	-1.47530789972E-01	-3.90904128987E-02	5.43612801770E-02	-3.90827858373E-02	5.43806794769E-02	1.65591967113E-01	1.90058548291E-01
1.73550000000E+09	-1.07141846699E-03	-1.49950875741E-01	-3.78642284705E-02	5.51745758003E-02	-3.78803280172E-02	5.51783853861E-02	1.69995134650E-01	1.86742524523E-01
1.73600000000E+09	-7.89519085599E-04	-1.52365019635E-01	-3.66569957413E-02	5.59698825048E-02	-3.66715931958E-02	5.59539268399E-02	1.74260654784E-01	1.83322319660E-01
1.73650000000E+09	-5.42885316849E-04	-1.54794948884E-01	-3.54453051004E-02	5.67074573362E-02	-3.54356218602E-02	5.67183807790E-02	1.78432788183E-01	1.79769675496E-01
1.73700000000E+09	-3.70690127294E-04	-1.57227954158E-01	-3.41879087487E-02	5.74258624199E-02	-3.41856323123E-02	5.74349243365E-02	1.82504150688E-01	1.76048909659E-01
1.73750000000E+09	-3.17416360362E-04	-1.59659579838E-01	-3.29296575455E-02	5.81483282107E-02	-3.29298323921E-02	5.81283761199E-02	1.86470954073E-01	1.72259132361E-01
1.73800000000E+09	-2.90698472963E-04	-1.62072579832E-01	-3.16582573678E-02	5.88015719800E-02	-3.16679550784E-02	5.88029078759E-02	1.90280323356E-01	1.68321781300E-01
1.73850000000E+09	-3.50749737169E-04	-1.64453753696E-01	-3.03683634660E-02	5.94417766281E-02	-3.03736304432E-02	5.94466412255E-02	1.93966566423E-01	1.64307062857E-01
1.73900000000E+09	-4.91239927684E-04	-1.66859508157E-01	-2.90783906541E-02	6.00418114326E-02	-2.90701945482E-02	6.00546229884E-02	1.97535470502E-01	1.60150643215E-01
1.73950000000E+09	-6.47507049821E-04	-1.69235119254E-01	-2.77767762058E-02	6.06076572858E-02	-2.77628012924E-02	6.06416095891E-02	2.01013378934E-01	1.55892565676E-01
1.74000000000E+09	-9.33890360882E-04	-1.71637031268E-01	-2.64440940731E-02	6.11657449058E-02	-2.64536974481E-02	6.11758168012E-02	2.04294769884E-01	1.51526712090E-01
1.74050000000E+09	-1.29524654738E-03	-1.73969985888E-01	-2.51147473351E-02	6.16961992318E-02	-2.51168608349E-02	6.16920035891E-02	2.07506329359E-01	1.47076814199E-01
1.74100000000E+09	-1.70518357037E-03	-1.76316393721E-01	-2.37684574846E-02	6.21762749270E-02	-2.37642198971E-02	6.21809912561E-02	2.10531129473E-01	1.42511948948E-01
1.74150000000E+09	-2.17930214642E-03	-1.78614850549E-01	-2.24206078953E-02	6.26350270268E-02	-2.24286468277E-02	6.26273870060E-02	2.13427898331E-01	1.37883713633E-01
1.74200000000E+09	-2.72357517060E-03	-1.80924755215E-01	-2.10704731970E-02	6.30448702703E-02	-2.10831822016E-02	6.30650304523E-02	2.16195943771E-01	1.33169426354E-01
1.74250000000E+09	-3.36572629131E-03	-1.83203910835E-01	-1.97029623040E-02	6.34650541541E-02	-1.97037177474E-02	6.34579654340E-02	2.18822449486E-01	1.28349508812E-01
1.74300000000E+09	-4.05955675309E-03	-1.85464103514E-01	-1.83399234073E-02	6.38047262710E-02	-1.83332032472E-02	6.38261100712E-02	2.21276887425E-01	1.23442343478E-01
1.74350000000E+09	-4.82911730624E-03	-1.87696072118E-01	-1.69656527868E-02	6.41487914270E-02	-1.69564015612E-02	6.41495112450E-02	2.23585358707E-01	1.18491048545E-01
1.74400000000E+09	-5.65457183306E-03	-1.89877887074E-01	-1.55742897364E-02	6.44493862028E-02	-1.55874887578E-02	6.44490244839E-02	2.25744781627E-01	1.13464580821E-01
1.74450000000E+09	-6.57874056804E-03	-1.92080606993E-01	-1.42068822094E-02	6.47294929010E-02	-1.42034719465E-02	6.47299895306E-02	2.27742289323E-01	1.08371294794E-01
1.74500000000E+09	-7.54793005696E-03	-1.94191289551E-01	-1.28144000770E-02	6.49640117549E-02	-1.28118584798E-02	6.49697265559E-02	2.29597786084E-01	1.03251124586E-01
1.74550000000E+09	-8.59963303236E-03	-1.96279510619E-01	-1.14222998517E-02	6.51706310787E-02	-1.14204530309E-02	6.51763946552E-02	2.31268422600E-01	9.80514211525E-02
1.74600000000E+09	-9.69447552719E-03	-1.98361699270E-01	-1.00401470433E-02	6.53547631934E-02	-1.00402955730E-02	6.53770716804E-02	2.32804528376E-01	9.27919454869E-02
1.74650000000E+09	-1.09018220037E-02	-2.00383923774E-01	-8.64618121576E-03	6.54989406864E-02	-8.64608803784E-03	6.55109544858E-02	2.34152234112E-01	8.74709060502E-02
1.74700000000E+09	-1.21483995480E-02	-2.02362014392E-01	-7.25355775425E-03	6.56291093848E-02	-7.25560078706E-03	6.56330036035E-02	2.35359599923E-01	8.21208112788E-02
1.74750000000E+09	-1.34609666537E-02	-2.04322699976E-01	-5.87864752359E-03	6.57105148388E-02	-5.86333369021E-03	6.57249977921E-02	2.36405688583E-01	7.67888961380E-02
1.74800000000E+09	-1.48630458563E-02	-2.06180154364E-01	-4.48371193692E-03	6.57734616649E-02	-4.48001397682E-03	6.57783435107E-02	2.37249699889E-01	7.13664438973E-02
1.74850000000E+09	-1.63358318637E-02	-2.08004519726E-01	-3.09737781338E-03	6.57809487482E-02	-3.09486143599E-03	6.58055816129E-02	2.37971591854E-01	6.59433852556E-02
1.74900000000E+09	-1.78605963339E-02	-2.09801872888E-01	-1.69841721572E-03	6.57874746173E-02	-1.69939225847E-03	6.57868003476E-02	2.38475717684E-01	6.04681256864E-02
1.74950000000E+09	-1.94403695146E-02	-2.11508266125E-01	-3.31008437276E-04	6.57608974721E-02	-3.33684159548E-04	6.57612052544E-02	2.38847281665E-01	5.50049710069E-02
1.75000000000E+09	-2.11136249138E-02	-2.13176865817E-01	1.05544316777E-03	6.57019700318E-02	1.05365196654E-03	6.57099874423E-02	2.39046309953E-01	4.95502755938E-02
1.75050000000E+09	-2.28243678786E-02	-2.14774456832E-01	2.40602842485E-03	6.56117876750E-02	2.43036454019E-03	6.56200090943E-02	2.39067327918E-01	4.40740027688E-02
1.75100000000E+09	-2.45878224001E-02	-2.16335552661E-01	3.78166215658E-03	6.55031363223E-02	3.78279073960E-03	6.54972093943E-02	2.38933177224E-01	3.85972356636E-02
1.75150000000E+09	-2.64344185156E-02	-2.17800155277E-01	5.14331147241E-03	6.53491778379E-02	5.14813234963E-03	6.53467716662E-02	2.38577473173E-01	3.31409401671E-02
1.75200000000E+09	-2.83323339161E-02	-2.19189229057E-01	6.50135333685E-03	6.51788123331E-02	6.49767055186E-03	6.51785743927E-02	2.38126622065E-01	2.76287674509E-02
1.75250000000E+09	-3.02763316970E-02	-2.20521225284E-01	7.82847796689E-03	6.49677927635E-02	7.84103139200E-03	6.49889927368E-02	2.37474291756E-01	2.22405006775E-02
1.75300000000E+09	-3.22935033941E-02	-2.21737512793E-01	9.17236856791E-03	6.47426417264E-02	9.17827685698E-03	6.47394250557E-02	2.36619585810E-01	1.68359601962E-02
1.75350000000E+09	-3.43619949212E-02	-2.22887319895E-01	1.04880541176E-02	6.44871743166E-02	1.05017879022E-02	6.44875501857E-02	2.35589751862E-01	1.14284597615E-02
1.75400000000E+09	-3.64581262781E-02	-2.23940384147E-01	1.18074712330E-02	6.41944583459E-02	1.18304867979E-02	6.42166783053E-02	2.34412205238E-01	6.07115018655E-03
1.75450000000E+09	-3.86006442936E-02	-2.24893048608E-01	1.31342208266E-02	6.39040026711E-02	1.31112853589E-02	6.39075505682E-02	2.33089818695E-01	7.50546764872E-04
1.75500000000E+09	-4.08038874528E-02	-2.25779853603E-01	1.44288139719E-02	6.35724859575E-02	1.44351587023E-02	6.35702922682E-02	2.31613354473E-01	-4.54569003863E-03
1.75550000000E+09	-4.30163366505E-02	-2.26542909699E-01	1.57180718956E-02	6.32001847801E-02	1.57180026521E-02	6.32073229513E-02	2.29917154807E-01	-9.77516774948E-03
1.75600000000E+09	-4.52718798854E-02	-2.27244903960E-01	1.69924434016E-02	6.28319483236E-02	1.70032012151E-02	6.28289930925E-02	2.28093055980E-01	-1.49636423513E-02
1.75650000000E+09	-4.75785169862E-02	-2.27775436081E-01	1.82552025392E-02	6.24303300691E-02	1.82664668766E-02	6.24147813130E-02	2.26112434942E-01	-2.00687513434E-02
1.75700000000E+09	-4.98850608191E-02	-2.28256120292E-01	1.94950533362E-02	6.19883248113E-02	1.95201372596E-02	6.19988094871E-02	2.23943665439E-01	-2.51169611299E-02
1.75750000000E+09	-5.22305340949E-02	-2.28619929949E-01	2.07478534490E-02	6.15398794566E-02	2.07617748312E-02	6.15180855337E-02	2.21612213143E-01	-3.00960597320E-02
1.75800000000E+09	-5.45844760255E-02	-2.28861123533E-01	2.19840507805E-02	6.10673163701E-02	2.19868462406E-02	6.10603962667E-02	2.19136148670E-01	-3.50059152497E-02
1.75850000000E+09	-5.69511324561E-02	-2.29008781099E-01	2.32054087499E-02	6.05537588749E-02	2.32080028788E-02	6.05516208753E-02	2.16496570629E-01	-3.98506960138E-02
