# Hz S RI R 50
! CMT, CMT808U, 21440046, 21.4.3/4
! Date: 11/12/2025 10:08:05 AM
! Data: Format (Calibration Info)
! Freq	S11:Re/Im(F2)	S41:Re/Im(F2)	S14:Re/Im(F2)	S44:Re/Im(F2)
1.60000000000E+09	-2.87098535409E-01	-2.34025989379E-01	6.79599519847E-03	6.29506321836E-02	5.95292642846E-03	6.27101380583E-02	-1.05684294513E-01	1.86733377972E-02
1.60100000000E+09	-2.82243799050E-01	-2.32475680693E-01	9.56091427340E-03	6.26619845237E-02	8.70566865633E-03	6.24603306521E-02	-1.07164709896E-01	3.06236453632E-02
1.60200000000E+09	-2.77554595144E-01	-2.31462161981E-01	1.23119487035E-02	6.22407578855E-02	1.14494117555E-02	6.20762040982E-02	-1.07837623528E-01	4.26432292946E-02
1.60300000000E+09	-2.73093118333E-01	-2.30970145394E-01	1.50364211225E-02	6.16855609804E-02	1.41656993114E-02	6.15608335579E-02	-1.07702764017E-01	5.46640015461E-02
1.60400000000E+09	-2.68934119123E-01	-2.30972701852E-01	1.77324512010E-02	6.10042673900E-02	1.68541864361E-02	6.09147958413E-02	-1.06753737338E-01	6.66431510451E-02
1.60500000000E+09	-2.65164231161E-01	-2.31417877057E-01	2.03878803133E-02	6.01916398880E-02	1.95069407594E-02	6.01432777527E-02	-1.05004587808E-01	7.85123089122E-02
1.60600000000E+09	-2.61833730023E-01	-2.32269780532E-01	2.29940152366E-02	5.92589475009E-02	2.21125909354E-02	5.92448225031E-02	-1.02469108946E-01	9.02237240885E-02
1.60700000000E+09	-2.59011284800E-01	-2.33447913353E-01	2.55465084694E-02	5.82044440634E-02	2.46697947004E-02	5.82272991593E-02	-9.91548075429E-02	1.01725776576E-01
1.60800000000E+09	-2.56737782109E-01	-2.34868375314E-01	2.80420643595E-02	5.70352614242E-02	2.71675392133E-02	5.70969960729E-02	-9.50883855411E-02	1.12965069011E-01
1.60900000000E+09	-2.55054492598E-01	-2.36444467216E-01	3.04703940610E-02	5.57559584828E-02	2.95991363308E-02	5.58545296860E-02	-9.02776211959E-02	1.23889734842E-01
1.61000000000E+09	-2.53978185398E-01	-2.38082195370E-01	3.28304510255E-02	5.43714149996E-02	3.19617443388E-02	5.45071607599E-02	-8.47632516525E-02	1.34454860597E-01
1.61100000000E+09	-2.53493574671E-01	-2.39706951551E-01	3.51112199607E-02	5.28898874915E-02	3.42522611654E-02	5.30591484700E-02	-7.85592786356E-02	1.44603370324E-01
1.61200000000E+09	-2.53603023587E-01	-2.41208536618E-01	3.73139046869E-02	5.13197980521E-02	3.64629420117E-02	5.15217097251E-02	-7.17126929699E-02	1.54304613645E-01
1.61300000000E+09	-2.54254493676E-01	-2.42496597454E-01	3.94349481540E-02	4.96608036999E-02	3.85966814443E-02	4.98955786318E-02	-6.42416790040E-02	1.63514262632E-01
1.61400000000E+09	-2.55422022760E-01	-2.43508342040E-01	4.14721938297E-02	4.79182993425E-02	4.06476913493E-02	4.81887789553E-02	-5.61912353617E-02	1.72189127065E-01
1.61500000000E+09	-2.57042656409E-01	-2.44161013431E-01	4.34300176461E-02	4.61031547371E-02	4.26177276713E-02	4.64050278873E-02	-4.75976959395E-02	1.80297590309E-01
1.61600000000E+09	-2.59049876217E-01	-2.44412818015E-01	4.52986791680E-02	4.42191355750E-02	4.44994018361E-02	4.45528664263E-02	-3.84993688108E-02	1.87792255155E-01
1.61700000000E+09	-2.61370230704E-01	-2.44201531775E-01	4.70788110149E-02	4.22652154102E-02	4.62950634969E-02	4.26291428850E-02	-2.89454512666E-02	1.94666641748E-01
1.61800000000E+09	-2.63925940326E-01	-2.43523278006E-01	4.87751949917E-02	4.02529466789E-02	4.80076294458E-02	4.06461842596E-02	-1.89705202086E-02	2.00885063705E-01
1.61900000000E+09	-2.66655593339E-01	-2.42344901989E-01	5.03823262768E-02	3.81833150195E-02	4.96259339878E-02	3.86047201708E-02	-8.63038575052E-03	2.06407262406E-01
1.62000000000E+09	-2.69468347140E-01	-2.40663709095E-01	5.19011019906E-02	3.60593211045E-02	5.11637408414E-02	3.65066147217E-02	2.03128034147E-03	2.11242827927E-01
1.62100000000E+09	-2.72309670109E-01	-2.38485268835E-01	5.33328819705E-02	3.38821637639E-02	5.26121900286E-02	3.43580119642E-02	1.29744159207E-02	2.15349200273E-01
1.62200000000E+09	-2.75108429037E-01	-2.35835038216E-01	5.46728130202E-02	3.16573677383E-02	5.39692535209E-02	3.21600671757E-02	2.41499185111E-02	2.18719437787E-01
1.62300000000E+09	-2.77805325955E-01	-2.32722090525E-01	5.59242819069E-02	2.93853350392E-02	5.52391104901E-02	2.99153823458E-02	3.54921788224E-02	2.21350852946E-01
1.62400000000E+09	-2.80357414202E-01	-2.29181972736E-01	5.70911641373E-02	2.70765203115E-02	5.64225522572E-02	2.76325867631E-02	4.69699742900E-02	2.23230582259E-01
1.62500000000E+09	-2.82727343056E-01	-2.25246003248E-01	5.81622426082E-02	2.47242874917E-02	5.75137658302E-02	2.53067108147E-02	5.85299667646E-02	2.24347934199E-01
1.62600000000E+09	-2.84855058758E-01	-2.20951832354E-01	5.91440154566E-02	2.23381852191E-02	5.85168522581E-02	2.29461446053E-02	7.01221243169E-02	2.24706825114E-01
1.62700000000E+09	-2.86730370123E-01	-2.16325859345E-01	6.00331417853E-02	1.99134396144E-02	5.94273988041E-02	2.05465347721E-02	8.16959569844E-02	2.24315510783E-01
1.62800000000E+09	-2.88318572495E-01	-2.11417997605E-01	6.08261355770E-02	1.74617021617E-02	6.02447262007E-02	1.81183789402E-02	9.32087847750E-02	2.23164417732E-01
1.62900000000E+09	-2.89606825208E-01	-2.06260873641E-01	6.15294886954E-02	1.49773928658E-02	6.09725573522E-02	1.56617637979E-02	1.04603161571E-01	2.21275476190E-01
1.63000000000E+09	-2.90582529972E-01	-2.00873074659E-01	6.21387177767E-02	1.24682309914E-02	6.16025440055E-02	1.31741623926E-02	1.15837813922E-01	2.18654421691E-01
1.63100000000E+09	-2.91215965334E-01	-1.95318217569E-01	6.26500777809E-02	9.93565104822E-03	6.21404618586E-02	1.06651443890E-02	1.26872326732E-01	2.15310144136E-01
1.63200000000E+09	-2.91519969996E-01	-1.89607308446E-01	6.30675971781E-02	7.38045690610E-03	6.25849160280E-02	8.13687931247E-03	1.37671092784E-01	2.11268009652E-01
1.63300000000E+09	-2.91487416631E-01	-1.83790232046E-01	6.33866059441E-02	4.80939371699E-03	6.29261067361E-02	5.58726536196E-03	1.48164167478E-01	2.06535593258E-01
1.63400000000E+09	-2.91106543924E-01	-1.77883356564E-01	6.36033698791E-02	2.22414648153E-03	6.31777083265E-02	3.02610325138E-03	1.58327471494E-01	2.01146694501E-01
1.63500000000E+09	-2.90383576821E-01	-1.71922560211E-01	6.37232763708E-02	-3.72272952116E-04	6.33274165617E-02	4.44595090185E-04	1.68119326957E-01	1.95104665944E-01
1.63600000000E+09	-2.89330544017E-01	-1.65933514720E-01	6.37493428440E-02	-2.98308134816E-03	6.33803160207E-02	-2.13812701843E-03	1.77501191786E-01	1.88451681165E-01
1.63700000000E+09	-2.87939320248E-01	-1.59932232985E-01	6.36656281308E-02	-5.59413158450E-03	6.33327127351E-02	-4.73150100502E-03	1.86426944903E-01	1.81222727617E-01
1.63800000000E+09	-2.86208485216E-01	-1.53960602224E-01	6.34829519592E-02	-8.20672507104E-03	6.31837559632E-02	-7.32374286675E-03	1.94878307508E-01	1.73425461510E-01
1.63900000000E+09	-2.84158814834E-01	-1.48020901382E-01	6.31971244168E-02	-1.08211090325E-02	6.29315485770E-02	-9.91998884209E-03	2.02805705845E-01	1.65099293709E-01
1.64000000000E+09	-2.81789938908E-01	-1.42141735597E-01	6.28081910280E-02	-1.34275658184E-02	6.25808140633E-02	-1.25087447707E-02	2.10191093640E-01	1.56296907712E-01
1.64100000000E+09	-2.79107788936E-01	-1.36355934382E-01	6.23143433792E-02	-1.60265437690E-02	6.21230882146E-02	-1.50898082913E-02	2.17002870768E-01	1.47029160095E-01
1.64200000000E+09	-2.76121945993E-01	-1.30654477210E-01	6.17148192211E-02	-1.86131962846E-02	6.15696944582E-02	-1.76615749942E-02	2.23207707468E-01	1.37348902418E-01
1.64300000000E+09	-2.72841829422E-01	-1.25088373031E-01	6.10161221034E-02	-2.11822501412E-02	6.09070762730E-02	-2.02229467027E-02	2.28781727398E-01	1.27285333753E-01
1.64400000000E+09	-2.69279062047E-01	-1.19651808872E-01	6.02079307729E-02	-2.37312904510E-02	6.01467000433E-02	-2.27604952793E-02	2.33711873126E-01	1.16874921982E-01
1.64500000000E+09	-2.65433445016E-01	-1.14367761714E-01	5.92946963856E-02	-2.62599078245E-02	5.92746108722E-02	-2.52726202242E-02	2.37964674151E-01	1.06170315478E-01
1.64600000000E+09	-2.61308510277E-01	-1.09255301887E-01	5.82811327193E-02	-2.87549206597E-02	5.83065694410E-02	-2.77663241743E-02	2.41537697760E-01	9.52031284987E-02
1.64700000000E+09	-2.56918733914E-01	-1.04330896144E-01	5.71592194311E-02	-3.12160306536E-02	5.72290080051E-02	-3.02245903186E-02	2.44401670465E-01	8.40263315655E-02
1.64800000000E+09	-2.52279494870E-01	-9.96044437740E-02	5.59322457075E-02	-3.36446862647E-02	5.60501439839E-02	-3.26497772472E-02	2.46554646521E-01	7.26739942884E-02
1.64900000000E+09	-2.47391274973E-01	-9.51006836224E-02	5.46012603187E-02	-3.60308618795E-02	5.47694373160E-02	-3.50347873447E-02	2.47974603544E-01	6.11993814847E-02
1.65000000000E+09	-2.42277061383E-01	-9.08330148027E-02	5.31668679745E-02	-3.83699853647E-02	5.33822415481E-02	-3.73773984047E-02	2.48669902962E-01	4.96474219141E-02
1.65100000000E+09	-2.36938916490E-01	-8.68203382992E-02	5.16351509692E-02	-4.06609934710E-02	5.18935376898E-02	-3.96734916578E-02	2.48624822102E-01	3.80659039762E-02
1.65200000000E+09	-2.31386968210E-01	-8.30837766154E-02	4.99932533259E-02	-4.28946184397E-02	5.03008519125E-02	-4.19152556732E-02	2.47828199250E-01	2.64847501330E-02
1.65300000000E+09	-2.25644017858E-01	-7.96314679348E-02	4.82555317626E-02	-4.50689759451E-02	4.86117897108E-02	-4.40981668986E-02	2.46308108299E-01	1.49676232752E-02
1.65400000000E+09	-2.19722101465E-01	-7.64714420144E-02	4.64183247978E-02	-4.71782003185E-02	4.68191232561E-02	-4.62217530096E-02	2.44045298376E-01	3.55637195358E-03
1.65500000000E+09	-2.13641322659E-01	-7.36366017074E-02	4.44811176701E-02	-4.92164149042E-02	4.49297743257E-02	-4.82776263203E-02	2.41046218373E-01	-7.69599931563E-03
1.65600000000E+09	-2.07415254670E-01	-7.11397616282E-02	4.24484288325E-02	-5.11821588502E-02	4.29424818994E-02	-5.02605880852E-02	2.37333315558E-01	-1.87631929402E-02
1.65700000000E+09	-2.01063004927E-01	-6.89795380650E-02	4.03236209766E-02	-5.30661215085E-02	4.08645044542E-02	-5.21657753681E-02	2.32905588155E-01	-2.95746208205E-02
1.65800000000E+09	-1.94609349864E-01	-6.71849689017E-02	3.81082501810E-02	-5.48643972356E-02	3.86898598902E-02	-5.39904228962E-02	2.27795713322E-01	-4.01012505002E-02
1.65900000000E+09	-1.88063139739E-01	-6.57734805378E-02	3.58043064137E-02	-5.65733818847E-02	3.64279194835E-02	-5.57264756711E-02	2.22000188293E-01	-5.02869966714E-02
1.66000000000E+09	-1.81460422027E-01	-6.47498749011E-02	3.34135293407E-02	-5.81860755537E-02	3.40824702612E-02	-5.73651121629E-02	2.15549357855E-01	-6.00977045603E-02
1.66100000000E+09	-1.74838627647E-01	-6.41305750489E-02	3.09465715530E-02	-5.96966160262E-02	3.16558303611E-02	-5.89072634861E-02	2.08468788301E-01	-6.94845315913E-02
1.66200000000E+09	-1.68211950917E-01	-6.39284858778E-02	2.84030555469E-02	-6.11073051569E-02	2.91478523973E-02	-6.03487679490E-02	2.00781917187E-01	-7.84069478601E-02
1.66300000000E+09	-1.61622680115E-01	-6.41546382011E-02	2.57862278392E-02	-6.24015376956E-02	2.65653429187E-02	-6.16799080605E-02	1.92516822928E-01	-8.68233056841E-02
1.66400000000E+09	-1.55096458729E-01	-6.47971285138E-02	2.31022540370E-02	-6.35853207959E-02	2.39140008088E-02	-6.29010206589E-02	1.83707798670E-01	-9.47033800085E-02
1.66500000000E+09	-1.48674002269E-01	-6.58740058879E-02	2.03547268016E-02	-6.46486170597E-02	2.11997206435E-02	-6.40018742785E-02	1.74387993009E-01	-1.01992781625E-01
1.66600000000E+09	-1.42396725464E-01	-6.73782981957E-02	1.75492816295E-02	-6.55896107113E-02	1.84273757801E-02	-6.49796132368E-02	1.64596238000E-01	-1.08678803004E-01
1.66700000000E+09	-1.36294570522E-01	-6.93148426571E-02	1.46961225492E-02	-6.63979204398E-02	1.56023723495E-02	-6.58314570367E-02	1.54367252472E-01	-1.14717208366E-01
1.66800000000E+09	-1.30414450015E-01	-7.16708252635E-02	1.17981986569E-02	-6.70786929042E-02	1.27329686532E-02	-6.65572127136E-02	1.43751289601E-01	-1.20079094289E-01
1.66900000000E+09	-1.24794551273E-01	-7.44366512638E-02	8.86547291247E-03	-6.76248524366E-02	9.82116513265E-03	-6.71424660835E-02	1.32781271652E-01	-1.24732615930E-01
1.67000000000E+09	-1.19490201242E-01	-7.76000666243E-02	5.90366381116E-03	-6.80340028276E-02	6.87749428023E-03	-6.75980854651E-02	1.21514380474E-01	-1.28660744374E-01
1.67100000000E+09	-1.14531470020E-01	-8.11413307445E-02	2.91714523087E-03	-6.83066024405E-02	3.91306768562E-03	-6.79102389626E-02	1.09992989633E-01	-1.31848264610E-01
1.67200000000E+09	-1.09969891304E-01	-8.50205729303E-02	-8.22134254337E-05	-6.84298067855E-02	9.30577086768E-04	-6.80830082571E-02	9.82646641614E-02	-1.34259074810E-01
1.67300000000E+09	-1.05845482834E-01	-8.92140795315E-02	-3.08803345489E-03	-6.84177594597E-02	-2.06221813825E-03	-6.81153732990E-02	8.63855085213E-02	-1.35886950117E-01
1.67400000000E+09	-1.02199209299E-01	-9.36847810557E-02	-6.08838269384E-03	-6.82586386180E-02	-5.05116727314E-03	-6.80074535574E-02	7.44032500093E-02	-1.36729336663E-01
1.67500000000E+09	-9.90710255379E-02	-9.83730880122E-02	-9.07953662629E-03	-6.79618727213E-02	-8.03259082323E-03	-6.77516656348E-02	6.23713702860E-02	-1.36767095110E-01
1.67600000000E+09	-9.64929427321E-02	-1.03237525596E-01	-1.20526463825E-02	-6.75209477376E-02	-1.09998157069E-02	-6.73609611827E-02	5.03464360576E-02	-1.36001899740E-01
1.67700000000E+09	-9.44928912497E-02	-1.08217434996E-01	-1.49972635932E-02	-6.69485521787E-02	-1.39355062454E-02	-6.68291292798E-02	3.83780136356E-02	-1.34426106445E-01
1.67800000000E+09	-9.30971605339E-02	-1.13235156355E-01	-1.79089974744E-02	-6.62302192051E-02	-1.68424181043E-02	-6.61624716312E-02	2.65280052637E-02	-1.32054473759E-01
1.67900000000E+09	-9.23090863774E-02	-1.18222323839E-01	-2.07747050116E-02	-6.53844397606E-02	-1.97054473592E-02	-6.53636904259E-02	1.48523276167E-02	-1.28886051817E-01
1.68000000000E+09	-9.21373197528E-02	-1.23112637645E-01	-2.35963199775E-02	-6.44116360715E-02	-2.25262397474E-02	-6.44396605442E-02	3.39465260176E-03	-1.24932381794E-01
1.68100000000E+09	-9.25706577900E-02	-1.27813183536E-01	-2.63558384780E-02	-6.33117285394E-02	-2.52916273957E-02	-6.33842279818E-02	-7.78226188587E-03	-1.20206748798E-01
1.68200000000E+09	-9.35869264077E-02	-1.32257012406E-01	-2.90631812943E-02	-6.20949583693E-02	-2.79972329247E-02	-6.22147993843E-02	-1.86346698182E-02	-1.14734044473E-01
1.68300000000E+09	-9.51502552046E-02	-1.36366349573E-01	-3.16983560773E-02	-6.07612599011E-02	-3.06403109451E-02	-6.09281158576E-02	-2.91016891170E-02	-1.08532677695E-01
1.68400000000E+09	-9.72297247742E-02	-1.40059780638E-01	-3.42647964545E-02	-5.93206483806E-02	-3.32155885404E-02	-5.95350971188E-02	-3.91362706043E-02	-1.01634451865E-01
1.68500000000E+09	-9.97586391379E-02	-1.43277369167E-01	-3.67594625123E-02	-5.77760908413E-02	-3.57223140871E-02	-5.80324223412E-02	-4.86960627799E-02	-9.40598306343E-02
1.68600000000E+09	-1.02672339190E-01	-1.45957778228E-01	-3.91783611592E-02	-5.61248470529E-02	-3.81534820772E-02	-5.64324934701E-02	-5.77280657430E-02	-8.58499573991E-02
1.68700000000E+09	-1.05900094788E-01	-1.48055364143E-01	-4.15201575473E-02	-5.43865584243E-02	-4.05082580526E-02	-5.47379259886E-02	-6.61966286586E-02	-7.70463719917E-02
1.68800000000E+09	-1.09355211194E-01	-1.49530578273E-01	-4.37799747066E-02	-5.25523686753E-02	-4.27806453589E-02	-5.29503429008E-02	-7.40556778805E-02	-6.76759723704E-02
1.68900000000E+09	-1.12955530902E-01	-1.50350479566E-01	-4.59541407839E-02	-5.06367005182E-02	-4.49766996332E-02	-5.10735867631E-02	-8.12689451350E-02	-5.77986979515E-02
1.69000000000E+09	-1.16605857048E-01	-1.50501070353E-01	-4.80484787443E-02	-4.86293968071E-02	-4.70868832618E-02	-4.91144873105E-02	-8.78038533947E-02	-4.74469683101E-02
1.69100000000E+09	-1.20211759449E-01	-1.49997344506E-01	-5.00527010314E-02	-4.65443715148E-02	-4.91163578294E-02	-4.70721446745E-02	-9.36211346967E-02	-3.66669892812E-02
1.69200000000E+09	-1.23685084455E-01	-1.48841680102E-01	-5.19687426810E-02	-4.43830476803E-02	-5.10553989244E-02	-4.49504896847E-02	-9.87114949706E-02	-2.55167271539E-02
1.69300000000E+09	-1.26931803084E-01	-1.47075314961E-01	-5.37939163486E-02	-4.21500478998E-02	-5.29093669033E-02	-4.27540118094E-02	-1.03036290776E-01	-1.40525352553E-02
1.69400000000E+09	-1.29874383380E-01	-1.44727349544E-01	-5.55237159043E-02	-3.98365641979E-02	-5.46695367518E-02	-4.04789010007E-02	-1.06581059926E-01	-2.32705286593E-03
1.69500000000E+09	-1.32445334421E-01	-1.41864099924E-01	-5.71627760205E-02	-3.74610837344E-02	-5.63351307374E-02	-3.81416992003E-02	-1.09337322169E-01	9.61465494293E-03
1.69600000000E+09	-1.34579599382E-01	-1.38546090894E-01	-5.86960772151E-02	-3.50155770210E-02	-5.79013223563E-02	-3.57346689335E-02	-1.11289545260E-01	2.17034362304E-02
1.69700000000E+09	-1.36234525115E-01	-1.34840710946E-01	-6.01309102115E-02	-3.25087581954E-02	-5.93679434638E-02	-3.32583421454E-02	-1.12422432565E-01	3.38987783186E-02
1.69800000000E+09	-1.37363875360E-01	-1.30818230385E-01	-6.14589649006E-02	-2.99404652439E-02	-6.07303305961E-02	-3.07247931347E-02	-1.12745771941E-01	4.61356090568E-02
1.69900000000E+09	-1.37937270903E-01	-1.26551498290E-01	-6.26794737559E-02	-2.73203636450E-02	-6.19890891136E-02	-2.81345229405E-02	-1.12256478630E-01	5.83567896066E-02
1.70000000000E+09	-1.37947949183E-01	-1.22114531318E-01	-6.37898113450E-02	-2.46497519202E-02	-6.31353610140E-02	-2.54887469202E-02	-1.10972822534E-01	7.05095220717E-02
1.70100000000E+09	-1.37384913856E-01	-1.17590519966E-01	-6.47901211524E-02	-2.19349035456E-02	-6.41680514928E-02	-2.27970995446E-02	-1.08880495373E-01	8.25401481784E-02
1.70200000000E+09	-1.36246893669E-01	-1.13038972726E-01	-6.56676136810E-02	-1.91724492181E-02	-6.50890033851E-02	-2.00632367027E-02	-1.06006814656E-01	9.43989389832E-02
1.70300000000E+09	-1.34552241478E-01	-1.08542245523E-01	-6.64324116840E-02	-1.63739394241E-02	-6.58910224557E-02	-1.72881501682E-02	-1.02370237108E-01	1.06028226234E-01
1.70400000000E+09	-1.32318058393E-01	-1.04158315685E-01	-6.70745846498E-02	-1.35462941466E-02	-6.65757586942E-02	-1.44829924153E-02	-9.79931908606E-02	1.17377163022E-01
1.70500000000E+09	-1.29573505769E-01	-9.99448373740E-02	-6.75981034955E-02	-1.06939440012E-02	-6.71385461208E-02	-1.16512942087E-02	-9.28871536671E-02	1.28407583446E-01
1.70600000000E+09	-1.26357901291E-01	-9.59620301855E-02	-6.79961366827E-02	-7.81852610012E-03	-6.75785889082E-02	-8.79664620760E-03	-8.70884196219E-02	1.39059537315E-01
1.70700000000E+09	-1.22707179029E-01	-9.22503436017E-02	-6.82726625965E-02	-4.93215536543E-03	-6.78977248235E-02	-5.92389452802E-03	-8.06318901774E-02	1.49300261492E-01
1.70800000000E+09	-1.18660354118E-01	-8.88433923045E-02	-6.84246180309E-02	-2.03693397182E-03	-6.80900054038E-02	-3.04454481436E-03	-7.35377777439E-02	1.59084207561E-01
1.70900000000E+09	-1.14258445886E-01	-8.57737931638E-02	-6.84522009824E-02	8.65045799881E-04	-6.81622495831E-02	-1.54997055484E-04	-6.58399555728E-02	1.68378344754E-01
1.71000000000E+09	-1.09549989315E-01	-8.30691112606E-02	-6.83556237162E-02	3.76407387835E-03	-6.81095019748E-02	2.73235201386E-03	-5.75944159102E-02	1.77140554353E-01
1.71100000000E+09	-1.04571155771E-01	-8.07548570219E-02	-6.81350825732E-02	6.65370021603E-03	-6.79339016829E-02	5.61200848503E-03	-4.88198835500E-02	1.85341647289E-01
1.71200000000E+09	-9.93710498698E-02	-7.88427083104E-02	-6.77918892040E-02	9.53411167540E-03	-6.76351352049E-02	8.48211152098E-03	-3.95589941039E-02	1.92945796084E-01
1.71300000000E+09	-9.39899504902E-02	-7.73435295127E-02	-6.73276190696E-02	1.23934841589E-02	-6.72151319273E-02	1.13383408516E-02	-2.98585137724E-02	1.99946903652E-01
1.71400000000E+09	-8.84661547591E-02	-7.62649519848E-02	-6.67413098064E-02	1.52286116193E-02	-6.66716500592E-02	1.41684953884E-02	-1.97608097726E-02	2.06298894411E-01
1.71500000000E+09	-8.28468818366E-02	-7.56041049765E-02	-6.60336110049E-02	1.80369447762E-02	-6.60126271456E-02	1.69740162237E-02	-9.31858574571E-03	2.11977641479E-01
1.71600000000E+09	-7.71683389444E-02	-7.53738116954E-02	-6.52125181868E-02	2.08096426656E-02	-6.52300734352E-02	1.97454783473E-02	1.43800701082E-03	2.16979930380E-01
1.71700000000E+09	-7.14668352344E-02	-7.55558738488E-02	-6.42718732536E-02	2.35465725324E-02	-6.43377778064E-02	2.24833991462E-02	1.24549361792E-02	2.21293926312E-01
