# Hz S RI R 50
! CMT, CMT808U, 21440046, 21.4.3/4
! Date: 11/12/2025 10:18:31 AM
! Data: Format (Calibration Info)
! Freq	S11:Re/Im(F2)	S41:Re/Im(F2)	S14:Re/Im(F2)	S44:Re/Im(F2)
1.60000000000E+09	-2.84521169796E-01	-2.35663048403E-01	-7.43106204350E-03	5.67481973179E-02	-8.08695319796E-03	5.61806588167E-02	-1.20783787521E-01	-2.35661926795E-02
1.60100000000E+09	-2.79807781615E-01	-2.34281962657E-01	-4.80413954313E-03	5.71059388595E-02	-5.48768663237E-03	5.65649793322E-02	-1.25684553500E-01	-1.09092279262E-02
1.60200000000E+09	-2.75279733317E-01	-2.33423215616E-01	-2.16088665664E-03	5.73159335952E-02	-2.86797294367E-03	5.68063612616E-02	-1.29720962520E-01	2.03420225405E-03
1.60300000000E+09	-2.70989960788E-01	-2.33071772559E-01	4.90700689195E-04	5.73791533304E-02	-2.38157272231E-04	5.69052927047E-02	-1.32885632815E-01	1.52013835290E-02
1.60400000000E+09	-2.67022642038E-01	-2.33195981568E-01	3.13469854365E-03	5.73002725356E-02	2.38532107386E-03	5.68584710983E-02	-1.35161718169E-01	2.85361968267E-02
1.60500000000E+09	-2.63458318926E-01	-2.33738287288E-01	5.76410059577E-03	5.70755763060E-02	4.99477018041E-03	5.66646190234E-02	-1.36540867654E-01	4.19685524233E-02
1.60600000000E+09	-2.60340284881E-01	-2.34644155013E-01	8.36363327818E-03	5.67081388666E-02	7.57616116894E-03	5.63332900495E-02	-1.37031043844E-01	5.54461921685E-02
1.60700000000E+09	-2.57735409698E-01	-2.35849637313E-01	1.09227417635E-02	5.62024635106E-02	1.01225749853E-02	5.58629560297E-02	-1.36633484640E-01	6.89026617569E-02
1.60800000000E+09	-2.55682437110E-01	-2.37271276682E-01	1.34353326416E-02	5.55638416493E-02	1.26227508859E-02	5.52639062435E-02	-1.35348324124E-01	8.22749928844E-02
1.60900000000E+09	-2.54204665465E-01	-2.38820964719E-01	1.58845684604E-02	5.48066380355E-02	1.50645444425E-02	5.45384537096E-02	-1.33186661059E-01	9.55158198475E-02
1.61000000000E+09	-2.53319140611E-01	-2.40414812940E-01	1.82693258228E-02	5.39310682826E-02	1.74381441785E-02	5.37008419751E-02	-1.30167971089E-01	1.08550089774E-01
1.61100000000E+09	-2.53017386094E-01	-2.41956314441E-01	2.05835410041E-02	5.29541343684E-02	1.97440995423E-02	5.27555483750E-02	-1.26306940963E-01	1.21337253305E-01
1.61200000000E+09	-2.53288496688E-01	-2.43364425581E-01	2.28123572702E-02	5.18748065266E-02	2.19742965188E-02	5.17145981699E-02	-1.21631155068E-01	1.33821122673E-01
1.61300000000E+09	-2.54089400883E-01	-2.44547117102E-01	2.49661818493E-02	5.07106552805E-02	2.41241683751E-02	5.05854191368E-02	-1.16157177545E-01	1.45944566577E-01
1.61400000000E+09	-2.55379355695E-01	-2.45431677754E-01	2.70390035981E-02	4.94694066636E-02	2.61935670831E-02	4.93780746822E-02	-1.09916877932E-01	1.57659143988E-01
1.61500000000E+09	-2.57103331174E-01	-2.45959880500E-01	2.90285364727E-02	4.81609177358E-02	2.81813530519E-02	4.80996978307E-02	-1.02943443930E-01	1.68920342312E-01
1.61600000000E+09	-2.59192071282E-01	-2.46077757125E-01	3.09405738899E-02	4.67919140507E-02	3.01000502325E-02	4.67613368192E-02	-9.52722302022E-02	1.79672159465E-01
1.61700000000E+09	-2.61576826860E-01	-2.45732993675E-01	3.27721724875E-02	4.53654514325E-02	3.19319508272E-02	4.53745385143E-02	-8.69258019780E-02	1.89891603578E-01
1.61800000000E+09	-2.64179241608E-01	-2.44916152065E-01	3.45298559752E-02	4.38958655766E-02	3.36922182012E-02	4.39308399396E-02	-7.79655246806E-02	1.99526552281E-01
1.61900000000E+09	-2.66927450490E-01	-2.43605331675E-01	3.62177019318E-02	4.23771702216E-02	3.53806457567E-02	4.24435394262E-02	-6.84190427033E-02	2.08535885869E-01
1.62000000000E+09	-2.69758844885E-01	-2.41790462105E-01	3.78366410080E-02	4.08171952471E-02	3.70044119457E-02	4.09182548505E-02	-5.83327306779E-02	2.16896697062E-01
1.62100000000E+09	-2.72597553981E-01	-2.39497487663E-01	3.93935436784E-02	3.92190471839E-02	3.85633323291E-02	3.93447538662E-02	-4.77485238689E-02	2.24576805323E-01
1.62200000000E+09	-2.75382740455E-01	-2.36732434433E-01	4.08880208590E-02	3.75816058424E-02	4.00611063687E-02	3.77367249707E-02	-3.67173266213E-02	2.31532416727E-01
1.62300000000E+09	-2.78054824829E-01	-2.33515321889E-01	4.23197562786E-02	3.59071172959E-02	4.14999004644E-02	3.60955676681E-02	-2.52848323546E-02	2.37761005608E-01
1.62400000000E+09	-2.80578690072E-01	-2.29876141911E-01	4.36987042177E-02	3.41946386180E-02	4.28814195833E-02	3.44107562705E-02	-1.35058489022E-02	2.43235349572E-01
1.62500000000E+09	-2.82898992936E-01	-2.25846617184E-01	4.50187273858E-02	3.24399145404E-02	4.42093203005E-02	3.26886013072E-02	-1.41471460137E-03	2.47931462581E-01
1.62600000000E+09	-2.84976171029E-01	-2.21474413062E-01	4.62801705062E-02	3.06472696284E-02	4.54782304562E-02	3.09291123151E-02	1.09152365291E-02	2.51831959374E-01
1.62700000000E+09	-2.86796067641E-01	-2.16780446891E-01	4.74868970823E-02	2.88147520434E-02	4.66927809517E-02	2.91270057984E-02	2.34486427270E-02	2.54941869244E-01
1.62800000000E+09	-2.88328003167E-01	-2.11814733952E-01	4.86351415985E-02	2.69437242672E-02	4.78505304911E-02	2.72829456565E-02	3.61256515126E-02	2.57232059893E-01
1.62900000000E+09	-2.89551891033E-01	-2.06598329651E-01	4.97306032626E-02	2.50267497210E-02	4.89539807375E-02	2.54012045307E-02	4.89013138181E-02	2.58719123730E-01
1.63000000000E+09	-2.90461937575E-01	-2.01170869207E-01	5.07606327390E-02	2.30689617575E-02	4.99928033981E-02	2.34739359091E-02	6.17275498645E-02	2.59390166756E-01
1.63100000000E+09	-2.91034748340E-01	-1.95580675374E-01	5.17304185727E-02	2.10715289363E-02	5.09752502968E-02	2.15089116922E-02	7.45457179473E-02	2.59241457492E-01
1.63200000000E+09	-2.91278781008E-01	-1.89844449708E-01	5.26376345785E-02	1.90239932893E-02	5.18919574048E-02	1.94965337427E-02	8.73097357163E-02	2.58300685398E-01
1.63300000000E+09	-2.91173661874E-01	-1.84006021143E-01	5.34760303084E-02	1.69396863246E-02	5.27451784656E-02	1.74424945051E-02	9.99607657214E-02	2.56558125334E-01
1.63400000000E+09	-2.90720302191E-01	-1.78078185931E-01	5.42418985345E-02	1.48114162626E-02	5.35258085727E-02	1.53469861047E-02	1.12468782880E-01	2.54017593318E-01
1.63500000000E+09	-2.89933690954E-01	-1.72105365148E-01	5.49339560449E-02	1.26440335576E-02	5.42345741989E-02	1.32092869203E-02	1.24763756000E-01	2.50704875952E-01
1.63600000000E+09	-2.88809087707E-01	-1.66106908966E-01	5.55505012259E-02	1.04361066764E-02	5.48728580489E-02	1.10360177407E-02	1.36821527386E-01	2.46640428897E-01
1.63700000000E+09	-2.87344753988E-01	-1.60117190555E-01	5.60883516865E-02	8.19020762602E-03	5.54292030336E-02	8.82096833150E-03	1.48575807065E-01	2.41834185789E-01
1.63800000000E+09	-2.85547474125E-01	-1.54154932519E-01	5.65385815195E-02	5.90978049480E-03	5.59039090653E-02	6.57402209468E-03	1.60011974582E-01	2.36312813348E-01
1.63900000000E+09	-2.83436152062E-01	-1.48238209721E-01	5.69060512738E-02	3.59545616385E-03	5.62957552008E-02	4.29045157137E-03	1.71065960564E-01	2.30097711763E-01
1.64000000000E+09	-2.80998766542E-01	-1.42384331855E-01	5.71845821582E-02	1.24762019164E-03	5.66020372452E-02	1.97983995880E-03	1.81696006130E-01	2.23214377774E-01
1.64100000000E+09	-2.78260825421E-01	-1.36631168778E-01	5.73683628275E-02	-1.12060100031E-03	5.68144950697E-02	-3.60529849228E-04	1.91875925557E-01	2.15690321235E-01
1.64200000000E+09	-2.75219163417E-01	-1.30977377660E-01	5.74585908349E-02	-3.51873434223E-03	5.69341550302E-02	-2.72495515510E-03	2.01563189375E-01	2.07548989288E-01
1.64300000000E+09	-2.71881912000E-01	-1.25451853314E-01	5.74499376739E-02	-5.93141442587E-03	5.69574677714E-02	-5.11140719284E-03	2.10727996311E-01	1.98846976109E-01
1.64400000000E+09	-2.68263860476E-01	-1.20067514161E-01	5.73419278141E-02	-8.36359425335E-03	5.68857624174E-02	-7.51466498542E-03	2.19329029144E-01	1.89588021895E-01
1.64500000000E+09	-2.64371721691E-01	-1.14845661733E-01	5.71286243800E-02	-1.08032591724E-02	5.67063141166E-02	-9.93092378276E-03	2.27335748305E-01	1.79830852660E-01
1.64600000000E+09	-2.60213074557E-01	-1.09794502374E-01	5.68110102899E-02	-1.32491305144E-02	5.64271282065E-02	-1.23527700704E-02	2.34730057837E-01	1.69597634867E-01
1.64700000000E+09	-2.55787548431E-01	-1.04937055177E-01	5.63867361299E-02	-1.57031895265E-02	5.60452662846E-02	-1.47815325230E-02	2.41486097598E-01	1.58926852390E-01
1.64800000000E+09	-2.51117027779E-01	-1.00277953717E-01	5.58523095838E-02	-1.81509770051E-02	5.55540728747E-02	-1.72079205504E-02	2.47564922219E-01	1.47865121238E-01
1.64900000000E+09	-2.46215104545E-01	-9.58593819995E-02	5.52107941690E-02	-2.05905737330E-02	5.49539038038E-02	-1.96293427086E-02	2.52952311404E-01	1.36450404127E-01
1.65000000000E+09	-2.41085776464E-01	-9.16700932243E-02	5.44561367083E-02	-2.30197368647E-02	5.42457672619E-02	-2.20407578557E-02	2.57630052714E-01	1.24726170853E-01
1.65100000000E+09	-2.35743768655E-01	-8.77314678443E-02	5.35885010529E-02	-2.54325443092E-02	5.34242518781E-02	-2.44343341258E-02	2.61578551060E-01	1.12742295755E-01
1.65200000000E+09	-2.30192798939E-01	-8.40687433797E-02	5.26096001766E-02	-2.78164035014E-02	5.24927640447E-02	-2.68088380987E-02	2.64782924347E-01	1.00528909359E-01
1.65300000000E+09	-2.24453331004E-01	-8.06992041422E-02	5.15181314161E-02	-3.01686173458E-02	5.14459832084E-02	-2.91547631287E-02	2.67243753047E-01	8.81304242424E-02
1.65400000000E+09	-2.18548599058E-01	-7.76258250798E-02	5.03089317523E-02	-3.24914324274E-02	5.02882648883E-02	-3.14650158273E-02	2.68932105538E-01	7.56050085113E-02
1.65500000000E+09	-2.12483061569E-01	-7.48733795541E-02	4.89891955418E-02	-3.47686149796E-02	4.90194919333E-02	-3.37381467060E-02	2.69838676720E-01	6.29928880460E-02
1.65600000000E+09	-2.06281269770E-01	-7.24566578277E-02	4.75562033775E-02	-3.69929497745E-02	4.76353141337E-02	-3.59663994400E-02	2.69977879027E-01	5.03355140907E-02
1.65700000000E+09	-1.99963706468E-01	-7.03808764185E-02	4.60134944544E-02	-3.91659425393E-02	4.61421880284E-02	-3.81385415445E-02	2.69326607136E-01	3.77037481283E-02
1.65800000000E+09	-1.93547044283E-01	-6.86746894377E-02	4.43622616636E-02	-4.12808582343E-02	4.45412109492E-02	-4.02570974717E-02	2.67902198036E-01	2.51157602438E-02
1.65900000000E+09	-1.87050120421E-01	-6.73383198578E-02	4.26020678285E-02	-4.33219142962E-02	4.28294918589E-02	-4.23077295748E-02	2.65701237069E-01	1.26253055809E-02
1.66000000000E+09	-1.80506744273E-01	-6.63911701700E-02	4.07313501061E-02	-4.52920472620E-02	4.10152839744E-02	-4.42884855729E-02	2.62730372430E-01	2.93175298722E-04
1.66100000000E+09	-1.73942418341E-01	-6.58458037454E-02	3.87611315151E-02	-4.71826430859E-02	3.90939701277E-02	-4.61903272938E-02	2.58993603209E-01	-1.18484973326E-02
1.66200000000E+09	-1.67379582638E-01	-6.57141064402E-02	3.66919079140E-02	-4.89817897479E-02	3.70720499073E-02	-4.80047594230E-02	2.54509492355E-01	-2.37364927415E-02
1.66300000000E+09	-1.60861517832E-01	-6.60097967741E-02	3.45271362017E-02	-5.06884854109E-02	3.49568433383E-02	-4.97297224790E-02	2.49286235350E-01	-3.53357341380E-02
1.66400000000E+09	-1.54416959801E-01	-6.67226497851E-02	3.22731184350E-02	-5.22956659890E-02	3.27472871318E-02	-5.13562440154E-02	2.43351138354E-01	-4.66015947569E-02
1.66500000000E+09	-1.48076904143E-01	-6.78647839758E-02	2.99351288682E-02	-5.37905565652E-02	3.04503868149E-02	-5.28802682505E-02	2.36704179602E-01	-5.74796373001E-02
1.66600000000E+09	-1.41889239832E-01	-6.94275725647E-02	2.75106066418E-02	-5.51741043284E-02	2.80731360456E-02	-5.42884287750E-02	2.29383798259E-01	-6.79348626527E-02
1.66700000000E+09	-1.35888542405E-01	-7.14214479527E-02	2.50207402597E-02	-5.64440870802E-02	2.56216427865E-02	-5.55868922556E-02	2.21413277652E-01	-7.79217874631E-02
1.66800000000E+09	-1.30117338443E-01	-7.38268596914E-02	2.24603051155E-02	-5.75880070744E-02	2.30988639984E-02	-5.67583130071E-02	2.12819177773E-01	-8.73903187033E-02
1.66900000000E+09	-1.24609858752E-01	-7.66409374064E-02	1.98360987574E-02	-5.86069192263E-02	2.05176793681E-02	-5.78018807024E-02	2.03628865319E-01	-9.63115233429E-02
1.67000000000E+09	-1.19423076849E-01	-7.98432192588E-02	1.71650632462E-02	-5.94878178696E-02	1.78799452969E-02	-5.87239962166E-02	1.93886707608E-01	-1.04642255001E-01
1.67100000000E+09	-1.14594982080E-01	-8.34061362004E-02	1.44463088928E-02	-6.02336669929E-02	1.51973118364E-02	-5.95036081095E-02	1.83612120333E-01	-1.12348723028E-01
1.67200000000E+09	-1.10169696696E-01	-8.73054651609E-02	1.16966881675E-02	-6.08397910538E-02	1.24763988058E-02	-6.01465168158E-02	1.72856911376E-01	-1.19379890730E-01
1.67300000000E+09	-1.06184600096E-01	-9.15074405830E-02	8.91961175864E-03	-6.13081956831E-02	9.72970412758E-03	-6.06518507543E-02	1.61663392165E-01	-1.25724038659E-01
1.67400000000E+09	-1.02687004554E-01	-9.59712194480E-02	6.12246278878E-03	-6.16287948961E-02	6.96360180411E-03	-6.10110013553E-02	1.50061283960E-01	-1.31338154801E-01
1.67500000000E+09	-9.97100551283E-02	-1.00642461389E-01	3.32057642533E-03	-6.18059685608E-02	4.18782904859E-03	-6.12314290402E-02	1.38111222478E-01	-1.36207394107E-01
1.67600000000E+09	-9.72843042402E-02	-1.05470089635E-01	5.19669347282E-04	-6.18445823946E-02	1.41569455801E-03	-6.13075994996E-02	1.25852890259E-01	-1.40293472878E-01
1.67700000000E+09	-9.54344493129E-02	-1.10401350661E-01	-2.26600646283E-03	-6.17379900697E-02	-1.35034045328E-03	-6.12442511289E-02	1.13340797647E-01	-1.43578546732E-01
1.67800000000E+09	-9.41849720347E-02	-1.15347039337E-01	-5.03195350265E-03	-6.14910862288E-02	-4.09525315093E-03	-6.10393726810E-02	1.00626270488E-01	-1.46046732618E-01
1.67900000000E+09	-9.35393714143E-02	-1.20263336890E-01	-7.76670141852E-03	-6.11069491066E-02	-6.80870083563E-03	-6.07019341558E-02	8.77598591025E-02	-1.47677201701E-01
1.68000000000E+09	-9.35101190628E-02	-1.25053394386E-01	-1.04592281789E-02	-6.05926982830E-02	-9.48742797916E-03	-6.02310828505E-02	7.47910892525E-02	-1.48469111694E-01
1.68100000000E+09	-9.40746605633E-02	-1.29646954447E-01	-1.31052239371E-02	-5.99521913635E-02	-1.21189955704E-02	-5.96334221048E-02	6.17825371726E-02	-1.48402663210E-01
1.68200000000E+09	-9.52172607970E-02	-1.33966370229E-01	-1.56925108472E-02	-5.91929397506E-02	-1.46991550619E-02	-5.89191306524E-02	4.87910908385E-02	-1.47479994136E-01
1.68300000000E+09	-9.68994989579E-02	-1.37930292393E-01	-1.82209109401E-02	-5.83182619394E-02	-1.72170894736E-02	-5.80905242743E-02	3.58792886425E-02	-1.45695630389E-01
1.68400000000E+09	-9.90767060525E-02	-1.41469086565E-01	-2.06861211947E-02	-5.73356521095E-02	-1.96723577016E-02	-5.71569759625E-02	2.30854285973E-02	-1.43053089173E-01
1.68500000000E+09	-1.01692162475E-01	-1.44519693333E-01	-2.30757816228E-02	-5.62586252137E-02	-2.20569938426E-02	-5.61223125222E-02	1.04899682745E-02	-1.39562975738E-01
1.68600000000E+09	-1.04669803169E-01	-1.47017150614E-01	-2.53926306286E-02	-5.50867515108E-02	-2.43733345266E-02	-5.49980242875E-02	-1.85968752050E-03	-1.35232451553E-01
1.68700000000E+09	-1.07939562267E-01	-1.48925818300E-01	-2.76323158505E-02	-5.38366029335E-02	-2.66138603859E-02	-5.37915474962E-02	-1.39063451342E-02	-1.30088684829E-01
1.68800000000E+09	-1.11414715362E-01	-1.50211095169E-01	-2.97973040641E-02	-5.25077779967E-02	-2.87840559674E-02	-5.25091764211E-02	-2.55928454736E-02	-1.24138643091E-01
1.68900000000E+09	-1.15015146922E-01	-1.50837171018E-01	-3.18896953540E-02	-5.11115414133E-02	-3.08785996369E-02	-5.11562862757E-02	-3.68596495518E-02	-1.17413180846E-01
1.69000000000E+09	-1.18640676146E-01	-1.50800790265E-01	-3.39060092170E-02	-4.96515324421E-02	-3.28980954407E-02	-4.97421623396E-02	-4.76612688782E-02	-1.09938767169E-01
1.69100000000E+09	-1.22208245380E-01	-1.50108422903E-01	-3.58501722665E-02	-4.81359134161E-02	-3.48524053305E-02	-4.82681604713E-02	-5.79357993042E-02	-1.01747609835E-01
1.69200000000E+09	-1.25613012135E-01	-1.48775451139E-01	-3.77295566790E-02	-4.65631989825E-02	-3.67375485980E-02	-4.67382917564E-02	-6.76497306208E-02	-9.28814333090E-02
1.69300000000E+09	-1.28779887154E-01	-1.46836459074E-01	-3.95386612491E-02	-4.49389616293E-02	-3.85593605158E-02	-4.51558230706E-02	-7.67361488079E-02	-8.33784384003E-02
1.69400000000E+09	-1.31619568082E-01	-1.44329401089E-01	-4.12859085897E-02	-4.32661617093E-02	-4.03211285619E-02	-4.35254546935E-02	-8.51711298463E-02	-7.32819044381E-02
1.69500000000E+09	-1.34067740766E-01	-1.41320138050E-01	-4.29745016164E-02	-4.15480013904E-02	-4.20226471680E-02	-4.18420861168E-02	-9.29041473802E-02	-6.26344041868E-02
1.69600000000E+09	-1.36061668425E-01	-1.37876256409E-01	-4.46031196515E-02	-3.97773720176E-02	-4.36689303749E-02	-4.01122500759E-02	-9.98969740747E-02	-5.15089153915E-02
1.69700000000E+09	-1.37559692819E-01	-1.34059091784E-01	-4.61775394561E-02	-3.79570955758E-02	-4.52572462735E-02	-3.83303684736E-02	-1.06124557918E-01	-3.99312602202E-02
1.69800000000E+09	-1.38525293744E-01	-1.29947152460E-01	-4.76962855209E-02	-3.60886252772E-02	-4.67929245722E-02	-3.64989765547E-02	-1.11554727106E-01	-2.79643511830E-02
1.69900000000E+09	-1.38930914068E-01	-1.25624646501E-01	-4.91588017728E-02	-3.41614136303E-02	-4.82746674354E-02	-3.46062845638E-02	-1.16168733758E-01	-1.56714242595E-02
1.70000000000E+09	-1.38768535036E-01	-1.21150383090E-01	-5.05617354401E-02	-3.21778617213E-02	-4.97002516513E-02	-3.26588707743E-02	-1.19950119435E-01	-3.10903103229E-03
1.70100000000E+09	-1.38034197924E-01	-1.16611753253E-01	-5.19097019783E-02	-3.01323198008E-02	-5.10663409260E-02	-3.06529431318E-02	-1.22879213673E-01	9.66582533498E-03
1.70200000000E+09	-1.36726436519E-01	-1.12076167187E-01	-5.31913106162E-02	-2.80286751430E-02	-5.23714968320E-02	-2.85785326856E-02	-1.24946478489E-01	2.25868122430E-02
1.70300000000E+09	-1.34876659268E-01	-1.07612754670E-01	-5.44061769530E-02	-2.58631821461E-02	-5.36081438958E-02	-2.64465871643E-02	-1.26149577924E-01	3.56026491765E-02
1.70400000000E+09	-1.32499435102E-01	-1.03274880166E-01	-5.55488562781E-02	-2.36294135729E-02	-5.47735893613E-02	-2.42483713724E-02	-1.26491131923E-01	4.86457686095E-02
1.70500000000E+09	-1.29621711631E-01	-9.91285719313E-02	-5.66121436137E-02	-2.13363570951E-02	-5.58622592743E-02	-2.19837283079E-02	-1.25973486259E-01	6.16698501787E-02
1.70600000000E+09	-1.26283401232E-01	-9.52226823784E-02	-5.75885143882E-02	-1.89777150699E-02	-5.68665067027E-02	-1.96563578230E-02	-1.24599582912E-01	7.45996001107E-02
1.70700000000E+09	-1.22522112297E-01	-9.15969415045E-02	-5.84742805674E-02	-1.65588756623E-02	-5.77784188035E-02	-1.72664831377E-02	-1.22387122290E-01	8.73897061187E-02
1.70800000000E+09	-1.18381900500E-01	-8.82935135208E-02	-5.92631753248E-02	-1.40802059231E-02	-5.85978407224E-02	-1.48199300437E-02	-1.19357804058E-01	9.99863253352E-02
1.70900000000E+09	-1.13908862589E-01	-8.53320165449E-02	-5.99438921612E-02	-1.15506223494E-02	-5.93137837537E-02	-1.23159735052E-02	-1.15515688869E-01	1.12328051416E-01
1.71000000000E+09	-1.09138752743E-01	-8.27403292689E-02	-6.05198715241E-02	-8.96673917649E-03	-5.99170560810E-02	-9.76233952663E-03	-1.10910223704E-01	1.24374110454E-01
1.71100000000E+09	-1.04121775316E-01	-8.05428331429E-02	-6.09778986440E-02	-6.34186280736E-03	-6.04085868326E-02	-7.16444945069E-03	-1.05539695311E-01	1.36068597868E-01
1.71200000000E+09	-9.88963451356E-02	-7.87420655225E-02	-6.13154414822E-02	-3.68224584173E-03	-6.07798215268E-02	-4.52646788381E-03	-9.94429638554E-02	1.47365888247E-01
1.71300000000E+09	-9.35096822978E-02	-7.73587803033E-02	-6.15286621688E-02	-9.90733511600E-04	-6.10315127343E-02	-1.86228543470E-03	-9.26530062867E-02	1.58230806418E-01
1.71400000000E+09	-8.79959634675E-02	-7.63870865808E-02	-6.16123649699E-02	1.72332493607E-03	-6.11519130228E-02	8.31100461634E-04	-8.52091504194E-02	1.68619483730E-01
1.71500000000E+09	-8.23908423722E-02	-7.58298830670E-02	-6.15640566242E-02	4.44723736327E-03	-6.11452563856E-02	3.53700249000E-03	-7.71429526539E-02	1.78475262499E-01
1.71600000000E+09	-7.67463668598E-02	-7.56928891808E-02	-6.13834651027E-02	7.18260567107E-03	-6.10045934832E-02	6.25175572037E-03	-6.84824233578E-02	1.87779354891E-01
1.71700000000E+09	-7.10850555971E-02	-7.59599875752E-02	-6.10724423652E-02	9.91197443410E-03	-6.07294571221E-02	8.96682195352E-03	-5.92768380468E-02	1.96508781169E-01
