# Hz S RI R 50
! CMT, CMT808U, 21440046, 21.4.3/4
! Date: 11/17/2025 2:54:59 PM
! Data: Format (Calibration Info)
! Freq	S11:Re/Im(F2)	S41:Re/Im(F2)	S14:Re/Im(F2)	S44:Re/Im(F2)
1.70000000000E+09	-8.87374035972E-02	-1.37824943558E-01	-5.42465171948E-02	-3.74661635008E-02	-5.43212257235E-02	-3.74319494035E-02	-1.32833641400E-01	4.65123989277E-02
1.70050000000E+09	-8.84459432415E-02	-1.35156174340E-01	-5.50375937475E-02	-3.63651847742E-02	-5.51145890232E-02	-3.63416412028E-02	-1.32800229763E-01	5.25118237038E-02
1.70100000000E+09	-8.79946660015E-02	-1.32487685559E-01	-5.58057077643E-02	-3.52643284631E-02	-5.59078221508E-02	-3.52099253065E-02	-1.32579405590E-01	5.84900573509E-02
1.70150000000E+09	-8.73733672329E-02	-1.29833122663E-01	-5.65638330523E-02	-3.41133103673E-02	-5.66737177123E-02	-3.40735672287E-02	-1.32191114426E-01	6.44589587931E-02
1.70200000000E+09	-8.65874287924E-02	-1.27194853573E-01	-5.73253794589E-02	-3.29561522499E-02	-5.74044047211E-02	-3.29049688727E-02	-1.31578135556E-01	7.04094490040E-02
1.70250000000E+09	-8.56320162094E-02	-1.24559248351E-01	-5.80308028281E-02	-3.18099060954E-02	-5.81272510123E-02	-3.17614199898E-02	-1.30750250270E-01	7.63275911415E-02
1.70300000000E+09	-8.45281420750E-02	-1.21950526192E-01	-5.87446329488E-02	-3.06155492639E-02	-5.88366824139E-02	-3.05499948122E-02	-1.29801161364E-01	8.21928472717E-02
1.70350000000E+09	-8.32814167852E-02	-1.19395362178E-01	-5.94266784170E-02	-2.94084515769E-02	-5.95070907189E-02	-2.93390313423E-02	-1.28601760302E-01	8.80265994130E-02
1.70400000000E+09	-8.18438409420E-02	-1.16924185052E-01	-6.00853311378E-02	-2.81939333150E-02	-6.01608407123E-02	-2.81240720509E-02	-1.27230376627E-01	9.38143331452E-02
1.70450000000E+09	-8.03072618900E-02	-1.14476540062E-01	-6.07127871926E-02	-2.69388488517E-02	-6.08061404618E-02	-2.68808153024E-02	-1.25688507016E-01	9.95578330890E-02
1.70500000000E+09	-7.85994621330E-02	-1.12101692820E-01	-6.13249817667E-02	-2.56973098339E-02	-6.14021340297E-02	-2.56258492772E-02	-1.23938026631E-01	1.05259870328E-01
1.70550000000E+09	-7.67711201833E-02	-1.09829473271E-01	-6.19155443384E-02	-2.44160938367E-02	-6.19868940487E-02	-2.43301068941E-02	-1.22024640889E-01	1.10858449292E-01
1.70600000000E+09	-7.47993477221E-02	-1.07622770512E-01	-6.24690176737E-02	-2.31335361242E-02	-6.25643750948E-02	-2.30625729133E-02	-1.19952216834E-01	1.16374873424E-01
1.70650000000E+09	-7.27157012382E-02	-1.05495611174E-01	-6.30064059897E-02	-2.18328899933E-02	-6.30945828494E-02	-2.17569947180E-02	-1.17666665142E-01	1.21836944801E-01
1.70700000000E+09	-7.05430805247E-02	-1.03513689458E-01	-6.35111177250E-02	-2.04979912142E-02	-6.35852576156E-02	-2.04241987974E-02	-1.15209583643E-01	1.27225399356E-01
1.70750000000E+09	-6.82103963565E-02	-1.01607356152E-01	-6.39968067385E-02	-1.91643586239E-02	-6.40692275724E-02	-1.90910547204E-02	-1.12632564537E-01	1.32514772649E-01
1.70800000000E+09	-6.57981422361E-02	-9.98099819881E-02	-6.44514168517E-02	-1.77991738609E-02	-6.45109378966E-02	-1.77308803590E-02	-1.09825608947E-01	1.37670867738E-01
1.70850000000E+09	-6.32893467882E-02	-9.81321381514E-02	-6.48694718606E-02	-1.64517610474E-02	-6.49262483968E-02	-1.63722980407E-02	-1.06871617475E-01	1.42771384236E-01
1.70900000000E+09	-6.07020419232E-02	-9.65667890235E-02	-6.52690148197E-02	-1.50650020790E-02	-6.53372635906E-02	-1.49899639002E-02	-1.03808575513E-01	1.47786664210E-01
1.70950000000E+09	-5.80649298628E-02	-9.51367030830E-02	-6.56411533641E-02	-1.36667537306E-02	-6.57004972036E-02	-1.35913276567E-02	-1.00545315244E-01	1.52652312594E-01
1.71000000000E+09	-5.53395003988E-02	-9.38188249823E-02	-6.59655478257E-02	-1.22658800905E-02	-6.60103352219E-02	-1.22073986204E-02	-9.71335722081E-02	1.57417533703E-01
1.71050000000E+09	-5.25425330455E-02	-9.26067097526E-02	-6.62610988729E-02	-1.08711764496E-02	-6.63293106271E-02	-1.07937471079E-02	-9.36350759021E-02	1.62046498293E-01
1.71100000000E+09	-4.97082200266E-02	-9.15302680177E-02	-6.65409030636E-02	-9.44244591406E-03	-6.66092562939E-02	-9.36001675525E-03	-8.99038743748E-02	1.66585849164E-01
1.71150000000E+09	-4.68252311746E-02	-9.05995236019E-02	-6.67704967773E-02	-8.01158208178E-03	-6.68234347628E-02	-7.92704164602E-03	-8.60749509391E-02	1.70986484022E-01
1.71200000000E+09	-4.38895220600E-02	-8.97893651923E-02	-6.69760858772E-02	-6.58715369737E-03	-6.70352067578E-02	-6.47389817656E-03	-8.21110937243E-02	1.75232937057E-01
1.71250000000E+09	-4.09212722510E-02	-8.91092779588E-02	-6.71588448206E-02	-5.13268337303E-03	-6.72177457025E-02	-5.04242939766E-03	-7.80248311556E-02	1.79376866189E-01
1.71300000000E+09	-3.79546764750E-02	-8.85428518800E-02	-6.73018092121E-02	-3.68015582728E-03	-6.73588779424E-02	-3.58761243422E-03	-7.38287397402E-02	1.83376050829E-01
1.71350000000E+09	-3.49643042590E-02	-8.81126023926E-02	-6.74109175677E-02	-2.22026595914E-03	-6.74577619135E-02	-2.14005183052E-03	-6.95461377012E-02	1.87222173320E-01
1.71400000000E+09	-3.19406100724E-02	-8.78273207593E-02	-6.74883224472E-02	-7.59935067350E-04	-6.75341433305E-02	-6.72936960645E-04	-6.50943537885E-02	1.90925185474E-01
1.71450000000E+09	-2.89245623210E-02	-8.76339941626E-02	-6.75248894139E-02	7.05911675608E-04	-6.75915518261E-02	7.90057728900E-04	-6.05302493202E-02	1.94496705517E-01
1.71500000000E+09	-2.58956281813E-02	-8.75686492090E-02	-6.75322688393E-02	2.16135532606E-03	-6.75777042188E-02	2.26820884412E-03	-5.59117224213E-02	1.97913993753E-01
1.71550000000E+09	-2.28699539487E-02	-8.76328700906E-02	-6.75155456704E-02	3.63815615445E-03	-6.75492943993E-02	3.74195125175E-03	-5.11119265147E-02	2.01125980605E-01
1.71600000000E+09	-1.99014656338E-02	-8.78198929060E-02	-6.74480664512E-02	5.10413065574E-03	-6.74900037508E-02	5.21161926158E-03	-4.63048028326E-02	2.04232683231E-01
1.71650000000E+09	-1.69104858893E-02	-8.81224996764E-02	-6.73643110543E-02	6.57052628561E-03	-6.74057614193E-02	6.67805919152E-03	-4.13593127314E-02	2.07185503416E-01
1.71700000000E+09	-1.39367860125E-02	-8.85311856635E-02	-6.72287538565E-02	8.04577189379E-03	-6.72595116784E-02	8.15498092156E-03	-3.63593972869E-02	2.09934668266E-01
1.71750000000E+09	-1.10153997088E-02	-8.90394842621E-02	-6.70544157860E-02	9.51380248428E-03	-6.70984963162E-02	9.61452801413E-03	-3.12296635820E-02	2.12549500058E-01
1.71800000000E+09	-8.06900400812E-03	-8.97087089823E-02	-6.68808890232E-02	1.09656711879E-02	-6.68994059249E-02	1.10517794756E-02	-2.61070637704E-02	2.14987316374E-01
1.71850000000E+09	-5.22695191354E-03	-9.04468332694E-02	-6.66308503796E-02	1.24353234834E-02	-6.66585437514E-02	1.25311902517E-02	-2.09018428527E-02	2.17279095168E-01
1.71900000000E+09	-2.41378190975E-03	-9.12965289643E-02	-6.63757971901E-02	1.38953901358E-02	-6.63928807861E-02	1.39963414103E-02	-1.55637773912E-02	2.19374184054E-01
1.71950000000E+09	3.92619762712E-04	-9.22356731554E-02	-6.60682564285E-02	1.53440161959E-02	-6.60952471127E-02	1.54274961581E-02	-1.02605320660E-02	2.21296014153E-01
1.72000000000E+09	3.12355410549E-03	-9.33152028068E-02	-6.57272864615E-02	1.67817722273E-02	-6.57667399454E-02	1.68819052979E-02	-4.86176639687E-03	2.23083750884E-01
1.72050000000E+09	5.81502868171E-03	-9.44286090108E-02	-6.53752407962E-02	1.82238607374E-02	-6.54082142306E-02	1.83223934597E-02	5.54250481366E-04	2.24659031592E-01
1.72100000000E+09	8.44535907501E-03	-9.56839311530E-02	-6.49720394975E-02	1.96408374307E-02	-6.49893193406E-02	1.97353517796E-02	6.05371024977E-03	2.26092970314E-01
1.72150000000E+09	1.10440271494E-02	-9.69895799735E-02	-6.45559907841E-02	2.10725347182E-02	-6.45565009577E-02	2.11709731035E-02	1.15765180105E-02	2.27340627635E-01
1.72200000000E+09	1.35485500634E-02	-9.84192841946E-02	-6.40864059000E-02	2.24609183175E-02	-6.41046653728E-02	2.25806044448E-02	1.71197758834E-02	2.28420524154E-01
1.72250000000E+09	1.60243488866E-02	-9.99037109376E-02	-6.35822985018E-02	2.38523097724E-02	-6.35996207990E-02	2.39680262832E-02	2.26838058469E-02	2.29321522502E-01
1.72300000000E+09	1.84022354773E-02	-1.01476050112E-01	-6.30642064379E-02	2.52386809894E-02	-6.30720733996E-02	2.53543027070E-02	2.82300138853E-02	2.30019580875E-01
1.72350000000E+09	2.07173430934E-02	-1.03115850358E-01	-6.25064229207E-02	2.66051536357E-02	-6.25174755895E-02	2.67290951583E-02	3.38154522244E-02	2.30545209467E-01
1.72400000000E+09	2.29741157868E-02	-1.04852366081E-01	-6.19210270389E-02	2.79685361094E-02	-6.19068175927E-02	2.80736314332E-02	3.94371301217E-02	2.30957140904E-01
1.72450000000E+09	2.51977254190E-02	-1.06632848906E-01	-6.13037477640E-02	2.93139389099E-02	-6.12960874878E-02	2.94172969212E-02	4.50418475118E-02	2.31179346785E-01
1.72500000000E+09	2.72990202852E-02	-1.08489711770E-01	-6.06336185844E-02	3.06447376603E-02	-6.06422352446E-02	3.07451986267E-02	5.05947831641E-02	2.31164115403E-01
1.72550000000E+09	2.93432121512E-02	-1.10397581642E-01	-5.99628901473E-02	3.19567998149E-02	-5.99497501563E-02	3.20638025269E-02	5.61766845968E-02	2.31001755186E-01
1.72600000000E+09	3.13174669491E-02	-1.12372877605E-01	-5.92421862985E-02	3.32564283790E-02	-5.92314120222E-02	3.33759872742E-02	6.17357906637E-02	2.30676410683E-01
1.72650000000E+09	3.32010806682E-02	-1.14408810963E-01	-5.85046450834E-02	3.45469607340E-02	-5.84912893126E-02	3.46449113212E-02	6.72953348320E-02	2.30167776600E-01
1.72700000000E+09	3.50239230519E-02	-1.16498793160E-01	-5.77315691397E-02	3.57979703145E-02	-5.77206362687E-02	3.59004242866E-02	7.28238112182E-02	2.29484645895E-01
1.72750000000E+09	3.67420212889E-02	-1.18627173870E-01	-5.69399079022E-02	3.70474903352E-02	-5.69332682325E-02	3.71464320285E-02	7.83060976497E-02	2.28685800733E-01
1.72800000000E+09	3.84251860137E-02	-1.20800928607E-01	-5.61150903631E-02	3.82624903184E-02	-5.61007538961E-02	3.83732467648E-02	8.37525458777E-02	2.27644585176E-01
1.72850000000E+09	4.00021924252E-02	-1.23051843222E-01	-5.52697583505E-02	3.94664186803E-02	-5.52313910025E-02	3.95760830324E-02	8.91695550169E-02	2.26464361093E-01
1.72900000000E+09	4.14920668537E-02	-1.25321261519E-01	-5.43864949328E-02	4.06578411972E-02	-5.43516972725E-02	4.07740743921E-02	9.45356097935E-02	2.25143352344E-01
1.72950000000E+09	4.29052755183E-02	-1.27620865786E-01	-5.34795656500E-02	4.18158549105E-02	-5.34482991399E-02	4.19266422322E-02	9.98599563509E-02	2.23627088912E-01
1.73000000000E+09	4.42370160420E-02	-1.29988087892E-01	-5.25446783072E-02	4.29648719078E-02	-5.25136310765E-02	4.30681472734E-02	1.05088520729E-01	2.21934993812E-01
1.73050000000E+09	4.55004966831E-02	-1.32349657359E-01	-5.15956978824E-02	4.40829933746E-02	-5.15589086649E-02	4.41799399972E-02	1.10295320579E-01	2.20114777825E-01
1.73100000000E+09	4.66385554689E-02	-1.34771313301E-01	-5.06088359212E-02	4.51907473485E-02	-5.05787907425E-02	4.52870278724E-02	1.15455231676E-01	2.18127717108E-01
1.73150000000E+09	4.77088440244E-02	-1.37194745430E-01	-4.96094792823E-02	4.62423408497E-02	-4.95747222810E-02	4.63559383764E-02	1.20493499885E-01	2.15966120885E-01
1.73200000000E+09	4.87059020228E-02	-1.39639744296E-01	-4.85795764378E-02	4.73162025900E-02	-4.85437582924E-02	4.74071018800E-02	1.25478811126E-01	2.13675036635E-01
1.73250000000E+09	4.96018308709E-02	-1.42096746163E-01	-4.75273840706E-02	4.83345426783E-02	-4.74862405251E-02	4.84229539243E-02	1.30404343375E-01	2.11205265309E-01
1.73300000000E+09	5.04054181946E-02	-1.44604332148E-01	-4.64411899198E-02	4.93497142374E-02	-4.64173604644E-02	4.94310754721E-02	1.35210368479E-01	2.08613942324E-01
1.73350000000E+09	5.11566302742E-02	-1.47115324415E-01	-4.53645425628E-02	5.03140485730E-02	-4.53232263157E-02	5.03961403490E-02	1.39968941426E-01	2.05887818138E-01
1.73400000000E+09	5.17981708163E-02	-1.49643311531E-01	-4.42509430701E-02	5.12486871444E-02	-4.42096436267E-02	5.13545392046E-02	1.44629477826E-01	2.02947993635E-01
1.73450000000E+09	5.23577291732E-02	-1.52155323964E-01	-4.31240461718E-02	5.21794486293E-02	-4.30647778020E-02	5.22591612830E-02	1.49138952380E-01	1.99918770272E-01
1.73500000000E+09	5.28344767492E-02	-1.54696586587E-01	-4.19625433448E-02	5.30757020849E-02	-4.19198518507E-02	5.31733882921E-02	1.53572491039E-01	1.96751999635E-01
1.73550000000E+09	5.32200681422E-02	-1.57228294165E-01	-4.08045962296E-02	5.39502413859E-02	-4.07623399993E-02	5.40448990512E-02	1.57936887935E-01	1.93463166099E-01
1.73600000000E+09	5.35276403173E-02	-1.59747593838E-01	-3.96211941065E-02	5.47915567133E-02	-3.95607944850E-02	5.48730059313E-02	1.62166364220E-01	1.90039722424E-01
1.73650000000E+09	5.37524229966E-02	-1.62288179207E-01	-3.84083952097E-02	5.56030085339E-02	-3.83601462713E-02	5.56924123018E-02	1.66263427974E-01	1.86499373996E-01
1.73700000000E+09	5.39122478789E-02	-1.64829691787E-01	-3.71846193505E-02	5.64071312973E-02	-3.71287994539E-02	5.64865815095E-02	1.70301033557E-01	1.82797296693E-01
1.73750000000E+09	5.39361530023E-02	-1.67358745001E-01	-3.59550478184E-02	5.71590107965E-02	-3.58913845475E-02	5.72474282232E-02	1.74174782089E-01	1.79007445762E-01
1.73800000000E+09	5.39097667613E-02	-1.69881810159E-01	-3.46851090509E-02	5.78910125305E-02	-3.46462790282E-02	5.79721841167E-02	1.77912335448E-01	1.75066427507E-01
1.73850000000E+09	5.37934850965E-02	-1.72390979588E-01	-3.34175917744E-02	5.85979671715E-02	-3.33662085922E-02	5.86877598629E-02	1.81582623252E-01	1.71056124360E-01
1.73900000000E+09	5.36005692981E-02	-1.74869360266E-01	-3.21528612427E-02	5.92666598706E-02	-3.20895693168E-02	5.93552953163E-02	1.85078505542E-01	1.66909453552E-01
1.73950000000E+09	5.33341462289E-02	-1.77361329809E-01	-3.08589090264E-02	5.99066602664E-02	-3.07934762193E-02	5.99876117736E-02	1.88467503691E-01	1.62649288185E-01
1.74000000000E+09	5.29630616698E-02	-1.79857027634E-01	-2.95455444562E-02	6.05332096575E-02	-2.94967359042E-02	6.05915813236E-02	1.91683347028E-01	1.58312793748E-01
1.74050000000E+09	5.25295046720E-02	-1.82243557094E-01	-2.82338570889E-02	6.11230039856E-02	-2.81771009273E-02	6.11922682201E-02	1.94786012437E-01	1.53870512742E-01
1.74100000000E+09	5.19793837234E-02	-1.84670443727E-01	-2.69055508701E-02	6.16707067939E-02	-2.68387748879E-02	6.17501758186E-02	1.97760264984E-01	1.49337132994E-01
1.74150000000E+09	5.13631124456E-02	-1.87044716506E-01	-2.55594247092E-02	6.21864176684E-02	-2.54984493665E-02	6.22765304117E-02	2.00552568491E-01	1.44719029667E-01
1.74200000000E+09	5.06858319573E-02	-1.89419964240E-01	-2.42177821680E-02	6.26970155570E-02	-2.41555423731E-02	6.27690551129E-02	2.03221667406E-01	1.40005228634E-01
1.74250000000E+09	4.99046407864E-02	-1.91752109713E-01	-2.28538095071E-02	6.31522482836E-02	-2.27862028510E-02	6.32330713351E-02	2.05750966164E-01	1.35204861695E-01
1.74300000000E+09	4.90579577879E-02	-1.94013830884E-01	-2.14834448915E-02	6.35945874136E-02	-2.14358360091E-02	6.36620980692E-02	2.08111521266E-01	1.30348281606E-01
1.74350000000E+09	4.81207085628E-02	-1.96268954203E-01	-2.01232971730E-02	6.39939194793E-02	-2.00632754584E-02	6.40673925797E-02	2.10317351933E-01	1.25420496115E-01
1.74400000000E+09	4.71195818234E-02	-1.98463035043E-01	-1.87500505481E-02	6.43738510323E-02	-1.86776697582E-02	6.44312661127E-02	2.12365783662E-01	1.20417240104E-01
1.74450000000E+09	4.60617264248E-02	-2.00664145323E-01	-1.73794100581E-02	6.47126876151E-02	-1.73024492351E-02	6.47710816828E-02	2.14273835594E-01	1.15379210093E-01
1.74500000000E+09	4.49108828387E-02	-2.02765842757E-01	-1.59785102387E-02	6.50217980224E-02	-1.59191990274E-02	6.51000934518E-02	2.16020931205E-01	1.10279166379E-01
1.74550000000E+09	4.36689880942E-02	-2.04819097380E-01	-1.46003586391E-02	6.53146794413E-02	-1.45240978853E-02	6.53869462779E-02	2.17592941969E-01	1.05122942014E-01
1.74600000000E+09	4.24026308241E-02	-2.06856789584E-01	-1.31855588139E-02	6.55582231099E-02	-1.31277202528E-02	6.56142916809E-02	2.18990156259E-01	9.98957313403E-02
1.74650000000E+09	4.10175504346E-02	-2.08832044590E-01	-1.17914775045E-02	6.57799430223E-02	-1.17236722772E-02	6.58336043949E-02	2.20228574192E-01	9.46577531692E-02
1.74700000000E+09	3.95972089941E-02	-2.10745180596E-01	-1.04113705328E-02	6.59662780177E-02	-1.03348266299E-02	6.60260296612E-02	2.21276214747E-01	8.93678615186E-02
1.74750000000E+09	3.80894986853E-02	-2.12581349034E-01	-8.99490426101E-03	6.61396026890E-02	-8.93217486538E-03	6.61889341383E-02	2.22237182399E-01	8.40554646569E-02
1.74800000000E+09	3.65591694863E-02	-2.14388131112E-01	-7.59156708973E-03	6.62569208176E-02	-7.52231837240E-03	6.63179329871E-02	2.22948081605E-01	7.87115859760E-02
1.74850000000E+09	3.49168491380E-02	-2.16107592476E-01	-6.19414431255E-03	6.63506570937E-02	-6.11597559541E-03	6.64122819173E-02	2.23514266603E-01	7.33537228478E-02
1.74900000000E+09	3.32400344380E-02	-2.17772029271E-01	-4.80685291176E-03	6.64153999093E-02	-4.70795814651E-03	6.64812703170E-02	2.23921023773E-01	6.79741334383E-02
1.74950000000E+09	3.14779033808E-02	-2.19368411719E-01	-3.41469248533E-03	6.64638571551E-02	-3.31760119969E-03	6.65153621617E-02	2.24153037474E-01	6.25878363194E-02
1.75000000000E+09	2.96592261722E-02	-2.20898560614E-01	-1.99231652883E-03	6.64780896585E-02	-1.92658382038E-03	6.65180745004E-02	2.24192263120E-01	5.72215597534E-02
1.75050000000E+09	2.78018531971E-02	-2.22339635286E-01	-6.24110463656E-04	6.64549942715E-02	-5.22140566574E-04	6.65010134099E-02	2.24086501320E-01	5.18163280084E-02
1.75100000000E+09	2.58907947615E-02	-2.23742689769E-01	7.77190591035E-04	6.63859791955E-02	8.53219608826E-04	6.64508071700E-02	2.23806954082E-01	4.64293677761E-02
1.75150000000E+09	2.39278744991E-02	-2.25019843027E-01	2.15463848691E-03	6.63230270191E-02	2.26682734881E-03	6.63728386874E-02	2.23357282170E-01	4.10984535367E-02
1.75200000000E+09	2.18782707717E-02	-2.26235972539E-01	3.54458917003E-03	6.62246555133E-02	3.62844780563E-03	6.62701258245E-02	2.22745500262E-01	3.57196004091E-02
1.75250000000E+09	1.98274558530E-02	-2.27380956041E-01	4.91821152734E-03	6.60886078815E-02	5.00367945214E-03	6.61117202029E-02	2.21936148855E-01	3.03908490022E-02
1.75300000000E+09	1.77279358759E-02	-2.28402427855E-01	6.28598891721E-03	6.59162773806E-02	6.37456416411E-03	6.59564780566E-02	2.20958599524E-01	2.51033462693E-02
1.75350000000E+09	1.55933313756E-02	-2.29353001589E-01	7.62983950832E-03	6.57226904115E-02	7.73507001488E-03	6.57682385550E-02	2.19823151131E-01	1.98243554984E-02
1.75400000000E+09	1.33788023353E-02	-2.30226994293E-01	8.98534566522E-03	6.54792489236E-02	9.08557496591E-03	6.55592437419E-02	2.18489004973E-01	1.46033164923E-02
1.75450000000E+09	1.11698428866E-02	-2.30967957265E-01	1.03379238349E-02	6.52512377185E-02	1.04378859094E-02	6.52853573800E-02	2.17043523004E-01	9.41480138878E-03
1.75500000000E+09	8.91754192924E-03	-2.31632149608E-01	1.16679024059E-02	6.49902076592E-02	1.17612672700E-02	6.50087473816E-02	2.15403136228E-01	4.27856166077E-03
1.75550000000E+09	6.64749849722E-03	-2.32201175981E-01	1.29969984019E-02	6.46852370578E-02	1.30967380393E-02	6.47062804427E-02	2.13561528297E-01	-8.15130229083E-04
1.75600000000E+09	4.35364982518E-03	-2.32703082001E-01	1.43157415766E-02	6.43597348646E-02	1.44138516768E-02	6.43849611892E-02	2.11610159767E-01	-5.83969039418E-03
1.75650000000E+09	2.02864540386E-03	-2.33040109979E-01	1.56397560262E-02	6.40243792027E-02	1.57183794252E-02	6.40409105564E-02	2.09499616775E-01	-1.07830966082E-02
1.75700000000E+09	-2.78969854943E-04	-2.33316695746E-01	1.69323886520E-02	6.36240550490E-02	1.70284479282E-02	6.36546495160E-02	2.07207997060E-01	-1.56467976995E-02
1.75750000000E+09	-2.59936688188E-03	-2.33470609712E-01	1.81968883774E-02	6.32261305411E-02	1.83057189612E-02	6.32631627432E-02	2.04758283254E-01	-2.04583970059E-02
1.75800000000E+09	-4.96276851581E-03	-2.33488974308E-01	1.94937078538E-02	6.28037716390E-02	1.95755180640E-02	6.28327706733E-02	2.02140726355E-01	-2.51883962375E-02
1.75850000000E+09	-7.30747944687E-03	-2.33448845900E-01	2.07535684596E-02	6.23604040651E-02	2.08428244359E-02	6.23865797907E-02	1.99390895532E-01	-2.98337733114E-02
