# Hz S RI R 50
! CMT, CMT808U, 21440046, 21.4.3/4
! Date: 11/17/2025 2:42:06 PM
! Data: Format (Calibration Info)
! Freq	S11:Re/Im(F2)	S41:Re/Im(F2)	S14:Re/Im(F2)	S44:Re/Im(F2)
1.70000000000E+09	-8.22767525289E-02	-1.31250699423E-01	-5.55722413023E-02	-3.98920696464E-02	-5.56587752975E-02	-3.98405191492E-02	-1.03204824319E-01	4.85848743827E-02
1.70050000000E+09	-8.16869997843E-02	-1.28867596763E-01	-5.64196245421E-02	-3.87625401003E-02	-5.65059814333E-02	-3.87239835947E-02	-1.02988042965E-01	5.41701741376E-02
1.70100000000E+09	-8.09268405489E-02	-1.26478257881E-01	-5.72587597191E-02	-3.76328754489E-02	-5.73548376913E-02	-3.75788877069E-02	-1.02599088238E-01	5.97490961155E-02
1.70150000000E+09	-8.00333607501E-02	-1.24134916261E-01	-5.80911874313E-02	-3.64567910651E-02	-5.81697763475E-02	-3.64251914832E-02	-1.02007654371E-01	6.53252987331E-02
1.70200000000E+09	-7.89862919047E-02	-1.21839934006E-01	-5.88879375309E-02	-3.52811687187E-02	-5.89629634692E-02	-3.52381076860E-02	-1.01221259608E-01	7.08713660903E-02
1.70250000000E+09	-7.77783209288E-02	-1.19509184736E-01	-5.96591691068E-02	-3.40738125172E-02	-5.97442850240E-02	-3.40367209885E-02	-1.00248393176E-01	7.63854079041E-02
1.70300000000E+09	-7.64339900549E-02	-1.17258029686E-01	-6.04136732828E-02	-3.28792068836E-02	-6.04970782057E-02	-3.28098321917E-02	-9.91011740920E-02	8.18483230840E-02
1.70350000000E+09	-7.49754813898E-02	-1.15073649862E-01	-6.11506760817E-02	-3.16311256546E-02	-6.12384655137E-02	-3.15735592776E-02	-9.78003412929E-02	8.72493773029E-02
1.70400000000E+09	-7.33473800152E-02	-1.12958541151E-01	-6.18630230838E-02	-3.03716875422E-02	-6.19593294455E-02	-3.03174482069E-02	-9.63232077152E-02	9.26179281643E-02
1.70450000000E+09	-7.16166726560E-02	-1.10906114373E-01	-6.25653789875E-02	-2.90926286703E-02	-6.26265877819E-02	-2.90248536801E-02	-9.46143949536E-02	9.79366358398E-02
1.70500000000E+09	-6.97603727483E-02	-1.08913107717E-01	-6.32290185210E-02	-2.77939372180E-02	-6.33119287229E-02	-2.77434470910E-02	-9.27675688314E-02	1.03205847472E-01
1.70550000000E+09	-6.77778643828E-02	-1.07034485193E-01	-6.38634446890E-02	-2.64691372520E-02	-6.39391990800E-02	-2.64146993454E-02	-9.07548702348E-02	1.08358680060E-01
1.70600000000E+09	-6.56929350976E-02	-1.05237486294E-01	-6.44890390308E-02	-2.51446560932E-02	-6.45574185410E-02	-2.50869947186E-02	-8.85766260134E-02	1.13442355261E-01
1.70650000000E+09	-6.34976488545E-02	-1.03522762971E-01	-6.50645517592E-02	-2.37846108207E-02	-6.51724877617E-02	-2.37340644389E-02	-8.61978771114E-02	1.18475465216E-01
1.70700000000E+09	-6.12429404460E-02	-1.01930699449E-01	-6.56403988517E-02	-2.24252139543E-02	-6.57058089571E-02	-2.23284119151E-02	-8.36756928454E-02	1.23420889353E-01
1.70750000000E+09	-5.88312510167E-02	-1.00439291056E-01	-6.61528079634E-02	-2.10238780240E-02	-6.62605846051E-02	-2.09626780325E-02	-8.10565767831E-02	1.28259211566E-01
1.70800000000E+09	-5.63867735547E-02	-9.90628192278E-02	-6.66819864306E-02	-1.96173940039E-02	-6.67522537824E-02	-1.95494967364E-02	-7.81980327699E-02	1.33000653466E-01
1.70850000000E+09	-5.38699207659E-02	-9.78152188927E-02	-6.71283133591E-02	-1.82026861513E-02	-6.72167189919E-02	-1.81332607147E-02	-7.52400680992E-02	1.37638629670E-01
1.70900000000E+09	-5.12736429464E-02	-9.66516494005E-02	-6.75882336460E-02	-1.67574040647E-02	-6.76753934161E-02	-1.67004278539E-02	-7.21448593726E-02	1.42198868832E-01
1.70950000000E+09	-4.86469856201E-02	-9.56408113462E-02	-6.79892203686E-02	-1.53169978106E-02	-6.80738594529E-02	-1.52319497116E-02	-6.88793123970E-02	1.46614739517E-01
1.71000000000E+09	-4.59521137287E-02	-9.47385273519E-02	-6.83885509179E-02	-1.38434220575E-02	-6.84334749648E-02	-1.37689294900E-02	-6.54567610776E-02	1.50903558799E-01
1.71050000000E+09	-4.32103897816E-02	-9.39671641457E-02	-6.87237537147E-02	-1.23633238689E-02	-6.88020230779E-02	-1.22866986423E-02	-6.19627336562E-02	1.55117699688E-01
1.71100000000E+09	-4.04550218044E-02	-9.32806912697E-02	-6.90286894041E-02	-1.08721896295E-02	-6.90920142573E-02	-1.08071172568E-02	-5.82847572081E-02	1.59174921662E-01
1.71150000000E+09	-3.76529291390E-02	-9.27395927140E-02	-6.93056102618E-02	-9.36873071183E-03	-6.93764515929E-02	-9.29897019269E-03	-5.44888861430E-02	1.63159072626E-01
1.71200000000E+09	-3.48359946534E-02	-9.23244609627E-02	-6.95529093571E-02	-7.85572972373E-03	-6.96049332392E-02	-7.78980567249E-03	-5.05770136427E-02	1.66961708087E-01
1.71250000000E+09	-3.19941461877E-02	-9.20523846144E-02	-6.97456027414E-02	-6.35629166658E-03	-6.98345543709E-02	-6.27987680795E-03	-4.65543948955E-02	1.70655709703E-01
1.71300000000E+09	-2.91714652764E-02	-9.18830993132E-02	-6.99327922267E-02	-4.82457824642E-03	-6.99843050325E-02	-4.73622779057E-03	-4.24104276273E-02	1.74203736584E-01
1.71350000000E+09	-2.63434854733E-02	-9.18392108063E-02	-7.00784104809E-02	-3.29079364583E-03	-7.01079484581E-02	-3.20222382904E-03	-3.82047522245E-02	1.77599657473E-01
1.71400000000E+09	-2.34847775817E-02	-9.19002056494E-02	-7.01692253343E-02	-1.76487579177E-03	-7.02235209040E-02	-1.67581837914E-03	-3.38518610148E-02	1.80891764395E-01
1.71450000000E+09	-2.06709193975E-02	-9.20846632398E-02	-7.02378029482E-02	-2.21361384431E-04	-7.02854613412E-02	-1.28612502870E-04	-2.94083157028E-02	1.84001172758E-01
1.71500000000E+09	-1.78538086487E-02	-9.23697270994E-02	-7.02684939411E-02	1.33634735585E-03	-7.03057693061E-02	1.41633302502E-03	-2.48762407313E-02	1.86983007481E-01
1.71550000000E+09	-1.50613852760E-02	-9.27836676100E-02	-7.02586265533E-02	2.87599234126E-03	-7.02836594231E-02	2.96882952691E-03	-2.02290558405E-02	1.89775428518E-01
1.71600000000E+09	-1.23173434544E-02	-9.33203115592E-02	-7.02143855587E-02	4.41819488008E-03	-7.02560733110E-02	4.51568885380E-03	-1.55546879111E-02	1.92461622997E-01
1.71650000000E+09	-9.57869930277E-03	-9.39327052926E-02	-7.01100168215E-02	5.96534005656E-03	-7.01584532000E-02	6.08006346756E-03	-1.07270606779E-02	1.94987762364E-01
1.71700000000E+09	-6.88226366937E-03	-9.46741175846E-02	-7.00002812963E-02	7.52896876350E-03	-7.00280213390E-02	7.62125447404E-03	-5.90146035700E-03	1.97333616479E-01
1.71750000000E+09	-4.24025908534E-03	-9.54699566076E-02	-6.98377817084E-02	9.06671130617E-03	-6.98706289049E-02	9.17039272204E-03	-9.54995717846E-04	1.99548411290E-01
1.71800000000E+09	-1.62646291118E-03	-9.64171411948E-02	-6.96386624111E-02	1.06117510514E-02	-6.96756111127E-02	1.07061890313E-02	4.01214186843E-03	2.01596286034E-01
1.71850000000E+09	9.31376120363E-04	-9.74464858584E-02	-6.94030621733E-02	1.21451517093E-02	-6.94356784110E-02	1.22407025673E-02	9.03361061564E-03	2.03463047746E-01
1.71900000000E+09	3.42539735439E-03	-9.85598022415E-02	-6.91490476010E-02	1.36943087154E-02	-6.91509044760E-02	1.38000504423E-02	1.41699347893E-02	2.05191197366E-01
1.71950000000E+09	5.89187868246E-03	-9.97521258963E-02	-6.88373578845E-02	1.52109758594E-02	-6.88586723228E-02	1.53024685750E-02	1.92765025339E-02	2.06713820141E-01
1.72000000000E+09	8.28375002043E-03	-1.01041311387E-01	-6.84882871250E-02	1.67219170048E-02	-6.85068174998E-02	1.68175035007E-02	2.44546240594E-02	2.08147275829E-01
1.72050000000E+09	1.06099707619E-02	-1.02386133913E-01	-6.81028790716E-02	1.82336738109E-02	-6.81208861621E-02	1.83364045054E-02	2.96872270174E-02	2.09333481267E-01
1.72100000000E+09	1.28697344131E-02	-1.03839146926E-01	-6.76951741874E-02	1.97365360628E-02	-6.77070767333E-02	1.98392324526E-02	3.49116533729E-02	2.10382567246E-01
1.72150000000E+09	1.50785762761E-02	-1.05333772346E-01	-6.72510181493E-02	2.12359259690E-02	-6.72603043798E-02	2.13248394289E-02	4.02192499303E-02	2.11255362923E-01
1.72200000000E+09	1.72187066255E-02	-1.06909527535E-01	-6.67535907469E-02	2.26984000425E-02	-6.67579929794E-02	2.27930245054E-02	4.55410775170E-02	2.11987697916E-01
1.72250000000E+09	1.92776680464E-02	-1.08560758974E-01	-6.62384588916E-02	2.41630938906E-02	-6.62410037724E-02	2.42598971402E-02	5.08066876576E-02	2.12550503632E-01
1.72300000000E+09	2.12701018432E-02	-1.10266125115E-01	-6.56776585868E-02	2.56091382376E-02	-6.56898495457E-02	2.57174329939E-02	5.60999572884E-02	2.12904887993E-01
1.72350000000E+09	2.31773752135E-02	-1.12014395310E-01	-6.50790921396E-02	2.70633879326E-02	-6.50982811336E-02	2.71598910957E-02	6.14342905793E-02	2.13103436413E-01
1.72400000000E+09	2.50310700313E-02	-1.13852164601E-01	-6.44827875932E-02	2.84830378565E-02	-6.44822050047E-02	2.85874218368E-02	6.67853108859E-02	2.13205772811E-01
1.72450000000E+09	2.67955578082E-02	-1.15708593893E-01	-6.38254046528E-02	2.98876196127E-02	-6.38177703321E-02	2.99920455842E-02	7.20927939803E-02	2.13049505828E-01
1.72500000000E+09	2.84984211013E-02	-1.17615698945E-01	-6.31316656943E-02	3.12874759391E-02	-6.31246902652E-02	3.14017171501E-02	7.73919311291E-02	2.12767551074E-01
1.72550000000E+09	3.01237013698E-02	-1.19564426236E-01	-6.24257350589E-02	3.26496589217E-02	-6.24120767627E-02	3.27456600258E-02	8.26939723453E-02	2.12294544389E-01
1.72600000000E+09	3.16667818179E-02	-1.21556833102E-01	-6.16762354274E-02	3.40154547216E-02	-6.16552551000E-02	3.40980607553E-02	8.79358473435E-02	2.11655572899E-01
1.72650000000E+09	3.31084015383E-02	-1.23600655280E-01	-6.08818188392E-02	3.53478961773E-02	-6.08727438151E-02	3.54477049817E-02	9.32058168244E-02	2.10888070615E-01
1.72700000000E+09	3.45121000986E-02	-1.25667261566E-01	-6.00759016784E-02	3.66523197394E-02	-6.00691048517E-02	3.67591800542E-02	9.84084443586E-02	2.09927780807E-01
1.72750000000E+09	3.57857936722E-02	-1.27756762115E-01	-5.92414222610E-02	3.79503950131E-02	-5.92291236938E-02	3.80584917008E-02	1.03592568376E-01	2.08837882993E-01
1.72800000000E+09	3.70237066659E-02	-1.29881111090E-01	-5.83670190323E-02	3.92439345455E-02	-5.83475498385E-02	3.93180915897E-02	1.08717308415E-01	2.07559373378E-01
1.72850000000E+09	3.81648057038E-02	-1.32024173123E-01	-5.74713813862E-02	4.04731241800E-02	-5.74371221446E-02	4.05731038601E-02	1.13827981586E-01	2.06110560416E-01
1.72900000000E+09	3.92523807724E-02	-1.34195120519E-01	-5.65453153167E-02	4.17107063906E-02	-5.65218877518E-02	4.18123104295E-02	1.18863147404E-01	2.04550296244E-01
1.72950000000E+09	4.02382542686E-02	-1.36356400667E-01	-5.55947415164E-02	4.29177604030E-02	-5.55751330225E-02	4.30103221101E-02	1.23850738770E-01	2.02790189136E-01
1.73000000000E+09	4.11651301972E-02	-1.38575721819E-01	-5.46149802397E-02	4.41017308393E-02	-5.45790957657E-02	4.41956724860E-02	1.28767404076E-01	2.00865026216E-01
1.73050000000E+09	4.19977519522E-02	-1.40773714399E-01	-5.36087185689E-02	4.52601295414E-02	-5.35907386808E-02	4.53463727259E-02	1.33629316671E-01	1.98821572213E-01
1.73100000000E+09	4.27487741046E-02	-1.42998525953E-01	-5.25733695183E-02	4.63896473622E-02	-5.25631351960E-02	4.64886109557E-02	1.38445266196E-01	1.96629805588E-01
1.73150000000E+09	4.34564438693E-02	-1.45239655548E-01	-5.15420418080E-02	4.75009244034E-02	-5.15075560458E-02	4.75969458166E-02	1.43164318278E-01	1.94247271814E-01
1.73200000000E+09	4.40709026323E-02	-1.47453388967E-01	-5.04650781668E-02	4.85841298725E-02	-5.04271951239E-02	4.86811545310E-02	1.47824850715E-01	1.91748028530E-01
1.73250000000E+09	4.46005995280E-02	-1.49684072561E-01	-4.93711451461E-02	4.96483194522E-02	-4.93281680695E-02	4.97214009720E-02	1.52374171530E-01	1.89120080964E-01
1.73300000000E+09	4.50398799691E-02	-1.51910983200E-01	-4.82384041962E-02	5.06719776342E-02	-4.81984096876E-02	5.07528572856E-02	1.56826612186E-01	1.86336801980E-01
1.73350000000E+09	4.54423479964E-02	-1.54154847736E-01	-4.71076885509E-02	5.16594550723E-02	-4.70737868852E-02	5.17430047562E-02	1.61207404429E-01	1.83430469636E-01
1.73400000000E+09	4.57511442318E-02	-1.56372761947E-01	-4.59346198478E-02	5.26486876799E-02	-4.59080698169E-02	5.27362057106E-02	1.65538385293E-01	1.80361220002E-01
1.73450000000E+09	4.59945865341E-02	-1.58577079775E-01	-4.47700466766E-02	5.36056435880E-02	-4.47259189593E-02	5.36830253814E-02	1.69742939466E-01	1.77184491479E-01
1.73500000000E+09	4.61758184400E-02	-1.60798726332E-01	-4.35689474237E-02	5.45223072576E-02	-4.35223197250E-02	5.46100404492E-02	1.73807690565E-01	1.73859580371E-01
1.73550000000E+09	4.62760175898E-02	-1.62985636800E-01	-4.23501311672E-02	5.54010154512E-02	-4.23135897401E-02	5.54742597750E-02	1.77778041633E-01	1.70408854560E-01
1.73600000000E+09	4.63249998556E-02	-1.65167526663E-01	-4.11211518240E-02	5.62629982563E-02	-4.10667214015E-02	5.63521101719E-02	1.81680398314E-01	1.66864226977E-01
1.73650000000E+09	4.62948423566E-02	-1.67337052490E-01	-3.98799717281E-02	5.71074677778E-02	-3.98143725339E-02	5.71763321545E-02	1.85433691182E-01	1.63182910814E-01
1.73700000000E+09	4.61977702399E-02	-1.69508267404E-01	-3.85879376102E-02	5.79083718128E-02	-3.85519097903E-02	5.79652190895E-02	1.89065365221E-01	1.59365682367E-01
1.73750000000E+09	4.60431911547E-02	-1.71612807127E-01	-3.73110778213E-02	5.86776471602E-02	-3.72666225999E-02	5.87480797051E-02	1.92588278942E-01	1.55493532014E-01
1.73800000000E+09	4.58177447639E-02	-1.73741763393E-01	-3.60297967485E-02	5.94261488452E-02	-3.59672418736E-02	5.94805527611E-02	1.95990877308E-01	1.51403342242E-01
1.73850000000E+09	4.55358473809E-02	-1.75841121520E-01	-3.47071899831E-02	6.01369690336E-02	-3.46472143192E-02	6.02023112647E-02	1.99269765011E-01	1.47333268235E-01
1.73900000000E+09	4.51617013047E-02	-1.77922859694E-01	-3.33825802272E-02	6.08007087906E-02	-3.33366528979E-02	6.08846638064E-02	2.02410866041E-01	1.43102943843E-01
1.73950000000E+09	4.47799057873E-02	-1.79944028412E-01	-3.20531558529E-02	6.14479446664E-02	-3.20081150595E-02	6.15381180260E-02	2.05418170390E-01	1.38777093395E-01
1.74000000000E+09	4.42920121680E-02	-1.82030147555E-01	-3.06983263375E-02	6.20842075573E-02	-3.06503506069E-02	6.21577469463E-02	2.08316364130E-01	1.34380237096E-01
1.74050000000E+09	4.37639566487E-02	-1.84003457470E-01	-2.93366711963E-02	6.26772209670E-02	-2.93053602632E-02	6.27529544175E-02	2.11031085443E-01	1.29873115630E-01
1.74100000000E+09	4.31646235441E-02	-1.85974815433E-01	-2.79783836507E-02	6.32290248005E-02	-2.79134769453E-02	6.33036250349E-02	2.13624665035E-01	1.25270137299E-01
1.74150000000E+09	4.25091039491E-02	-1.87909635379E-01	-2.66000483851E-02	6.37601402957E-02	-2.65328840325E-02	6.38342380074E-02	2.16060986504E-01	1.20590666175E-01
1.74200000000E+09	4.18195561194E-02	-1.89847401102E-01	-2.52052695549E-02	6.42619655073E-02	-2.51535563839E-02	6.43218873199E-02	2.18387362858E-01	1.15869910310E-01
1.74250000000E+09	4.10289665172E-02	-1.91711371927E-01	-2.38102565283E-02	6.47294344629E-02	-2.37461799777E-02	6.47866962592E-02	2.20559669063E-01	1.11071081514E-01
1.74300000000E+09	4.02223143466E-02	-1.93568285307E-01	-2.24082535111E-02	6.51505863891E-02	-2.23635171194E-02	6.52330786697E-02	2.22548829294E-01	1.06149862043E-01
1.74350000000E+09	3.93469018376E-02	-1.95388352552E-01	-2.10169241626E-02	6.55590430624E-02	-2.09501194597E-02	6.56306248646E-02	2.24393673487E-01	1.01226586219E-01
1.74400000000E+09	3.84191767333E-02	-1.97177685088E-01	-1.96133721873E-02	6.59312373702E-02	-1.95423482439E-02	6.59900297523E-02	2.26092002030E-01	9.62340641722E-02
1.74450000000E+09	3.74230459465E-02	-1.98929819348E-01	-1.81767869713E-02	6.62573602583E-02	-1.81131913219E-02	6.63291572160E-02	2.27628717951E-01	9.11560298478E-02
1.74500000000E+09	3.63899301036E-02	-2.00610513878E-01	-1.67687898118E-02	6.65898481647E-02	-1.67105072684E-02	6.66465159643E-02	2.29043299847E-01	8.60983630488E-02
1.74550000000E+09	3.52916873053E-02	-2.02297228938E-01	-1.53484213576E-02	6.68623822387E-02	-1.52778158949E-02	6.69280826252E-02	2.30260792568E-01	8.09383018331E-02
1.74600000000E+09	3.41596597680E-02	-2.03910140983E-01	-1.39202362162E-02	6.71252105318E-02	-1.38607706961E-02	6.71749416459E-02	2.31340286582E-01	7.57460274562E-02
1.74650000000E+09	3.29507897603E-02	-2.05492923635E-01	-1.24988010892E-02	6.73302778238E-02	-1.24170019874E-02	6.73957835518E-02	2.32193806780E-01	7.05278138139E-02
1.74700000000E+09	3.16998396259E-02	-2.07038223822E-01	-1.10663578644E-02	6.75189867441E-02	-1.10003242091E-02	6.75886984491E-02	2.32923866843E-01	6.52786497914E-02
1.74750000000E+09	3.03998045940E-02	-2.08519462650E-01	-9.64414962488E-03	6.76709418998E-02	-9.57299479712E-03	6.77340085991E-02	2.33513718268E-01	6.00410600283E-02
1.74800000000E+09	2.90723054027E-02	-2.09970894169E-01	-8.21272973916E-03	6.78096874132E-02	-8.14349561623E-03	6.78590654284E-02	2.33924875464E-01	5.47462233115E-02
1.74850000000E+09	2.76679096694E-02	-2.11357247951E-01	-6.78856488457E-03	6.78959083370E-02	-6.72189212465E-03	6.79571859782E-02	2.34136004129E-01	4.94352916374E-02
1.74900000000E+09	2.62003094059E-02	-2.12688040775E-01	-5.36519789948E-03	6.79577583593E-02	-5.29457681128E-03	6.80047259003E-02	2.34212383662E-01	4.41456770399E-02
1.74950000000E+09	2.47188370052E-02	-2.13962173937E-01	-3.93638907980E-03	6.79896949636E-02	-3.85640186290E-03	6.80446370642E-02	2.34126502527E-01	3.88254476550E-02
1.75000000000E+09	2.31674084946E-02	-2.15189979408E-01	-2.51665875286E-03	6.79853565233E-02	-2.43977438544E-03	6.80421480497E-02	2.33862896881E-01	3.34811434648E-02
1.75050000000E+09	2.15869993307E-02	-2.16363385489E-01	-1.10476103918E-03	6.79858174808E-02	-1.02754090821E-03	6.80215689649E-02	2.33399985558E-01	2.82128222826E-02
1.75100000000E+09	1.99851389714E-02	-2.17476187501E-01	3.01101711787E-04	6.79154949468E-02	3.91504417441E-04	6.79728263659E-02	2.32805600867E-01	2.28837776701E-02
1.75150000000E+09	1.82879081656E-02	-2.18523536263E-01	1.70544528558E-03	6.78405317474E-02	1.80458143958E-03	6.78905558094E-02	2.32067000800E-01	1.76700945742E-02
1.75200000000E+09	1.65833716755E-02	-2.19480057530E-01	3.12190266613E-03	6.77341690879E-02	3.18331847766E-03	6.77709631754E-02	2.31143665264E-01	1.24008624659E-02
1.75250000000E+09	1.48473564292E-02	-2.20393291773E-01	4.51203024020E-03	6.76013409400E-02	4.58838902887E-03	6.76214224187E-02	2.30006959301E-01	7.19485992514E-03
1.75300000000E+09	1.30659583085E-02	-2.21202941948E-01	5.89439161779E-03	6.74201343873E-02	5.96258684868E-03	6.74733510477E-02	2.28739970493E-01	2.03521396390E-03
1.75350000000E+09	1.12602115073E-02	-2.21980162560E-01	7.26410190971E-03	6.72294963375E-02	7.35300711899E-03	6.72669281553E-02	2.27307645487E-01	-3.15945784903E-03
1.75400000000E+09	9.39360933900E-03	-2.22633268910E-01	8.63846072226E-03	6.69880956657E-02	8.72286302847E-03	6.70465813869E-02	2.25698964552E-01	-8.23753157741E-03
1.75450000000E+09	7.54159309450E-03	-2.23234846797E-01	9.99875806675E-03	6.67598243905E-02	1.00925660383E-02	6.67933410125E-02	2.23948851633E-01	-1.33047593262E-02
1.75500000000E+09	5.62395592377E-03	-2.23751783345E-01	1.13591496876E-02	6.64716693373E-02	1.14524601775E-02	6.65154488705E-02	2.22034814654E-01	-1.82990569023E-02
1.75550000000E+09	3.69328181878E-03	-2.24176340049E-01	1.27115092661E-02	6.61806430292E-02	1.27965890452E-02	6.62169072128E-02	2.19909421244E-01	-2.32284753430E-02
1.75600000000E+09	1.77683476304E-03	-2.24552975310E-01	1.40386968118E-02	6.58555755766E-02	1.41281465952E-02	6.58758399335E-02	2.17683259831E-01	-2.80827541565E-02
1.75650000000E+09	-1.87476895136E-04	-2.24775400911E-01	1.53708797468E-02	6.54988469769E-02	1.54771529228E-02	6.55387579386E-02	2.15336386162E-01	-3.29361412217E-02
1.75700000000E+09	-2.12840180120E-03	-2.24940398845E-01	1.66926136739E-02	6.51313224116E-02	1.67800423839E-02	6.51517603121E-02	2.12763860046E-01	-3.76180630293E-02
1.75750000000E+09	-4.11109091924E-03	-2.25055514379E-01	1.79965689320E-02	6.47153843306E-02	1.80822555147E-02	6.47518104504E-02	2.10063263467E-01	-4.22633252623E-02
1.75800000000E+09	-6.08374157345E-03	-2.25022703396E-01	1.92837932080E-02	6.43005258336E-02	1.93756018862E-02	6.43137707241E-02	2.07208939577E-01	-4.68388386912E-02
1.75850000000E+09	-8.05804995273E-03	-2.24936674070E-01	2.05641335181E-02	6.38415573565E-02	2.06629021729E-02	6.38765648725E-02	2.04213450653E-01	-5.13196511009E-02
