# Hz S RI R 50
! CMT, CMT808U, 21440046, 21.4.3/4
! Date: 11/12/2025 10:31:31 AM
! Data: Format (Calibration Info)
! Freq	S11:Re/Im(F2)	S41:Re/Im(F2)	S14:Re/Im(F2)	S44:Re/Im(F2)
1.60000000000E+09	-2.83043097803E-01	-2.32849286394E-01	-5.29758185949E-03	6.12261421631E-02	-6.00832175824E-03	6.08537160147E-02	-1.20946927573E-01	7.52730590024E-03
1.60100000000E+09	-2.78306317358E-01	-2.31496235687E-01	-2.55495983329E-03	6.14871716962E-02	-3.27889898133E-03	6.11473584245E-02	-1.23953373084E-01	1.94882216635E-02
1.60200000000E+09	-2.73751287420E-01	-2.30662314223E-01	2.02736241532E-04	6.16129988559E-02	-5.37389739707E-04	6.13015373102E-02	-1.26138985521E-01	3.16147030406E-02
1.60300000000E+09	-2.69434143163E-01	-2.30320797759E-01	2.96400602332E-03	6.15910716204E-02	2.21204369643E-03	6.13131218014E-02	-1.27501289577E-01	4.38401032053E-02
1.60400000000E+09	-2.65429134494E-01	-2.30446128539E-01	5.71799145831E-03	6.14283587192E-02	4.95262343167E-03	6.11859168593E-02	-1.28032777415E-01	5.61188137210E-02
1.60500000000E+09	-2.61815599187E-01	-2.30995427087E-01	8.45346550592E-03	6.11298756166E-02	7.67510153359E-03	6.09235448962E-02	-1.27731486698E-01	6.83828160471E-02
1.60600000000E+09	-2.58645582220E-01	-2.31902894953E-01	1.11654612061E-02	6.06954975125E-02	1.03764536519E-02	6.05149704471E-02	-1.26611227082E-01	8.05851148162E-02
1.60700000000E+09	-2.55968406319E-01	-2.33114694349E-01	1.38361369326E-02	6.01215051466E-02	1.30417007185E-02	5.99811807878E-02	-1.24681879433E-01	9.26623480294E-02
1.60800000000E+09	-2.53836098625E-01	-2.34551735099E-01	1.64644513964E-02	5.94251165423E-02	1.56651776487E-02	5.93155931010E-02	-1.21950703778E-01	1.04564373635E-01
1.60900000000E+09	-2.52269056373E-01	-2.36118879319E-01	1.90406623686E-02	5.86040124181E-02	1.82382457686E-02	5.85281938477E-02	-1.18437996533E-01	1.16240793858E-01
1.61000000000E+09	-2.51282462833E-01	-2.37746204425E-01	2.15571600296E-02	5.76638637454E-02	2.07573576586E-02	5.76248780626E-02	-1.14156981641E-01	1.27627484547E-01
1.61100000000E+09	-2.50890795657E-01	-2.39342420251E-01	2.40069928827E-02	5.66167021105E-02	2.32064585879E-02	5.66144666701E-02	-1.09139310566E-01	1.38685066870E-01
1.61200000000E+09	-2.51062634208E-01	-2.40819321629E-01	2.63895575729E-02	5.54707421671E-02	2.55915612145E-02	5.54981769774E-02	-1.03410695288E-01	1.49368427996E-01
1.61300000000E+09	-2.51773916566E-01	-2.42078636083E-01	2.86954757788E-02	5.42248232056E-02	2.79030488778E-02	5.42857473270E-02	-9.70001885454E-02	1.59621783294E-01
1.61400000000E+09	-2.52986013868E-01	-2.43061253524E-01	3.09296076818E-02	5.28963997010E-02	3.01375088422E-02	5.29868288535E-02	-8.99318621383E-02	1.69409006347E-01
1.61500000000E+09	-2.54635169179E-01	-2.43693698713E-01	3.30846310112E-02	5.14858046051E-02	3.22994987528E-02	5.16105272846E-02	-8.22512150774E-02	1.78689638988E-01
1.61600000000E+09	-2.56666527674E-01	-2.43927711157E-01	3.51591634020E-02	5.00003321393E-02	3.43861820023E-02	5.01526482359E-02	-7.39904619916E-02	1.87421450616E-01
1.61700000000E+09	-2.59007710904E-01	-2.43700978701E-01	3.71625255169E-02	4.84485152404E-02	3.63968139346E-02	4.86295554879E-02	-6.51880946502E-02	1.95581334306E-01
1.61800000000E+09	-2.61589965087E-01	-2.43008973065E-01	3.90887112665E-02	4.68329143212E-02	3.83286801080E-02	4.70411005181E-02	-5.58891461359E-02	2.03124142935E-01
1.61900000000E+09	-2.64332531522E-01	-2.41814559239E-01	4.09411273041E-02	4.51596855946E-02	4.01886640193E-02	4.53991440734E-02	-4.61351059692E-02	2.10025686211E-01
1.62000000000E+09	-2.67169769929E-01	-2.40116040797E-01	4.27177818969E-02	4.34277672444E-02	4.19818040050E-02	4.36949460866E-02	-3.59609031055E-02	2.16265351662E-01
1.62100000000E+09	-2.70032366540E-01	-2.37925393728E-01	4.44292317798E-02	4.16457270381E-02	4.36998042389E-02	4.19389838254E-02	-2.54291360557E-02	2.21814312552E-01
1.62200000000E+09	-2.72848675742E-01	-2.35244874200E-01	4.60680880014E-02	3.98098860133E-02	4.53473918132E-02	4.01317323162E-02	-1.45656807346E-02	2.26650011474E-01
1.62300000000E+09	-2.75571256789E-01	-2.32106564264E-01	4.76343762163E-02	3.79287704184E-02	4.69270017424E-02	3.82758667637E-02	-3.43661237611E-03	2.30763247940E-01
1.62400000000E+09	-2.78143427423E-01	-2.28527278275E-01	4.91356361868E-02	3.59965104425E-02	4.84401289117E-02	3.63697831894E-02	7.92237579438E-03	2.34132401164E-01
1.62500000000E+09	-2.80507471531E-01	-2.24543734355E-01	5.05642262487E-02	3.40133009766E-02	4.98874631520E-02	3.44181344528E-02	1.94621449063E-02	2.36757166047E-01
1.62600000000E+09	-2.82644092297E-01	-2.20201388906E-01	5.19324523394E-02	3.19869033297E-02	5.12589214264E-02	3.24117594535E-02	3.11279371391E-02	2.38615032334E-01
1.62700000000E+09	-2.84507909033E-01	-2.15517876913E-01	5.32250856404E-02	2.99072264601E-02	5.25670125168E-02	3.03607080880E-02	4.28728393960E-02	2.39715787424E-01
1.62800000000E+09	-2.86077132697E-01	-2.10550115777E-01	5.44471410830E-02	2.77851391348E-02	5.38057969219E-02	2.82639726255E-02	5.46472587702E-02	2.40047984891E-01
1.62900000000E+09	-2.87330218694E-01	-2.05323494311E-01	5.56018458966E-02	2.56158768597E-02	5.49729032043E-02	2.61197700855E-02	6.64065389703E-02	2.39616989789E-01
1.63000000000E+09	-2.88254316091E-01	-1.99870482317E-01	5.66806835553E-02	2.33997436770E-02	5.60690393771E-02	2.39276893098E-02	7.81059588765E-02	2.38435921711E-01
1.63100000000E+09	-2.88827628963E-01	-1.94246830216E-01	5.76826099120E-02	2.11377610754E-02	5.70884678869E-02	2.16945730331E-02	8.96862467258E-02	2.36489799714E-01
1.63200000000E+09	-2.89049618100E-01	-1.88478847549E-01	5.86058292203E-02	1.88302044793E-02	5.80293244911E-02	1.94100818407E-02	1.01110939665E-01	2.33819400095E-01
1.63300000000E+09	-2.88915476276E-01	-1.82604598654E-01	5.94475520871E-02	1.64760148452E-02	5.88907429965E-02	1.70857467162E-02	1.12334046112E-01	2.30416091250E-01
1.63400000000E+09	-2.88429179137E-01	-1.76649524654E-01	6.02062385281E-02	1.40827417020E-02	5.96683834830E-02	1.47201627733E-02	1.23300606874E-01	2.26299492041E-01
1.63500000000E+09	-2.87586047407E-01	-1.70642135563E-01	6.08798589570E-02	1.16484513394E-02	6.03605534862E-02	1.23105878235E-02	1.33973743931E-01	2.21487390212E-01
1.63600000000E+09	-2.86393968971E-01	-1.64620650563E-01	6.14613774587E-02	9.17375653201E-03	6.09682342830E-02	9.86540003787E-03	1.44319489177E-01	2.16008683060E-01
1.63700000000E+09	-2.84853630174E-01	-1.58610595673E-01	6.19489771230E-02	6.66630903908E-03	6.14836667860E-02	7.38082091450E-03	1.54277793175E-01	2.09871670783E-01
1.63800000000E+09	-2.82960285936E-01	-1.52636192525E-01	6.23434026115E-02	4.12719645706E-03	6.19009623895E-02	4.86496832772E-03	1.63828485671E-01	2.03122803857E-01
1.63900000000E+09	-2.80748711841E-01	-1.46720592601E-01	6.26390051985E-02	1.55142618230E-03	6.22282731010E-02	2.31729396094E-03	1.72918159832E-01	1.95771860147E-01
1.64000000000E+09	-2.78199939492E-01	-1.40880806325E-01	6.28282265875E-02	-1.04807098916E-03	6.24493220091E-02	-2.54864691235E-04	1.81525760103E-01	1.87862998712E-01
1.64100000000E+09	-2.75340502779E-01	-1.35153209040E-01	6.29188117114E-02	-3.66491060406E-03	6.25691423613E-02	-2.85458107834E-03	1.89611259301E-01	1.79409064752E-01
1.64200000000E+09	-2.72175666431E-01	-1.29532585060E-01	6.28976400388E-02	-6.30462344195E-03	6.25817602246E-02	-5.47101892168E-03	1.97143925689E-01	1.70472249939E-01
1.64300000000E+09	-2.68714743249E-01	-1.24066702194E-01	6.27658528054E-02	-8.96095118116E-03	6.24865117834E-02	-8.10452269920E-03	2.04088527543E-01	1.61068031568E-01
1.64400000000E+09	-2.64971157330E-01	-1.18747378768E-01	6.25220353837E-02	-1.16232670001E-02	6.22825930821E-02	-1.07480996704E-02	2.10426143223E-01	1.51219672707E-01
1.64500000000E+09	-2.60948364559E-01	-1.13608343920E-01	6.21683087922E-02	-1.42897500491E-02	6.19622654480E-02	-1.33984089680E-02	2.16118382170E-01	1.41007587157E-01
1.64600000000E+09	-2.56660732651E-01	-1.08653779876E-01	6.16964777640E-02	-1.69570326092E-02	6.15318614493E-02	-1.60542398562E-02	2.21160607016E-01	1.30437980692E-01
1.64700000000E+09	-2.52117247979E-01	-1.03904723149E-01	6.11083072287E-02	-1.96233373427E-02	6.09836494790E-02	-1.87002519219E-02	2.25515236352E-01	1.19564534064E-01
1.64800000000E+09	-2.47326619737E-01	-9.93808587823E-02	6.03978283715E-02	-2.22740988319E-02	6.03196474455E-02	-2.13386701537E-02	2.29172368088E-01	1.08435963819E-01
1.64900000000E+09	-2.42313943885E-01	-9.50996557845E-02	5.95689647652E-02	-2.49079741729E-02	5.95379518681E-02	-2.39646232140E-02	2.32116449040E-01	9.70798242288E-02
1.65000000000E+09	-2.37080898162E-01	-9.10643596424E-02	5.86188913995E-02	-2.75228806075E-02	5.86321250166E-02	-2.65703977987E-02	2.34329325603E-01	8.55572090740E-02
1.65100000000E+09	-2.31640412300E-01	-8.72976567783E-02	5.75537782994E-02	-3.01081167219E-02	5.76074279616E-02	-2.91521901257E-02	2.35815199898E-01	7.39131411302E-02
1.65200000000E+09	-2.26003751005E-01	-8.38218728601E-02	5.63628888185E-02	-3.26549846044E-02	5.64678883339E-02	-3.16989258326E-02	2.36547113155E-01	6.21828967518E-02
1.65300000000E+09	-2.20195647170E-01	-8.06430178149E-02	5.50520676228E-02	-3.51634465164E-02	5.52014832185E-02	-3.42078309844E-02	2.36533763301E-01	5.04249951392E-02
1.65400000000E+09	-2.14233783461E-01	-7.77707441795E-02	5.36203224381E-02	-3.76256999948E-02	5.38218512012E-02	-3.66729264015E-02	2.35763902183E-01	3.86771729157E-02
1.65500000000E+09	-2.08126024782E-01	-7.52343659921E-02	5.20717405060E-02	-4.00314826933E-02	5.23174425852E-02	-3.90820392744E-02	2.34239666561E-01	2.69962757702E-02
1.65600000000E+09	-2.01903424299E-01	-7.30366514845E-02	5.04064867747E-02	-4.23765751185E-02	5.06977512463E-02	-4.14370718937E-02	2.31980704442E-01	1.54278104984E-02
1.65700000000E+09	-1.95579637328E-01	-7.11878247332E-02	4.86231886115E-02	-4.46565136404E-02	4.89647071862E-02	-4.37297956585E-02	2.28973880965E-01	4.01674731280E-03
1.65800000000E+09	-1.89174632335E-01	-6.97063638443E-02	4.67289775744E-02	-4.68605569433E-02	4.71155364492E-02	-4.59501269373E-02	2.25242305063E-01	-7.19101178661E-03
1.65900000000E+09	-1.82714167324E-01	-6.86076418319E-02	4.47215067361E-02	-4.89827861310E-02	4.51580148578E-02	-4.80900841193E-02	2.20789303504E-01	-1.81352418188E-02
1.66000000000E+09	-1.76222822782E-01	-6.78902383334E-02	4.26108614249E-02	-5.10207547884E-02	4.30888962733E-02	-5.01457683101E-02	2.15634751204E-01	-2.87917346247E-02
1.66100000000E+09	-1.69730041761E-01	-6.75727041925E-02	4.03952624766E-02	-5.29652829893E-02	4.09184273131E-02	-5.21109244291E-02	2.09798245106E-01	-3.90929821141E-02
1.66200000000E+09	-1.63265205459E-01	-6.76674951951E-02	3.80841625165E-02	-5.48068224778E-02	3.86453402994E-02	-5.39784759207E-02	2.03302984226E-01	-4.90112224086E-02
1.66300000000E+09	-1.56863493901E-01	-6.81724374941E-02	3.56752501244E-02	-5.65411736906E-02	3.62788335609E-02	-5.57434437137E-02	1.96169735743E-01	-5.84873599946E-02
1.66400000000E+09	-1.50551525566E-01	-6.90873285648E-02	3.31797576977E-02	-5.81667256042E-02	3.38214417505E-02	-5.73951440339E-02	1.88437285358E-01	-6.74982146939E-02
1.66500000000E+09	-1.44360327867E-01	-7.04222414433E-02	3.06006416801E-02	-5.96780089296E-02	3.12806653079E-02	-5.89337670626E-02	1.80115920283E-01	-7.59831521239E-02
1.66600000000E+09	-1.38338676905E-01	-7.21630308569E-02	2.79500745809E-02	-6.10592592397E-02	2.86603260025E-02	-6.03527230801E-02	1.71254048489E-01	-8.39238567399E-02
1.66700000000E+09	-1.32516937754E-01	-7.43155417892E-02	2.52251581413E-02	-6.23127836208E-02	2.59679663225E-02	-6.16449174261E-02	1.61880723104E-01	-9.12693415374E-02
1.66800000000E+09	-1.26936439685E-01	-7.68635312376E-02	2.24371469991E-02	-6.34399363896E-02	2.32138943053E-02	-6.28044401218E-02	1.52044733809E-01	-9.79881605386E-02
1.66900000000E+09	-1.21634902316E-01	-7.97983907410E-02	1.95982454065E-02	-6.44275937145E-02	2.04034539576E-02	-6.38292475576E-02	1.41775826808E-01	-1.04054617771E-01
1.67000000000E+09	-1.16660576565E-01	-8.30981025011E-02	1.67070567436E-02	-6.52738427790E-02	1.75404024082E-02	-6.47140348871E-02	1.31119837933E-01	-1.09432006652E-01
1.67100000000E+09	-1.12047996160E-01	-8.67391311788E-02	1.37777482159E-02	-6.59793515619E-02	1.46357518911E-02	-6.54582006876E-02	1.20127310851E-01	-1.14101768960E-01
1.67200000000E+09	-1.07831954295E-01	-9.06915964722E-02	1.08257632540E-02	-6.65374637485E-02	1.17072765070E-02	-6.60570152849E-02	1.08829183034E-01	-1.18034619381E-01
1.67300000000E+09	-1.04067429836E-01	-9.49268837971E-02	7.85047503855E-03	-6.69524313605E-02	8.75248359685E-03	-6.65148818090E-02	9.72989947806E-02	-1.21214431023E-01
1.67400000000E+09	-1.00774071332E-01	-9.93963547069E-02	4.86438585051E-03	-6.72213759716E-02	5.78244821335E-03	-6.68248760224E-02	8.55660708571E-02	-1.23620193910E-01
1.67500000000E+09	-9.79952797531E-02	-1.04058558158E-01	1.87747673167E-03	-6.73427010129E-02	2.80867190476E-03	-6.69861667602E-02	7.36968496800E-02	-1.25232184202E-01
1.67600000000E+09	-9.57596348350E-02	-1.08857281033E-01	-1.10514482070E-03	-6.73202688398E-02	-1.58043189458E-04	-6.70089421976E-02	6.17317306444E-02	-1.26061172437E-01
1.67700000000E+09	-9.40860041051E-02	-1.13736630474E-01	-4.07162291989E-03	-6.71560661187E-02	-3.11181972511E-03	-6.68860458386E-02	4.97353786360E-02	-1.26077399916E-01
1.67800000000E+09	-9.29973327214E-02	-1.18624522441E-01	-7.01702463671E-03	-6.68474759610E-02	-6.04673004036E-03	-6.66224328344E-02	3.77556473563E-02	-1.25294303193E-01
1.67900000000E+09	-9.24950170461E-02	-1.23461641605E-01	-9.92824071034E-03	-6.64064062206E-02	-8.94715653396E-03	-6.62246981121E-02	2.58426880271E-02	-1.23706121272E-01
1.68000000000E+09	-9.25866263139E-02	-1.28167047005E-01	-1.27947544674E-02	-6.58333985716E-02	-1.18099278384E-02	-6.56944542008E-02	1.40583454542E-02	-1.21324442921E-01
1.68100000000E+09	-9.32498723255E-02	-1.32671939711E-01	-1.56184885425E-02	-6.51281430316E-02	-1.46318317070E-02	-6.50354236284E-02	2.45912088072E-03	-1.18139847135E-01
1.68200000000E+09	-9.44682085036E-02	-1.36901295754E-01	-1.83900644847E-02	-6.42997883558E-02	-1.74003747029E-02	-6.42520110000E-02	-8.91201308126E-03	-1.14187750344E-01
1.68300000000E+09	-9.62075043225E-02	-1.40776089028E-01	-2.11021649279E-02	-6.33629404839E-02	-2.01119121987E-02	-6.33507889274E-02	-1.99942287941E-02	-1.09472203748E-01
1.68400000000E+09	-9.84301326982E-02	-1.44239285062E-01	-2.37523346815E-02	-6.23078963477E-02	-2.27612032556E-02	-6.23482741010E-02	-3.07384298190E-02	-1.04013324291E-01
1.68500000000E+09	-1.01062643191E-01	-1.47220101959E-01	-2.63330691335E-02	-6.11552788115E-02	-2.53467892483E-02	-6.12377281910E-02	-4.10943140411E-02	-9.78411453350E-02
1.68600000000E+09	-1.04058143516E-01	-1.49662956258E-01	-2.88471762274E-02	-5.99025293506E-02	-2.78660159042E-02	-6.00299166995E-02	-5.10133854046E-02	-9.09746563345E-02
1.68700000000E+09	-1.07336939320E-01	-1.51534765107E-01	-3.12919326279E-02	-5.85617040726E-02	-3.03166614317E-02	-5.87285973981E-02	-6.04463870103E-02	-8.34481430144E-02
1.68800000000E+09	-1.10814783547E-01	-1.52789030011E-01	-3.36656691714E-02	-5.71331037275E-02	-3.26996481623E-02	-5.73462897565E-02	-6.93507731536E-02	-7.52986290932E-02
1.68900000000E+09	-1.14418347169E-01	-1.53403902317E-01	-3.59620674016E-02	-5.56274720025E-02	-3.50130407762E-02	-5.58780836223E-02	-7.76825519505E-02	-6.65659034197E-02
1.69000000000E+09	-1.18048527386E-01	-1.53363355743E-01	-3.81922835729E-02	-5.40413880232E-02	-3.72507179590E-02	-5.43354841872E-02	-8.54129442221E-02	-5.72781941694E-02
1.69100000000E+09	-1.21628943597E-01	-1.52678747193E-01	-4.03519981715E-02	-5.23893703640E-02	-3.94242144890E-02	-5.27223581488E-02	-9.24887160167E-02	-4.74961459973E-02
1.69200000000E+09	-1.25054836857E-01	-1.51355905482E-01	-4.24405719581E-02	-5.06671542563E-02	-4.15302591898E-02	-5.10362692063E-02	-9.88925024796E-02	-3.72515339227E-02
1.69300000000E+09	-1.28243706926E-01	-1.49435048925E-01	-4.44641849808E-02	-4.88727732060E-02	-4.35690517403E-02	-4.92865312148E-02	-1.04582449069E-01	-2.66002853848E-02
1.69400000000E+09	-1.31121525676E-01	-1.46943477314E-01	-4.64198074486E-02	-4.70163942550E-02	-4.55434636618E-02	-4.74616089941E-02	-1.09545878620E-01	-1.55888949093E-02
1.69500000000E+09	-1.33610342109E-01	-1.43948734523E-01	-4.83071574976E-02	-4.50949292179E-02	-4.74521645211E-02	-4.55780973202E-02	-1.13748178875E-01	-4.27743273125E-03
1.69600000000E+09	-1.35653209643E-01	-1.40514387965E-01	-5.01302579909E-02	-4.31099237784E-02	-4.92977780456E-02	-4.36284381212E-02	-1.17183336374E-01	7.28797203255E-03
1.69700000000E+09	-1.37201714148E-01	-1.36700404913E-01	-5.18865638514E-02	-4.10557908968E-02	-5.10744780219E-02	-4.16087351806E-02	-1.19824332314E-01	1.90527157321E-02
1.69800000000E+09	-1.38215745349E-01	-1.32586618139E-01	-5.35697173606E-02	-3.89362856410E-02	-5.27866777745E-02	-3.95268676293E-02	-1.21672058631E-01	3.09638666501E-02
1.69900000000E+09	-1.38671426699E-01	-1.28251459948E-01	-5.51915051408E-02	-3.67468726286E-02	-5.44307395802E-02	-3.73718682985E-02	-1.22721865923E-01	4.29573842610E-02
1.70000000000E+09	-1.38558056767E-01	-1.23758249770E-01	-5.67342840646E-02	-3.44911498595E-02	-5.60018914202E-02	-3.51414899263E-02	-1.22972905832E-01	5.49845388994E-02
1.70100000000E+09	-1.37858144582E-01	-1.19194249260E-01	-5.82006923340E-02	-3.21630985968E-02	-5.74945874070E-02	-3.28464315519E-02	-1.22422953419E-01	6.69838325107E-02
1.70200000000E+09	-1.36584850343E-01	-1.14628672481E-01	-5.95871207768E-02	-2.97672822447E-02	-5.89126921855E-02	-3.04802981416E-02	-1.21081521773E-01	7.89117572872E-02
1.70300000000E+09	-1.34754683772E-01	-1.10132167824E-01	-6.08841257048E-02	-2.73016657679E-02	-6.02418094782E-02	-2.80411500371E-02	-1.18958243825E-01	9.07048445132E-02
1.70400000000E+09	-1.32385655006E-01	-1.05764607458E-01	-6.20887474836E-02	-2.47653722086E-02	-6.14764864973E-02	-2.55316349173E-02	-1.16071841346E-01	1.02318080682E-01
1.70500000000E+09	-1.29502645878E-01	-1.01588498889E-01	-6.31986884455E-02	-2.21630798791E-02	-6.26191197497E-02	-2.29605022875E-02	-1.12436081234E-01	1.13706575207E-01
1.70600000000E+09	-1.26154608158E-01	-9.76560680430E-02	-6.41992405690E-02	-1.94961689813E-02	-6.36521186898E-02	-2.03200346136E-02	-1.08072394430E-01	1.24805070001E-01
1.70700000000E+09	-1.22372815371E-01	-9.40133151150E-02	-6.50902996189E-02	-1.67740221210E-02	-6.45812562466E-02	-1.76160847751E-02	-1.03011249740E-01	1.35581715752E-01
1.70800000000E+09	-1.18199084181E-01	-9.07067707994E-02	-6.58662634041E-02	-1.39961023245E-02	-6.53927510376E-02	-1.48604260512E-02	-9.72677433787E-02	1.45990487917E-01
1.70900000000E+09	-1.13683333195E-01	-8.77457223265E-02	-6.65213064343E-02	-1.11670496111E-02	-6.60839820155E-02	-1.20552911331E-02	-9.08827992995E-02	1.55988169310E-01
1.71000000000E+09	-1.08867804077E-01	-8.51784938801E-02	-6.70498194123E-02	-8.29937745896E-03	-6.66488322172E-02	-9.20400090523E-03	-8.38925041030E-02	1.65539458251E-01
1.71100000000E+09	-1.03798309068E-01	-8.30100999150E-02	-6.74477132977E-02	-5.38862499862E-03	-6.70895233577E-02	-6.31836214108E-03	-7.63171312885E-02	1.74602237830E-01
1.71200000000E+09	-9.85200784418E-02	-8.12603173550E-02	-6.77123329433E-02	-2.45519364987E-03	-6.73892922336E-02	-3.39805462590E-03	-6.81981310771E-02	1.83147366240E-01
1.71300000000E+09	-9.30837830305E-02	-7.99454719767E-02	-6.78402148671E-02	4.99547520901E-04	-6.75583775296E-02	-4.57123294276E-04	-5.95656588954E-02	1.91149911760E-01
1.71400000000E+09	-8.75217796974E-02	-7.90623111887E-02	-6.78266784815E-02	3.46636950841E-03	-6.75848327979E-02	2.49647220306E-03	-5.04809837716E-02	1.98574860007E-01
1.71500000000E+09	-8.18866837169E-02	-7.86136691250E-02	-6.76713704173E-02	6.44185925796E-03	-6.74743165857E-02	5.46090038487E-03	-4.09597636948E-02	2.05389888995E-01
1.71600000000E+09	-7.62148345582E-02	-7.85990533563E-02	-6.73759313213E-02	9.41085742744E-03	-6.72222849561E-02	8.41934755226E-03	-3.10542155828E-02	2.11587208671E-01
1.71700000000E+09	-7.05487889177E-02	-7.90013995978E-02	-6.69356945218E-02	1.23692393666E-02	-6.68291226998E-02	1.13696114208E-02	-2.08076466464E-02	2.17142458091E-01
