# Hz S RI R 50
! CMT, CMT808U, 21440046, 21.4.3/4
! Date: 11/12/2025 10:10:49 AM
! Data: Format (Calibration Info)
! Freq	S11:Re/Im(F2)	S41:Re/Im(F2)	S14:Re/Im(F2)	S44:Re/Im(F2)
1.60000000000E+09	-2.86859394007E-01	-2.34243980009E-01	7.58598827673E-03	6.33386216995E-02	6.74930468689E-03	6.31144418283E-02	-8.21859494586E-02	1.52495320795E-02
1.60100000000E+09	-2.82011780366E-01	-2.32707338435E-01	1.03899534817E-02	6.30174397947E-02	9.53956064570E-03	6.28268948901E-02	-8.42066254740E-02	2.66759778265E-02
1.60200000000E+09	-2.77325594919E-01	-2.31702419424E-01	1.31739897571E-02	6.25584428657E-02	1.23176065303E-02	6.24031008149E-02	-8.54422452720E-02	3.82117575540E-02
1.60300000000E+09	-2.72863457371E-01	-2.31223222953E-01	1.59340655608E-02	6.19617939353E-02	1.50737602914E-02	6.18446862356E-02	-8.58798356199E-02	4.98017911769E-02
1.60400000000E+09	-2.68701006255E-01	-2.31243508082E-01	1.86594302924E-02	6.12295395518E-02	1.77930157142E-02	6.11476318681E-02	-8.55243965603E-02	6.13887006332E-02
1.60500000000E+09	-2.64929344897E-01	-2.31706268366E-01	2.13426079698E-02	6.03635115233E-02	2.04745786373E-02	6.03219457577E-02	-8.43719755256E-02	7.29220343586E-02
1.60600000000E+09	-2.61602524723E-01	-2.32563764226E-01	2.39765519544E-02	5.93753284992E-02	2.31064041553E-02	5.93676917420E-02	-8.24324721658E-02	8.43342375346E-02
1.60700000000E+09	-2.58783781016E-01	-2.33751876217E-01	2.65482869378E-02	5.82587334079E-02	2.56788317833E-02	5.82902333582E-02	-7.97219278475E-02	9.55828201959E-02
1.60800000000E+09	-2.56513786174E-01	-2.35188879890E-01	2.90565797532E-02	5.70269252275E-02	2.81888391379E-02	5.70980126126E-02	-7.62559918450E-02	1.06611967127E-01
1.60900000000E+09	-2.54836664325E-01	-2.36778468740E-01	3.14963107043E-02	5.56836975318E-02	3.06344498958E-02	5.57900186226E-02	-7.20472862598E-02	1.17373468669E-01
1.61000000000E+09	-2.53769788926E-01	-2.38439539657E-01	3.38571778217E-02	5.42372938151E-02	3.29997147962E-02	5.43779195811E-02	-6.71164131001E-02	1.27803375014E-01
1.61100000000E+09	-2.53295594419E-01	-2.40075554926E-01	3.61347418768E-02	5.26848182815E-02	3.52897694482E-02	5.28664621041E-02	-6.14926027023E-02	1.37867716633E-01
1.61200000000E+09	-2.53412252512E-01	-2.41590896126E-01	3.83346804075E-02	5.10467366948E-02	3.74965618384E-02	5.12566695821E-02	-5.52171217093E-02	1.47524024443E-01
1.61300000000E+09	-2.54078561536E-01	-2.42890023268E-01	4.04413894690E-02	4.93248880033E-02	3.96163795862E-02	4.95666120322E-02	-4.83002445503E-02	1.56714636018E-01
1.61400000000E+09	-2.55259349316E-01	-2.43914936782E-01	4.24659697838E-02	4.75164608376E-02	4.16527941366E-02	4.77945540980E-02	-4.07856066682E-02	1.65413508161E-01
1.61500000000E+09	-2.56886617264E-01	-2.44579719100E-01	4.43946230376E-02	4.56358292118E-02	4.35975168583E-02	4.59445957892E-02	-3.27012597020E-02	1.73576062638E-01
1.61600000000E+09	-2.58905161364E-01	-2.44835617672E-01	4.62392377099E-02	4.36891104071E-02	4.54520929778E-02	4.40238953122E-02	-2.41114948361E-02	1.81154271573E-01
1.61700000000E+09	-2.61239714019E-01	-2.44637816862E-01	4.79886036058E-02	4.16732729485E-02	4.72160523582E-02	4.20400200649E-02	-1.50343590533E-02	1.88147618656E-01
1.61800000000E+09	-2.63813860970E-01	-2.43965816055E-01	4.96448637848E-02	3.96004253578E-02	4.88882582931E-02	3.99945954266E-02	-5.51678012827E-03	1.94501371815E-01
1.61900000000E+09	-2.66547479022E-01	-2.42795417256E-01	5.12105677536E-02	3.74719343406E-02	5.04694565885E-02	3.78930812970E-02	4.38893238244E-03	2.00194828072E-01
1.62000000000E+09	-2.69371956877E-01	-2.41110131137E-01	5.26840081494E-02	3.52893316295E-02	5.19634116655E-02	3.57428601542E-02	1.46466767795E-02	2.05209290363E-01
1.62100000000E+09	-2.72224888386E-01	-2.38948355671E-01	5.40642302135E-02	3.30658789373E-02	5.33561482173E-02	3.35396232508E-02	2.52103364596E-02	2.09525661114E-01
1.62200000000E+09	-2.75029689350E-01	-2.36298248395E-01	5.53510366208E-02	3.07913240812E-02	5.46612150063E-02	3.12971004734E-02	3.60227438448E-02	2.13124103732E-01
1.62300000000E+09	-2.77746612220E-01	-2.33199288688E-01	5.65448380438E-02	2.84832599254E-02	5.58749804742E-02	2.90082143730E-02	4.70386984287E-02	2.15996097966E-01
1.62400000000E+09	-2.80306784131E-01	-2.29665377075E-01	5.76404160549E-02	2.61312672625E-02	5.69944610970E-02	2.66809432269E-02	5.82119662387E-02	2.18131888304E-01
1.62500000000E+09	-2.82682201199E-01	-2.25736093890E-01	5.86494700242E-02	2.37448334441E-02	5.80222966659E-02	2.43219167745E-02	6.95053391191E-02	2.19524509221E-01
1.62600000000E+09	-2.84832271329E-01	-2.21446843512E-01	5.95649309234E-02	2.13238204374E-02	5.89560545089E-02	2.19301098052E-02	8.08471242768E-02	2.20161983865E-01
1.62700000000E+09	-2.86721388132E-01	-2.16828307014E-01	6.03855004719E-02	1.88788653021E-02	5.97958094507E-02	1.95054370977E-02	9.22037424868E-02	2.20059836539E-01
1.62800000000E+09	-2.88330435991E-01	-2.11933818385E-01	6.11125429769E-02	1.64041708234E-02	6.05430052734E-02	1.70557476524E-02	1.03527351295E-01	2.19205245749E-01
1.62900000000E+09	-2.89631225448E-01	-2.06776813200E-01	6.17387289490E-02	1.39100073279E-02	6.11929199799E-02	1.45842704259E-02	1.14765032995E-01	2.17619168609E-01
1.63000000000E+09	-2.90619438940E-01	-2.01401212842E-01	6.22764141542E-02	1.13941526419E-02	6.17519500058E-02	1.20919382404E-02	1.25874796731E-01	2.15303547436E-01
1.63100000000E+09	-2.91275691945E-01	-1.95841314115E-01	6.27090200162E-02	8.86013527239E-03	6.22147290908E-02	9.58197606793E-03	1.36806175865E-01	2.12265931043E-01
1.63200000000E+09	-2.91600236681E-01	-1.90139160436E-01	6.30534965732E-02	6.30973827545E-03	6.25828585792E-02	7.05148261890E-03	1.47525482217E-01	2.08522980857E-01
1.63300000000E+09	-2.91588845026E-01	-1.84320669536E-01	6.32980302890E-02	3.74679640237E-03	6.28542318143E-02	4.51471107205E-03	1.57973412626E-01	2.04090866835E-01
1.63400000000E+09	-2.91230145003E-01	-1.78412392618E-01	6.34450610870E-02	1.17508674840E-03	6.30300632644E-02	1.96588139409E-03	1.68119058964E-01	1.98991532157E-01
1.63500000000E+09	-2.90532991005E-01	-1.72442128498E-01	6.34968675440E-02	-1.39933489004E-03	6.31091658557E-02	-5.89105178538E-04	1.77914165573E-01	1.93247683787E-01
1.63600000000E+09	-2.89500676241E-01	-1.66447758701E-01	6.34533472703E-02	-3.98164142201E-03	6.30958870023E-02	-3.14910003012E-03	1.87334781444E-01	1.86882841003E-01
1.63700000000E+09	-2.88132140011E-01	-1.60438001964E-01	6.33054736356E-02	-6.56495900873E-03	6.29815179125E-02	-5.70952693988E-03	1.96321530034E-01	1.79920384446E-01
1.63800000000E+09	-2.86416879699E-01	-1.54452807220E-01	6.30609842560E-02	-9.14061345728E-03	6.27683485689E-02	-8.26857041270E-03	2.04857302360E-01	1.72390063788E-01
1.63900000000E+09	-2.84389229050E-01	-1.48500332187E-01	6.27167741731E-02	-1.17135814400E-02	6.24568861879E-02	-1.08234516361E-02	2.12899806037E-01	1.64315569527E-01
1.64000000000E+09	-2.82032789422E-01	-1.42611314982E-01	6.22735269045E-02	-1.42774881717E-02	6.20561774688E-02	-1.33704451314E-02	2.20413721053E-01	1.55739733687E-01
1.64100000000E+09	-2.79362076753E-01	-1.36807465731E-01	6.17324479557E-02	-1.68285693694E-02	6.15516078983E-02	-1.59075737150E-02	2.27381465870E-01	1.46689603804E-01
1.64200000000E+09	-2.76385615000E-01	-1.31095232962E-01	6.10876124167E-02	-1.93648417847E-02	6.09483299249E-02	-1.84269609512E-02	2.33760979044E-01	1.37199289185E-01
1.64300000000E+09	-2.73114993560E-01	-1.25508325249E-01	6.03455516554E-02	-2.18833350807E-02	6.02461909724E-02	-2.09322408602E-02	2.39535500749E-01	1.27311453300E-01
1.64400000000E+09	-2.69556618581E-01	-1.20059249184E-01	5.95015364287E-02	-2.43762812367E-02	5.94464823381E-02	-2.34179721892E-02	2.44672628821E-01	1.17059154193E-01
1.64500000000E+09	-2.65712017305E-01	-1.14762658923E-01	5.85592307636E-02	-2.68465135040E-02	5.85442301205E-02	-2.58757979056E-02	2.49157242904E-01	1.06488436389E-01
1.64600000000E+09	-2.61598223178E-01	-1.09632669114E-01	5.75149868176E-02	-2.92815570259E-02	5.75443161164E-02	-2.83095888308E-02	2.52967326083E-01	9.56313903985E-02
1.64700000000E+09	-2.57212332251E-01	-1.04694139547E-01	5.63716510885E-02	-3.16884031516E-02	5.64475342487E-02	-3.07112752532E-02	2.56093552068E-01	8.45291693059E-02
1.64800000000E+09	-2.52570187220E-01	-9.99584392824E-02	5.51272316623E-02	-3.40580481630E-02	5.52521859001E-02	-3.30751486694E-02	2.58508236813E-01	7.32391079507E-02
1.64900000000E+09	-2.47685941302E-01	-9.54526983241E-02	5.37883217740E-02	-3.63818105969E-02	5.39549717525E-02	-3.54053587544E-02	2.60206227511E-01	6.17895689736E-02
1.65000000000E+09	-2.42567816436E-01	-9.11691042424E-02	5.23467415621E-02	-3.86679113109E-02	5.25594530913E-02	-3.76870648942E-02	2.61177991027E-01	5.02281116681E-02
1.65100000000E+09	-2.37233433210E-01	-8.71466489440E-02	5.08062946323E-02	-4.08969903137E-02	5.10666278816E-02	-3.99246307107E-02	2.61414075243E-01	3.86125027017E-02
1.65200000000E+09	-2.31684027981E-01	-8.33937525739E-02	4.91648979619E-02	-4.30756062163E-02	4.94729821635E-02	-4.21108324359E-02	2.60908140244E-01	2.69739602866E-02
1.65300000000E+09	-2.25936642283E-01	-7.99352096803E-02	4.74347083944E-02	-4.51942850039E-02	4.77880155139E-02	-4.42415699937E-02	2.59673372385E-01	1.53593899398E-02
1.65400000000E+09	-2.20018488755E-01	-7.67638506813E-02	4.56027164975E-02	-4.72490527450E-02	4.60055196961E-02	-4.63110230244E-02	2.57694172660E-01	3.82135973953E-03
1.65500000000E+09	-2.13927141634E-01	-7.39290614736E-02	4.36771246255E-02	-4.92386421282E-02	4.41266621634E-02	-4.83155577768E-02	2.54969553452E-01	-7.59374116456E-03
1.65600000000E+09	-2.07700331746E-01	-7.14234953389E-02	4.16620006479E-02	-5.11522842821E-02	4.21561060329E-02	-5.02468562737E-02	2.51516332593E-01	-1.88401438078E-02
1.65700000000E+09	-2.01344684842E-01	-6.92583994977E-02	3.95561689178E-02	-5.29924093731E-02	4.00898779914E-02	-5.21082598461E-02	2.47349427108E-01	-2.98716826158E-02
1.65800000000E+09	-1.94885978474E-01	-6.74660927109E-02	3.73590481268E-02	-5.47483725714E-02	3.79389041814E-02	-5.38897374127E-02	2.42471438688E-01	-4.06471109369E-02
1.65900000000E+09	-1.88339696928E-01	-6.60466661665E-02	3.50766374611E-02	-5.64150172295E-02	3.57008440591E-02	-5.55835580067E-02	2.36898311817E-01	-5.11090604676E-02
1.66000000000E+09	-1.81738986907E-01	-6.50216417231E-02	3.27140033815E-02	-5.79897300493E-02	3.33769902933E-02	-5.71867618275E-02	2.30642875358E-01	-6.12310287447E-02
1.66100000000E+09	-1.75111737822E-01	-6.43976090844E-02	3.02746343388E-02	-5.94695784097E-02	3.09768686632E-02	-5.86956456454E-02	2.23738687263E-01	-7.09495954369E-02
1.66200000000E+09	-1.68481614478E-01	-6.41899075096E-02	2.77541790598E-02	-6.08455389996E-02	2.84910606246E-02	-6.01040819891E-02	2.16200490512E-01	-8.02286538312E-02
1.66300000000E+09	-1.61888473515E-01	-6.44126842598E-02	2.51670838398E-02	-6.21096947704E-02	2.59401306502E-02	-6.14064461423E-02	2.08053772004E-01	-8.90241659271E-02
1.66400000000E+09	-1.55359894654E-01	-6.50623548964E-02	2.25093423577E-02	-6.32705487835E-02	2.33151773817E-02	-6.26013794275E-02	1.99342635044E-01	-9.73071941038E-02
1.66500000000E+09	-1.48932077210E-01	-6.61457320850E-02	1.97878868101E-02	-6.43121579047E-02	2.06297371149E-02	-6.36774938122E-02	1.90071152230E-01	-1.05019152206E-01
1.66600000000E+09	-1.42656082349E-01	-6.76573862977E-02	1.70142086073E-02	-6.52312134225E-02	1.78848841406E-02	-6.46325409585E-02	1.80290303904E-01	-1.12131988383E-01
1.66700000000E+09	-1.36559872437E-01	-6.96026736909E-02	1.41900039961E-02	-6.60227525940E-02	1.50836458491E-02	-6.54715826257E-02	1.70042383126E-01	-1.18623385183E-01
1.66800000000E+09	-1.30683837670E-01	-7.19626000583E-02	1.13191589498E-02	-6.66883886771E-02	1.22393444275E-02	-6.61783197317E-02	1.59362681778E-01	-1.24440825017E-01
1.66900000000E+09	-1.25068978725E-01	-7.47342987417E-02	8.41228200969E-03	-6.72165309140E-02	9.35501800497E-03	-6.67501511022E-02	1.48287147720E-01	-1.29564385641E-01
1.67000000000E+09	-1.19767692917E-01	-7.79024388734E-02	5.47608687442E-03	-6.76185864022E-02	6.43859703605E-03	-6.71925808855E-02	1.36873802809E-01	-1.33958539102E-01
1.67100000000E+09	-1.14822537789E-01	-8.14421123219E-02	2.51171547114E-03	-6.78769358304E-02	3.49256071934E-03	-6.74932253181E-02	1.25158372334E-01	-1.37604182012E-01
1.67200000000E+09	-1.10266897869E-01	-8.53316815758E-02	-4.61151978181E-04	-6.79964770932E-02	5.36790714371E-04	-6.76566029719E-02	1.13187869832E-01	-1.40474797547E-01
1.67300000000E+09	-1.06162436732E-01	-8.95308703247E-02	-3.44215675133E-03	-6.79745351161E-02	-2.43179744624E-03	-6.76827468320E-02	1.01023383846E-01	-1.42555609979E-01
1.67400000000E+09	-1.02531323563E-01	-9.40008095542E-02	-6.42712659952E-03	-6.78128643519E-02	-5.40395792092E-03	-6.75657682302E-02	8.87083858500E-02	-1.43821985335E-01
1.67500000000E+09	-9.94233117601E-02	-9.86931493199E-02	-9.40068016227E-03	-6.75026881441E-02	-8.36656774423E-03	-6.73046918228E-02	7.63050393559E-02	-1.44275482350E-01
1.67600000000E+09	-9.68639366373E-02	-1.03550417446E-01	-1.23547959006E-02	-6.70611042612E-02	-1.13144794286E-02	-6.69080037402E-02	6.38620934524E-02	-1.43894726506E-01
1.67700000000E+09	-9.48820025532E-02	-1.08520886534E-01	-1.52835880413E-02	-6.64768430123E-02	-1.42338965189E-02	-6.63699240607E-02	5.14362681880E-02	-1.42678424901E-01
1.67800000000E+09	-9.34993200080E-02	-1.13524401169E-01	-1.81805989431E-02	-6.57579374274E-02	-1.71259242939E-02	-6.56920996526E-02	3.90827326081E-02	-1.40630750266E-01
1.67900000000E+09	-9.27316019648E-02	-1.18505490400E-01	-2.10354026715E-02	-6.49033006156E-02	-1.99786320331E-02	-6.48879492265E-02	2.68644798452E-02	-1.37749457043E-01
1.68000000000E+09	-9.25751382131E-02	-1.23372692764E-01	-2.38384451227E-02	-6.39205264446E-02	-2.27825197756E-02	-6.39522763286E-02	1.48365140151E-02	-1.34047167897E-01
1.68100000000E+09	-9.30172026217E-02	-1.28053122339E-01	-2.65921803749E-02	-6.28134276109E-02	-2.55373617776E-02	-6.28893115058E-02	3.05038849968E-03	-1.29524388747E-01
1.68200000000E+09	-9.40404289902E-02	-1.32478406996E-01	-2.92787549471E-02	-6.15835260119E-02	-2.82326272558E-02	-6.17100082218E-02	-8.43632541131E-03	-1.24205951846E-01
1.68300000000E+09	-9.56135772125E-02	-1.36563287803E-01	-3.19048039348E-02	-6.02387235449E-02	-3.08613591591E-02	-6.04103706979E-02	-1.95634553348E-02	-1.18109091670E-01
1.68400000000E+09	-9.76956365399E-02	-1.40237662492E-01	-3.44618749853E-02	-5.87815339935E-02	-3.34228655900E-02	-5.90023136418E-02	-3.02742885604E-02	-1.11255931407E-01
1.68500000000E+09	-1.00219175129E-01	-1.43432593591E-01	-3.69410859782E-02	-5.72201276071E-02	-3.59175875872E-02	-5.74842389136E-02	-4.05304314725E-02	-1.03676913407E-01
1.68600000000E+09	-1.03122391555E-01	-1.46094411156E-01	-3.93422842783E-02	-5.55581236998E-02	-3.83339383198E-02	-5.58680852017E-02	-5.02707660014E-02	-9.54010581800E-02
1.68700000000E+09	-1.06347166407E-01	-1.48176370291E-01	-4.16690857246E-02	-5.37974883744E-02	-4.06696235674E-02	-5.41521476239E-02	-5.94430196376E-02	-8.64667643323E-02
1.68800000000E+09	-1.09793687721E-01	-1.49633054913E-01	-4.39059597140E-02	-5.19439932830E-02	-4.29281190004E-02	-5.23425932800E-02	-6.80105183784E-02	-7.69011982296E-02
1.68900000000E+09	-1.13379067260E-01	-1.50444457016E-01	-4.60606750627E-02	-5.00043580086E-02	-4.51014588741E-02	-5.04470640893E-02	-7.59251579878E-02	-6.67690736615E-02
1.69000000000E+09	-1.17016593287E-01	-1.50588056348E-01	-4.81289912076E-02	-4.79774244872E-02	-4.71894042418E-02	-4.84623944853E-02	-8.31536625062E-02	-5.60957104357E-02
1.69100000000E+09	-1.20614273396E-01	-1.50079392763E-01	-5.01045933788E-02	-4.58772604740E-02	-4.91883875698E-02	-4.63989181612E-02	-8.96458393743E-02	-4.49449876931E-02
1.69200000000E+09	-1.24079155879E-01	-1.48917590566E-01	-5.19909355674E-02	-4.36913933787E-02	-5.10976238648E-02	-4.42556709716E-02	-9.53885452331E-02	-3.33592041078E-02
1.69300000000E+09	-1.27318850300E-01	-1.47151432895E-01	-5.37837076691E-02	-4.14329751326E-02	-5.29182256127E-02	-4.20376706996E-02	-1.00335736126E-01	-2.13983957285E-02
1.69400000000E+09	-1.30260268170E-01	-1.44797831298E-01	-5.54753314242E-02	-3.91055483417E-02	-5.46383596187E-02	-3.97461038258E-02	-1.04475312515E-01	-9.11323293950E-03
1.69500000000E+09	-1.32825122069E-01	-1.41934999269E-01	-5.70722269098E-02	-3.67078726204E-02	-5.62633207814E-02	-3.73836563051E-02	-1.07775202467E-01	3.43920356303E-03
1.69600000000E+09	-1.34960426979E-01	-1.38613060510E-01	-5.85600824198E-02	-3.42496179873E-02	-5.77876927610E-02	-3.49613049481E-02	-1.10238791711E-01	1.61911100180E-02
1.69700000000E+09	-1.36609546473E-01	-1.34902609757E-01	-5.99464080258E-02	-3.17303469387E-02	-5.92048837334E-02	-3.24716806061E-02	-1.11834730236E-01	2.90972151949E-02
1.69800000000E+09	-1.37737975093E-01	-1.30871556762E-01	-6.12282039093E-02	-2.91536043000E-02	-6.05165614905E-02	-2.99260130052E-02	-1.12567387542E-01	4.20907961871E-02
1.69900000000E+09	-1.38309946256E-01	-1.26604186210E-01	-6.23941658641E-02	-2.65257204551E-02	-6.17229643395E-02	-2.73294964895E-02	-1.12430370346E-01	5.51127961589E-02
1.70000000000E+09	-1.38326708775E-01	-1.22160228080E-01	-6.34504623282E-02	-2.38520386281E-02	-6.28114872010E-02	-2.46795761501E-02	-1.11440828925E-01	6.80992125397E-02
1.70100000000E+09	-1.37758844534E-01	-1.17626196133E-01	-6.43879944556E-02	-2.11318442580E-02	-6.37855191059E-02	-2.19912758133E-02	-1.09587692123E-01	8.09911643630E-02
1.70200000000E+09	-1.36619144643E-01	-1.13068551251E-01	-6.52091417996E-02	-1.83806088445E-02	-6.46456891654E-02	-1.92572884873E-02	-1.06883864736E-01	9.37374061240E-02
1.70300000000E+09	-1.34922310315E-01	-1.08560342030E-01	-6.59102313485E-02	-1.55940135410E-02	-6.53881223245E-02	-1.64972829322E-02	-1.03350563049E-01	1.06283876072E-01
1.70400000000E+09	-1.32683973488E-01	-1.04166455148E-01	-6.64882019000E-02	-1.27843433549E-02	-6.60059625561E-02	-1.37072627490E-02	-9.90016714592E-02	1.18556606189E-01
1.70500000000E+09	-1.29935681854E-01	-9.99443610192E-02	-6.69481238767E-02	-9.95273395053E-03	-6.65051586521E-02	-1.08950615850E-02	-9.38651473532E-02	1.30528929295E-01
1.70600000000E+09	-1.26711987411E-01	-9.59476442480E-02	-6.72837571059E-02	-7.10892681606E-03	-6.68856720429E-02	-8.06944925535E-03	-8.79652674275E-02	1.42127939761E-01
1.70700000000E+09	-1.23053131820E-01	-9.22248252253E-02	-6.74984701083E-02	-4.25294509224E-03	-6.71401003288E-02	-5.22846451588E-03	-8.13250656815E-02	1.53317295015E-01
1.70800000000E+09	-1.18995821918E-01	-8.88050806483E-02	-6.75931738964E-02	-1.39473417256E-03	-6.72742345516E-02	-2.38507243748E-03	-7.39837342217E-02	1.64044240139E-01
1.70900000000E+09	-1.14583504892E-01	-8.57304483312E-02	-6.75630357229E-02	1.46211546797E-03	-6.72881089758E-02	4.57460345743E-04	-6.59710898072E-02	1.74269213769E-01
1.71000000000E+09	-1.09861201631E-01	-8.30192420041E-02	-6.74142737697E-02	4.30958858733E-03	-6.71803266875E-02	3.29568525431E-03	-5.73377498412E-02	1.83948114793E-01
1.71100000000E+09	-1.04867635784E-01	-8.06978029952E-02	-6.71424712131E-02	7.14628168820E-03	-6.69500520705E-02	6.12514162564E-03	-4.81097746765E-02	1.93045494858E-01
1.71200000000E+09	-9.96518865973E-02	-7.87788022928E-02	-6.67485106359E-02	9.96412916038E-03	-6.66041861426E-02	8.93784480423E-03	-3.83354755315E-02	2.01525809049E-01
1.71300000000E+09	-9.42569710753E-02	-7.72759937856E-02	-6.62387405516E-02	1.27630100649E-02	-6.61393569077E-02	1.17321454201E-02	-2.80507760366E-02	2.09366808276E-01
1.71400000000E+09	-8.87228471623E-02	-7.61910064608E-02	-6.56138009371E-02	1.55309337477E-02	-6.55525851859E-02	1.44974489554E-02	-1.73129977090E-02	2.16534233406E-01
1.71500000000E+09	-8.30833794120E-02	-7.55270777127E-02	-6.48707131291E-02	1.82686883848E-02	-6.48567310634E-02	1.72336197087E-02	-6.16571640329E-03	2.22993214408E-01
1.71600000000E+09	-7.73875348871E-02	-7.52931948489E-02	-6.40173790797E-02	2.09702345728E-02	-6.40459882938E-02	1.99348127744E-02	5.34895192465E-03	2.28738728076E-01
1.71700000000E+09	-7.16677621561E-02	-7.54727696209E-02	-6.30453755452E-02	2.36271111440E-02	-6.31236173965E-02	2.25952911641E-02	1.71805008004E-02	2.33740316873E-01
