# Hz S RI R 50
! CMT, CMT808U, 21440046, 21.4.3/4
! Date: 11/12/2025 3:20:12 PM
! Data: Format (Calibration Info)
! Freq	S11:Re/Im(F2)	S41:Re/Im(F2)	S14:Re/Im(F2)	S44:Re/Im(F2)
1.70000000000E+09	-1.37785822244E-01	-1.18301742869E-01	-5.74687834511E-02	-3.72438494166E-02	-5.74827455975E-02	-3.72437614472E-02	-9.79295859990E-02	4.02312486549E-02
1.70050000000E+09	-1.37212249666E-01	-1.15938030508E-01	-5.82787531525E-02	-3.60851525484E-02	-5.82902560524E-02	-3.60798064514E-02	-9.82471531635E-02	4.56783412266E-02
1.70100000000E+09	-1.36471151364E-01	-1.13557667777E-01	-5.90647661504E-02	-3.48744580058E-02	-5.90723625021E-02	-3.48879534347E-02	-9.83563947388E-02	5.11082722848E-02
1.70150000000E+09	-1.35595721240E-01	-1.11242095504E-01	-5.98376373906E-02	-3.36778925195E-02	-5.98122200829E-02	-3.36744695781E-02	-9.83150950090E-02	5.65247184966E-02
1.70200000000E+09	-1.34570528438E-01	-1.08933443072E-01	-6.05773479703E-02	-3.24569005334E-02	-6.05702827080E-02	-3.24456593465E-02	-9.80700898896E-02	6.19776442703E-02
1.70250000000E+09	-1.33346757383E-01	-1.06645278574E-01	-6.12924352571E-02	-3.12046864419E-02	-6.13047008795E-02	-3.11951259065E-02	-9.76421016438E-02	6.73917759540E-02
1.70300000000E+09	-1.32045373513E-01	-1.04408203454E-01	-6.20005141753E-02	-2.99331551117E-02	-6.20089228614E-02	-2.99306807478E-02	-9.70825927621E-02	7.27715650462E-02
1.70350000000E+09	-1.30592033551E-01	-1.02227408644E-01	-6.26623437973E-02	-2.86494839692E-02	-6.26744318762E-02	-2.86581784932E-02	-9.63089145502E-02	7.81093764429E-02
1.70400000000E+09	-1.28975483131E-01	-1.00118154072E-01	-6.33168718572E-02	-2.73475046675E-02	-6.33152443135E-02	-2.73519226534E-02	-9.53264335840E-02	8.34554515892E-02
1.70450000000E+09	-1.27269195269E-01	-9.80846429062E-02	-6.39250392063E-02	-2.60285637585E-02	-6.39417406871E-02	-2.60220064895E-02	-9.42101199835E-02	8.87571122436E-02
1.70500000000E+09	-1.25434971100E-01	-9.60950876504E-02	-6.45350231973E-02	-2.47028729772E-02	-6.45571474413E-02	-2.46849518962E-02	-9.29011763499E-02	9.40129156917E-02
1.70550000000E+09	-1.23462150113E-01	-9.42412689644E-02	-6.51187689184E-02	-2.33189811697E-02	-6.51054530081E-02	-2.33450551206E-02	-9.14259829496E-02	9.92035721545E-02
1.70600000000E+09	-1.21401341808E-01	-9.24560813212E-02	-6.56418218930E-02	-2.19748836393E-02	-6.56616359983E-02	-2.19661475033E-02	-8.97905622028E-02	1.04364163135E-01
1.70650000000E+09	-1.19252454212E-01	-9.07401429464E-02	-6.61560416497E-02	-2.05735887025E-02	-6.61652711376E-02	-2.05763209139E-02	-8.79658857443E-02	1.09420491788E-01
1.70700000000E+09	-1.17009841893E-01	-8.91385398143E-02	-6.66466164518E-02	-1.91787992440E-02	-6.66637027681E-02	-1.91738804365E-02	-8.59797397726E-02	1.14446528082E-01
1.70750000000E+09	-1.14634972812E-01	-8.76551833882E-02	-6.70943800488E-02	-1.77615230231E-02	-6.70994709122E-02	-1.77506531079E-02	-8.38482324656E-02	1.19391319415E-01
1.70800000000E+09	-1.12190194772E-01	-8.62510020030E-02	-6.74999074527E-02	-1.63185193323E-02	-6.75390618019E-02	-1.63320552288E-02	-8.15424820635E-02	1.24252560768E-01
1.70850000000E+09	-1.09694995562E-01	-8.49800863970E-02	-6.78879192033E-02	-1.48747010895E-02	-6.79177768876E-02	-1.48899136771E-02	-7.90629241955E-02	1.29052236566E-01
1.70900000000E+09	-1.07116790679E-01	-8.37965504412E-02	-6.82516741637E-02	-1.34219837592E-02	-6.82685469007E-02	-1.34271245918E-02	-7.64750849548E-02	1.33740211924E-01
1.70950000000E+09	-1.04491320401E-01	-8.27490957171E-02	-6.85877424435E-02	-1.19561686559E-02	-6.85841349905E-02	-1.19629179279E-02	-7.37428589225E-02	1.38352614383E-01
1.71000000000E+09	-1.01793589176E-01	-8.18262310785E-02	-6.88710569659E-02	-1.04717569508E-02	-6.88757938598E-02	-1.04830365659E-02	-7.07811635126E-02	1.42837738317E-01
1.71050000000E+09	-9.90735965277E-02	-8.09966712062E-02	-6.91459116634E-02	-8.98324659894E-03	-6.91378158036E-02	-8.99825736675E-03	-6.77530873376E-02	1.47254245401E-01
1.71100000000E+09	-9.62988167054E-02	-8.02775327164E-02	-6.93650371287E-02	-7.49580731465E-03	-6.93552264691E-02	-7.49020985110E-03	-6.45461782926E-02	1.51560999943E-01
1.71150000000E+09	-9.35062166304E-02	-7.96941883743E-02	-6.95432846266E-02	-5.99589685068E-03	-6.95496936700E-02	-5.97819897030E-03	-6.12268808860E-02	1.55785178538E-01
1.71200000000E+09	-9.06673788655E-02	-7.92257532242E-02	-6.96873560732E-02	-4.49518298441E-03	-6.97150902160E-02	-4.47963879088E-03	-5.77940335225E-02	1.59851185732E-01
1.71250000000E+09	-8.78355508305E-02	-7.88861584532E-02	-6.98163286349E-02	-2.96910010371E-03	-6.98333148894E-02	-2.95379099420E-03	-5.41646206834E-02	1.63783223729E-01
1.71300000000E+09	-8.49639431937E-02	-7.86636146968E-02	-6.98963601256E-02	-1.44595873053E-03	-6.99004824318E-02	-1.44293546153E-03	-5.04592727150E-02	1.67640662234E-01
1.71350000000E+09	-8.21134031625E-02	-7.85338677659E-02	-6.99487938080E-02	7.90792255433E-05	-6.99630479745E-02	7.91672761475E-05	-4.66647063580E-02	1.71344681387E-01
1.71400000000E+09	-7.92219769080E-02	-7.85331093090E-02	-6.99579087483E-02	1.60012184390E-03	-6.99599557145E-02	1.60145365999E-03	-4.27425373607E-02	1.74933705734E-01
1.71450000000E+09	-7.63737702017E-02	-7.86508412154E-02	-6.99234182540E-02	3.12664599729E-03	-6.99414403696E-02	3.11728723401E-03	-3.86484939065E-02	1.78386246535E-01
1.71500000000E+09	-7.35071268786E-02	-7.88824832255E-02	-6.98783053368E-02	4.64774081067E-03	-6.98845899988E-02	4.66672411416E-03	-3.45157802212E-02	1.81714021846E-01
1.71550000000E+09	-7.06655851568E-02	-7.92187272186E-02	-6.97812748578E-02	6.18336683655E-03	-6.97853334717E-02	6.19606813891E-03	-3.02209121726E-02	1.84902405310E-01
1.71600000000E+09	-6.78440847266E-02	-7.96450410592E-02	-6.96418662829E-02	7.70826698665E-03	-6.96486322432E-02	7.71209262487E-03	-2.58830649848E-02	1.87947582841E-01
1.71650000000E+09	-6.50308735113E-02	-8.01980029261E-02	-6.94992694209E-02	9.23611229919E-03	-6.94779028034E-02	9.23718738202E-03	-2.13975248332E-02	1.90849924154E-01
1.71700000000E+09	-6.22610444102E-02	-8.08520064498E-02	-6.92999089023E-02	1.07608724288E-02	-6.92941235643E-02	1.07563967479E-02	-1.68939257484E-02	1.93584532539E-01
1.71750000000E+09	-5.95297344688E-02	-8.15897363886E-02	-6.90584667080E-02	1.22614256273E-02	-6.90384933826E-02	1.22684238351E-02	-1.22571762249E-02	1.96193138344E-01
1.71800000000E+09	-5.67920119000E-02	-8.24440670702E-02	-6.87712917511E-02	1.37810034613E-02	-6.87738683589E-02	1.37786372940E-02	-7.55979901646E-03	1.98646778512E-01
1.71850000000E+09	-5.41405050579E-02	-8.34005595166E-02	-6.84654429814E-02	1.52785613683E-02	-6.84611618161E-02	1.52900938219E-02	-2.82886625480E-03	2.00961018166E-01
1.71900000000E+09	-5.15150198266E-02	-8.44297335703E-02	-6.81149599865E-02	1.67691199700E-02	-6.81181449405E-02	1.67854595811E-02	2.05437762384E-03	2.03090941188E-01
1.71950000000E+09	-4.89296547391E-02	-8.55347511750E-02	-6.77410843726E-02	1.82558665464E-02	-6.77353541610E-02	1.82807317074E-02	6.92482389563E-03	2.05067379307E-01
1.72000000000E+09	-4.63988251626E-02	-8.67631992263E-02	-6.73201819830E-02	1.97374078182E-02	-6.73230634517E-02	1.97501440115E-02	1.18947066851E-02	2.06913690347E-01
1.72050000000E+09	-4.39144705307E-02	-8.80443071938E-02	-6.68620528133E-02	2.12009619793E-02	-6.68695500609E-02	2.12174852544E-02	1.68971583078E-02	2.08557585708E-01
1.72100000000E+09	-4.14935425568E-02	-8.94387339844E-02	-6.63742642018E-02	2.26734993335E-02	-6.63909455419E-02	2.26691947331E-02	2.19601011120E-02	2.10081076763E-01
1.72150000000E+09	-3.91212742850E-02	-9.08786674753E-02	-6.58693716266E-02	2.41114420136E-02	-6.58666442018E-02	2.41174974718E-02	2.70503123864E-02	2.11442950359E-01
1.72200000000E+09	-3.68052910405E-02	-9.24115244893E-02	-6.53189819039E-02	2.55426496795E-02	-6.53196329395E-02	2.55539472788E-02	3.22097052956E-02	2.12617346066E-01
1.72250000000E+09	-3.45706237625E-02	-9.39946304639E-02	-6.47328581613E-02	2.69777960161E-02	-6.47419023948E-02	2.69613901969E-02	3.73722712998E-02	2.13649762701E-01
1.72300000000E+09	-3.24017036118E-02	-9.56714679506E-02	-6.41188663972E-02	2.83768533818E-02	-6.41279191849E-02	2.83842067356E-02	4.25394535463E-02	2.14488843685E-01
1.72350000000E+09	-3.02861499549E-02	-9.73874953535E-02	-6.34845944281E-02	2.97513571052E-02	-6.34734433038E-02	2.97668903888E-02	4.77577797834E-02	2.15166769000E-01
1.72400000000E+09	-2.82143989617E-02	-9.91699845541E-02	-6.28009064115E-02	3.11360468892E-02	-6.28006549717E-02	3.11276712925E-02	5.30083731289E-02	2.15742489161E-01
1.72450000000E+09	-2.62517370484E-02	-1.01037050008E-01	-6.20949589019E-02	3.25025682945E-02	-6.20768252239E-02	3.24906833526E-02	5.82714917734E-02	2.16083955072E-01
1.72500000000E+09	-2.43325790957E-02	-1.02930714650E-01	-6.13404375817E-02	3.38301072812E-02	-6.13504631247E-02	3.38330964231E-02	6.34819831529E-02	2.16280685549E-01
1.72550000000E+09	-2.24857660201E-02	-1.04883415376E-01	-6.05779680444E-02	3.51492553172E-02	-6.05753980197E-02	3.51602484103E-02	6.87552220747E-02	2.16290448914E-01
1.72600000000E+09	-2.07263737386E-02	-1.06886806744E-01	-5.97748991534E-02	3.64461781604E-02	-5.97765349079E-02	3.64433872252E-02	7.39765889744E-02	2.16188693667E-01
1.72650000000E+09	-1.90278588996E-02	-1.08930843169E-01	-5.89514094351E-02	3.77222684208E-02	-5.89549891304E-02	3.77350454693E-02	7.92186269646E-02	2.15888081732E-01
1.72700000000E+09	-1.73843806840E-02	-1.11013341957E-01	-5.80822853493E-02	3.89906700560E-02	-5.80970326571E-02	3.89929961823E-02	8.44691003632E-02	2.15408171565E-01
1.72750000000E+09	-1.58431227714E-02	-1.13144718139E-01	-5.72038747586E-02	4.02352033398E-02	-5.72065171837E-02	4.02227037126E-02	8.96480006489E-02	2.14806234273E-01
1.72800000000E+09	-1.43679113591E-02	-1.15298061522E-01	-5.62986827335E-02	4.14415328091E-02	-5.62978740926E-02	4.14393629832E-02	9.48229914260E-02	2.14016655009E-01
1.72850000000E+09	-1.29698468475E-02	-1.17513508673E-01	-5.53432756511E-02	4.26299766048E-02	-5.53605367696E-02	4.26486864128E-02	9.99879084845E-02	2.13087150351E-01
1.72900000000E+09	-1.16502664427E-02	-1.19763661377E-01	-5.43800512214E-02	4.38145513525E-02	-5.44063143502E-02	4.38110123792E-02	1.05119025104E-01	2.11976075060E-01
1.72950000000E+09	-1.03710431960E-02	-1.21992590191E-01	-5.34023431126E-02	4.49496924912E-02	-5.33996069038E-02	4.49630540959E-02	1.10184535854E-01	2.10706013107E-01
1.73000000000E+09	-9.20135404830E-03	-1.24310072725E-01	-5.23695415557E-02	4.60929847959E-02	-5.23851143407E-02	4.60827224485E-02	1.15221761026E-01	2.09261304061E-01
1.73050000000E+09	-8.08178263145E-03	-1.26597463732E-01	-5.13385028502E-02	4.71785123575E-02	-5.13296234836E-02	4.71829425147E-02	1.20212662135E-01	2.07695366183E-01
1.73100000000E+09	-7.07212942923E-03	-1.28942298753E-01	-5.02789513840E-02	4.82469634666E-02	-5.02782294349E-02	4.82458661125E-02	1.25144021826E-01	2.05974532686E-01
1.73150000000E+09	-6.12174301167E-03	-1.31274103378E-01	-4.91929875530E-02	4.93005956979E-02	-4.91771661005E-02	4.93119947143E-02	1.30042149286E-01	2.04075140373E-01
1.73200000000E+09	-5.23567408255E-03	-1.33646680815E-01	-4.80803156494E-02	5.03103700103E-02	-4.80776035670E-02	5.03299834417E-02	1.34864052542E-01	2.02036922504E-01
1.73250000000E+09	-4.43283276686E-03	-1.36022589236E-01	-4.69762107148E-02	5.13237180580E-02	-4.69588237828E-02	5.12961015476E-02	1.39576432713E-01	1.99842334731E-01
1.73300000000E+09	-3.69718925895E-03	-1.38400017640E-01	-4.58115101209E-02	5.22763587971E-02	-4.58044905571E-02	5.22958882290E-02	1.44275338533E-01	1.97546793232E-01
1.73350000000E+09	-3.05274614958E-03	-1.40814939317E-01	-4.46433487969E-02	5.32261613850E-02	-4.46441293834E-02	5.32139467366E-02	1.48858956460E-01	1.95073526412E-01
1.73400000000E+09	-2.46499163621E-03	-1.43237973809E-01	-4.34532485373E-02	5.41216842417E-02	-4.34432539065E-02	5.41297827374E-02	1.53408807666E-01	1.92436522054E-01
1.73450000000E+09	-1.95715693940E-03	-1.45639209184E-01	-4.22452482401E-02	5.50302872697E-02	-4.22377189546E-02	5.50357633313E-02	1.57868659878E-01	1.89675161869E-01
1.73500000000E+09	-1.52372489185E-03	-1.48063133827E-01	-4.10232740522E-02	5.58779941253E-02	-4.10253697396E-02	5.58820401161E-02	1.62189941546E-01	1.86804962725E-01
1.73550000000E+09	-1.15154734258E-03	-1.50473424427E-01	-3.97836374295E-02	5.67024236678E-02	-3.97900295940E-02	5.67068009876E-02	1.66474839660E-01	1.83769389925E-01
1.73600000000E+09	-8.84211162330E-04	-1.52897181111E-01	-3.85244728212E-02	5.74984535478E-02	-3.85207158765E-02	5.75081153474E-02	1.70638295218E-01	1.80631284670E-01
1.73650000000E+09	-6.64408053913E-04	-1.55317425776E-01	-3.72348339256E-02	5.82876429414E-02	-3.72561767792E-02	5.82639088464E-02	1.74680675928E-01	1.77359291708E-01
1.73700000000E+09	-5.15538241741E-04	-1.57737760841E-01	-3.59651685641E-02	5.90020470115E-02	-3.59597194161E-02	5.90125806473E-02	1.78662638561E-01	1.73914092988E-01
1.73750000000E+09	-4.55710673156E-04	-1.60127589771E-01	-3.46555819286E-02	5.97146340008E-02	-3.46733963623E-02	5.97109730837E-02	1.82530539451E-01	1.70423784118E-01
1.73800000000E+09	-4.60441009705E-04	-1.62544013461E-01	-3.33283864306E-02	6.03706197765E-02	-3.33568623535E-02	6.03853989705E-02	1.86266535870E-01	1.66723996107E-01
1.73850000000E+09	-5.15502409315E-04	-1.64939323070E-01	-3.20139551370E-02	6.10310706603E-02	-3.20345487012E-02	6.10407212867E-02	1.89904559443E-01	1.63002387268E-01
1.73900000000E+09	-6.75792931373E-04	-1.67323238117E-01	-3.06712790004E-02	6.16391626685E-02	-3.06960727087E-02	6.16549681820E-02	1.93422335460E-01	1.59103511397E-01
1.73950000000E+09	-8.58837675097E-04	-1.69671428415E-01	-2.93421067663E-02	6.22175203714E-02	-2.93500511537E-02	6.22415023161E-02	1.96824518028E-01	1.55146849019E-01
1.74000000000E+09	-1.14566971550E-03	-1.72074811252E-01	-2.79843907521E-02	6.27952427030E-02	-2.79871272919E-02	6.27843907918E-02	2.00065619352E-01	1.51046382812E-01
1.74050000000E+09	-1.52686343932E-03	-1.74403885588E-01	-2.66150107229E-02	6.32923011479E-02	-2.66230904508E-02	6.33269463651E-02	2.03204158341E-01	1.46855532318E-01
1.74100000000E+09	-1.94438202417E-03	-1.76733588128E-01	-2.52422182504E-02	6.38026673529E-02	-2.52298051978E-02	6.37960502408E-02	2.06220984290E-01	1.42558175962E-01
1.74150000000E+09	-2.44535934689E-03	-1.79025358486E-01	-2.38566167111E-02	6.42630528088E-02	-2.38527874239E-02	6.42637644866E-02	2.09115630425E-01	1.38163610369E-01
1.74200000000E+09	-2.98339189543E-03	-1.81314721036E-01	-2.24744922343E-02	6.46866948006E-02	-2.24931323374E-02	6.46828830257E-02	2.11846076290E-01	1.33720889674E-01
1.74250000000E+09	-3.65338771330E-03	-1.83578547809E-01	-2.10692817987E-02	6.50877632371E-02	-2.10683471470E-02	6.50692206717E-02	2.14455098121E-01	1.29165221894E-01
1.74300000000E+09	-4.33584553648E-03	-1.85842058317E-01	-1.96718578031E-02	6.54444372579E-02	-1.96831789240E-02	6.54577564561E-02	2.16914801478E-01	1.24541318588E-01
1.74350000000E+09	-5.14013446499E-03	-1.88031137660E-01	-1.82572179381E-02	6.57812529588E-02	-1.82786458777E-02	6.57687087996E-02	2.19243124543E-01	1.19793180240E-01
1.74400000000E+09	-5.97400750805E-03	-1.90190446182E-01	-1.68500808587E-02	6.60705680307E-02	-1.68589982622E-02	6.60747379329E-02	2.21399174910E-01	1.15027894811E-01
1.74450000000E+09	-6.89145773938E-03	-1.92394873308E-01	-1.54589517891E-02	6.63448371028E-02	-1.54572785917E-02	6.63576644289E-02	2.23430868208E-01	1.10171549448E-01
1.74500000000E+09	-7.87338710708E-03	-1.94484304041E-01	-1.40390904381E-02	6.65945768847E-02	-1.40426431579E-02	6.65990977713E-02	2.25316317201E-01	1.05284155385E-01
1.74550000000E+09	-8.93873997692E-03	-1.96579549979E-01	-1.26254226683E-02	6.67853587279E-02	-1.26512268272E-02	6.68116418903E-02	2.27004409769E-01	1.00292950546E-01
1.74600000000E+09	-1.00640702333E-02	-1.98635238116E-01	-1.12115125726E-02	6.69794264690E-02	-1.12072781407E-02	6.69780020210E-02	2.28592789943E-01	9.52427468950E-02
1.74650000000E+09	-1.12815301142E-02	-2.00634798952E-01	-9.81145079912E-03	6.71039529560E-02	-9.79722137645E-03	6.71240151955E-02	2.29975335877E-01	9.01850705550E-02
1.74700000000E+09	-1.25535271938E-02	-2.02604857070E-01	-8.38210192786E-03	6.72210927726E-02	-8.39329687971E-03	6.72399939086E-02	2.31235403078E-01	8.50689868191E-02
1.74750000000E+09	-1.38593456099E-02	-2.04516963017E-01	-6.98408642541E-03	6.73350304431E-02	-6.97911227872E-03	6.73224717601E-02	2.32325642674E-01	7.99167798878E-02
1.74800000000E+09	-1.52618039700E-02	-2.06372097758E-01	-5.57285364667E-03	6.73703751351E-02	-5.58013531026E-03	6.73893972760E-02	2.33241084713E-01	7.46952717869E-02
1.74850000000E+09	-1.67231185567E-02	-2.08207979311E-01	-4.17158099403E-03	6.74075633170E-02	-4.16232755223E-03	6.74095701253E-02	2.34016288886E-01	6.94576478123E-02
1.74900000000E+09	-1.82801427514E-02	-2.09970232985E-01	-2.78025402055E-03	6.74018974858E-02	-2.76004143431E-03	6.74121104534E-02	2.34598088244E-01	6.42183840272E-02
1.74950000000E+09	-1.98620165437E-02	-2.11664413146E-01	-1.36880039091E-03	6.73683821304E-02	-1.37782864925E-03	6.73650364586E-02	2.35055243035E-01	5.89518975329E-02
1.75000000000E+09	-2.15432032528E-02	-2.13307558310E-01	2.26296649497E-05	6.72956059468E-02	-1.76200197379E-06	6.72973640983E-02	2.35311481911E-01	5.36649133089E-02
1.75050000000E+09	-2.32648448558E-02	-2.14885881046E-01	1.39948093652E-03	6.72139926060E-02	1.39302740110E-03	6.72132478255E-02	2.35407877139E-01	4.83770513440E-02
1.75100000000E+09	-2.50248746947E-02	-2.16410522707E-01	2.76426366702E-03	6.70990518189E-02	2.75219353831E-03	6.71120823551E-02	2.35370586636E-01	4.30715379899E-02
1.75150000000E+09	-2.68775196474E-02	-2.17863993063E-01	4.13385099395E-03	6.69602367125E-02	4.14832282511E-03	6.69436180559E-02	2.35146332877E-01	3.77856584981E-02
1.75200000000E+09	-2.87941179739E-02	-2.19212360990E-01	5.49699935645E-03	6.67769841504E-02	5.50029901001E-03	6.67826715463E-02	2.34772774876E-01	3.24612177997E-02
1.75250000000E+09	-3.07497813259E-02	-2.20517195373E-01	6.84204981994E-03	6.65803191158E-02	6.86998706678E-03	6.65904728099E-02	2.34199127658E-01	2.72024226403E-02
1.75300000000E+09	-3.27598251639E-02	-2.21712675328E-01	8.18839347821E-03	6.63539457829E-02	8.18250031250E-03	6.63536622799E-02	2.33479746967E-01	2.19491536625E-02
1.75350000000E+09	-3.48055705209E-02	-2.22846512798E-01	9.51249874737E-03	6.60921875276E-02	9.53451083120E-03	6.61026565112E-02	2.32561777019E-01	1.66835940019E-02
1.75400000000E+09	-3.69478052495E-02	-2.23876398341E-01	1.08533009376E-02	6.58187362513E-02	1.08428478568E-02	6.58363590192E-02	2.31490064580E-01	1.14819888227E-02
1.75450000000E+09	-3.90800441654E-02	-2.24801321040E-01	1.21729994580E-02	6.55399246682E-02	1.21705488645E-02	6.55416196707E-02	2.30291446321E-01	6.24711524181E-03
1.75500000000E+09	-4.12653038312E-02	-2.25668287048E-01	1.34611771207E-02	6.51998129664E-02	1.34817097251E-02	6.52123713214E-02	2.28912551730E-01	1.11953902696E-03
1.75550000000E+09	-4.34901968130E-02	-2.26398281849E-01	1.47668240679E-02	6.48595632332E-02	1.47440806446E-02	6.48569625145E-02	2.27321668368E-01	-3.98859737403E-03
1.75600000000E+09	-4.57530038566E-02	-2.27100397138E-01	1.60287250356E-02	6.44843950051E-02	1.60342587299E-02	6.44880164756E-02	2.25610659278E-01	-9.04651883789E-03
1.75650000000E+09	-4.80475757103E-02	-2.27601866725E-01	1.73130877947E-02	6.40910749073E-02	1.72989304563E-02	6.40997311239E-02	2.23751019200E-01	-1.40683946787E-02
1.75700000000E+09	-5.03527265863E-02	-2.28033846143E-01	1.85887862601E-02	6.36565194625E-02	1.85774785169E-02	6.36656356718E-02	2.21715378566E-01	-1.90018109126E-02
1.75750000000E+09	-5.27065601449E-02	-2.28379354412E-01	1.98151672427E-02	6.32316658331E-02	1.98154017436E-02	6.32342019123E-02	2.19524347606E-01	-2.39163253877E-02
1.75800000000E+09	-5.50151479913E-02	-2.28578368680E-01	2.10496115872E-02	6.27804376205E-02	2.10323700168E-02	6.27736250825E-02	2.17164594619E-01	-2.87340609357E-02
1.75850000000E+09	-5.73911624585E-02	-2.28687174121E-01	2.22718646926E-02	6.22900457108E-02	2.22863413745E-02	6.22950196041E-02	2.14633251513E-01	-3.34691925310E-02
