# Hz S RI R 50
! CMT, CMT808U, 21440046, 21.4.3/4
! Date: 11/17/2025 2:27:32 PM
! Data: Format (Calibration Info)
! Freq	S11:Re/Im(F2)	S41:Re/Im(F2)	S14:Re/Im(F2)	S44:Re/Im(F2)
1.70000000000E+09	-8.24180648138E-02	-1.36369865182E-01	-6.76051195295E-02	-8.74095439901E-03	-6.76462130705E-02	-8.64572727491E-03	-4.14063464532E-02	1.26678335930E-02
1.70050000000E+09	-8.20922880617E-02	-1.33947320910E-01	-6.78359225222E-02	-7.24264262841E-03	-6.78971445754E-02	-7.15537961170E-03	-4.27292508042E-02	1.69388370582E-02
1.70100000000E+09	-8.16007667729E-02	-1.31525766950E-01	-6.80253564242E-02	-5.73294466890E-03	-6.80866711580E-02	-5.63725266044E-03	-4.39284013259E-02	2.12480603916E-02
1.70150000000E+09	-8.09746665346E-02	-1.29151614770E-01	-6.82146912268E-02	-4.21429579034E-03	-6.82661129070E-02	-4.12283323134E-03	-4.49903474324E-02	2.55590822193E-02
1.70200000000E+09	-8.01760369399E-02	-1.26748285574E-01	-6.83450451795E-02	-2.69960656440E-03	-6.84001275609E-02	-2.60144851874E-03	-4.58835928197E-02	2.99510619632E-02
1.70250000000E+09	-7.92310204288E-02	-1.24385265853E-01	-6.84429831508E-02	-1.17696832001E-03	-6.85036984097E-02	-1.06292362055E-03	-4.66293939893E-02	3.43567687878E-02
1.70300000000E+09	-7.81489220372E-02	-1.22036824786E-01	-6.85275304794E-02	3.66549044732E-04	-6.85556975168E-02	4.65199845242E-04	-4.72852122762E-02	3.87803442062E-02
1.70350000000E+09	-7.69194915750E-02	-1.19739299823E-01	-6.85376922227E-02	1.89656576444E-03	-6.85943593021E-02	2.00501094391E-03	-4.77420999935E-02	4.31925909823E-02
1.70400000000E+09	-7.55358270805E-02	-1.17477625045E-01	-6.85455713714E-02	3.44185915736E-03	-6.85695286014E-02	3.53977958322E-03	-4.80970966116E-02	4.76654891501E-02
1.70450000000E+09	-7.40331524499E-02	-1.15296750501E-01	-6.84766231763E-02	4.97575584837E-03	-6.85195968643E-02	5.09631338865E-03	-4.82862036234E-02	5.21485176643E-02
1.70500000000E+09	-7.23995204461E-02	-1.13168915937E-01	-6.84110857207E-02	6.53407993303E-03	-6.84374611955E-02	6.64811749805E-03	-4.83156276445E-02	5.66055232883E-02
1.70550000000E+09	-7.06409845991E-02	-1.11121119588E-01	-6.82838838432E-02	8.06620780324E-03	-6.83149351674E-02	8.18659861884E-03	-4.82243171747E-02	6.10529174341E-02
1.70600000000E+09	-6.87500628901E-02	-1.09178549268E-01	-6.81234276262E-02	9.61559838572E-03	-6.81448988213E-02	9.74080110644E-03	-4.79795100591E-02	6.55239954990E-02
1.70650000000E+09	-6.67721952278E-02	-1.07294271864E-01	-6.79156909406E-02	1.11676955764E-02	-6.79388774028E-02	1.12574374360E-02	-4.75645876468E-02	6.99388909022E-02
1.70700000000E+09	-6.46984049165E-02	-1.05511752405E-01	-6.76570223302E-02	1.27022295141E-02	-6.76983008019E-02	1.28262905523E-02	-4.70379863215E-02	7.43788721123E-02
1.70750000000E+09	-6.24819908534E-02	-1.03820560470E-01	-6.74070699038E-02	1.42252800134E-02	-6.74225922863E-02	1.43471236672E-02	-4.63877885330E-02	7.87817502727E-02
1.70800000000E+09	-6.01969825184E-02	-1.02226331370E-01	-6.70804996731E-02	1.57759601308E-02	-6.71031212991E-02	1.58734993211E-02	-4.55533273398E-02	8.31789701132E-02
1.70850000000E+09	-5.78162218092E-02	-1.00760170953E-01	-6.67199404045E-02	1.72754425032E-02	-6.67361544299E-02	1.73924715088E-02	-4.45775025681E-02	8.75087154712E-02
1.70900000000E+09	-5.53438614505E-02	-9.93767580675E-02	-6.63174114492E-02	1.87769904331E-02	-6.63470512322E-02	1.88993562308E-02	-4.35348045836E-02	9.18332181518E-02
1.70950000000E+09	-5.28657890827E-02	-9.81331274895E-02	-6.58942755039E-02	2.03058839103E-02	-6.59227017401E-02	2.04187958081E-02	-4.22966856519E-02	9.61110867077E-02
1.71000000000E+09	-5.02631915162E-02	-9.70153797241E-02	-6.54269989253E-02	2.17709543247E-02	-6.54440841464E-02	2.19005573436E-02	-4.09197023905E-02	1.00320970636E-01
1.71050000000E+09	-4.76389770554E-02	-9.59725145428E-02	-6.49272805944E-02	2.32623846262E-02	-6.49271844886E-02	2.33769230471E-02	-3.94672808953E-02	1.04518365331E-01
1.71100000000E+09	-4.49464217646E-02	-9.50655180662E-02	-6.43788263186E-02	2.47152291027E-02	-6.43882856358E-02	2.48453276679E-02	-3.78001893812E-02	1.08648472975E-01
1.71150000000E+09	-4.22395060072E-02	-9.42676893374E-02	-6.37911561417E-02	2.61912449392E-02	-6.37985275039E-02	2.63014257586E-02	-3.60361156635E-02	1.12727886559E-01
1.71200000000E+09	-3.94756171518E-02	-9.35975068311E-02	-6.31816228898E-02	2.76196162754E-02	-6.31934309764E-02	2.77367193769E-02	-3.41607318072E-02	1.16742821577E-01
1.71250000000E+09	-3.66964843350E-02	-9.30758404100E-02	-6.25290750930E-02	2.90279933297E-02	-6.25390599925E-02	2.91543228151E-02	-3.21395967195E-02	1.20696143632E-01
1.71300000000E+09	-3.39033284884E-02	-9.26497135545E-02	-6.18569486857E-02	3.04342973088E-02	-6.18484872602E-02	3.05509236961E-02	-3.00266836786E-02	1.24582772920E-01
1.71350000000E+09	-3.10715703759E-02	-9.23507438698E-02	-6.11397206740E-02	3.18151163023E-02	-6.11169297158E-02	3.19377599160E-02	-2.77763806681E-02	1.28385594732E-01
1.71400000000E+09	-2.82384272504E-02	-9.21609169469E-02	-6.03845234735E-02	3.31702292421E-02	-6.03752387410E-02	3.32998043744E-02	-2.54092534738E-02	1.32111786399E-01
1.71450000000E+09	-2.53972223838E-02	-9.20826765193E-02	-5.95940758397E-02	3.45156912287E-02	-5.95777823912E-02	3.46281564379E-02	-2.29067604793E-02	1.35761647006E-01
1.71500000000E+09	-2.25725540278E-02	-9.21448031254E-02	-5.87956855731E-02	3.58278274954E-02	-5.87570002818E-02	3.59622112819E-02	-2.03362718045E-02	1.39351344073E-01
1.71550000000E+09	-1.97532709033E-02	-9.23041136315E-02	-5.79288420212E-02	3.71474036387E-02	-5.79147962100E-02	3.72565868085E-02	-1.76039315409E-02	1.42814851992E-01
1.71600000000E+09	-1.69503936008E-02	-9.25852807811E-02	-5.70606003527E-02	3.84102304572E-02	-5.70167244654E-02	3.85220566751E-02	-1.48195081595E-02	1.46234385719E-01
1.71650000000E+09	-1.41702729374E-02	-9.29815536490E-02	-5.61716576728E-02	3.96600181291E-02	-5.61149205580E-02	3.97788938516E-02	-1.18708912630E-02	1.49525961500E-01
1.71700000000E+09	-1.14108302039E-02	-9.34738151762E-02	-5.52146882145E-02	4.08913224941E-02	-5.51830479818E-02	4.10005347134E-02	-8.88090660613E-03	1.52746695390E-01
1.71750000000E+09	-8.68343523518E-03	-9.40563330601E-02	-5.42529400338E-02	4.20892029049E-02	-5.42182910940E-02	4.22099457372E-02	-5.74664319142E-03	1.55852935202E-01
1.71800000000E+09	-5.96196162744E-03	-9.47651016479E-02	-5.32604335353E-02	4.32616524314E-02	-5.32204832230E-02	4.33766805872E-02	-2.57263225133E-03	1.58850933782E-01
1.71850000000E+09	-3.30748514481E-03	-9.55899913465E-02	-5.22430843471E-02	4.44108821218E-02	-5.22191941735E-02	4.45256761977E-02	7.19671145722E-04	1.61787137729E-01
1.71900000000E+09	-7.07855017439E-04	-9.64820872830E-02	-5.12180538103E-02	4.55322914327E-02	-5.11633185767E-02	4.56399266960E-02	4.13652037944E-03	1.64548904697E-01
1.71950000000E+09	1.88977729305E-03	-9.74851790914E-02	-5.01574023791E-02	4.66258070925E-02	-5.01071971938E-02	4.67263329179E-02	7.57934938271E-03	1.67229241607E-01
1.72000000000E+09	4.39848527568E-03	-9.85716251059E-02	-4.90373323158E-02	4.76907578723E-02	-4.90103387566E-02	4.78098354676E-02	1.11080094399E-02	1.69821572278E-01
1.72050000000E+09	6.86377344958E-03	-9.97405610906E-02	-4.79341984839E-02	4.87103589597E-02	-4.79065951694E-02	4.88360673151E-02	1.47156179308E-02	1.72277022960E-01
1.72100000000E+09	9.28378580833E-03	-1.01024748602E-01	-4.68178668577E-02	4.97287069296E-02	-4.67785628872E-02	4.98437716787E-02	1.84066290697E-02	1.74627932125E-01
1.72150000000E+09	1.16460030353E-02	-1.02336817868E-01	-4.56776403333E-02	5.07090782052E-02	-4.56212268027E-02	5.08031611242E-02	2.21550158436E-02	1.76872684068E-01
1.72200000000E+09	1.39261467525E-02	-1.03756303997E-01	-4.45069338690E-02	5.16666311284E-02	-4.44573674850E-02	5.17647218565E-02	2.59623019101E-02	1.78972632527E-01
1.72250000000E+09	1.61620790570E-02	-1.05247163072E-01	-4.33087585594E-02	5.25629177559E-02	-4.32468173782E-02	5.26747743418E-02	2.98323077126E-02	1.80958708508E-01
1.72300000000E+09	1.83195571708E-02	-1.06817167612E-01	-4.21049244602E-02	5.34659525648E-02	-4.20425316238E-02	5.35695018301E-02	3.37242111135E-02	1.82832002574E-01
1.72350000000E+09	2.04240558697E-02	-1.08441042643E-01	-4.09026659770E-02	5.43241215626E-02	-4.08189733603E-02	5.44165065041E-02	3.77291512717E-02	1.84567203617E-01
1.72400000000E+09	2.24546016776E-02	-1.10117303651E-01	-3.96407510002E-02	5.51438237784E-02	-3.95837963943E-02	5.52483587159E-02	4.17719862459E-02	1.86203460297E-01
1.72450000000E+09	2.44120849089E-02	-1.11882827828E-01	-3.84002669063E-02	5.59382078593E-02	-3.83253227009E-02	5.60386728453E-02	4.58442808406E-02	1.87704041781E-01
1.72500000000E+09	2.63053940058E-02	-1.13679305542E-01	-3.71348852932E-02	5.67110542517E-02	-3.70653586008E-02	5.67993833665E-02	4.99251133282E-02	1.89051590694E-01
1.72550000000E+09	2.81223624208E-02	-1.15527743337E-01	-3.58615251724E-02	5.74562058276E-02	-3.57731423756E-02	5.75460954978E-02	5.40815796601E-02	1.90290998311E-01
1.72600000000E+09	2.98704215898E-02	-1.17438402295E-01	-3.45662979726E-02	5.81420672742E-02	-3.44990821364E-02	5.82498794950E-02	5.82286472181E-02	1.91404386153E-01
1.72650000000E+09	3.15088826168E-02	-1.19402274393E-01	-3.32585098880E-02	5.88113301207E-02	-3.31904905216E-02	5.89081431115E-02	6.24381984353E-02	1.92371625444E-01
1.72700000000E+09	3.31223457645E-02	-1.21386762868E-01	-3.19323229239E-02	5.94681735508E-02	-3.18639292293E-02	5.95596964946E-02	6.66612512047E-02	1.93210690195E-01
1.72750000000E+09	3.46170082378E-02	-1.23437190733E-01	-3.06247562023E-02	6.00675426736E-02	-3.05384541923E-02	6.01561866623E-02	7.08686844567E-02	1.93946858857E-01
1.72800000000E+09	3.60712311475E-02	-1.25508808364E-01	-2.92857150599E-02	6.06656717425E-02	-2.92206822058E-02	6.07358487860E-02	7.51310699704E-02	1.94540850162E-01
1.72850000000E+09	3.74001098458E-02	-1.27629837791E-01	-2.79595360247E-02	6.11949744612E-02	-2.78848799164E-02	6.12980130061E-02	7.94019770598E-02	1.94998516281E-01
1.72900000000E+09	3.86923049509E-02	-1.29766256859E-01	-2.66144288782E-02	6.17205573793E-02	-2.65252109743E-02	6.18154065078E-02	8.36786537762E-02	1.95341341553E-01
1.72950000000E+09	3.98962013375E-02	-1.31932030240E-01	-2.52592804929E-02	6.22135873730E-02	-2.51765907030E-02	6.22901179090E-02	8.79328742852E-02	1.95538548764E-01
1.73000000000E+09	4.10111341155E-02	-1.34135314232E-01	-2.38973934817E-02	6.26800802326E-02	-2.38141633044E-02	6.27540684406E-02	9.22154971953E-02	1.95574804435E-01
1.73050000000E+09	4.20588048760E-02	-1.36348569152E-01	-2.25316711241E-02	6.30971039501E-02	-2.24379300918E-02	6.31659562224E-02	9.64769596273E-02	1.95551593237E-01
1.73100000000E+09	4.30277598650E-02	-1.38580492469E-01	-2.11532345969E-02	6.34902629812E-02	-2.10622316544E-02	6.35711128359E-02	1.00724596464E-01	1.95377738180E-01
1.73150000000E+09	4.39000219072E-02	-1.40826981317E-01	-1.97931593946E-02	6.38681386143E-02	-1.97072039961E-02	6.39273987316E-02	1.04964919977E-01	1.95030153405E-01
1.73200000000E+09	4.47202847993E-02	-1.43076377743E-01	-1.84176553502E-02	6.41932281308E-02	-1.83166833466E-02	6.42629293744E-02	1.09202586218E-01	1.94595885404E-01
1.73250000000E+09	4.54402345704E-02	-1.45330983241E-01	-1.70316088652E-02	6.45119424476E-02	-1.69386748588E-02	6.45573155504E-02	1.13377013395E-01	1.94018696491E-01
1.73300000000E+09	4.60903201995E-02	-1.47621683305E-01	-1.56406409303E-02	6.47914920470E-02	-1.55586333729E-02	6.48360628676E-02	1.17546013416E-01	1.93352507645E-01
1.73350000000E+09	4.66792600514E-02	-1.49906899834E-01	-1.42761986132E-02	6.50389936603E-02	-1.41626241692E-02	6.50801158042E-02	1.21702211727E-01	1.92545053956E-01
1.73400000000E+09	4.71827649685E-02	-1.52172038022E-01	-1.28758679737E-02	6.52614962929E-02	-1.27725797185E-02	6.53087263117E-02	1.25853938628E-01	1.91574306141E-01
1.73450000000E+09	4.76170710532E-02	-1.54459711425E-01	-1.14982699811E-02	6.54371352687E-02	-1.14095661968E-02	6.54816902308E-02	1.29914659057E-01	1.90513411540E-01
1.73500000000E+09	4.79436371985E-02	-1.56759760634E-01	-1.01316757462E-02	6.56077391149E-02	-1.00070672656E-02	6.56437042553E-02	1.33950869796E-01	1.89328028805E-01
1.73550000000E+09	4.82659198331E-02	-1.59038764984E-01	-8.73876753865E-03	6.57537685205E-02	-8.63757302861E-03	6.57676732399E-02	1.37941855457E-01	1.88028671889E-01
1.73600000000E+09	4.84485741740E-02	-1.61311747772E-01	-7.36396230069E-03	6.58397106773E-02	-7.25910776899E-03	6.58826805436E-02	1.41884479744E-01	1.86639081800E-01
1.73650000000E+09	4.85789128555E-02	-1.63571463757E-01	-5.98012786885E-03	6.59208138557E-02	-5.89060657690E-03	6.59532616644E-02	1.45782826946E-01	1.85106587327E-01
1.73700000000E+09	4.86738100445E-02	-1.65824697875E-01	-4.61036247947E-03	6.59711531614E-02	-4.51241661120E-03	6.59943555944E-02	1.49624691197E-01	1.83443484481E-01
1.73750000000E+09	4.86675819877E-02	-1.68056017443E-01	-3.24774555093E-03	6.60013771793E-02	-3.13498687489E-03	6.60089973515E-02	1.53436403494E-01	1.81708213279E-01
1.73800000000E+09	4.85874366370E-02	-1.70311529368E-01	-1.87309969802E-03	6.59728647530E-02	-1.75194217518E-03	6.60244061088E-02	1.57141666676E-01	1.79819820017E-01
1.73850000000E+09	4.84428683583E-02	-1.72522898841E-01	-4.91951969607E-04	6.59436869041E-02	-3.94769702988E-04	6.59759667308E-02	1.60803420758E-01	1.77875081256E-01
1.73900000000E+09	4.82451355740E-02	-1.74719141076E-01	8.68188225022E-04	6.58678226865E-02	9.72320825272E-04	6.59171225658E-02	1.64411070385E-01	1.75790065540E-01
1.73950000000E+09	4.80027901467E-02	-1.76902468654E-01	2.22188014678E-03	6.57865187967E-02	2.31544552164E-03	6.58186624040E-02	1.67937560291E-01	1.73619662743E-01
1.74000000000E+09	4.76346734489E-02	-1.79110050073E-01	3.56713963320E-03	6.56828775142E-02	3.65605526834E-03	6.57098021375E-02	1.71389907788E-01	1.71333507604E-01
1.74050000000E+09	4.72088227501E-02	-1.81234958072E-01	4.90742712197E-03	6.55316470341E-02	4.99481081030E-03	6.55724571453E-02	1.74759949631E-01	1.68973863740E-01
1.74100000000E+09	4.67519565657E-02	-1.83378760501E-01	6.23001443104E-03	6.53755241261E-02	6.34986148792E-03	6.53936914973E-02	1.78073014460E-01	1.66473327985E-01
1.74150000000E+09	4.61702242675E-02	-1.85447208380E-01	7.58676887531E-03	6.51801178643E-02	7.68624748262E-03	6.52002112974E-02	1.81311297736E-01	1.63906770271E-01
1.74200000000E+09	4.56043258222E-02	-1.87552510755E-01	8.89079238862E-03	6.49773895116E-02	9.00022297473E-03	6.49967561243E-02	1.84422866982E-01	1.61280004837E-01
1.74250000000E+09	4.49140123030E-02	-1.89584425783E-01	1.02160931730E-02	6.47355203236E-02	1.03254467201E-02	6.47402683591E-02	1.87527561817E-01	1.58514042803E-01
1.74300000000E+09	4.41796526416E-02	-1.91618898655E-01	1.15222538179E-02	6.44602791132E-02	1.16288180954E-02	6.44906473436E-02	1.90482556856E-01	1.55678223640E-01
1.74350000000E+09	4.33797037244E-02	-1.93600103927E-01	1.28337020683E-02	6.41776135072E-02	1.29364848830E-02	6.41836142140E-02	1.93351232864E-01	1.52740656515E-01
1.74400000000E+09	4.25232881711E-02	-1.95552420624E-01	1.41200122485E-02	6.38733581514E-02	1.42285995572E-02	6.38669374802E-02	1.96141937713E-01	1.49774028431E-01
1.74450000000E+09	4.16084132399E-02	-1.97479565214E-01	1.54011862160E-02	6.35311404460E-02	1.54927465808E-02	6.35342760138E-02	1.98825333315E-01	1.46712198179E-01
1.74500000000E+09	4.06556019478E-02	-1.99356445176E-01	1.66824183049E-02	6.31762222243E-02	1.67759578548E-02	6.31793889927E-02	2.01457304067E-01	1.43602632246E-01
1.74550000000E+09	3.95785756587E-02	-2.01196806442E-01	1.79498701173E-02	6.27786262378E-02	1.80437489827E-02	6.28090327584E-02	2.03938747802E-01	1.40365336255E-01
1.74600000000E+09	3.85120052831E-02	-2.03022985704E-01	1.91971342913E-02	6.23860629287E-02	1.93005324081E-02	6.23914837748E-02	2.06359748030E-01	1.37079655909E-01
1.74650000000E+09	3.73318341835E-02	-2.04793863869E-01	2.04585121733E-02	6.19597164534E-02	2.05413362618E-02	6.19578488546E-02	2.08633387168E-01	1.33731568709E-01
1.74700000000E+09	3.61101207595E-02	-2.06503511695E-01	2.16838802673E-02	6.14928591854E-02	2.17835099931E-02	6.15062670817E-02	2.10812179122E-01	1.30316172184E-01
1.74750000000E+09	3.48225850818E-02	-2.08174342529E-01	2.29059154026E-02	6.10363008411E-02	2.30122544346E-02	6.10306899950E-02	2.12916191777E-01	1.26882901653E-01
1.74800000000E+09	3.35133989380E-02	-2.09818233604E-01	2.41176844465E-02	6.05420451447E-02	2.42308185652E-02	6.05514804403E-02	2.14889359479E-01	1.23355040604E-01
1.74850000000E+09	3.21044301702E-02	-2.11383665456E-01	2.53310813254E-02	6.00175313107E-02	2.54328238878E-02	6.00268851266E-02	2.16761882723E-01	1.19785024830E-01
1.74900000000E+09	3.06663057075E-02	-2.12915653662E-01	2.65182373312E-02	5.94797925331E-02	2.66306371254E-02	5.94805757060E-02	2.18512919724E-01	1.16167609005E-01
1.74950000000E+09	2.91532761711E-02	-2.14374384213E-01	2.77038506782E-02	5.89246180454E-02	2.77986799459E-02	5.89157169711E-02	2.20172897718E-01	1.12522528447E-01
1.75000000000E+09	2.75757071447E-02	-2.15801544388E-01	2.88780143249E-02	5.83463491030E-02	2.89785568559E-02	5.83566295577E-02	2.21738889411E-01	1.08817504559E-01
1.75050000000E+09	2.59910747967E-02	-2.17139950515E-01	3.00429314302E-02	5.77609558775E-02	3.01443680814E-02	5.77362550764E-02	2.23136157430E-01	1.05055332588E-01
1.75100000000E+09	2.43661722480E-02	-2.18462620380E-01	3.11657560739E-02	5.71373151077E-02	3.12954580144E-02	5.71427715309E-02	2.24479732817E-01	1.01305143783E-01
1.75150000000E+09	2.26157540194E-02	-2.19678516344E-01	3.23240220743E-02	5.65012552131E-02	3.24274840658E-02	5.64850120197E-02	2.25666829562E-01	9.75364005182E-02
1.75200000000E+09	2.08475161447E-02	-2.20837861640E-01	3.34514607711E-02	5.58511921768E-02	3.35401019020E-02	5.58421221265E-02	2.26762626853E-01	9.36641498834E-02
1.75250000000E+09	1.90685629630E-02	-2.21936889554E-01	3.45551550508E-02	5.51684498583E-02	3.46588101764E-02	5.51455217781E-02	2.27736098741E-01	8.98244822328E-02
1.75300000000E+09	1.72019764330E-02	-2.22941618833E-01	3.56495235127E-02	5.44823457453E-02	3.57506286159E-02	5.44695981667E-02	2.28575264805E-01	8.59743115465E-02
1.75350000000E+09	1.53051461721E-02	-2.23891908490E-01	3.67498563536E-02	5.37518265975E-02	3.68426021045E-02	5.37467273041E-02	2.29313872545E-01	8.20790208912E-02
1.75400000000E+09	1.33895280703E-02	-2.24722257217E-01	3.78029417005E-02	5.30150659037E-02	3.79182148532E-02	5.30038698872E-02	2.29901003683E-01	7.81520802177E-02
1.75450000000E+09	1.14315634464E-02	-2.25483391486E-01	3.88778226649E-02	5.22722569308E-02	3.89853806961E-02	5.22512035845E-02	2.30436036119E-01	7.42359022117E-02
1.75500000000E+09	9.43488138434E-03	-2.26189561245E-01	3.99223720558E-02	5.14863809868E-02	4.00218341116E-02	5.14743277557E-02	2.30825132647E-01	7.03255847689E-02
1.75550000000E+09	7.42302082785E-03	-2.26775370629E-01	4.09243184415E-02	5.06891933408E-02	4.10480460127E-02	5.06801596425E-02	2.31072937230E-01	6.63895640722E-02
1.75600000000E+09	5.36583406442E-03	-2.27334950209E-01	4.19719688083E-02	4.99081949637E-02	4.20778281227E-02	4.98706490915E-02	2.31216825157E-01	6.24888022455E-02
1.75650000000E+09	3.29564514326E-03	-2.27716392488E-01	4.29780241157E-02	4.90723614148E-02	4.30740688779E-02	4.90426459588E-02	2.31280652571E-01	5.85586231763E-02
1.75700000000E+09	1.19368712266E-03	-2.28063008876E-01	4.39629711305E-02	4.82239516720E-02	4.40775349576E-02	4.82051565871E-02	2.31178321807E-01	5.46457837442E-02
1.75750000000E+09	-8.86970092854E-04	-2.28326170537E-01	4.49409252991E-02	4.73785539435E-02	4.50424554576E-02	4.73259107139E-02	2.30956035900E-01	5.07370825729E-02
1.75800000000E+09	-3.00843467928E-03	-2.28454447776E-01	4.59011174235E-02	4.64982896343E-02	4.60123138358E-02	4.64464748359E-02	2.30652180517E-01	4.68485723528E-02
1.75850000000E+09	-5.14450469106E-03	-2.28516881805E-01	4.68575820259E-02	4.55952384515E-02	4.69756441586E-02	4.55572878150E-02	2.30215703870E-01	4.30001019739E-02
1.75900000000E+09	-7.27749733410E-03	-2.28419886312E-01	4.77878198495E-02	4.46674474807E-02	4.78957902521E-02	4.46216051328E-02	2.29654450369E-01	3.91732124661E-02
