# Hz S RI R 50
! CMT, CMT808U, 21440046, 21.4.3/4
! Date: 11/17/2025 2:56:04 PM
! Data: Format (Calibration Info)
! Freq	S11:Re/Im(F2)	S41:Re/Im(F2)	S14:Re/Im(F2)	S44:Re/Im(F2)
1.70000000000E+09	-8.86674534065E-02	-1.36931469422E-01	-5.46026965810E-02	-3.70948798731E-02	-5.46904833597E-02	-3.70499301552E-02	-1.15005099974E-01	3.93542803302E-02
1.70050000000E+09	-8.83118046379E-02	-1.34272034754E-01	-5.53959326131E-02	-3.59945190149E-02	-5.54870963555E-02	-3.59542898145E-02	-1.15190929814E-01	4.53514338242E-02
1.70100000000E+09	-8.78036352726E-02	-1.31622003332E-01	-5.61876614960E-02	-3.48678303676E-02	-5.62814644015E-02	-3.48301337526E-02	-1.15129972714E-01	5.13108330069E-02
1.70150000000E+09	-8.71499593287E-02	-1.28990146589E-01	-5.69417926579E-02	-3.37295689544E-02	-5.70405325387E-02	-3.36786853227E-02	-1.14900345426E-01	5.72750287639E-02
1.70200000000E+09	-8.63128287308E-02	-1.26367043877E-01	-5.76928654363E-02	-3.25646927190E-02	-5.77765979386E-02	-3.25212845647E-02	-1.14451461807E-01	6.32770948827E-02
1.70250000000E+09	-8.53062410614E-02	-1.23750427687E-01	-5.84213639108E-02	-3.14093137164E-02	-5.84882528600E-02	-3.13510283461E-02	-1.13820055582E-01	6.91768555260E-02
1.70300000000E+09	-8.41558741408E-02	-1.21174832338E-01	-5.91011968807E-02	-3.02094120159E-02	-5.91899054629E-02	-3.01488446590E-02	-1.12996669008E-01	7.50804824609E-02
1.70350000000E+09	-8.28857602144E-02	-1.18661891346E-01	-5.97822833441E-02	-2.89847279458E-02	-5.98654733469E-02	-2.89374354211E-02	-1.11998665658E-01	8.09293185475E-02
1.70400000000E+09	-8.14028510309E-02	-1.16198217591E-01	-6.04338200916E-02	-2.77641020012E-02	-6.05267342635E-02	-2.77001199908E-02	-1.10742197866E-01	8.67701372791E-02
1.70450000000E+09	-7.98154902677E-02	-1.13787217835E-01	-6.10659352091E-02	-2.65091144629E-02	-6.11483704482E-02	-2.64424982301E-02	-1.09337930027E-01	9.25560097994E-02
1.70500000000E+09	-7.80910627752E-02	-1.11456476686E-01	-6.16896408450E-02	-2.52349283100E-02	-6.17593526474E-02	-2.51768288830E-02	-1.07739832218E-01	9.83017168131E-02
1.70550000000E+09	-7.62022350851E-02	-1.09202492229E-01	-6.22454564104E-02	-2.39644595056E-02	-6.23363186250E-02	-2.38940599293E-02	-1.05922365259E-01	1.03946164273E-01
1.70600000000E+09	-7.42239733202E-02	-1.07042900106E-01	-6.28229350252E-02	-2.26573008696E-02	-6.29018318527E-02	-2.25820484391E-02	-1.03975244143E-01	1.09549979336E-01
1.70650000000E+09	-7.21041002460E-02	-1.04953835334E-01	-6.33239363472E-02	-2.13341961948E-02	-6.34184868031E-02	-2.12670411113E-02	-1.01822934680E-01	1.15073121174E-01
1.70700000000E+09	-6.98931026338E-02	-1.02988256030E-01	-6.38390096237E-02	-2.00038514650E-02	-6.39334386219E-02	-1.99197038495E-02	-9.94633403413E-02	1.20528236463E-01
1.70750000000E+09	-6.75459798011E-02	-1.01124409449E-01	-6.43300551399E-02	-1.86489002622E-02	-6.43778508774E-02	-1.85717329121E-02	-9.69611741250E-02	1.25864715785E-01
1.70800000000E+09	-6.51174527650E-02	-9.93628344185E-02	-6.47631477844E-02	-1.72869738270E-02	-6.48325974430E-02	-1.72015625569E-02	-9.42648266945E-02	1.31151170423E-01
1.70850000000E+09	-6.25920050185E-02	-9.77330095906E-02	-6.51784945838E-02	-1.59201131405E-02	-6.52475624027E-02	-1.58284753118E-02	-9.13925183312E-02	1.36303589977E-01
1.70900000000E+09	-5.99892074295E-02	-9.62054490719E-02	-6.55570597612E-02	-1.45221986675E-02	-6.56256620840E-02	-1.44379676481E-02	-8.84284723900E-02	1.41405407341E-01
1.70950000000E+09	-5.73303846980E-02	-9.48172546485E-02	-6.59162772833E-02	-1.31191927530E-02	-6.59837643999E-02	-1.30266283827E-02	-8.52333065903E-02	1.46346812945E-01
1.71000000000E+09	-5.45995015790E-02	-9.35445171222E-02	-6.62511568445E-02	-1.16995524522E-02	-6.63068017098E-02	-1.16303579128E-02	-8.18911887950E-02	1.51191262151E-01
1.71050000000E+09	-5.17902928733E-02	-9.23909109226E-02	-6.65325063802E-02	-1.02739115679E-02	-6.65955763806E-02	-1.01904496963E-02	-7.84282383706E-02	1.55928250096E-01
1.71100000000E+09	-4.89655436683E-02	-9.13669026166E-02	-6.68032432285E-02	-8.84524669885E-03	-6.68459452404E-02	-8.75579338831E-03	-7.47802423426E-02	1.60540562041E-01
1.71150000000E+09	-4.60667708557E-02	-9.04443867557E-02	-6.70064626429E-02	-7.39830759040E-03	-6.70735181194E-02	-7.31266098436E-03	-7.09791055108E-02	1.65049586265E-01
1.71200000000E+09	-4.31136294270E-02	-8.96648213316E-02	-6.72168750157E-02	-5.95155505411E-03	-6.72605486418E-02	-5.86917431377E-03	-6.70693271484E-02	1.69392319280E-01
1.71250000000E+09	-4.01690924603E-02	-8.90322424564E-02	-6.73812585478E-02	-4.50116392326E-03	-6.74276655321E-02	-4.39409824264E-03	-6.29911796991E-02	1.73619505883E-01
1.71300000000E+09	-3.71921341794E-02	-8.85230176655E-02	-6.75068057299E-02	-3.02286848121E-03	-6.75330395136E-02	-2.94560087857E-03	-5.88294794556E-02	1.77706354466E-01
1.71350000000E+09	-3.41971308782E-02	-8.81233202826E-02	-6.75753413162E-02	-1.57451083877E-03	-6.76146853603E-02	-1.47721207631E-03	-5.45409369246E-02	1.81649030784E-01
1.71400000000E+09	-3.11937567398E-02	-8.78477022179E-02	-6.76264040110E-02	-8.62361420168E-05	-6.76960469674E-02	-1.41175999768E-06	-5.01171346896E-02	1.85445813683E-01
1.71450000000E+09	-2.81879207655E-02	-8.77072384471E-02	-6.76569471036E-02	1.39391817887E-03	-6.77176074156E-02	1.48394757287E-03	-4.55605880914E-02	1.89097970065E-01
1.71500000000E+09	-2.51674072001E-02	-8.76907667868E-02	-6.76387959261E-02	2.85988546583E-03	-6.76918355573E-02	2.95940139160E-03	-4.09032626059E-02	1.92606196155E-01
1.71550000000E+09	-2.21668456276E-02	-8.77939821305E-02	-6.75968530311E-02	4.34631251784E-03	-6.76432935731E-02	4.44241823676E-03	-3.61067618259E-02	1.95915403938E-01
1.71600000000E+09	-1.91944837986E-02	-8.79983277357E-02	-6.75328485888E-02	5.81625565494E-03	-6.75629965161E-02	5.92405576306E-03	-3.12755851072E-02	1.99120397921E-01
1.71650000000E+09	-1.62111383742E-02	-8.83623072718E-02	-6.74154330419E-02	7.29474264717E-03	-6.74397846243E-02	7.39840584188E-03	-2.62935345685E-02	2.02139267281E-01
1.71700000000E+09	-1.32688088725E-02	-8.87817772668E-02	-6.72642500113E-02	8.75156101928E-03	-6.72909835227E-02	8.86786172454E-03	-2.12712820930E-02	2.04973969828E-01
1.71750000000E+09	-1.03608004339E-02	-8.93389236600E-02	-6.70825865989E-02	1.02407657775E-02	-6.71117951248E-02	1.03567587885E-02	-1.61123219949E-02	2.07685871790E-01
1.71800000000E+09	-7.44702683205E-03	-9.00173710069E-02	-6.68590539146E-02	1.17152711107E-02	-6.68840070408E-02	1.18148629320E-02	-1.09201795762E-02	2.10206002707E-01
1.71850000000E+09	-4.61854825080E-03	-9.08052777054E-02	-6.66097480973E-02	1.31733190562E-02	-6.66331812095E-02	1.32786027389E-02	-5.64942479416E-03	2.12566241982E-01
1.71900000000E+09	-1.81284098144E-03	-9.16641929824E-02	-6.63162220049E-02	1.46327364983E-02	-6.63432720123E-02	1.47265120994E-02	-2.86675390214E-04	2.14724626690E-01
1.71950000000E+09	9.71257830704E-04	-9.26454692268E-02	-6.59882612087E-02	1.60833379241E-02	-6.60155382671E-02	1.61872970731E-02	5.12599698546E-03	2.16722726108E-01
1.72000000000E+09	3.67171822752E-03	-9.37255888598E-02	-6.56320107956E-02	1.75314088927E-02	-6.56535204582E-02	1.76340014208E-02	1.05650979013E-02	2.18574361197E-01
1.72050000000E+09	6.34056374076E-03	-9.48600951008E-02	-6.52367338135E-02	1.89642179570E-02	-6.52603339162E-02	1.90697252947E-02	1.60755218700E-02	2.20195784524E-01
1.72100000000E+09	8.96381577355E-03	-9.61450767657E-02	-6.48133854921E-02	2.03908937261E-02	-6.48420319210E-02	2.04885780065E-02	2.16493276638E-02	2.21707046245E-01
1.72150000000E+09	1.15132213054E-02	-9.74742117359E-02	-6.43605730945E-02	2.18166303731E-02	-6.43737061233E-02	2.19132086223E-02	2.72788630550E-02	2.22991041240E-01
1.72200000000E+09	1.40123564606E-02	-9.89120653610E-02	-6.38704995524E-02	2.31994688681E-02	-6.38909907036E-02	2.33408541990E-02	3.29088782236E-02	2.24123819557E-01
1.72250000000E+09	1.64456941341E-02	-1.00407611661E-01	-6.33470133850E-02	2.46001829615E-02	-6.33548340415E-02	2.47028201418E-02	3.85450500493E-02	2.25077782852E-01
1.72300000000E+09	1.88041327831E-02	-1.01996338004E-01	-6.27916830172E-02	2.59842976984E-02	-6.28033131197E-02	2.60800114484E-02	4.42057721215E-02	2.25827723319E-01
1.72350000000E+09	2.10980393892E-02	-1.03653188959E-01	-6.22209038983E-02	2.73386448151E-02	-6.22136623842E-02	2.74474630567E-02	4.99188845760E-02	2.26388200485E-01
1.72400000000E+09	2.33345646386E-02	-1.05393312649E-01	-6.16208212856E-02	2.86858622705E-02	-6.15951366744E-02	2.88011625342E-02	5.56283195438E-02	2.26822858635E-01
1.72450000000E+09	2.55087754678E-02	-1.07194826698E-01	-6.09606614204E-02	3.00345207342E-02	-6.09371288216E-02	3.01614949579E-02	6.13840862376E-02	2.27028143356E-01
1.72500000000E+09	2.76033437603E-02	-1.09059000105E-01	-6.02767033693E-02	3.13522365168E-02	-6.02550320045E-02	3.14572038628E-02	6.70499675278E-02	2.27069239261E-01
1.72550000000E+09	2.96163899993E-02	-1.10958063900E-01	-5.95554191928E-02	3.26713285827E-02	-5.95449251339E-02	3.27800152509E-02	7.27849432588E-02	2.26890719671E-01
1.72600000000E+09	3.15758392948E-02	-1.12949189816E-01	-5.88202949981E-02	3.39373706134E-02	-5.88030824629E-02	3.40439367531E-02	7.84472823430E-02	2.26594225646E-01
1.72650000000E+09	3.34227188897E-02	-1.15010716877E-01	-5.80483861371E-02	3.52059502562E-02	-5.80384664659E-02	3.53189011412E-02	8.41563693956E-02	2.26084452336E-01
1.72700000000E+09	3.52339342989E-02	-1.17080391955E-01	-5.72545174446E-02	3.64589671050E-02	-5.72424152756E-02	3.65643308598E-02	8.97921005211E-02	2.25399974360E-01
1.72750000000E+09	3.69350521145E-02	-1.19239240962E-01	-5.64340362379E-02	3.76901421970E-02	-5.64260551841E-02	3.78053470379E-02	9.54469507395E-02	2.24572926172E-01
1.72800000000E+09	3.85818875482E-02	-1.21421587152E-01	-5.55877823111E-02	3.89225324524E-02	-5.55764832831E-02	3.90012218996E-02	1.01017916757E-01	2.23525915524E-01
1.72850000000E+09	4.01168067074E-02	-1.23653490700E-01	-5.46995211928E-02	4.00862261133E-02	-5.46847969262E-02	4.01974097713E-02	1.06571677414E-01	2.22335721221E-01
1.72900000000E+09	4.16033068224E-02	-1.25919728286E-01	-5.37979458577E-02	4.12624910762E-02	-5.37619443744E-02	4.13692077608E-02	1.12108717445E-01	2.20936978472E-01
1.72950000000E+09	4.30043765431E-02	-1.28218292850E-01	-5.28738758847E-02	4.23994981337E-02	-5.28460648239E-02	4.25204293749E-02	1.17574964838E-01	2.19421093614E-01
1.73000000000E+09	4.42927996092E-02	-1.30589807688E-01	-5.19041466472E-02	4.35282333286E-02	-5.18900670794E-02	4.36413950023E-02	1.22977487314E-01	2.17670976106E-01
1.73050000000E+09	4.55433565047E-02	-1.32959845872E-01	-5.09270685979E-02	4.46261362311E-02	-5.08991054595E-02	4.47381680422E-02	1.28330564298E-01	2.15814973440E-01
1.73100000000E+09	4.66479698250E-02	-1.35368388155E-01	-4.99337988097E-02	4.57150419815E-02	-4.99076871389E-02	4.58100343422E-02	1.33649699315E-01	2.13765158344E-01
1.73150000000E+09	4.77078230992E-02	-1.37796179263E-01	-4.89085922597E-02	4.67621123499E-02	-4.88772182484E-02	4.68451835934E-02	1.38831807009E-01	2.11544517874E-01
1.73200000000E+09	4.86847490656E-02	-1.40248324572E-01	-4.78631944911E-02	4.77872747946E-02	-4.78254996395E-02	4.78756781809E-02	1.43991021960E-01	2.09169174138E-01
1.73250000000E+09	4.95886726399E-02	-1.42709937582E-01	-4.68071582123E-02	4.87963734039E-02	-4.67438770484E-02	4.88894291143E-02	1.49071486993E-01	2.06634436090E-01
1.73300000000E+09	5.03443783069E-02	-1.45208473750E-01	-4.57082480584E-02	4.97569739727E-02	-4.56666541040E-02	4.98550377873E-02	1.54041867936E-01	2.03970051549E-01
1.73350000000E+09	5.10750826263E-02	-1.47706545942E-01	-4.46100786143E-02	5.07139499195E-02	-4.45729323476E-02	5.08003866959E-02	1.58926058496E-01	2.01149938201E-01
1.73400000000E+09	5.16903870794E-02	-1.50221764635E-01	-4.34619133914E-02	5.16391988237E-02	-4.34332181884E-02	5.17514538937E-02	1.63781667248E-01	1.98115033627E-01
1.73450000000E+09	5.22428580639E-02	-1.52740684878E-01	-4.23264108846E-02	5.25328467918E-02	-4.22725985993E-02	5.26235910920E-02	1.68514293242E-01	1.95000469763E-01
1.73500000000E+09	5.26867864555E-02	-1.55277116284E-01	-4.11539069479E-02	5.34037803784E-02	-4.10977921640E-02	5.34992788001E-02	1.73077613058E-01	1.91707579875E-01
1.73550000000E+09	5.30599932402E-02	-1.57794504573E-01	-3.99553616784E-02	5.42406393777E-02	-3.99235336176E-02	5.43239302936E-02	1.77586317620E-01	1.88307855043E-01
1.73600000000E+09	5.33407784889E-02	-1.60333333432E-01	-3.87713178190E-02	5.50595509363E-02	-3.87217826557E-02	5.51367540036E-02	1.81965390183E-01	1.84735427433E-01
1.73650000000E+09	5.35329658105E-02	-1.62857370511E-01	-3.75440576418E-02	5.58523584952E-02	-3.75012241365E-02	5.59401446774E-02	1.86281184659E-01	1.81060373672E-01
1.73700000000E+09	5.36890014609E-02	-1.65400268584E-01	-3.63170240833E-02	5.66071760272E-02	-3.62632165022E-02	5.67027011759E-02	1.90441593240E-01	1.77206444625E-01
1.73750000000E+09	5.37012326797E-02	-1.67899125632E-01	-3.50527704065E-02	5.73304090454E-02	-3.50158762906E-02	5.74192326600E-02	1.94481805177E-01	1.73264314173E-01
1.73800000000E+09	5.36623581657E-02	-1.70412890267E-01	-3.38012621774E-02	5.80417196867E-02	-3.37501437412E-02	5.81163084427E-02	1.98385437885E-01	1.69177977443E-01
1.73850000000E+09	5.35115794427E-02	-1.72908877621E-01	-3.25263114771E-02	5.87071790917E-02	-3.24689110896E-02	5.87851585183E-02	2.02187177767E-01	1.65016318556E-01
1.73900000000E+09	5.32907741390E-02	-1.75404351611E-01	-3.12500018278E-02	5.93563350281E-02	-3.11854988031E-02	5.94372784116E-02	2.05868524779E-01	1.60682442141E-01
1.73950000000E+09	5.30194291239E-02	-1.77852699017E-01	-2.99582135440E-02	5.99487665270E-02	-2.98739076410E-02	6.00434777710E-02	2.09415261426E-01	1.56256952366E-01
1.74000000000E+09	5.26305622045E-02	-1.80331027758E-01	-2.86504334982E-02	6.05400979990E-02	-2.85684903260E-02	6.06208084796E-02	2.12792927772E-01	1.51726121684E-01
1.74050000000E+09	5.21544108767E-02	-1.82748431199E-01	-2.73259183444E-02	6.10926772131E-02	-2.72445072437E-02	6.11666671416E-02	2.16034035879E-01	1.47084940226E-01
1.74100000000E+09	5.16142147752E-02	-1.85160994248E-01	-2.59905619138E-02	6.16173507735E-02	-2.59127704040E-02	6.16772174662E-02	2.19096647907E-01	1.42365812956E-01
1.74150000000E+09	5.09806476644E-02	-1.87526734830E-01	-2.46408325616E-02	6.20953945308E-02	-2.45800586846E-02	6.21802450104E-02	2.22075828085E-01	1.37542950794E-01
1.74200000000E+09	5.02839234505E-02	-1.89879584372E-01	-2.32904671978E-02	6.25674208117E-02	-2.32182532566E-02	6.26240458709E-02	2.24882629702E-01	1.32615045896E-01
1.74250000000E+09	4.94867381363E-02	-1.92184112211E-01	-2.19322372952E-02	6.29887901386E-02	-2.18756899201E-02	6.30479629337E-02	2.27550278271E-01	1.27617715083E-01
1.74300000000E+09	4.86262258291E-02	-1.94455668613E-01	-2.05870802209E-02	6.33977949873E-02	-2.05131489333E-02	6.34514829506E-02	2.30045373900E-01	1.22506934519E-01
1.74350000000E+09	4.76890741121E-02	-1.96685072284E-01	-1.92214201891E-02	6.37605953732E-02	-1.91358347650E-02	6.38365855015E-02	2.32402225848E-01	1.17334547229E-01
1.74400000000E+09	4.66706551376E-02	-1.98871893548E-01	-1.78481615631E-02	6.41017807862E-02	-1.77873185286E-02	6.41608437873E-02	2.34547900517E-01	1.12112487665E-01
1.74450000000E+09	4.55655387395E-02	-2.01014546836E-01	-1.64704557398E-02	6.44272841491E-02	-1.64068371001E-02	6.44720655616E-02	2.36578453216E-01	1.06784527704E-01
1.74500000000E+09	4.44120670967E-02	-2.03128559055E-01	-1.50873641864E-02	6.46936261311E-02	-1.50262102480E-02	6.47475001604E-02	2.38421471092E-01	1.01435593770E-01
1.74550000000E+09	4.31625468740E-02	-2.05181636630E-01	-1.37123729736E-02	6.49352720612E-02	-1.36480375977E-02	6.50060581631E-02	2.40129726910E-01	9.60328756994E-02
1.74600000000E+09	4.18695120571E-02	-2.07190245929E-01	-1.23286562737E-02	6.51509432797E-02	-1.22577012599E-02	6.52065062496E-02	2.41623291794E-01	9.05166196632E-02
1.74650000000E+09	4.04889245884E-02	-2.09145624421E-01	-1.09573965956E-02	6.53456314770E-02	-1.08654031179E-02	6.54027881232E-02	2.42976782316E-01	8.49931874628E-02
1.74700000000E+09	3.90327760384E-02	-2.11037286484E-01	-9.54981086807E-03	6.54905935390E-02	-9.50609210785E-03	6.55520707034E-02	2.44145629954E-01	7.94369966537E-02
1.74750000000E+09	3.75335778730E-02	-2.12862754589E-01	-8.17702632253E-03	6.56156412669E-02	-8.09072373590E-03	6.56780657080E-02	2.45172662921E-01	7.38513582377E-02
1.74800000000E+09	3.59688476628E-02	-2.14639154322E-01	-6.80026525114E-03	6.57035246003E-02	-6.71731959823E-03	6.57729995161E-02	2.45978209479E-01	6.81856997588E-02
1.74850000000E+09	3.43280134013E-02	-2.16350493322E-01	-5.41671458570E-03	6.57744126816E-02	-5.34028807329E-03	6.58291660515E-02	2.46619629701E-01	6.25167677023E-02
1.74900000000E+09	3.26163544299E-02	-2.17991684267E-01	-4.03415020772E-03	6.58111429550E-02	-3.95454775734E-03	6.58549485033E-02	2.47087280501E-01	5.68342331233E-02
1.74950000000E+09	3.08574098685E-02	-2.19583092418E-01	-2.65359169951E-03	6.58288040102E-02	-2.58769808617E-03	6.58779803143E-02	2.47420213725E-01	5.11476075089E-02
1.75000000000E+09	2.90376919817E-02	-2.21081565932E-01	-1.29527621122E-03	6.58147386700E-02	-1.19687571194E-03	6.58562869820E-02	2.47532489952E-01	4.54349965905E-02
1.75050000000E+09	2.71697624221E-02	-2.22499191404E-01	7.60883229731E-05	6.57573970507E-02	1.70084591704E-04	6.58024532648E-02	2.47470039821E-01	3.96969626276E-02
1.75100000000E+09	2.52704385096E-02	-2.23879826828E-01	1.44296218012E-03	6.56731435537E-02	1.53804519430E-03	6.57212199378E-02	2.47247694242E-01	3.39711412973E-02
1.75150000000E+09	2.32678242831E-02	-2.25155536329E-01	2.79935566532E-03	6.55803946023E-02	2.88828114721E-03	6.56179389250E-02	2.46821473088E-01	2.82974837892E-02
1.75200000000E+09	2.12115705464E-02	-2.26336601075E-01	4.15398110625E-03	6.54443395474E-02	4.22463164075E-03	6.54837675863E-02	2.46219529054E-01	2.25718441478E-02
1.75250000000E+09	1.91648389332E-02	-2.27452445521E-01	5.48925159706E-03	6.52783502781E-02	5.58579998009E-03	6.53129846276E-02	2.45468634763E-01	1.69031996297E-02
1.75300000000E+09	1.70507979935E-02	-2.28445184326E-01	6.84978530949E-03	6.50833681100E-02	6.91838906785E-03	6.51282128185E-02	2.44490664437E-01	1.12393153630E-02
1.75350000000E+09	1.48886769046E-02	-2.29385296866E-01	8.16276563924E-03	6.48653387454E-02	8.25247219205E-03	6.49071200061E-02	2.43370599435E-01	5.61240137002E-03
1.75400000000E+09	1.26908137656E-02	-2.30175039155E-01	9.48673242653E-03	6.46242884733E-02	9.57731700861E-03	6.46604412274E-02	2.42026572221E-01	3.41786882657E-06
1.75450000000E+09	1.04867576171E-02	-2.30943925483E-01	1.07832376383E-02	6.43624148041E-02	1.08904469084E-02	6.44140613281E-02	2.40584438203E-01	-5.56275894484E-03
1.75500000000E+09	8.21031980350E-03	-2.31563142439E-01	1.20886371291E-02	6.40591397639E-02	1.21832487112E-02	6.40900670414E-02	2.38919353296E-01	-1.10887411571E-02
1.75550000000E+09	5.94606667767E-03	-2.32101273509E-01	1.33786304512E-02	6.37341939616E-02	1.34851475190E-02	6.37627238383E-02	2.37050399785E-01	-1.65769770011E-02
1.75600000000E+09	3.66257953129E-03	-2.32567861932E-01	1.46436586780E-02	6.34038570519E-02	1.47571026755E-02	6.34332412129E-02	2.35071955091E-01	-2.19769893172E-02
1.75650000000E+09	1.33836341653E-03	-2.32892596666E-01	1.59225371486E-02	6.30362193669E-02	1.60269375385E-02	6.30639436760E-02	2.32897614355E-01	-2.73402281177E-02
1.75700000000E+09	-9.89241293310E-04	-2.33107829094E-01	1.71796006367E-02	6.26251334905E-02	1.72834144581E-02	6.26658980864E-02	2.30548304068E-01	-3.25813218483E-02
1.75750000000E+09	-3.30194334491E-03	-2.33242873254E-01	1.84337774724E-02	6.22373613309E-02	1.85310068696E-02	6.22458097578E-02	2.28024672168E-01	-3.77928767605E-02
1.75800000000E+09	-5.66697608668E-03	-2.33240038954E-01	1.96632994071E-02	6.17866733354E-02	1.97517625605E-02	6.18084573914E-02	2.25328528910E-01	-4.29599209595E-02
1.75850000000E+09	-8.01256454303E-03	-2.33170004225E-01	2.08779131721E-02	6.13453535888E-02	2.10014223084E-02	6.13623774065E-02	2.22492198346E-01	-4.80140779164E-02
