# Hz S RI R 50
! CMT, CMT808U, 21440046, 21.4.3/4
! Date: 11/12/2025 3:13:09 PM
! Data: Format (Calibration Info)
! Freq	S11:Re/Im(F2)	S41:Re/Im(F2)	S14:Re/Im(F2)	S44:Re/Im(F2)
1.70000000000E+09	-1.46747036350E-01	-1.25191682348E-01	-5.75744344131E-02	-3.97906700834E-02	-5.75810779020E-02	-3.97865197649E-02	-1.07248398733E-01	4.24361778029E-02
1.70050000000E+09	-1.46367408196E-01	-1.22453499052E-01	-5.84342919940E-02	-3.85755945102E-02	-5.84417915327E-02	-3.85789266498E-02	-1.07568710747E-01	4.81803796442E-02
1.70100000000E+09	-1.45810827443E-01	-1.19739253008E-01	-5.92755181253E-02	-3.73521097820E-02	-5.92809073256E-02	-3.73557211229E-02	-1.07673317991E-01	5.39336402602E-02
1.70150000000E+09	-1.45068453712E-01	-1.17067593352E-01	-6.00848368690E-02	-3.61058905500E-02	-6.00804399624E-02	-3.61077709028E-02	-1.07637445934E-01	5.96582561587E-02
1.70200000000E+09	-1.44182534908E-01	-1.14394712296E-01	-6.08569997283E-02	-3.48300516914E-02	-6.08649053712E-02	-3.48371344342E-02	-1.07385344541E-01	6.54226884222E-02
1.70250000000E+09	-1.43129453514E-01	-1.11722872672E-01	-6.16106158060E-02	-3.35450865093E-02	-6.15994208958E-02	-3.35608029491E-02	-1.06916687740E-01	7.11512779028E-02
1.70300000000E+09	-1.41901739429E-01	-1.09093788784E-01	-6.23394222796E-02	-3.22413647367E-02	-6.23346431779E-02	-3.22346827684E-02	-1.06298049931E-01	7.68433991905E-02
1.70350000000E+09	-1.40554481355E-01	-1.06525609766E-01	-6.30554302528E-02	-3.09155623467E-02	-6.30521206085E-02	-3.09154931240E-02	-1.05455570792E-01	8.25159614956E-02
1.70400000000E+09	-1.39003900378E-01	-1.04065927892E-01	-6.37180934727E-02	-2.95835823521E-02	-6.37127847096E-02	-2.95913194835E-02	-1.04448795473E-01	8.81448715860E-02
1.70450000000E+09	-1.37359431861E-01	-1.01649587850E-01	-6.43727465230E-02	-2.82313282137E-02	-6.43739446258E-02	-2.82318390918E-02	-1.03239846012E-01	9.37778483641E-02
1.70500000000E+09	-1.35544685759E-01	-9.92816657068E-02	-6.49973659038E-02	-2.68566139081E-02	-6.49982767548E-02	-2.68297607646E-02	-1.01866515969E-01	9.93637486520E-02
1.70550000000E+09	-1.33609364341E-01	-9.70179227070E-02	-6.55690134473E-02	-2.54432414035E-02	-6.55789691067E-02	-2.54502575593E-02	-1.00290121125E-01	1.04846800732E-01
1.70600000000E+09	-1.31585033505E-01	-9.48345239308E-02	-6.61262307777E-02	-2.40431094078E-02	-6.61388167528E-02	-2.40432746933E-02	-9.85300891109E-02	1.10305273053E-01
1.70650000000E+09	-1.29393271569E-01	-9.27405179284E-02	-6.66733427765E-02	-2.26306904380E-02	-6.66674333289E-02	-2.26261709607E-02	-9.66049191412E-02	1.15702055536E-01
1.70700000000E+09	-1.27109572405E-01	-9.07612151821E-02	-6.71523452600E-02	-2.11834781928E-02	-6.71674976089E-02	-2.11821083625E-02	-9.45035430299E-02	1.21024544390E-01
1.70750000000E+09	-1.24714435866E-01	-8.88727485045E-02	-6.76202387923E-02	-1.97408452359E-02	-6.76288288031E-02	-1.97072721268E-02	-9.22144583349E-02	1.26260426237E-01
1.70800000000E+09	-1.22207254618E-01	-8.70985735247E-02	-6.80500591664E-02	-1.82650945792E-02	-6.80613952969E-02	-1.82782045923E-02	-8.97633508413E-02	1.31438231080E-01
1.70850000000E+09	-1.19632581091E-01	-8.54335402225E-02	-6.84466385041E-02	-1.67966374834E-02	-6.84570712198E-02	-1.67886026448E-02	-8.71433188457E-02	1.36532450226E-01
1.70900000000E+09	-1.16953535700E-01	-8.38740981008E-02	-6.88245275933E-02	-1.53166603035E-02	-6.88069422299E-02	-1.53298773872E-02	-8.43823648236E-02	1.41493165434E-01
1.70950000000E+09	-1.14246825907E-01	-8.24622099153E-02	-6.91458039159E-02	-1.38309018196E-02	-6.91679668181E-02	-1.38223774727E-02	-8.14552199287E-02	1.46406153290E-01
1.71000000000E+09	-1.11418679125E-01	-8.11617071258E-02	-6.94398872688E-02	-1.23218051619E-02	-6.94494812446E-02	-1.23251588483E-02	-7.83257356124E-02	1.51197342972E-01
1.71050000000E+09	-1.08553535710E-01	-7.99615116564E-02	-6.97145276914E-02	-1.08028894779E-02	-6.97169048306E-02	-1.07913070105E-02	-7.51281321868E-02	1.55880397709E-01
1.71100000000E+09	-1.05632720356E-01	-7.89038078869E-02	-6.99273331017E-02	-9.27111195762E-03	-6.99379159593E-02	-9.29651715634E-03	-7.16880119929E-02	1.60446400906E-01
1.71150000000E+09	-1.02659778797E-01	-7.79651547993E-02	-7.01232710880E-02	-7.77778827268E-03	-7.01229808400E-02	-7.75781026149E-03	-6.81453072639E-02	1.64927046900E-01
1.71200000000E+09	-9.96317656085E-02	-7.71590960302E-02	-7.02841427100E-02	-6.24154541370E-03	-7.02902038975E-02	-6.24344476417E-03	-6.44626596552E-02	1.69263175925E-01
1.71250000000E+09	-9.66126124255E-02	-7.65019078243E-02	-7.04022697629E-02	-4.70567086506E-03	-7.04069411981E-02	-4.69737558693E-03	-6.06295359079E-02	1.73478498729E-01
1.71300000000E+09	-9.35331318334E-02	-7.59443587420E-02	-7.04766736778E-02	-3.15726288915E-03	-7.04772385035E-02	-3.16786875234E-03	-5.66761680760E-02	1.77578979188E-01
1.71350000000E+09	-9.04655137102E-02	-7.55027866434E-02	-7.05355527602E-02	-1.63941096111E-03	-7.05392317195E-02	-1.63578974280E-03	-5.26181597608E-02	1.81520639617E-01
1.71400000000E+09	-8.73318369922E-02	-7.51905112995E-02	-7.05605844197E-02	-9.28183949437E-05	-7.05526041904E-02	-1.00877448537E-04	-4.84361975188E-02	1.85367341423E-01
1.71450000000E+09	-8.42085979882E-02	-7.50163614789E-02	-7.05167374620E-02	1.43313561237E-03	-7.05185433346E-02	1.44474955808E-03	-4.40789140785E-02	1.89029637722E-01
1.71500000000E+09	-8.10809979294E-02	-7.49409446315E-02	-7.04588441441E-02	2.97340274244E-03	-7.04697058424E-02	2.97513724971E-03	-3.96431086137E-02	1.92589539498E-01
1.71550000000E+09	-7.79657482401E-02	-7.50134133259E-02	-7.03750949432E-02	4.50671668212E-03	-7.03616766775E-02	4.50564320637E-03	-3.50274719946E-02	1.95957604586E-01
1.71600000000E+09	-7.48851833312E-02	-7.51859728734E-02	-7.02520739002E-02	6.03280217532E-03	-7.02484597631E-02	6.04257643643E-03	-3.04172310876E-02	1.99245984971E-01
1.71650000000E+09	-7.17682510289E-02	-7.54913787035E-02	-7.00819924962E-02	7.54413919740E-03	-7.00884613268E-02	7.56335337975E-03	-2.56340310593E-02	2.02308635576E-01
1.71700000000E+09	-6.86747542770E-02	-7.58990069448E-02	-6.98798165463E-02	9.07848317908E-03	-6.98855694870E-02	9.07478310894E-03	-2.08256382910E-02	2.05237643551E-01
1.71750000000E+09	-6.56302848608E-02	-7.64106869889E-02	-6.96569462349E-02	1.05838561957E-02	-6.96473088029E-02	1.05906003324E-02	-1.58503142823E-02	2.08043098562E-01
1.71800000000E+09	-6.25698909996E-02	-7.70513553790E-02	-6.93711599870E-02	1.21034056950E-02	-6.93779731245E-02	1.21064948665E-02	-1.08484597559E-02	2.10649456648E-01
1.71850000000E+09	-5.95746219706E-02	-7.78067405141E-02	-6.90677017395E-02	1.35865815949E-02	-6.90859190439E-02	1.35862556921E-02	-5.74605559234E-03	2.13122227092E-01
1.71900000000E+09	-5.66017947600E-02	-7.86565408352E-02	-6.87371594662E-02	1.50717213481E-02	-6.87439038905E-02	1.50654007879E-02	-5.50010522418E-04	2.15404292193E-01
1.71950000000E+09	-5.36629391299E-02	-7.95962303366E-02	-6.83705334408E-02	1.65504672654E-02	-6.83553314419E-02	1.65578366197E-02	4.69532683557E-03	2.17510369123E-01
1.72000000000E+09	-5.07933298757E-02	-8.06671321734E-02	-6.79651053533E-02	1.80309623491E-02	-6.79621044224E-02	1.80278789145E-02	9.98880176257E-03	2.19480102948E-01
1.72050000000E+09	-4.79287987893E-02	-8.18143733108E-02	-6.75158793064E-02	1.94928096644E-02	-6.75210923879E-02	1.94855130920E-02	1.53434218329E-02	2.21236588076E-01
1.72100000000E+09	-4.51324990275E-02	-8.30711368344E-02	-6.70578864903E-02	2.09371389010E-02	-6.70578390246E-02	2.09279988339E-02	2.07819213419E-02	2.22888671465E-01
1.72150000000E+09	-4.23802176030E-02	-8.44060852042E-02	-6.65690820660E-02	2.23679204532E-02	-6.65517396055E-02	2.23556175946E-02	2.62776818400E-02	2.24311438874E-01
1.72200000000E+09	-3.96826886945E-02	-8.58435744472E-02	-6.60357953335E-02	2.37712112003E-02	-6.60392671919E-02	2.37678273208E-02	3.17669094410E-02	2.25603959363E-01
1.72250000000E+09	-3.70517409819E-02	-8.73517162001E-02	-6.54757085943E-02	2.51767219078E-02	-6.54785377585E-02	2.51786071303E-02	3.73013388350E-02	2.26715146436E-01
1.72300000000E+09	-3.44794030184E-02	-8.89583803262E-02	-6.48875905660E-02	2.65674495733E-02	-6.48810736785E-02	2.65680531669E-02	4.28698588777E-02	2.27584181304E-01
1.72350000000E+09	-3.19546560494E-02	-9.06358977864E-02	-6.42615825605E-02	2.79459897469E-02	-6.42661464408E-02	2.79503775341E-02	4.84835390391E-02	2.28327479252E-01
1.72400000000E+09	-2.94953086777E-02	-9.24086046148E-02	-6.36303203371E-02	2.93028542712E-02	-6.36025311546E-02	2.93088125103E-02	5.40945675929E-02	2.28932528069E-01
1.72450000000E+09	-2.71086331200E-02	-9.42511257220E-02	-6.29441389634E-02	3.06394203076E-02	-6.29336431540E-02	3.06319443716E-02	5.97330208858E-02	2.29316390326E-01
1.72500000000E+09	-2.47767656919E-02	-9.61638452103E-02	-6.22158305672E-02	3.19599773816E-02	-6.22369187915E-02	3.19742743957E-02	6.53531082238E-02	2.29511438128E-01
1.72550000000E+09	-2.25248424084E-02	-9.81283134713E-02	-6.15034526479E-02	3.32838357439E-02	-6.15049715136E-02	3.32593748558E-02	7.10132845676E-02	2.29533255014E-01
1.72600000000E+09	-2.03480406075E-02	-1.00182737147E-01	-6.07280342217E-02	3.45399999533E-02	-6.07319440792E-02	3.45550640716E-02	7.66268738521E-02	2.29413315976E-01
1.72650000000E+09	-1.82552103246E-02	-1.02290265374E-01	-5.99411023848E-02	3.58219290638E-02	-5.99511329850E-02	3.58245094082E-02	8.22671607511E-02	2.29052626329E-01
1.72700000000E+09	-1.62044668856E-02	-1.04460002296E-01	-5.91336478557E-02	3.70816534098E-02	-5.91440934026E-02	3.70705679200E-02	8.78777630909E-02	2.28562686179E-01
1.72750000000E+09	-1.42582008805E-02	-1.06685940358E-01	-5.82953464522E-02	3.83089826468E-02	-5.82969343782E-02	3.83083458470E-02	9.35067180516E-02	2.27941654010E-01
1.72800000000E+09	-1.23634907490E-02	-1.08962417147E-01	-5.74244436803E-02	3.95259277138E-02	-5.74203728418E-02	3.95260225140E-02	9.90923441196E-02	2.27084675931E-01
1.72850000000E+09	-1.05664627445E-02	-1.11328022435E-01	-5.65286096943E-02	4.07001521469E-02	-5.65403485968E-02	4.07119969555E-02	1.04627671406E-01	2.26065805345E-01
1.72900000000E+09	-8.85566060426E-03	-1.13708238710E-01	-5.56305121776E-02	4.18731609634E-02	-5.56145167167E-02	4.18932886812E-02	1.10128905625E-01	2.24865701514E-01
1.72950000000E+09	-7.20325822227E-03	-1.16130141619E-01	-5.46830905361E-02	4.30134937445E-02	-5.46901574554E-02	4.30241995682E-02	1.15590672469E-01	2.23497611592E-01
1.73000000000E+09	-5.64821980961E-03	-1.18634728387E-01	-5.37207447004E-02	4.41429313012E-02	-5.37282788193E-02	4.41419888516E-02	1.20986454279E-01	2.21951883651E-01
1.73050000000E+09	-4.15099104209E-03	-1.21139511576E-01	-5.27573988845E-02	4.52398862300E-02	-5.27390465606E-02	4.52470021190E-02	1.26399277431E-01	2.20283053375E-01
1.73100000000E+09	-2.76810003791E-03	-1.23709297630E-01	-5.17493297536E-02	4.63169454452E-02	-5.17436972734E-02	4.63473304692E-02	1.31730690268E-01	2.18394678221E-01
1.73150000000E+09	-1.46607752785E-03	-1.26304806494E-01	-5.07118187195E-02	4.73913557544E-02	-5.07207920887E-02	4.74024792427E-02	1.36962924462E-01	2.16385205857E-01
1.73200000000E+09	-2.38089289200E-04	-1.28934019792E-01	-4.96681987055E-02	4.84259240022E-02	-4.96800426437E-02	4.84346822921E-02	1.42161543520E-01	2.14169485363E-01
1.73250000000E+09	9.04111666582E-04	-1.31601355780E-01	-4.86148062755E-02	4.94314808500E-02	-4.85918725517E-02	4.94325711939E-02	1.47320645915E-01	2.11815988818E-01
1.73300000000E+09	1.92772984980E-03	-1.34295149616E-01	-4.75312850675E-02	5.04353541084E-02	-4.75132891206E-02	5.04322760466E-02	1.52331228055E-01	2.09347198504E-01
1.73350000000E+09	2.88718870135E-03	-1.37018762441E-01	-4.64048910220E-02	5.13893518689E-02	-4.64085869934E-02	5.13886845506E-02	1.57287629733E-01	2.06692596065E-01
1.73400000000E+09	3.77471893528E-03	-1.39775462847E-01	-4.52912520884E-02	5.23293959538E-02	-4.52915844767E-02	5.23181113047E-02	1.62195688249E-01	2.03831388881E-01
1.73450000000E+09	4.53553081163E-03	-1.42544812207E-01	-4.41420575805E-02	5.32305730719E-02	-4.41446504660E-02	5.32357320152E-02	1.66999878279E-01	2.00884339716E-01
1.73500000000E+09	5.22353484559E-03	-1.45325461314E-01	-4.29796907526E-02	5.41239870627E-02	-4.29986329976E-02	5.41341335560E-02	1.71676353630E-01	1.97756157719E-01
1.73550000000E+09	5.81966360551E-03	-1.48129273530E-01	-4.17980428892E-02	5.49734728110E-02	-4.18230876452E-02	5.49855366759E-02	1.76304657050E-01	1.94485794003E-01
1.73600000000E+09	6.33466876914E-03	-1.50927772365E-01	-4.05980467602E-02	5.58253923514E-02	-4.06065562477E-02	5.58258441577E-02	1.80812089380E-01	1.91130478065E-01
1.73650000000E+09	6.74798944249E-03	-1.53747284283E-01	-3.94111370087E-02	5.66217310046E-02	-3.93970691907E-02	5.66231630789E-02	1.85199426342E-01	1.87569560050E-01
1.73700000000E+09	7.09920881437E-03	-1.56585888158E-01	-3.81561659176E-02	5.74122940729E-02	-3.81718062546E-02	5.74020100718E-02	1.89473560534E-01	1.83873571706E-01
1.73750000000E+09	7.31102073646E-03	-1.59413289090E-01	-3.69285780938E-02	5.81669653326E-02	-3.69337604823E-02	5.81637812287E-02	1.93678413805E-01	1.80110434635E-01
1.73800000000E+09	7.43364345681E-03	-1.62248429954E-01	-3.56743281301E-02	5.88883586285E-02	-3.56749313382E-02	5.88876505374E-02	1.97712573702E-01	1.76118807006E-01
1.73850000000E+09	7.47518210357E-03	-1.65076607949E-01	-3.44121403485E-02	5.95840685170E-02	-3.44191902659E-02	5.96123666232E-02	2.01652915827E-01	1.72105831391E-01
1.73900000000E+09	7.41784319048E-03	-1.67898024704E-01	-3.31253665582E-02	6.02581129455E-02	-3.31426097227E-02	6.02547522880E-02	2.05465158668E-01	1.67931851232E-01
1.73950000000E+09	7.31319171898E-03	-1.70724646842E-01	-3.18334405882E-02	6.09050992986E-02	-3.18432325993E-02	6.08966552908E-02	2.09158985027E-01	1.63631301849E-01
1.74000000000E+09	7.06058005114E-03	-1.73551707333E-01	-3.05359274043E-02	6.15055752426E-02	-3.05390383783E-02	6.15267695896E-02	2.12708559026E-01	1.59219241028E-01
1.74050000000E+09	6.73749154048E-03	-1.76349074834E-01	-2.92158675855E-02	6.20948462296E-02	-2.92136875788E-02	6.21177525002E-02	2.16127174975E-01	1.54684087469E-01
1.74100000000E+09	6.30767536586E-03	-1.79117598255E-01	-2.78873071695E-02	6.26639373162E-02	-2.78731483231E-02	6.26754586178E-02	2.19371329903E-01	1.50077817161E-01
1.74150000000E+09	5.77256749889E-03	-1.81872839227E-01	-2.65550017002E-02	6.31976049672E-02	-2.65303944253E-02	6.32002483508E-02	2.22496947186E-01	1.45322943909E-01
1.74200000000E+09	5.19758868305E-03	-1.84606241197E-01	-2.52018582134E-02	6.36838345496E-02	-2.51986072347E-02	6.36996782135E-02	2.25474129168E-01	1.40512421201E-01
1.74250000000E+09	4.46127343583E-03	-1.87307001776E-01	-2.38447785444E-02	6.41702187773E-02	-2.38426714022E-02	6.41662374168E-02	2.28310656087E-01	1.35623816470E-01
1.74300000000E+09	3.68884918612E-03	-1.90005834451E-01	-2.24699187164E-02	6.46217152142E-02	-2.24693458584E-02	6.46119976245E-02	2.31052558619E-01	1.30585805007E-01
1.74350000000E+09	2.77729624969E-03	-1.92660179580E-01	-2.11081828245E-02	6.50337335238E-02	-2.11220262597E-02	6.50157437280E-02	2.33534592442E-01	1.25516947545E-01
1.74400000000E+09	1.78999060763E-03	-1.95247167194E-01	-1.97349368581E-02	6.53966342678E-02	-1.97332147864E-02	6.54199646458E-02	2.35924361394E-01	1.20360046910E-01
1.74450000000E+09	7.31940814046E-04	-1.97852761123E-01	-1.83690497387E-02	6.57608987614E-02	-1.83476103016E-02	6.57680792724E-02	2.38160660650E-01	1.15099196419E-01
1.74500000000E+09	-4.18700820719E-04	-2.00394392398E-01	-1.69852247356E-02	6.60912447781E-02	-1.69678616041E-02	6.60864376103E-02	2.40214443341E-01	1.09835494402E-01
1.74550000000E+09	-1.69998964631E-03	-2.02876669620E-01	-1.55786104364E-02	6.63879033428E-02	-1.55708665605E-02	6.63779667840E-02	2.42082619449E-01	1.04440925534E-01
1.74600000000E+09	-3.02018235476E-03	-2.05306380479E-01	-1.41833991144E-02	6.66508906207E-02	-1.41818750723E-02	6.66354793736E-02	2.43833283393E-01	9.89968929392E-02
1.74650000000E+09	-4.47242636028E-03	-2.07691977131E-01	-1.27744138990E-02	6.68848977912E-02	-1.27767050379E-02	6.68687292096E-02	2.45395234035E-01	9.35511606187E-02
1.74700000000E+09	-5.98468268908E-03	-2.10005739461E-01	-1.13714902401E-02	6.70793382685E-02	-1.13765875226E-02	6.70814371873E-02	2.46785778703E-01	8.79657016972E-02
1.74750000000E+09	-7.57963786167E-03	-2.12285692863E-01	-9.98909243667E-03	6.72578603100E-02	-9.97783338566E-03	6.72640257452E-02	2.48016990822E-01	8.24006590003E-02
1.74800000000E+09	-9.26251764504E-03	-2.14493873493E-01	-8.58125196524E-03	6.74120585186E-02	-8.56799717441E-03	6.74163783633E-02	2.49058797785E-01	7.67728683311E-02
1.74850000000E+09	-1.10292280733E-02	-2.16586232092E-01	-7.17968577876E-03	6.75137682707E-02	-7.17912742727E-03	6.75206556688E-02	2.49915995691E-01	7.10979985843E-02
1.74900000000E+09	-1.28579883570E-02	-2.18665734827E-01	-5.76594818236E-03	6.75944343546E-02	-5.75771257624E-03	6.75941927748E-02	2.50596895882E-01	6.54009366581E-02
1.74950000000E+09	-1.47950049617E-02	-2.20653082744E-01	-4.36540895503E-03	6.76651248570E-02	-4.35686739810E-03	6.76665560138E-02	2.51152603570E-01	5.96925476689E-02
1.75000000000E+09	-1.68086208935E-02	-2.22560316995E-01	-2.96561400518E-03	6.76963323018E-02	-2.97375886649E-03	6.76946774120E-02	2.51522520723E-01	5.39735033084E-02
1.75050000000E+09	-1.88563193384E-02	-2.24400089277E-01	-1.57259492874E-03	6.76904312429E-02	-1.56623211917E-03	6.76994127381E-02	2.51667208720E-01	4.82414130907E-02
1.75100000000E+09	-2.09977763880E-02	-2.26154565941E-01	-1.81544834423E-04	6.76677569545E-02	-1.75027594114E-04	6.76720685857E-02	2.51668763324E-01	4.24769657158E-02
1.75150000000E+09	-2.32245341436E-02	-2.27811813619E-01	1.21711887862E-03	6.76114056044E-02	1.21917902600E-03	6.76176236624E-02	2.51491186451E-01	3.67466973954E-02
1.75200000000E+09	-2.55080302941E-02	-2.29330598326E-01	2.60437423434E-03	6.75332119447E-02	2.60250711414E-03	6.75199952313E-02	2.51111102931E-01	3.09631294404E-02
1.75250000000E+09	-2.78202260746E-02	-2.30825467180E-01	3.99211285061E-03	6.74214865764E-02	3.99617847620E-03	6.74197344231E-02	2.50586364390E-01	2.52109678066E-02
1.75300000000E+09	-3.02066995366E-02	-2.32170038853E-01	5.36742009014E-03	6.72765948124E-02	5.36289789270E-03	6.72799769440E-02	2.49845500909E-01	1.95166023020E-02
1.75350000000E+09	-3.26599523192E-02	-2.33446490887E-01	6.73607273779E-03	6.71082051735E-02	6.74915831983E-03	6.71120787727E-02	2.48939448736E-01	1.38030098978E-02
1.75400000000E+09	-3.51874285089E-02	-2.34583893587E-01	8.10364160616E-03	6.69112580575E-02	8.10943709205E-03	6.69200919600E-02	2.47830864146E-01	8.11108601601E-03
1.75450000000E+09	-3.77140275144E-02	-2.35600795415E-01	9.45719245773E-03	6.66973046615E-02	9.46628494115E-03	6.67079555946E-02	2.46589991162E-01	2.46637908721E-03
1.75500000000E+09	-4.03013151702E-02	-2.36522253418E-01	1.08148571901E-02	6.64438313398E-02	1.08122236155E-02	6.64412064807E-02	2.45167487684E-01	-3.17802660687E-03
1.75550000000E+09	-4.29386206294E-02	-2.37348972216E-01	1.21580313024E-02	6.61641112991E-02	1.21687749049E-02	6.61637199166E-02	2.43489805351E-01	-8.74381414520E-03
1.75600000000E+09	-4.55896387530E-02	-2.38042993827E-01	1.34973316656E-02	6.58644572916E-02	1.34988559897E-02	6.58697088091E-02	2.41722074847E-01	-1.42872079782E-02
1.75650000000E+09	-4.82883579748E-02	-2.38599568956E-01	1.48384952321E-02	6.55488725215E-02	1.48396683326E-02	6.55388614796E-02	2.39784243940E-01	-1.97690582025E-02
1.75700000000E+09	-5.09824753348E-02	-2.39061966855E-01	1.61550135080E-02	6.51955871914E-02	1.61456541298E-02	6.51852358669E-02	2.37621853096E-01	-2.51541501384E-02
1.75750000000E+09	-5.36910567503E-02	-2.39375102868E-01	1.74605705809E-02	6.48348479266E-02	1.74459218062E-02	6.48169707701E-02	2.35306656444E-01	-3.04941015788E-02
1.75800000000E+09	-5.64535941966E-02	-2.39570766661E-01	1.87598116892E-02	6.44132541665E-02	1.87591406198E-02	6.44140480845E-02	2.32812462682E-01	-3.58235776958E-02
1.75850000000E+09	-5.92040215642E-02	-2.39638947741E-01	2.00416602138E-02	6.39919195169E-02	2.00334207661E-02	6.39925753825E-02	2.30169928277E-01	-4.10253292005E-02
