# Hz S RI R 50
! CMT, CMT808U, 21440046, 21.4.3/4
! Date: 11/12/2025 3:08:13 PM
! Data: Format (Calibration Info)
! Freq	S11:Re/Im(F2)	S41:Re/Im(F2)	S14:Re/Im(F2)	S44:Re/Im(F2)
1.70000000000E+09	-1.42250623813E-01	-1.17658219747E-01	-5.73097436312E-02	-3.55096364803E-02	-5.73102191505E-02	-3.55239690635E-02	-1.05234472672E-01	5.02570450778E-02
1.70050000000E+09	-1.41599513388E-01	-1.15277706997E-01	-5.81010394724E-02	-3.43463571739E-02	-5.80852617465E-02	-3.43619317801E-02	-1.04989573020E-01	5.58521051991E-02
1.70100000000E+09	-1.40792584454E-01	-1.12895114737E-01	-5.88662336596E-02	-3.31733736350E-02	-5.88423067730E-02	-3.32057337934E-02	-1.04530531552E-01	6.14238756871E-02
1.70150000000E+09	-1.39842312830E-01	-1.10550767318E-01	-5.95892122092E-02	-3.19927933659E-02	-5.95642168329E-02	-3.20203334867E-02	-1.03929508560E-01	6.69707222517E-02
1.70200000000E+09	-1.38729620127E-01	-1.08245415476E-01	-6.03219602271E-02	-3.07888260796E-02	-6.02909824391E-02	-3.08154165012E-02	-1.03102247457E-01	7.25035573771E-02
1.70250000000E+09	-1.37469799996E-01	-1.05971020794E-01	-6.10007478322E-02	-2.95564588145E-02	-6.09836337655E-02	-2.95767773701E-02	-1.02092226692E-01	7.79923693447E-02
1.70300000000E+09	-1.36079846062E-01	-1.03716463421E-01	-6.16606869545E-02	-2.83145637882E-02	-6.16590030593E-02	-2.83352835922E-02	-1.00934024276E-01	8.34456339338E-02
1.70350000000E+09	-1.34561622195E-01	-1.01565008100E-01	-6.23130080022E-02	-2.70511456733E-02	-6.23047599295E-02	-2.70653814098E-02	-9.95674785480E-02	8.88222920792E-02
1.70400000000E+09	-1.32869234122E-01	-9.94540681481E-02	-6.29349938216E-02	-2.57590288150E-02	-6.29506356848E-02	-2.57926058502E-02	-9.80422402371E-02	9.41641877651E-02
1.70450000000E+09	-1.31091413851E-01	-9.74406786753E-02	-6.35572335608E-02	-2.44678119051E-02	-6.35479011283E-02	-2.44877938877E-02	-9.63339342379E-02	9.94771774015E-02
1.70500000000E+09	-1.29184439634E-01	-9.54842751293E-02	-6.41415913991E-02	-2.31463088713E-02	-6.41134748947E-02	-2.31627094729E-02	-9.44604659087E-02	1.04691526824E-01
1.70550000000E+09	-1.27156386008E-01	-9.36427057438E-02	-6.46874596433E-02	-2.17876570534E-02	-6.46719917864E-02	-2.18223713292E-02	-9.24234216216E-02	1.09833861438E-01
1.70600000000E+09	-1.25055217502E-01	-9.18805803270E-02	-6.52230167638E-02	-2.04521022723E-02	-6.52060940310E-02	-2.04822316505E-02	-9.02181865825E-02	1.14918529587E-01
1.70650000000E+09	-1.22819663095E-01	-9.02141387028E-02	-6.57136016757E-02	-1.90657967829E-02	-6.57108915366E-02	-1.90961733340E-02	-8.78310565663E-02	1.19901814928E-01
1.70700000000E+09	-1.20518006237E-01	-8.86454976295E-02	-6.61854192999E-02	-1.76877450774E-02	-6.61723381772E-02	-1.77194558691E-02	-8.52939496848E-02	1.24808530271E-01
1.70750000000E+09	-1.18091019861E-01	-8.71755926657E-02	-6.66173564533E-02	-1.62778696895E-02	-6.66174775431E-02	-1.63121597975E-02	-8.25839547544E-02	1.29620652651E-01
1.70800000000E+09	-1.15604809772E-01	-8.58335722468E-02	-6.70414183698E-02	-1.48504951741E-02	-6.70366215959E-02	-1.48872045608E-02	-7.97376593842E-02	1.34344396108E-01
1.70850000000E+09	-1.13050426035E-01	-8.46080665543E-02	-6.74076667564E-02	-1.34281826183E-02	-6.74185536935E-02	-1.34423234715E-02	-7.67250557386E-02	1.38972206755E-01
1.70900000000E+09	-1.10437325330E-01	-8.34784291524E-02	-6.77703824018E-02	-1.19732650821E-02	-6.77530716581E-02	-1.20134708560E-02	-7.36285673682E-02	1.43458657483E-01
1.70950000000E+09	-1.07770505289E-01	-8.24809638926E-02	-6.80995156013E-02	-1.05056844745E-02	-6.80796110392E-02	-1.05547822949E-02	-7.03520871028E-02	1.47857815328E-01
1.71000000000E+09	-1.05034787189E-01	-8.16139469980E-02	-6.83773748311E-02	-9.04208751842E-03	-6.83687969605E-02	-9.07222251994E-03	-6.69294290795E-02	1.52152671875E-01
1.71050000000E+09	-1.02260463868E-01	-8.08286132024E-02	-6.86186764479E-02	-7.55744664658E-03	-6.86262185499E-02	-7.57612185576E-03	-6.33904964240E-02	1.56322629616E-01
1.71100000000E+09	-9.94689483674E-02	-8.01908980405E-02	-6.88285131333E-02	-6.05048235690E-03	-6.88276332971E-02	-6.08512738162E-03	-5.96907820622E-02	1.60363875536E-01
1.71150000000E+09	-9.66288336926E-02	-7.96524963777E-02	-6.90104969898E-02	-4.55021348580E-03	-6.90239105671E-02	-4.57970620721E-03	-5.58801783146E-02	1.64300107322E-01
1.71200000000E+09	-9.37730834323E-02	-7.92391408370E-02	-6.91655707417E-02	-3.04883303873E-03	-6.91682476781E-02	-3.07272525921E-03	-5.19846847626E-02	1.68090483802E-01
1.71250000000E+09	-9.08940122564E-02	-7.89746116224E-02	-6.92942848541E-02	-1.52376064388E-03	-6.92819087417E-02	-1.55651731297E-03	-4.79187773115E-02	1.71733447693E-01
1.71300000000E+09	-8.80375202747E-02	-7.87843006227E-02	-6.93404990216E-02	7.90240867222E-07	-6.93584587243E-02	-2.42117086750E-05	-4.37885697050E-02	1.75245518970E-01
1.71350000000E+09	-8.51347025923E-02	-7.87529996633E-02	-6.93958003702E-02	1.54295331504E-03	-6.93934158009E-02	1.48556649603E-03	-3.95401913873E-02	1.78635799810E-01
1.71400000000E+09	-8.22475791701E-02	-7.88163726755E-02	-6.93801767424E-02	3.05682404249E-03	-6.93810360235E-02	3.02699886276E-03	-3.51832817315E-02	1.81858516340E-01
1.71450000000E+09	-7.93708304741E-02	-7.89743497738E-02	-6.93607719367E-02	4.59606705307E-03	-6.93633825222E-02	4.58580395282E-03	-3.07343992947E-02	1.84980536882E-01
1.71500000000E+09	-7.64889135356E-02	-7.92847769971E-02	-6.92720768578E-02	6.14256591659E-03	-6.92822527899E-02	6.09524508020E-03	-2.61851349761E-02	1.87910152610E-01
1.71550000000E+09	-7.36632593741E-02	-7.96633181212E-02	-6.91822769323E-02	7.66448674504E-03	-6.91758380083E-02	7.64428116224E-03	-2.15383791843E-02	1.90694932028E-01
1.71600000000E+09	-7.08163997109E-02	-8.01868318402E-02	-6.90238469716E-02	9.19506628900E-03	-6.90342387050E-02	9.18383629753E-03	-1.68476409393E-02	1.93378025539E-01
1.71650000000E+09	-6.80178330673E-02	-8.07945060941E-02	-6.88337408049E-02	1.07393250507E-02	-6.88575724679E-02	1.07168613657E-02	-1.20385103213E-02	1.95846899826E-01
1.71700000000E+09	-6.52524611333E-02	-8.14983271934E-02	-6.86215558456E-02	1.22730910261E-02	-6.86200705389E-02	1.22439360587E-02	-7.18330334258E-03	1.98190547925E-01
1.71750000000E+09	-6.25247263089E-02	-8.23027594862E-02	-6.83631090105E-02	1.37924924097E-02	-6.83632492981E-02	1.37649747100E-02	-2.23286230734E-03	2.00371668423E-01
1.71800000000E+09	-5.98001962688E-02	-8.32111340802E-02	-6.80536408294E-02	1.53132101518E-02	-6.80569043010E-02	1.52857720990E-02	2.75454769367E-03	2.02352630639E-01
1.71850000000E+09	-5.71528570450E-02	-8.42287658587E-02	-6.77230950574E-02	1.68210261596E-02	-6.77314520537E-02	1.67995240998E-02	7.78363473173E-03	2.04218800982E-01
1.71900000000E+09	-5.45494214055E-02	-8.53249535514E-02	-6.73662071495E-02	1.83401465442E-02	-6.73641362534E-02	1.83052613326E-02	1.29209407999E-02	2.05895712145E-01
1.71950000000E+09	-5.19930883355E-02	-8.65080860544E-02	-6.69363472343E-02	1.98314108184E-02	-6.69357315887E-02	1.98042755680E-02	1.80430307976E-02	2.07414360120E-01
1.72000000000E+09	-4.94661469863E-02	-8.77899356912E-02	-6.65108417413E-02	2.13099930654E-02	-6.65080465207E-02	2.13017359684E-02	2.32250577079E-02	2.08806157175E-01
1.72050000000E+09	-4.70204556808E-02	-8.91209242020E-02	-6.60125559428E-02	2.28075899893E-02	-6.60211105565E-02	2.27837945395E-02	2.84478335894E-02	2.09984552227E-01
1.72100000000E+09	-4.46204215749E-02	-9.05721604028E-02	-6.55032370781E-02	2.42627826911E-02	-6.55112628938E-02	2.42310975600E-02	3.36746320116E-02	2.11000835159E-01
1.72150000000E+09	-4.22762476578E-02	-9.20502590450E-02	-6.49545816810E-02	2.57250513310E-02	-6.49658056671E-02	2.56915002597E-02	3.89615768858E-02	2.11889670801E-01
1.72200000000E+09	-3.99901034613E-02	-9.36271378758E-02	-6.43676563889E-02	2.71602225222E-02	-6.43792166356E-02	2.71423676889E-02	4.42776107883E-02	2.12595046501E-01
1.72250000000E+09	-3.77742013296E-02	-9.52774902389E-02	-6.37384648278E-02	2.85937171590E-02	-6.37742937056E-02	2.85543413551E-02	4.95691131894E-02	2.13136838617E-01
1.72300000000E+09	-3.56257987505E-02	-9.69976171088E-02	-6.30980364260E-02	2.99905442692E-02	-6.31082893962E-02	2.99668081837E-02	5.48629206051E-02	2.13468432459E-01
1.72350000000E+09	-3.35417197263E-02	-9.87610780457E-02	-6.24029488088E-02	3.13754099386E-02	-6.24056951879E-02	3.13678044912E-02	6.02112688835E-02	2.13612001156E-01
1.72400000000E+09	-3.15195921866E-02	-1.00598837277E-01	-6.16745136113E-02	3.27513577696E-02	-6.16984763509E-02	3.27317611385E-02	6.55721356524E-02	2.13689685782E-01
1.72450000000E+09	-2.95690965828E-02	-1.02490791943E-01	-6.09316580832E-02	3.40951101599E-02	-6.09340103747E-02	3.40843157403E-02	7.08621996028E-02	2.13532993743E-01
1.72500000000E+09	-2.76983017718E-02	-1.04425124919E-01	-6.01493314601E-02	3.54338840342E-02	-6.01515524962E-02	3.54145418705E-02	7.61546370778E-02	2.13238925696E-01
1.72550000000E+09	-2.58865796744E-02	-1.06408376121E-01	-5.93431208407E-02	3.67587188329E-02	-5.93483743582E-02	3.67361951179E-02	8.14627073529E-02	2.12752258973E-01
1.72600000000E+09	-2.41387618585E-02	-1.08463073567E-01	-5.84888812884E-02	3.80606897292E-02	-5.85057025371E-02	3.80402254850E-02	8.67164413944E-02	2.12105953690E-01
1.72650000000E+09	-2.25012563050E-02	-1.10542417676E-01	-5.76081742876E-02	3.93125824043E-02	-5.76258345498E-02	3.93166776605E-02	9.19722816685E-02	2.11293459330E-01
1.72700000000E+09	-2.08978728655E-02	-1.12661149471E-01	-5.67148200490E-02	4.05889252671E-02	-5.67223552089E-02	4.05509909680E-02	9.71572160708E-02	2.10331146994E-01
1.72750000000E+09	-1.93932295663E-02	-1.14829693091E-01	-5.57721909717E-02	4.18247245971E-02	-5.57918278796E-02	4.17775079714E-02	1.02351355309E-01	2.09203062005E-01
1.72800000000E+09	-1.79587042736E-02	-1.17011104939E-01	-5.48042603125E-02	4.30215918901E-02	-5.48265139906E-02	4.29917785523E-02	1.07512121952E-01	2.07925617260E-01
1.72850000000E+09	-1.65964961727E-02	-1.19256891541E-01	-5.38236084635E-02	4.41885758784E-02	-5.38501074463E-02	4.41768143478E-02	1.12601061774E-01	2.06484836764E-01
1.72900000000E+09	-1.53023108013E-02	-1.21506791944E-01	-5.28114792896E-02	4.53473281458E-02	-5.28416859213E-02	4.53265378046E-02	1.17645538447E-01	2.04863433973E-01
1.72950000000E+09	-1.40851392200E-02	-1.23784451738E-01	-5.17926145288E-02	4.64758816363E-02	-5.17836195777E-02	4.64553883757E-02	1.22614532351E-01	2.03107610727E-01
1.73000000000E+09	-1.29542828021E-02	-1.26111354423E-01	-5.07053039157E-02	4.75814617697E-02	-5.07293778523E-02	4.75634201659E-02	1.27542822757E-01	2.01166703063E-01
1.73050000000E+09	-1.18886572812E-02	-1.28425033010E-01	-4.96347048267E-02	4.86412645228E-02	-4.96560516317E-02	4.86319441630E-02	1.32386071375E-01	1.99118331553E-01
1.73100000000E+09	-1.09201580890E-02	-1.30782387338E-01	-4.85215089432E-02	4.97130254153E-02	-4.85410063190E-02	4.96815912467E-02	1.37205739068E-01	1.96913702039E-01
1.73150000000E+09	-9.99827158420E-03	-1.33149924906E-01	-4.73959455407E-02	5.07470058832E-02	-4.74180935738E-02	5.06952659235E-02	1.41907470804E-01	1.94531469049E-01
1.73200000000E+09	-9.16340069574E-03	-1.35530821142E-01	-4.62372551821E-02	5.17144527631E-02	-4.62609535295E-02	5.17035322243E-02	1.46565034635E-01	1.92014254375E-01
1.73250000000E+09	-8.38083839409E-03	-1.37922346789E-01	-4.50781128641E-02	5.26653149261E-02	-4.50817011033E-02	5.26513686412E-02	1.51127537799E-01	1.89378126372E-01
1.73300000000E+09	-7.71308539904E-03	-1.40324751656E-01	-4.38793653287E-02	5.36218019514E-02	-4.39003402421E-02	5.35982113872E-02	1.55587378699E-01	1.86586831417E-01
1.73350000000E+09	-7.09274416967E-03	-1.42744882322E-01	-4.26587795885E-02	5.45320074096E-02	-4.26811405610E-02	5.45210943664E-02	1.59993362053E-01	1.83651768161E-01
1.73400000000E+09	-6.56293898766E-03	-1.45186019293E-01	-4.14443443635E-02	5.54092447317E-02	-4.14513060410E-02	5.53950762464E-02	1.64284370135E-01	1.80569206759E-01
1.73450000000E+09	-6.09050314306E-03	-1.47587886604E-01	-4.01941283965E-02	5.62453981950E-02	-4.02044792973E-02	5.62396630428E-02	1.68457310592E-01	1.77410193698E-01
1.73500000000E+09	-5.71267995666E-03	-1.50020565996E-01	-3.89138271199E-02	5.70636969435E-02	-3.89468085539E-02	5.70459920136E-02	1.72518326333E-01	1.74073103103E-01
1.73550000000E+09	-5.37662715208E-03	-1.52454854175E-01	-3.76343716111E-02	5.78619012892E-02	-3.76610339590E-02	5.78463906443E-02	1.76535333560E-01	1.70610075665E-01
1.73600000000E+09	-5.13242808166E-03	-1.54871936960E-01	-3.63494406673E-02	5.86170098904E-02	-3.63794245712E-02	5.86054722259E-02	1.80390644177E-01	1.67058126886E-01
1.73650000000E+09	-4.97007277531E-03	-1.57287195981E-01	-3.50397040695E-02	5.93325392967E-02	-3.50616679499E-02	5.93125227964E-02	1.84146681398E-01	1.63374588431E-01
1.73700000000E+09	-4.84013649820E-03	-1.59722157027E-01	-3.37210917215E-02	6.00295005149E-02	-3.37460645686E-02	6.00175089453E-02	1.87817026027E-01	1.59554818945E-01
1.73750000000E+09	-4.83311687036E-03	-1.62135976583E-01	-3.23803791450E-02	6.06974572118E-02	-3.24104231060E-02	6.06724894370E-02	1.91308945768E-01	1.55659331592E-01
1.73800000000E+09	-4.86286411319E-03	-1.64537146550E-01	-3.10328535064E-02	6.13110547100E-02	-3.10653550928E-02	6.13055318132E-02	1.94704019254E-01	1.51598964520E-01
1.73850000000E+09	-4.98456860133E-03	-1.66932010724E-01	-2.96828420671E-02	6.19253653754E-02	-2.96979380230E-02	6.19083750945E-02	1.97995560743E-01	1.47509035524E-01
1.73900000000E+09	-5.15394867686E-03	-1.69316948973E-01	-2.83170336898E-02	6.24854173633E-02	-2.83384103671E-02	6.24780819397E-02	2.01159329261E-01	1.43263791434E-01
1.73950000000E+09	-5.37740599355E-03	-1.71690627691E-01	-2.69507162555E-02	6.30346316549E-02	-2.69682459471E-02	6.30216602267E-02	2.04174837239E-01	1.38963046782E-01
1.74000000000E+09	-5.72574302409E-03	-1.74079260025E-01	-2.55514763098E-02	6.35345424221E-02	-2.55792018099E-02	6.35252687021E-02	2.07029438254E-01	1.34516202529E-01
1.74050000000E+09	-6.11775771992E-03	-1.76409687411E-01	-2.41640150275E-02	6.40050371345E-02	-2.41925600745E-02	6.40123222956E-02	2.09758260596E-01	1.30018638032E-01
1.74100000000E+09	-6.59663961761E-03	-1.78722766849E-01	-2.27569433759E-02	6.44438472937E-02	-2.27848834041E-02	6.44268963675E-02	2.12351055043E-01	1.25407774039E-01
1.74150000000E+09	-7.13488364790E-03	-1.81030854924E-01	-2.13544048539E-02	6.48575715279E-02	-2.13875248992E-02	6.48519644211E-02	2.14813987218E-01	1.20733730120E-01
1.74200000000E+09	-7.69616768628E-03	-1.83325294833E-01	-1.99536627306E-02	6.52354899829E-02	-1.99795152524E-02	6.52239180636E-02	2.17117334286E-01	1.16014381934E-01
1.74250000000E+09	-8.38796430743E-03	-1.85593949723E-01	-1.85506492272E-02	6.55717912868E-02	-1.85654590393E-02	6.55716997913E-02	2.19284006416E-01	1.11192105999E-01
1.74300000000E+09	-9.11802723274E-03	-1.87829706705E-01	-1.71208943684E-02	6.58943340504E-02	-1.71422088693E-02	6.58895840765E-02	2.21286197257E-01	1.06308205401E-01
1.74350000000E+09	-9.93946079867E-03	-1.90036360457E-01	-1.56892617075E-02	6.61814037676E-02	-1.57179290500E-02	6.61649647240E-02	2.23137520944E-01	1.01360731327E-01
1.74400000000E+09	-1.08154364502E-02	-1.92206628985E-01	-1.42753320508E-02	6.64328941121E-02	-1.42941532222E-02	6.64238394355E-02	2.24839777576E-01	9.63378805839E-02
1.74450000000E+09	-1.17857843891E-02	-1.94390343868E-01	-1.28421353273E-02	6.66593810746E-02	-1.28616737952E-02	6.66350277428E-02	2.26380322136E-01	9.12854649021E-02
1.74500000000E+09	-1.27981155579E-02	-1.96492587677E-01	-1.14179500517E-02	6.68423714827E-02	-1.14539112413E-02	6.68253712779E-02	2.27736359301E-01	8.62090435009E-02
1.74550000000E+09	-1.38980750465E-02	-1.98579905796E-01	-9.98509826182E-03	6.69871098580E-02	-1.00223215226E-02	6.69945557702E-02	2.28998455240E-01	8.10686043677E-02
1.74600000000E+09	-1.50529590516E-02	-2.00605185381E-01	-8.56509166217E-03	6.71074340094E-02	-8.59042777043E-03	6.71139699463E-02	2.30049472570E-01	7.58706158527E-02
1.74650000000E+09	-1.62939948738E-02	-2.02616786520E-01	-7.14918582871E-03	6.72205097917E-02	-7.17645120615E-03	6.72097330035E-02	2.30943682906E-01	7.06702450193E-02
1.74700000000E+09	-1.76026656213E-02	-2.04582186515E-01	-5.72524085154E-03	6.72836738533E-02	-5.75804759308E-03	6.72643310486E-02	2.31646299191E-01	6.53891070537E-02
1.74750000000E+09	-1.89461030353E-02	-2.06491429023E-01	-4.30913723174E-03	6.73119942905E-02	-4.33251403125E-03	6.73096155762E-02	2.32246136480E-01	6.01712695513E-02
1.74800000000E+09	-2.03929235401E-02	-2.08366273337E-01	-2.89823852978E-03	6.73178452272E-02	-2.91321387790E-03	6.73118753340E-02	2.32623967015E-01	5.48439412793E-02
1.74850000000E+09	-2.18946131670E-02	-2.10167458530E-01	-1.47654837911E-03	6.73067418812E-02	-1.52248227167E-03	6.72833250603E-02	2.32869977166E-01	4.95540659451E-02
1.74900000000E+09	-2.34878594497E-02	-2.11904557587E-01	-9.90283539225E-05	6.72342052041E-02	-8.88479009533E-05	6.72175563095E-02	2.32920449127E-01	4.42491815874E-02
1.74950000000E+09	-2.51180631674E-02	-2.13590190465E-01	1.31720604054E-03	6.71520364835E-02	1.29217921814E-03	6.71538241559E-02	2.32828589624E-01	3.89439112251E-02
1.75000000000E+09	-2.68185759220E-02	-2.15220454292E-01	2.71573405966E-03	6.70541977695E-02	2.69533656457E-03	6.70375598363E-02	2.32564444272E-01	3.36422897788E-02
1.75050000000E+09	-2.85914445101E-02	-2.16797943986E-01	4.12013150275E-03	6.69000699924E-02	4.07971401400E-03	6.69019462305E-02	2.32132703896E-01	2.83473583353E-02
1.75100000000E+09	-3.03819578361E-02	-2.18300755495E-01	5.48688746876E-03	6.67291107715E-02	5.46505888057E-03	6.67415046896E-02	2.31547198978E-01	2.30432038076E-02
1.75150000000E+09	-3.22854019802E-02	-2.19723129150E-01	6.86156323465E-03	6.65357983223E-02	6.82577307265E-03	6.65447022983E-02	2.30781903155E-01	1.78071583017E-02
1.75200000000E+09	-3.42282924597E-02	-2.21072003343E-01	8.22988712378E-03	6.63103721405E-02	8.19667394676E-03	6.62986094151E-02	2.29843538857E-01	1.25281451778E-02
1.75250000000E+09	-3.62148978886E-02	-2.22351813952E-01	9.56683593256E-03	6.60604165350E-02	9.55637490388E-03	6.60601109894E-02	2.28733385742E-01	7.32741847266E-03
1.75300000000E+09	-3.82545733956E-02	-2.23542647167E-01	1.09265709213E-02	6.57822282797E-02	1.08935896375E-02	6.57756706733E-02	2.27450782022E-01	2.15275977432E-03
1.75350000000E+09	-4.03605004815E-02	-2.24624404344E-01	1.22645199936E-02	6.54711719302E-02	1.22425797541E-02	6.54808926844E-02	2.26029110757E-01	-2.98177020820E-03
1.75400000000E+09	-4.25243416947E-02	-2.25636963871E-01	1.35939951077E-02	6.51396754226E-02	1.35725587636E-02	6.51561605368E-02	2.24396158314E-01	-8.07297750432E-03
1.75450000000E+09	-4.46897714231E-02	-2.26525592942E-01	1.49148908078E-02	6.47920781526E-02	1.48856646389E-02	6.47990201005E-02	2.22657434780E-01	-1.31503974009E-02
1.75500000000E+09	-4.69372913915E-02	-2.27334334170E-01	1.62172629805E-02	6.44132825579E-02	1.61697306650E-02	6.44199908218E-02	2.20742010366E-01	-1.81341808409E-02
1.75550000000E+09	-4.91819570409E-02	-2.28058996466E-01	1.74895367017E-02	6.39941698048E-02	1.74723556259E-02	6.39984764237E-02	2.18628060126E-01	-2.30576575386E-02
1.75600000000E+09	-5.14794435705E-02	-2.28707214447E-01	1.87720783082E-02	6.35880927230E-02	1.87580436710E-02	6.35883405026E-02	2.16397581696E-01	-2.79361193505E-02
1.75650000000E+09	-5.37897331293E-02	-2.29181955877E-01	2.00470376420E-02	6.31310602444E-02	2.00355235941E-02	6.31376725326E-02	2.14023597099E-01	-3.27407162451E-02
1.75700000000E+09	-5.61196841548E-02	-2.29598506419E-01	2.12991124171E-02	6.26390733039E-02	2.12706985743E-02	6.26595456650E-02	2.11444838491E-01	-3.74156177969E-02
1.75750000000E+09	-5.84788221463E-02	-2.29891578294E-01	2.25427578014E-02	6.21624230160E-02	2.25186739804E-02	6.21599592842E-02	2.08740097364E-01	-4.20912068945E-02
1.75800000000E+09	-6.08722211358E-02	-2.30057547094E-01	2.37698563342E-02	6.16339883522E-02	2.37532853369E-02	6.16422122949E-02	2.05899174409E-01	-4.66251718899E-02
1.75850000000E+09	-6.32268044328E-02	-2.30148817670E-01	2.49725534680E-02	6.11016418175E-02	2.49644359894E-02	6.11144824955E-02	2.02902947400E-01	-5.10732966106E-02
