# Hz S RI R 50
! CMT, CMT808U, 21440046, 21.4.3/4
! Date: 11/12/2025 3:03:57 PM
! Data: Format (Calibration Info)
! Freq	S11:Re/Im(F2)	S41:Re/Im(F2)	S14:Re/Im(F2)	S44:Re/Im(F2)
1.70000000000E+09	-1.41570224407E-01	-1.20051837696E-01	5.99834315326E-02	2.72042033376E-02	5.99815316867E-02	2.72273155335E-02	-1.11645539015E-01	4.60379606327E-02
1.70050000000E+09	-1.41025046578E-01	-1.17693920239E-01	6.06107187681E-02	2.59272688440E-02	6.05986263999E-02	2.59721761263E-02	-1.11617949317E-01	5.22356997902E-02
1.70100000000E+09	-1.40344070108E-01	-1.15321454034E-01	6.11903653584E-02	2.46683834807E-02	6.11692000826E-02	2.46754209029E-02	-1.11362458912E-01	5.83952364007E-02
1.70150000000E+09	-1.39501744391E-01	-1.12966655378E-01	6.17456347495E-02	2.33562087238E-02	6.17319223089E-02	2.33933599151E-02	-1.10935587723E-01	6.45397354769E-02
1.70200000000E+09	-1.38497386837E-01	-1.10693223307E-01	6.22730315521E-02	2.20516155490E-02	6.22517406918E-02	2.20668941201E-02	-1.10286395804E-01	7.06844174045E-02
1.70250000000E+09	-1.37364482257E-01	-1.08390167131E-01	6.27794507501E-02	2.07201811330E-02	6.27540856581E-02	2.07398419063E-02	-1.09416235037E-01	7.67867393636E-02
1.70300000000E+09	-1.36100433187E-01	-1.06118890804E-01	6.32253060518E-02	1.93601375968E-02	6.32389307114E-02	1.93869865465E-02	-1.08363423264E-01	8.28503905966E-02
1.70350000000E+09	-1.34686572267E-01	-1.03953766958E-01	6.36841879737E-02	1.80090144064E-02	6.36613107167E-02	1.80359535827E-02	-1.07137579201E-01	8.88651227315E-02
1.70400000000E+09	-1.33098409131E-01	-1.01825943695E-01	6.41030731862E-02	1.66218707959E-02	6.40855572286E-02	1.66706157385E-02	-1.05686386482E-01	9.48395804290E-02
1.70450000000E+09	-1.31442463559E-01	-9.97750363943E-02	6.44925618279E-02	1.52791637552E-02	6.44694332943E-02	1.52896879488E-02	-1.04067084829E-01	1.00764724171E-01
1.70500000000E+09	-1.29639566759E-01	-9.77692381751E-02	6.48446403669E-02	1.38698465506E-02	6.48253288055E-02	1.39011423710E-02	-1.02215755383E-01	1.06655074150E-01
1.70550000000E+09	-1.27723278579E-01	-9.58867457589E-02	6.51727885988E-02	1.24834725286E-02	6.51583944094E-02	1.25082932597E-02	-1.00176905176E-01	1.12433064243E-01
1.70600000000E+09	-1.25709418506E-01	-9.40576225033E-02	6.54630926882E-02	1.10575455152E-02	6.54574998743E-02	1.10982557589E-02	-9.79671645180E-02	1.18151846411E-01
1.70650000000E+09	-1.23570396873E-01	-9.23483951753E-02	6.57191211562E-02	9.65329335576E-03	6.57157246218E-02	9.69650825525E-03	-9.55677510923E-02	1.23773187608E-01
1.70700000000E+09	-1.21350037402E-01	-9.07010919663E-02	6.59513901813E-02	8.22624490715E-03	6.59331342614E-02	8.25043955171E-03	-9.29692906303E-02	1.29342725797E-01
1.70750000000E+09	-1.19017047737E-01	-8.91954886696E-02	6.61393956092E-02	6.78948294863E-03	6.61371431620E-02	6.82462663274E-03	-9.02063918469E-02	1.34781054393E-01
1.70800000000E+09	-1.16617363095E-01	-8.77609616682E-02	6.63107104974E-02	5.35295238741E-03	6.63152560926E-02	5.36919860835E-03	-8.72809339639E-02	1.40154791248E-01
1.70850000000E+09	-1.14142941218E-01	-8.64410549428E-02	6.64319238108E-02	3.90406637831E-03	6.64291354143E-02	3.93538427233E-03	-8.41469591604E-02	1.45414547239E-01
1.70900000000E+09	-1.11587358069E-01	-8.52490621147E-02	6.65294639152E-02	2.46622395876E-03	6.65235307256E-02	2.48485179064E-03	-8.09099750931E-02	1.50548675870E-01
1.70950000000E+09	-1.09006373189E-01	-8.41578979750E-02	6.65961023581E-02	9.87558448457E-04	6.65822543828E-02	1.03876004285E-03	-7.74648901520E-02	1.55576115844E-01
1.71000000000E+09	-1.06318767733E-01	-8.31870100611E-02	6.66442207872E-02	-4.56278326632E-04	6.66405938423E-02	-4.10235551194E-04	-7.38682881448E-02	1.60484483144E-01
1.71050000000E+09	-1.03591959423E-01	-8.23236031050E-02	6.66392485439E-02	-1.91316757570E-03	6.66260026288E-02	-1.86860676871E-03	-7.01570181683E-02	1.65273233663E-01
1.71100000000E+09	-1.00855576800E-01	-8.15776131616E-02	6.65892852541E-02	-3.35700735061E-03	6.65802300202E-02	-3.34204708789E-03	-6.62278861206E-02	1.69924347697E-01
1.71150000000E+09	-9.80517891751E-02	-8.09378359186E-02	6.65187650483E-02	-4.81082686583E-03	6.65150797324E-02	-4.78871916211E-03	-6.22081056258E-02	1.74493779737E-01
1.71200000000E+09	-9.52254034775E-02	-8.04431091472E-02	6.64099772512E-02	-6.26024834739E-03	6.64111692420E-02	-6.25192901121E-03	-5.80510297380E-02	1.78866381083E-01
1.71250000000E+09	-9.23982212074E-02	-8.00733922646E-02	6.62836797060E-02	-7.72873203806E-03	6.62677148734E-02	-7.69865641457E-03	-5.37059734484E-02	1.83087163077E-01
1.71300000000E+09	-8.95432008093E-02	-7.97949323465E-02	6.61251603663E-02	-9.16728246902E-03	6.61142815607E-02	-9.15106905077E-03	-4.92796781751E-02	1.87190319435E-01
1.71350000000E+09	-8.66853091771E-02	-7.96479597225E-02	6.59018270175E-02	-1.06225172439E-02	6.58922301260E-02	-1.05966006188E-02	-4.47191891675E-02	1.91134452665E-01
1.71400000000E+09	-8.37966037886E-02	-7.96252477860E-02	6.56671819744E-02	-1.20659637932E-02	6.56608876437E-02	-1.20430962135E-02	-4.00460952149E-02	1.94956904565E-01
1.71450000000E+09	-8.09270602649E-02	-7.97087819437E-02	6.53974915268E-02	-1.35023358847E-02	6.53987178435E-02	-1.34682030123E-02	-3.52284866444E-02	1.98585800661E-01
1.71500000000E+09	-7.80727066185E-02	-7.98915782073E-02	6.51020072291E-02	-1.49309787632E-02	6.50989181364E-02	-1.49060243847E-02	-3.03464613191E-02	2.02084704693E-01
1.71550000000E+09	-7.52176063153E-02	-8.01938841900E-02	6.47573330556E-02	-1.63535311320E-02	6.47580022861E-02	-1.63101622191E-02	-2.52857574846E-02	2.05383700013E-01
1.71600000000E+09	-7.23884040634E-02	-8.06072045086E-02	6.43848136779E-02	-1.77567550734E-02	6.43802644419E-02	-1.77230546780E-02	-2.02202945052E-02	2.08549792273E-01
1.71650000000E+09	-6.95801262910E-02	-8.11342210825E-02	6.39845932073E-02	-1.91533143830E-02	6.39778739069E-02	-1.91494328771E-02	-1.49851743148E-02	2.11515168129E-01
1.71700000000E+09	-6.67839260670E-02	-8.17583754576E-02	6.35472964538E-02	-2.05552952807E-02	6.35539749782E-02	-2.05459762347E-02	-9.73140974503E-03	2.14322856915E-01
1.71750000000E+09	-6.40305751148E-02	-8.24573426574E-02	6.30802550642E-02	-2.19337279402E-02	6.30938916351E-02	-2.19181011186E-02	-4.35027401939E-03	2.16981410480E-01
1.71800000000E+09	-6.12909999408E-02	-8.32992651521E-02	6.25831785455E-02	-2.33170356837E-02	6.25944580642E-02	-2.32865809065E-02	1.09721701863E-03	2.19421609777E-01
1.71850000000E+09	-5.86110050010E-02	-8.42116057019E-02	6.20558039552E-02	-2.46827063642E-02	6.20662493566E-02	-2.46547346124E-02	6.58512102294E-03	2.21715015670E-01
1.71900000000E+09	-5.59820036936E-02	-8.52341031476E-02	6.14878010994E-02	-2.60165211300E-02	6.15022234054E-02	-2.59918589514E-02	1.22041869764E-02	2.23828568075E-01
1.71950000000E+09	-5.33728679724E-02	-8.63208408471E-02	6.09059027329E-02	-2.73569581984E-02	6.08941137213E-02	-2.73277763256E-02	1.77914887323E-02	2.25743631858E-01
1.72000000000E+09	-5.08235941766E-02	-8.75223089320E-02	6.02862021329E-02	-2.86679190126E-02	6.02918565444E-02	-2.86335559270E-02	2.34780514448E-02	2.27480657401E-01
1.72050000000E+09	-4.83064879401E-02	-8.87903336051E-02	5.96357187981E-02	-2.99680009249E-02	5.96617025638E-02	-2.99367225155E-02	2.91946895926E-02	2.29048393578E-01
1.72100000000E+09	-4.58815605151E-02	-9.01747488995E-02	5.89536934442E-02	-3.12540469216E-02	5.89653764803E-02	-3.12264908956E-02	3.49469362993E-02	2.30424166208E-01
1.72150000000E+09	-4.34738445812E-02	-9.15938413358E-02	5.82456495068E-02	-3.25231936344E-02	5.82475261269E-02	-3.24838327050E-02	4.07724605242E-02	2.31611442717E-01
1.72200000000E+09	-4.11407041148E-02	-9.31097248334E-02	5.75138655362E-02	-3.37571749480E-02	5.75157236107E-02	-3.37379697533E-02	4.66301650706E-02	2.32643922979E-01
1.72250000000E+09	-3.88834790012E-02	-9.46934496118E-02	5.67529801678E-02	-3.50013594582E-02	5.67697852635E-02	-3.49659383151E-02	5.24476184289E-02	2.33485785436E-01
1.72300000000E+09	-3.66799900705E-02	-9.63450813731E-02	5.59681803991E-02	-3.62179689176E-02	5.59707360514E-02	-3.61879821307E-02	5.82807901531E-02	2.34111886124E-01
1.72350000000E+09	-3.45414455309E-02	-9.80631019674E-02	5.51475619121E-02	-3.74002834356E-02	5.51653227535E-02	-3.73908965829E-02	6.41698527344E-02	2.34557126279E-01
1.72400000000E+09	-3.24612806917E-02	-9.98463255230E-02	5.43159843479E-02	-3.85757733814E-02	5.43236036092E-02	-3.85477353475E-02	7.00400448169E-02	2.34836393741E-01
1.72450000000E+09	-3.04642116182E-02	-1.01694338580E-01	5.34390411988E-02	-3.97404910584E-02	5.34535010407E-02	-3.97165165207E-02	7.59331541928E-02	2.34921484679E-01
1.72500000000E+09	-2.85092529696E-02	-1.03592057092E-01	5.25618473175E-02	-4.08612087711E-02	5.25782419407E-02	-4.08514520162E-02	8.17725393182E-02	2.34813817717E-01
1.72550000000E+09	-2.66481196364E-02	-1.05531396360E-01	5.16308285889E-02	-4.19875493978E-02	5.16570874460E-02	-4.19641815614E-02	8.76473372417E-02	2.34506354197E-01
1.72600000000E+09	-2.48336154515E-02	-1.07541750659E-01	5.07108303467E-02	-4.30775789880E-02	5.07302924793E-02	-4.30388331390E-02	9.34584575364E-02	2.34050644401E-01
1.72650000000E+09	-2.31424299514E-02	-1.09580153266E-01	4.97402622966E-02	-4.41291652971E-02	4.97619099245E-02	-4.41174258439E-02	9.92521973712E-02	2.33406059352E-01
1.72700000000E+09	-2.14765046041E-02	-1.11669256851E-01	4.87499248756E-02	-4.52075417549E-02	4.87696330249E-02	-4.51491471658E-02	1.05072914552E-01	2.32565254602E-01
1.72750000000E+09	-1.98999758685E-02	-1.13822477285E-01	4.77472957791E-02	-4.62066471906E-02	4.77592977040E-02	-4.61910925694E-02	1.10800654239E-01	2.31581101855E-01
1.72800000000E+09	-1.83895983196E-02	-1.15974674429E-01	4.67231006807E-02	-4.72169103093E-02	4.67419550740E-02	-4.71664763282E-02	1.16483492053E-01	2.30396022211E-01
1.72850000000E+09	-1.69741309865E-02	-1.18187679899E-01	4.56773246901E-02	-4.81714434803E-02	4.57086918353E-02	-4.81639120245E-02	1.22165832142E-01	2.29016379012E-01
1.72900000000E+09	-1.56170642467E-02	-1.20455372427E-01	4.46239704761E-02	-4.91327498310E-02	4.46432992093E-02	-4.91088253518E-02	1.27767486785E-01	2.27509505862E-01
1.72950000000E+09	-1.43331470319E-02	-1.22694908608E-01	4.35375668679E-02	-5.00536760478E-02	4.35342479331E-02	-5.00423832140E-02	1.33317463261E-01	2.25782187776E-01
1.73000000000E+09	-1.31357480648E-02	-1.25001920585E-01	4.24518996855E-02	-5.09505076830E-02	4.24559581431E-02	-5.09221562198E-02	1.38776240909E-01	2.23925219824E-01
1.73050000000E+09	-1.19890489217E-02	-1.27305491762E-01	4.13092620584E-02	-5.18191174863E-02	4.13322036491E-02	-5.17965648011E-02	1.44220770299E-01	2.21862155824E-01
1.73100000000E+09	-1.09758891446E-02	-1.29670558607E-01	4.01825432743E-02	-5.26907448791E-02	4.01860319002E-02	-5.26454097452E-02	1.49597528571E-01	2.19663313144E-01
1.73150000000E+09	-9.98993244442E-03	-1.32015690568E-01	3.90145581226E-02	-5.35021292612E-02	3.90377464093E-02	-5.34735159499E-02	1.54849788919E-01	2.17265865380E-01
1.73200000000E+09	-9.07303633029E-03	-1.34407131355E-01	3.78465689023E-02	-5.43057348462E-02	3.78627620527E-02	-5.42609464380E-02	1.60028231107E-01	2.14744771586E-01
1.73250000000E+09	-8.25312000236E-03	-1.36787566104E-01	3.66686365867E-02	-5.50624278036E-02	3.66826575829E-02	-5.50543011402E-02	1.65125098506E-01	2.12049800127E-01
1.73300000000E+09	-7.52637761533E-03	-1.39190641314E-01	3.54476719721E-02	-5.58018279144E-02	3.54963305708E-02	-5.57902797924E-02	1.70137465096E-01	2.09255795358E-01
1.73350000000E+09	-6.83622422622E-03	-1.41625405083E-01	3.42513758450E-02	-5.65213171079E-02	3.42765656576E-02	-5.64924075866E-02	1.75028552622E-01	2.06240833230E-01
1.73400000000E+09	-6.24455708507E-03	-1.44058118802E-01	3.30207039555E-02	-5.72076697884E-02	3.30437352779E-02	-5.71830550218E-02	1.79862582360E-01	2.03078547366E-01
1.73450000000E+09	-5.69711185212E-03	-1.46490153926E-01	3.17726142014E-02	-5.78600154287E-02	3.18159904923E-02	-5.78466047660E-02	1.84592086692E-01	1.99765854627E-01
1.73500000000E+09	-5.25859130356E-03	-1.48941907699E-01	3.05269845595E-02	-5.85090368530E-02	3.05498647069E-02	-5.84738348240E-02	1.89164366388E-01	1.96335140288E-01
1.73550000000E+09	-4.88632893997E-03	-1.51370362412E-01	2.92771228254E-02	-5.91072212183E-02	2.92941449754E-02	-5.90883350966E-02	1.93677011584E-01	1.92759541695E-01
1.73600000000E+09	-4.57693752641E-03	-1.53792846873E-01	2.80017555707E-02	-5.96612463239E-02	2.80143115632E-02	-5.96588951646E-02	1.98022995953E-01	1.89093501224E-01
1.73650000000E+09	-4.34589900905E-03	-1.56237586711E-01	2.66986392097E-02	-6.02220353408E-02	2.67385207501E-02	-6.02089901675E-02	2.02261882258E-01	1.85271091340E-01
1.73700000000E+09	-4.16748234632E-03	-1.58693930410E-01	2.54131784198E-02	-6.07432675531E-02	2.54330442742E-02	-6.07298703131E-02	2.06389251555E-01	1.81274938026E-01
1.73750000000E+09	-4.09136447026E-03	-1.61121105235E-01	2.41019316997E-02	-6.12239712466E-02	2.41495878930E-02	-6.12194514487E-02	2.10375110840E-01	1.77237187909E-01
1.73800000000E+09	-4.09469021682E-03	-1.63553140330E-01	2.27995364224E-02	-6.16968002083E-02	2.28383783178E-02	-6.16935104376E-02	2.14249872430E-01	1.72982832826E-01
1.73850000000E+09	-4.15406694549E-03	-1.65966169061E-01	2.15018360938E-02	-6.21304531442E-02	2.15085579287E-02	-6.21307478115E-02	2.17967247419E-01	1.68688224601E-01
1.73900000000E+09	-4.27561248572E-03	-1.68380818247E-01	2.01606895169E-02	-6.25379350764E-02	2.01836963561E-02	-6.25320699238E-02	2.21562290650E-01	1.64246280672E-01
1.73950000000E+09	-4.45531809880E-03	-1.70770976142E-01	1.88399985641E-02	-6.29054836886E-02	1.88619519931E-02	-6.29110441398E-02	2.25020912923E-01	1.59734675277E-01
1.74000000000E+09	-4.74279308360E-03	-1.73208091655E-01	1.74872220557E-02	-6.32671434577E-02	1.75277034446E-02	-6.32468684470E-02	2.28299485378E-01	1.55078121456E-01
1.74050000000E+09	-5.10048048772E-03	-1.75536998618E-01	1.61419450362E-02	-6.35919513504E-02	1.61883664651E-02	-6.35729601807E-02	2.31455423122E-01	1.50353585622E-01
1.74100000000E+09	-5.51795816704E-03	-1.77926092513E-01	1.48107886448E-02	-6.38721955984E-02	1.48271119360E-02	-6.38621539143E-02	2.34447832896E-01	1.45540362080E-01
1.74150000000E+09	-6.01620618737E-03	-1.80234593045E-01	1.34675537790E-02	-6.41535763677E-02	1.34890111590E-02	-6.41355877526E-02	2.37285514892E-01	1.40603468270E-01
1.74200000000E+09	-6.56017241106E-03	-1.82582034628E-01	1.21024848876E-02	-6.43749131399E-02	1.21393482942E-02	-6.43760812148E-02	2.39996352561E-01	1.35632596681E-01
1.74250000000E+09	-7.21422377164E-03	-1.84873940832E-01	1.07514152715E-02	-6.45887605937E-02	1.07715475121E-02	-6.45811602852E-02	2.42528510172E-01	1.30542373776E-01
1.74300000000E+09	-7.88525020700E-03	-1.87146790459E-01	9.39847744878E-03	-6.47686922486E-02	9.43540964333E-03	-6.47590808702E-02	2.44877736073E-01	1.25397994584E-01
1.74350000000E+09	-8.67913694400E-03	-1.89397287156E-01	8.03021658795E-03	-6.49173542180E-02	8.07306149311E-03	-6.49131745565E-02	2.47074023562E-01	1.20155851069E-01
1.74400000000E+09	-9.51080026802E-03	-1.91629988257E-01	6.67797191087E-03	-6.50457396260E-02	6.70767915368E-03	-6.50280167922E-02	2.49122468877E-01	1.14883757716E-01
1.74450000000E+09	-1.04479766734E-02	-1.93829523894E-01	5.31772803708E-03	-6.51542112787E-02	5.35024387172E-03	-6.51309446261E-02	2.51000369372E-01	1.09535434329E-01
1.74500000000E+09	-1.14279338355E-02	-1.95967137198E-01	3.95562432359E-03	-6.52111997731E-02	3.99367857862E-03	-6.51854389056E-02	2.52698898549E-01	1.04171887420E-01
1.74550000000E+09	-1.24862763111E-02	-1.98086440172E-01	2.61133833868E-03	-6.52476649133E-02	2.62871323167E-03	-6.52253405678E-02	2.54219479109E-01	9.87379081955E-02
1.74600000000E+09	-1.36195776300E-02	-2.00207138134E-01	1.25858790676E-03	-6.52449022330E-02	1.27350968796E-03	-6.52518519371E-02	2.55590825578E-01	9.32410234615E-02
1.74650000000E+09	-1.48461448499E-02	-2.02244216202E-01	-1.21860090867E-04	-6.52346618698E-02	-7.56521089183E-05	-6.52392589471E-02	2.56764141781E-01	8.77228276908E-02
1.74700000000E+09	-1.61226348069E-02	-2.04223926669E-01	-1.46618621650E-03	-6.51934638741E-02	-1.43726756982E-03	-6.51787841938E-02	2.57760079950E-01	8.21606022373E-02
1.74750000000E+09	-1.74651654193E-02	-2.06203495666E-01	-2.81900502453E-03	-6.51255406966E-02	-2.79611769818E-03	-6.51142548594E-02	2.58617122333E-01	7.65853348307E-02
1.74800000000E+09	-1.88468389276E-02	-2.08102328629E-01	-4.15407973015E-03	-6.50076464633E-02	-4.13523875075E-03	-6.50090186032E-02	2.59248213808E-01	7.09571807205E-02
1.74850000000E+09	-2.03370909529E-02	-2.09944105960E-01	-5.50840757108E-03	-6.48852921505E-02	-5.46718295953E-03	-6.48915510893E-02	2.59721226027E-01	6.53292339342E-02
1.74900000000E+09	-2.19064503941E-02	-2.11740130588E-01	-6.84179686479E-03	-6.47226539526E-02	-6.81101226552E-03	-6.47223577847E-02	2.60029640250E-01	5.96869957457E-02
1.74950000000E+09	-2.35360183450E-02	-2.13486810300E-01	-8.17220356833E-03	-6.45502650295E-02	-8.14300585148E-03	-6.45578034635E-02	2.60150404722E-01	5.40751444803E-02
1.75000000000E+09	-2.51882322117E-02	-2.15171887491E-01	-9.49910126291E-03	-6.43394367563E-02	-9.46639823016E-03	-6.43564977598E-02	2.60087563170E-01	4.84360254348E-02
1.75050000000E+09	-2.69351263203E-02	-2.16779823234E-01	-1.07967084249E-02	-6.41223933763E-02	-1.07739682862E-02	-6.41216465293E-02	2.59847030433E-01	4.28049359479E-02
1.75100000000E+09	-2.87266231827E-02	-2.18355887258E-01	-1.21164153303E-02	-6.38647561869E-02	-1.20893755932E-02	-6.38570048147E-02	2.59461595938E-01	3.71803730375E-02
1.75150000000E+09	-3.06076929987E-02	-2.19807060655E-01	-1.34306600046E-02	-6.35768998338E-02	-1.33997600063E-02	-6.35806303378E-02	2.58856041366E-01	3.16150420033E-02
1.75200000000E+09	-3.25494360080E-02	-2.21211073044E-01	-1.47322758878E-02	-6.32684382615E-02	-1.47044923605E-02	-6.32619479559E-02	2.58075183054E-01	2.59810969816E-02
1.75250000000E+09	-3.45214270391E-02	-2.22562998831E-01	-1.60153892461E-02	-6.29466853550E-02	-1.59885633164E-02	-6.29458234382E-02	2.57132301740E-01	2.04727443039E-02
1.75300000000E+09	-3.65497833582E-02	-2.23789435351E-01	-1.73030659871E-02	-6.25729909442E-02	-1.72669527773E-02	-6.25925901718E-02	2.55998945639E-01	1.49617610568E-02
1.75350000000E+09	-3.86468742422E-02	-2.24959913119E-01	-1.85540383765E-02	-6.21831425296E-02	-1.85482330662E-02	-6.21986364261E-02	2.54688531878E-01	9.45756607008E-03
1.75400000000E+09	-4.07805822484E-02	-2.25992771445E-01	-1.98423548585E-02	-6.17735649287E-02	-1.97931068478E-02	-6.17869659683E-02	2.53171461524E-01	4.04464602152E-03
1.75450000000E+09	-4.29699969454E-02	-2.26980309690E-01	-2.10803299153E-02	-6.13503219397E-02	-2.10567917769E-02	-6.13696511518E-02	2.51553727801E-01	-1.33761657094E-03
1.75500000000E+09	-4.52075325196E-02	-2.27860754916E-01	-2.23349124301E-02	-6.09057360274E-02	-2.22858378599E-02	-6.09145372497E-02	2.49724477386E-01	-6.68342200181E-03
1.75550000000E+09	-4.74516882165E-02	-2.28610347380E-01	-2.35421064970E-02	-6.04132840853E-02	-2.35228932967E-02	-6.04172888379E-02	2.47692009133E-01	-1.19207801421E-02
1.75600000000E+09	-4.97340859938E-02	-2.29318205165E-01	-2.47567298374E-02	-5.99225754901E-02	-2.47534536439E-02	-5.99224583789E-02	2.45562979459E-01	-1.71293891266E-02
1.75650000000E+09	-5.20526048654E-02	-2.29874289858E-01	-2.59865784275E-02	-5.93902855908E-02	-2.59523396790E-02	-5.94008678885E-02	2.43221847292E-01	-2.22626766359E-02
1.75700000000E+09	-5.44003297293E-02	-2.30353931491E-01	-2.71851824955E-02	-5.88347034244E-02	-2.71635797888E-02	-5.88535089604E-02	2.40730237232E-01	-2.73039106770E-02
1.75750000000E+09	-5.67424774138E-02	-2.30709173023E-01	-2.83527941954E-02	-5.82717175469E-02	-2.83403509410E-02	-5.83014617047E-02	2.38055251542E-01	-3.22385164090E-02
1.75800000000E+09	-5.91456507831E-02	-2.30958476052E-01	-2.95468858961E-02	-5.76946257808E-02	-2.95074312951E-02	-5.76986301079E-02	2.35250495926E-01	-3.71212851450E-02
1.75850000000E+09	-6.15264392986E-02	-2.31105320273E-01	-3.07073498526E-02	-5.70761514288E-02	-3.06931704361E-02	-5.71087661611E-02	2.32260366623E-01	-4.19121773936E-02
