# Hz S RI R 50
! CMT, CMT808U, 21440046, 21.4.3/4
! Date: 11/17/2025 2:49:09 PM
! Data: Format (Calibration Info)
! Freq	S11:Re/Im(F2)	S41:Re/Im(F2)	S14:Re/Im(F2)	S44:Re/Im(F2)
1.70000000000E+09	-8.60965442670E-02	-1.34133418920E-01	-5.49802696674E-02	-4.47879243535E-02	-5.50839684598E-02	-4.47361019289E-02	-1.22150929551E-01	2.44665914542E-02
1.70050000000E+09	-8.56276952204E-02	-1.31570632116E-01	-5.59519066014E-02	-4.36379680023E-02	-5.60578672822E-02	-4.35895118064E-02	-1.22698233345E-01	3.01521287020E-02
1.70100000000E+09	-8.50215307257E-02	-1.28998506365E-01	-5.68942673269E-02	-4.24466717693E-02	-5.69865816965E-02	-4.24048453215E-02	-1.23058650739E-01	3.58491907241E-02
1.70150000000E+09	-8.42270446988E-02	-1.26434234761E-01	-5.78243352464E-02	-4.12417288338E-02	-5.79078460638E-02	-4.11989352384E-02	-1.23228124653E-01	4.15541088270E-02
1.70200000000E+09	-8.32872448490E-02	-1.23913051986E-01	-5.87157085657E-02	-4.00299589746E-02	-5.88026720051E-02	-3.99779443687E-02	-1.23182097044E-01	4.72893001869E-02
1.70250000000E+09	-8.21693675052E-02	-1.21398110107E-01	-5.95743466950E-02	-3.87757728405E-02	-5.96829443722E-02	-3.87215820139E-02	-1.22970610838E-01	5.29909199983E-02
1.70300000000E+09	-8.09289670130E-02	-1.18938976027E-01	-6.04484070409E-02	-3.75107581767E-02	-6.05411288007E-02	-3.74717819864E-02	-1.22580658914E-01	5.86664373650E-02
1.70350000000E+09	-7.95321394222E-02	-1.16514048255E-01	-6.12529171064E-02	-3.62310420021E-02	-6.13673277918E-02	-3.61776116523E-02	-1.22007691268E-01	6.43455719164E-02
1.70400000000E+09	-7.79621130574E-02	-1.14157347134E-01	-6.20495563033E-02	-3.49213281327E-02	-6.21325745647E-02	-3.48609340070E-02	-1.21211801991E-01	6.99802561890E-02
1.70450000000E+09	-7.62783512539E-02	-1.11898042244E-01	-6.28178726329E-02	-3.35935516778E-02	-6.29101849628E-02	-3.35373284804E-02	-1.20282080876E-01	7.56090333405E-02
1.70500000000E+09	-7.44441366446E-02	-1.09666324743E-01	-6.35684087926E-02	-3.22259862925E-02	-6.36349409720E-02	-3.21743057205E-02	-1.19114526125E-01	8.12021389588E-02
1.70550000000E+09	-7.24978939178E-02	-1.07548321256E-01	-6.42656496714E-02	-3.08601015042E-02	-6.43552207191E-02	-3.08074963970E-02	-1.17782546307E-01	8.67483485203E-02
1.70600000000E+09	-7.04173472508E-02	-1.05533172051E-01	-6.49445079862E-02	-2.94792432104E-02	-6.50301307925E-02	-2.94246743479E-02	-1.16289546068E-01	9.22144671568E-02
1.70650000000E+09	-6.82128844275E-02	-1.03584637300E-01	-6.55941933535E-02	-2.80503619018E-02	-6.56799951794E-02	-2.80225526829E-02	-1.14608121686E-01	9.76571596728E-02
1.70700000000E+09	-6.59171193793E-02	-1.01776293204E-01	-6.62099359021E-02	-2.66523278607E-02	-6.62915569408E-02	-2.65643704653E-02	-1.12726629977E-01	1.03047749191E-01
1.70750000000E+09	-6.35162792835E-02	-1.00066479710E-01	-6.67910149261E-02	-2.52089757975E-02	-6.68858440362E-02	-2.51438481536E-02	-1.10710821531E-01	1.08337813864E-01
1.70800000000E+09	-6.10173257576E-02	-9.84521127912E-02	-6.73458320788E-02	-2.37551855905E-02	-6.74215751575E-02	-2.36715529283E-02	-1.08493829201E-01	1.13595155537E-01
1.70850000000E+09	-5.84309379869E-02	-9.69620592460E-02	-6.78558063126E-02	-2.22726394972E-02	-6.79391333313E-02	-2.22047338077E-02	-1.06098723278E-01	1.18748343732E-01
1.70900000000E+09	-5.57696868231E-02	-9.56207627222E-02	-6.83419254528E-02	-2.08077102598E-02	-6.84203376265E-02	-2.07127917639E-02	-1.03576554133E-01	1.23821952841E-01
1.70950000000E+09	-5.30655045172E-02	-9.43925743239E-02	-6.87859630929E-02	-1.93094207367E-02	-6.88594049518E-02	-1.92343190004E-02	-1.00867986054E-01	1.28823788044E-01
1.71000000000E+09	-5.02941305336E-02	-9.32869574122E-02	-6.92060627424E-02	-1.77924510968E-02	-6.92761718136E-02	-1.77275312862E-02	-9.80069094824E-02	1.33721266801E-01
1.71050000000E+09	-4.74541848073E-02	-9.22966215648E-02	-6.95829946251E-02	-1.62883148918E-02	-6.96626113566E-02	-1.62040122333E-02	-9.50196703993E-02	1.38529560714E-01
1.71100000000E+09	-4.45898640536E-02	-9.14534612984E-02	-6.99217887978E-02	-1.47527702403E-02	-6.99973157360E-02	-1.46727557599E-02	-9.18068887132E-02	1.43226994625E-01
1.71150000000E+09	-4.16746919293E-02	-9.07268320003E-02	-7.02216593816E-02	-1.32112940526E-02	-7.03047138844E-02	-1.31330952125E-02	-8.84954556386E-02	1.47832434815E-01
1.71200000000E+09	-3.87246236279E-02	-9.01232894269E-02	-7.05051523557E-02	-1.16639728299E-02	-7.05717719965E-02	-1.15885525430E-02	-8.50353491418E-02	1.52319392109E-01
1.71250000000E+09	-3.57864866380E-02	-8.96864299958E-02	-7.07319193517E-02	-1.01150360417E-02	-7.07834914801E-02	-1.00277684353E-02	-8.14103837331E-02	1.56668994663E-01
1.71300000000E+09	-3.28055767729E-02	-8.93483425764E-02	-7.09283351002E-02	-8.57315209215E-03	-7.09938730944E-02	-8.47704573174E-03	-7.76536215123E-02	1.60908540485E-01
1.71350000000E+09	-2.98220619287E-02	-8.91530652181E-02	-7.10788669961E-02	-7.00766643443E-03	-7.11403467248E-02	-6.91892684814E-03	-7.38017306134E-02	1.65020342816E-01
1.71400000000E+09	-2.68287362741E-02	-8.90807135594E-02	-7.12027547967E-02	-5.45214219522E-03	-7.12483216225E-02	-5.34270316436E-03	-6.97984747714E-02	1.69038929146E-01
1.71450000000E+09	-2.38641225792E-02	-8.91260609600E-02	-7.12767642561E-02	-3.87711021648E-03	-7.13307427150E-02	-3.79268094507E-03	-6.56578023278E-02	1.72894133386E-01
1.71500000000E+09	-2.08787153552E-02	-8.93029331630E-02	-7.13254246925E-02	-2.32422859798E-03	-7.13883192167E-02	-2.23366721576E-03	-6.14296218697E-02	1.76625329512E-01
1.71550000000E+09	-1.79318578613E-02	-8.95753893317E-02	-7.13275321112E-02	-7.54148525065E-04	-7.13795060198E-02	-6.60459437438E-04	-5.69994661411E-02	1.80205620080E-01
1.71600000000E+09	-1.50181882153E-02	-9.00020590463E-02	-7.12985574773E-02	8.00215701256E-04	-7.13424196725E-02	9.04773270462E-04	-5.25550807969E-02	1.83662187577E-01
1.71650000000E+09	-1.21023771005E-02	-9.05328967021E-02	-7.12411347071E-02	2.37097127556E-03	-7.12744378023E-02	2.45760050451E-03	-4.79519028938E-02	1.86981802254E-01
1.71700000000E+09	-9.24372756249E-03	-9.11651218222E-02	-7.11424982272E-02	3.90173595071E-03	-7.11734342799E-02	4.00058988964E-03	-4.32837542283E-02	1.90106009738E-01
1.71750000000E+09	-6.40990216320E-03	-9.19084749495E-02	-7.09915513483E-02	5.45328236831E-03	-7.10371568743E-02	5.57045807160E-03	-3.84661202721E-02	1.93121156834E-01
1.71800000000E+09	-3.60095212380E-03	-9.27634020802E-02	-7.08132384677E-02	6.99626310796E-03	-7.08508945457E-02	7.10867992128E-03	-3.36003703184E-02	1.95947282246E-01
1.71850000000E+09	-8.66847830589E-04	-9.37188787688E-02	-7.05921420008E-02	8.54114841169E-03	-7.06317750497E-02	8.63859299303E-03	-2.86529088279E-02	1.98640790183E-01
1.71900000000E+09	1.80990490498E-03	-9.47794628449E-02	-7.03448637603E-02	1.00733321466E-02	-7.03933708469E-02	1.01690094066E-02	-2.35590714872E-02	2.01165535736E-01
1.71950000000E+09	4.44414341113E-03	-9.59153571730E-02	-7.00763078279E-02	1.15943101407E-02	-7.00924527844E-02	1.16947278520E-02	-1.84691857156E-02	2.03502162301E-01
1.72000000000E+09	7.01332348271E-03	-9.71909149535E-02	-6.97488082630E-02	1.31115576788E-02	-6.97695239375E-02	1.31950021150E-02	-1.32661091279E-02	2.05726233508E-01
1.72050000000E+09	9.53960802341E-03	-9.84923238951E-02	-6.93957981461E-02	1.45872824519E-02	-6.94239047243E-02	1.47031078456E-02	-8.00841602976E-03	2.07746482818E-01
1.72100000000E+09	1.20037791926E-02	-9.99389587846E-02	-6.90051689211E-02	1.60682057882E-02	-6.90281848504E-02	1.61850286500E-02	-2.68530494190E-03	2.09602670967E-01
1.72150000000E+09	1.43976602861E-02	-1.01415864921E-01	-6.86132911386E-02	1.75529107964E-02	-6.86206445359E-02	1.76617601622E-02	2.71093594989E-03	2.11308528367E-01
1.72200000000E+09	1.67278122541E-02	-1.02993925797E-01	-6.81493761444E-02	1.90133382245E-02	-6.81550734227E-02	1.91234435424E-02	8.15907920758E-03	2.12846737883E-01
1.72250000000E+09	1.89644285751E-02	-1.04649425553E-01	-6.76609321069E-02	2.04397858776E-02	-6.76830467079E-02	2.05575941717E-02	1.36199553680E-02	2.14196837416E-01
1.72300000000E+09	2.11272669467E-02	-1.06375207041E-01	-6.71472312390E-02	2.18947845078E-02	-6.71533622376E-02	2.20040601988E-02	1.90993920198E-02	2.15338224555E-01
1.72350000000E+09	2.32430206162E-02	-1.08150395085E-01	-6.66055056994E-02	2.33048653412E-02	-6.66028805097E-02	2.34219990479E-02	2.46747842130E-02	2.16336253699E-01
1.72400000000E+09	2.52551256401E-02	-1.09993200441E-01	-6.60140087280E-02	2.47059172688E-02	-6.60365311783E-02	2.48125454070E-02	3.02612612995E-02	2.17194283622E-01
1.72450000000E+09	2.72040243786E-02	-1.11910600450E-01	-6.54153391698E-02	2.60730901500E-02	-6.54309510848E-02	2.61914313232E-02	3.58729575863E-02	2.17812071948E-01
1.72500000000E+09	2.90683662090E-02	-1.13867497371E-01	-6.47975614411E-02	2.74571705339E-02	-6.47946592799E-02	2.75358897021E-02	4.14687295235E-02	2.18285727133E-01
1.72550000000E+09	3.08606427897E-02	-1.15875613671E-01	-6.41167539448E-02	2.87970194848E-02	-6.41387754360E-02	2.88993392729E-02	4.71222632516E-02	2.18577354907E-01
1.72600000000E+09	3.25714019375E-02	-1.17946945873E-01	-6.34276679509E-02	3.01261501872E-02	-6.34332517923E-02	3.02203250391E-02	5.27315839811E-02	2.18694639542E-01
1.72650000000E+09	3.41895641413E-02	-1.20020331234E-01	-6.27324036768E-02	3.14361861948E-02	-6.27167486658E-02	3.15396874168E-02	5.83818729329E-02	2.18623559964E-01
1.72700000000E+09	3.57399407431E-02	-1.22187122025E-01	-6.19776860348E-02	3.27051220758E-02	-6.19781505117E-02	3.28334652008E-02	6.40084197437E-02	2.18375394880E-01
1.72750000000E+09	3.72042166602E-02	-1.24349699440E-01	-6.12186188535E-02	3.39958911869E-02	-6.12060794139E-02	3.40820436903E-02	6.96439172646E-02	2.17979026693E-01
1.72800000000E+09	3.85826316011E-02	-1.26557038535E-01	-6.04198358683E-02	3.52422541577E-02	-6.04122597267E-02	3.53398881955E-02	7.52517420687E-02	2.17362391347E-01
1.72850000000E+09	3.98656566149E-02	-1.28818328818E-01	-5.96260800127E-02	3.64489296453E-02	-5.95996849570E-02	3.65650360396E-02	8.08474259966E-02	2.16585410790E-01
1.72900000000E+09	4.10731975164E-02	-1.31077181431E-01	-5.87677168132E-02	3.76814841684E-02	-5.87658549985E-02	3.77638809304E-02	8.64264289148E-02	2.15657838960E-01
1.72950000000E+09	4.22020008353E-02	-1.33357634344E-01	-5.79112567314E-02	3.88448418313E-02	-5.79124935789E-02	3.89490400225E-02	9.19333190458E-02	2.14516253168E-01
1.73000000000E+09	4.32417693180E-02	-1.35690253833E-01	-5.70372179982E-02	4.00310724419E-02	-5.70140219641E-02	4.01252037979E-02	9.74194102903E-02	2.13223385800E-01
1.73050000000E+09	4.42154886290E-02	-1.37990024131E-01	-5.61381030442E-02	4.11579621445E-02	-5.61075433358E-02	4.12597896739E-02	1.02878909536E-01	2.11761092191E-01
1.73100000000E+09	4.50675732563E-02	-1.40336337485E-01	-5.52149798174E-02	4.22839735412E-02	-5.51909126545E-02	4.23794105713E-02	1.08311246279E-01	2.10136798110E-01
1.73150000000E+09	4.58744501463E-02	-1.42689590682E-01	-5.42815390300E-02	4.33754091202E-02	-5.42390733654E-02	4.34741691852E-02	1.13630845668E-01	2.08294790221E-01
1.73200000000E+09	4.65957287034E-02	-1.45039878647E-01	-5.33096719648E-02	4.44755022658E-02	-5.32968652360E-02	4.45558165853E-02	1.18942782934E-01	2.06314659611E-01
1.73250000000E+09	4.72249319841E-02	-1.47413303403E-01	-5.23356183078E-02	4.55183794223E-02	-5.23018665018E-02	4.56016197048E-02	1.24164963800E-01	2.04163450975E-01
1.73300000000E+09	4.77559421454E-02	-1.49783060799E-01	-5.13386209587E-02	4.65697653002E-02	-5.13004812557E-02	4.66553541242E-02	1.29315449168E-01	2.01880029089E-01
1.73350000000E+09	4.82429361546E-02	-1.52153676139E-01	-5.03204947476E-02	4.75562486934E-02	-5.02780764685E-02	4.76460494349E-02	1.34398132390E-01	1.99424111867E-01
1.73400000000E+09	4.86333706480E-02	-1.54499445927E-01	-4.92826342360E-02	4.85597194936E-02	-4.92550653208E-02	4.86491020504E-02	1.39438172395E-01	1.96778870338E-01
1.73450000000E+09	4.89590632860E-02	-1.56863159870E-01	-4.82459226528E-02	4.95157172885E-02	-4.81912193209E-02	4.96165812543E-02	1.44401842311E-01	1.93981880605E-01
1.73500000000E+09	4.91925068426E-02	-1.59225843266E-01	-4.71803772688E-02	5.04508570198E-02	-4.71180861202E-02	5.05570133758E-02	1.49206392294E-01	1.91045054602E-01
1.73550000000E+09	4.93679677732E-02	-1.61568852968E-01	-4.60986332237E-02	5.13809825629E-02	-4.60560153714E-02	5.14762747836E-02	1.53951260777E-01	1.87961372477E-01
1.73600000000E+09	4.94537464372E-02	-1.63895689569E-01	-4.49928029854E-02	5.22827802030E-02	-4.49514900652E-02	5.23679774872E-02	1.58574182812E-01	1.84746464354E-01
1.73650000000E+09	4.94499080908E-02	-1.66212258473E-01	-4.38775133232E-02	5.31532905006E-02	-4.38349065022E-02	5.32383767736E-02	1.63155595655E-01	1.81369220790E-01
1.73700000000E+09	4.94295449903E-02	-1.68536784200E-01	-4.27536238533E-02	5.40011283812E-02	-4.27111359705E-02	5.40947764856E-02	1.67586074717E-01	1.77832899690E-01
1.73750000000E+09	4.92935671021E-02	-1.70807156742E-01	-4.16091664419E-02	5.48397753502E-02	-4.15572930893E-02	5.49180698732E-02	1.71912599815E-01	1.74197154767E-01
1.73800000000E+09	4.90995560177E-02	-1.73089808611E-01	-4.04563215512E-02	5.56473108222E-02	-4.04086999516E-02	5.57244215390E-02	1.76094345957E-01	1.70358258014E-01
1.73850000000E+09	4.88266531296E-02	-1.75342006049E-01	-3.92886911470E-02	5.64258538720E-02	-3.92371718157E-02	5.65147195706E-02	1.80224073460E-01	1.66476208059E-01
1.73900000000E+09	4.85037199564E-02	-1.77576752554E-01	-3.80907278323E-02	5.71957469519E-02	-3.80442101320E-02	5.72783811479E-02	1.84206774826E-01	1.62387981436E-01
1.73950000000E+09	4.81273964251E-02	-1.79763139942E-01	-3.68988927115E-02	5.79331827548E-02	-3.68634231875E-02	5.80066423291E-02	1.88082875724E-01	1.58210964459E-01
1.74000000000E+09	4.76455457652E-02	-1.82004068727E-01	-3.56986322921E-02	5.86330951145E-02	-3.56483447394E-02	5.87176932089E-02	1.91767903448E-01	1.53927393635E-01
1.74050000000E+09	4.70832251377E-02	-1.84139750816E-01	-3.44664743271E-02	5.93369623065E-02	-3.44233165706E-02	5.94075527409E-02	1.95359962591E-01	1.49484056977E-01
1.74100000000E+09	4.64893245323E-02	-1.86284505642E-01	-3.32304024876E-02	6.00049494289E-02	-3.31727526731E-02	6.00780669782E-02	1.98814372177E-01	1.44939291621E-01
1.74150000000E+09	4.57892478788E-02	-1.88368871601E-01	-3.19829323195E-02	6.06363809055E-02	-3.19437913705E-02	6.07216080488E-02	2.02118066707E-01	1.40330893732E-01
1.74200000000E+09	4.50823037823E-02	-1.90446804443E-01	-3.07273272330E-02	6.12546576958E-02	-3.06831337818E-02	6.13287373364E-02	2.05282319252E-01	1.35599286406E-01
1.74250000000E+09	4.42681272939E-02	-1.92480056675E-01	-2.94718209013E-02	6.18564623133E-02	-2.93927337067E-02	6.19242533586E-02	2.08304269063E-01	1.30708297290E-01
1.74300000000E+09	4.34081994440E-02	-1.94488926986E-01	-2.81784295460E-02	6.24094954788E-02	-2.81266200649E-02	6.24871263389E-02	2.11162615300E-01	1.25788902139E-01
1.74350000000E+09	4.24862811051E-02	-1.96459277435E-01	-2.68872222228E-02	6.29542305184E-02	-2.68297874415E-02	6.30321988364E-02	2.13856797755E-01	1.20764478681E-01
1.74400000000E+09	4.15028770451E-02	-1.98375219698E-01	-2.55839086959E-02	6.34729926615E-02	-2.55266368313E-02	6.35431250028E-02	2.16396194142E-01	1.15650831395E-01
1.74450000000E+09	4.04605306601E-02	-2.00279616881E-01	-2.42679948303E-02	6.39558775715E-02	-2.42233614780E-02	6.40315292257E-02	2.18822527824E-01	1.10464811146E-01
1.74500000000E+09	3.93733460287E-02	-2.02116160976E-01	-2.29545987288E-02	6.44555326032E-02	-2.29075696349E-02	6.44997791655E-02	2.21052090782E-01	1.05205725230E-01
1.74550000000E+09	3.81825420096E-02	-2.03902697494E-01	-2.16177385309E-02	6.48669078917E-02	-2.15753938880E-02	6.49404018775E-02	2.23122860838E-01	9.98516491714E-02
1.74600000000E+09	3.69861191319E-02	-2.05685805588E-01	-2.02929712703E-02	6.52898896599E-02	-2.02183814042E-02	6.53541217996E-02	2.25054331902E-01	9.44541764513E-02
1.74650000000E+09	3.56953883409E-02	-2.07397039654E-01	-1.89394706789E-02	6.56727640034E-02	-1.88672360370E-02	6.57311652279E-02	2.26768553369E-01	8.89841339230E-02
1.74700000000E+09	3.43683439740E-02	-2.09072628616E-01	-1.75804013562E-02	6.60332537955E-02	-1.75157921009E-02	6.60973150926E-02	2.28326295571E-01	8.34625195248E-02
1.74750000000E+09	3.29732200333E-02	-2.10672105948E-01	-1.62247769640E-02	6.63553440338E-02	-1.61616548906E-02	6.64374054132E-02	2.29743890515E-01	7.79065226608E-02
1.74800000000E+09	3.15297179420E-02	-2.12257634328E-01	-1.48603663732E-02	6.66690091184E-02	-1.47800558102E-02	6.67378918782E-02	2.30960259177E-01	7.22406260409E-02
1.74850000000E+09	3.00339734052E-02	-2.13753309491E-01	-1.34806539824E-02	6.69519620091E-02	-1.34092384983E-02	6.69993453513E-02	2.31976494508E-01	6.66074636228E-02
1.74900000000E+09	2.84801903097E-02	-2.15207977487E-01	-1.21135165032E-02	6.72035414665E-02	-1.20407890297E-02	6.72330884428E-02	2.32841795810E-01	6.08948959889E-02
1.74950000000E+09	2.68740582907E-02	-2.16598105656E-01	-1.07294742341E-02	6.74094174284E-02	-1.06365199569E-02	6.74703072168E-02	2.33572831548E-01	5.51795043875E-02
1.75000000000E+09	2.51911760692E-02	-2.17931283841E-01	-9.32045643678E-03	6.76035162627E-02	-9.24816899494E-03	6.76730794655E-02	2.34071938668E-01	4.94433577359E-02
1.75050000000E+09	2.35098401276E-02	-2.19197580243E-01	-7.93854406527E-03	6.77746756328E-02	-7.85542712851E-03	6.78285440196E-02	2.34401298661E-01	4.36857098767E-02
1.75100000000E+09	2.17860683090E-02	-2.20410670270E-01	-6.55400686832E-03	6.79165135651E-02	-6.48314514946E-03	6.79653780323E-02	2.34570621596E-01	3.79052555414E-02
1.75150000000E+09	1.99519504971E-02	-2.21545779958E-01	-5.14811701960E-03	6.80077756967E-02	-5.06720417605E-03	6.80647419868E-02	2.34549244214E-01	3.21363451156E-02
1.75200000000E+09	1.80992638678E-02	-2.22578257714E-01	-3.74005631256E-03	6.81030105835E-02	-3.66841970831E-03	6.81429794887E-02	2.34337622616E-01	2.63088123858E-02
1.75250000000E+09	1.62319457270E-02	-2.23584526750E-01	-2.35470171785E-03	6.81502090643E-02	-2.27514252680E-03	6.82014575891E-02	2.33937034051E-01	2.05604928332E-02
1.75300000000E+09	1.43069652225E-02	-2.24464715513E-01	-9.44154964213E-04	6.81527031144E-02	-8.61439759964E-04	6.82204085403E-02	2.33377716339E-01	1.47827756996E-02
1.75350000000E+09	1.23435564388E-02	-2.25301405211E-01	4.51507784107E-04	6.81465341851E-02	5.20507160176E-04	6.81933836126E-02	2.32591795432E-01	8.99648603090E-03
1.75400000000E+09	1.03194208499E-02	-2.26032488837E-01	1.84117622309E-03	6.81167906755E-02	1.92725185315E-03	6.81585228808E-02	2.31666856572E-01	3.27732636013E-03
1.75450000000E+09	8.32505931949E-03	-2.26682952128E-01	3.23683621036E-03	6.80524525501E-02	3.32287646583E-03	6.81053111812E-02	2.30552791417E-01	-2.43456092992E-03
1.75500000000E+09	6.25615206819E-03	-2.27260172213E-01	4.63019982329E-03	6.79617192744E-02	4.72062425577E-03	6.80212181608E-02	2.29288583307E-01	-8.14212054747E-03
1.75550000000E+09	4.19986834286E-03	-2.27735547169E-01	6.02113914064E-03	6.78565832931E-02	6.12558208366E-03	6.78818823082E-02	2.27762579203E-01	-1.37766542859E-02
1.75600000000E+09	2.09968431504E-03	-2.28147035619E-01	7.39934071996E-03	6.76880148369E-02	7.48873373591E-03	6.77369735048E-02	2.26149093324E-01	-1.93761320425E-02
1.75650000000E+09	-2.41088887401E-05	-2.28410215374E-01	8.79387223376E-03	6.75038813102E-02	8.88041233205E-03	6.75594098394E-02	2.24328395233E-01	-2.49298852403E-02
1.75700000000E+09	-2.14732523443E-03	-2.28607620555E-01	1.01624808320E-02	6.73145270699E-02	1.02610459797E-02	6.73461354836E-02	2.22310588656E-01	-3.04154315087E-02
1.75750000000E+09	-4.30354726496E-03	-2.28730113129E-01	1.15356306915E-02	6.70828329800E-02	1.16380507308E-02	6.71291096363E-02	2.20116163927E-01	-3.58380588588E-02
1.75800000000E+09	-6.45490476102E-03	-2.28699733264E-01	1.29206264794E-02	6.68157721538E-02	1.29995783146E-02	6.68560152732E-02	2.17767676091E-01	-4.12398326537E-02
1.75850000000E+09	-8.60267262075E-03	-2.28599307951E-01	1.42588335412E-02	6.65316632918E-02	1.43687167647E-02	6.65680293312E-02	2.15244492242E-01	-4.65427186948E-02
