# Hz S RI R 50
! CMT, CMT808U, 21440046, 21.4.3/4
! Date: 11/12/2025 3:05:04 PM
! Data: Format (Calibration Info)
! Freq	S11:Re/Im(F2)	S41:Re/Im(F2)	S14:Re/Im(F2)	S44:Re/Im(F2)
1.70000000000E+09	-1.41409162329E-01	-1.19390799114E-01	-6.27100314494E-02	-2.40442239355E-02	-6.26979930083E-02	-2.40806129836E-02	-1.13029631636E-01	6.76549377987E-02
1.70050000000E+09	-1.40847403028E-01	-1.17047585767E-01	-6.32442061189E-02	-2.27265640806E-02	-6.32299813869E-02	-2.27723471084E-02	-1.12232658807E-01	7.41615220774E-02
1.70100000000E+09	-1.40140224134E-01	-1.14700906190E-01	-6.37314547423E-02	-2.13909263945E-02	-6.37250193575E-02	-2.14235522355E-02	-1.11225536150E-01	8.06134450976E-02
1.70150000000E+09	-1.39275678739E-01	-1.12378281733E-01	-6.41997674313E-02	-2.00565703549E-02	-6.41911991599E-02	-2.00779385682E-02	-1.10024035200E-01	8.70176857187E-02
1.70200000000E+09	-1.38249459062E-01	-1.10095293242E-01	-6.46730367665E-02	-1.87126229836E-02	-6.46364584600E-02	-1.87406704993E-02	-1.08579286944E-01	9.34150090590E-02
1.70250000000E+09	-1.37067969421E-01	-1.07811800318E-01	-6.50707457568E-02	-1.73418996894E-02	-6.50388783116E-02	-1.73829947988E-02	-1.06928746902E-01	9.97475222015E-02
1.70300000000E+09	-1.35754632806E-01	-1.05615514414E-01	-6.54527040494E-02	-1.59679226827E-02	-6.54310891206E-02	-1.59834982700E-02	-1.05110525616E-01	1.06006092967E-01
1.70350000000E+09	-1.34349112104E-01	-1.03431950336E-01	-6.58180502366E-02	-1.45781575559E-02	-6.58152985081E-02	-1.46022631876E-02	-1.03051062161E-01	1.12206391607E-01
1.70400000000E+09	-1.32729057329E-01	-1.01348845485E-01	-6.61446113100E-02	-1.31799058806E-02	-6.61315988144E-02	-1.31895156630E-02	-1.00780443032E-01	1.18329144577E-01
1.70450000000E+09	-1.31043579808E-01	-9.93208837655E-02	-6.64477950360E-02	-1.17603688363E-02	-6.64404697175E-02	-1.17977899447E-02	-9.83483378593E-02	1.24377028690E-01
1.70500000000E+09	-1.29244389062E-01	-9.73485825645E-02	-6.66992354427E-02	-1.03379861734E-02	-6.67217029125E-02	-1.03621807666E-02	-9.56918852950E-02	1.30353447137E-01
1.70550000000E+09	-1.27310049838E-01	-9.54864121950E-02	-6.69550665672E-02	-8.91400017327E-03	-6.69423119914E-02	-8.94366537923E-03	-9.28565423282E-02	1.36220570243E-01
1.70600000000E+09	-1.25275082463E-01	-9.36984153306E-02	-6.71560158373E-02	-7.48301197155E-03	-6.71610785836E-02	-7.51362423327E-03	-8.98171595636E-02	1.41986587640E-01
1.70650000000E+09	-1.23109798945E-01	-9.20007445955E-02	-6.73326517357E-02	-6.03587730745E-03	-6.73293229152E-02	-6.07018609298E-03	-8.66225298811E-02	1.47647641320E-01
1.70700000000E+09	-1.20904818423E-01	-9.03943049250E-02	-6.74679341024E-02	-4.58509314057E-03	-6.74779210527E-02	-4.60323936999E-03	-8.32002224178E-02	1.53224961489E-01
1.70750000000E+09	-1.18556144025E-01	-8.88897902744E-02	-6.75793021153E-02	-3.13903528067E-03	-6.75751342714E-02	-3.15996955062E-03	-7.96411049448E-02	1.58647552987E-01
1.70800000000E+09	-1.16150672376E-01	-8.74992741929E-02	-6.76620836469E-02	-1.69293205253E-03	-6.76426629827E-02	-1.71310007437E-03	-7.59026684898E-02	1.63973914011E-01
1.70850000000E+09	-1.13655814405E-01	-8.62024973709E-02	-6.76858063025E-02	-2.28338784936E-04	-6.76947351946E-02	-2.50952540845E-04	-7.19839710436E-02	1.69173402877E-01
1.70900000000E+09	-1.11101406729E-01	-8.50318358793E-02	-6.76920796640E-02	1.23998679519E-03	-6.77018107278E-02	1.21383907533E-03	-6.79038217919E-02	1.74240408005E-01
1.70950000000E+09	-1.08509603015E-01	-8.39808728550E-02	-6.76692794623E-02	2.70398200605E-03	-6.76861376418E-02	2.68054954180E-03	-6.36942968976E-02	1.79140680739E-01
1.71000000000E+09	-1.05823243126E-01	-8.30403961278E-02	-6.76198513273E-02	4.16690290139E-03	-6.76204101244E-02	4.14372429073E-03	-5.92973603866E-02	1.83919648174E-01
1.71050000000E+09	-1.03108339700E-01	-8.21916993634E-02	-6.75346842215E-02	5.61786762669E-03	-6.75280388251E-02	5.60188754439E-03	-5.47982598797E-02	1.88535741297E-01
1.71100000000E+09	-1.00368512063E-01	-8.14672314351E-02	-6.74133830269E-02	7.09545070018E-03	-6.74009567442E-02	7.06732400885E-03	-5.00957635385E-02	1.93030735356E-01
1.71150000000E+09	-9.75823030882E-02	-8.08749412080E-02	-6.72364559176E-02	8.56557297840E-03	-6.72395870546E-02	8.52222097353E-03	-4.52760897272E-02	1.97403824626E-01
1.71200000000E+09	-9.47568072425E-02	-8.03841655851E-02	-6.70460783386E-02	1.00083661579E-02	-6.70607093608E-02	9.97949404689E-03	-4.03361841331E-02	2.01549494239E-01
1.71250000000E+09	-9.19184686479E-02	-8.00512344697E-02	-6.68192440160E-02	1.14640003486E-02	-6.68253276701E-02	1.14231502387E-02	-3.52726603594E-02	2.05561416329E-01
1.71300000000E+09	-8.90698588470E-02	-7.98029452964E-02	-6.65703489552E-02	1.29003433167E-02	-6.65610276462E-02	1.28752313521E-02	-3.00802429303E-02	2.09380269803E-01
1.71350000000E+09	-8.62150596057E-02	-7.96716174349E-02	-6.62716635520E-02	1.43422811496E-02	-6.62635699347E-02	1.43206734243E-02	-2.47687517272E-02	2.13060104520E-01
1.71400000000E+09	-8.33231271104E-02	-7.96576168447E-02	-6.59272120583E-02	1.57729980738E-02	-6.59456724710E-02	1.57512267985E-02	-1.93708311179E-02	2.16559275377E-01
1.71450000000E+09	-8.04609642148E-02	-7.97595230636E-02	-6.55774890139E-02	1.72064597815E-02	-6.55788882672E-02	1.71729837627E-02	-1.38189375249E-02	2.19876701163E-01
1.71500000000E+09	-7.76103610704E-02	-7.99687132884E-02	-6.51869389171E-02	1.86275942812E-02	-6.51893923599E-02	1.85895265123E-02	-8.20120019445E-03	2.23023014959E-01
1.71550000000E+09	-7.47712337252E-02	-8.02698372382E-02	-6.47431227005E-02	2.00192518732E-02	-6.47579506887E-02	1.99901420343E-02	-2.47906319585E-03	2.25980211589E-01
1.71600000000E+09	-7.19521404189E-02	-8.07146473632E-02	-6.43180540537E-02	2.14079469826E-02	-6.42940623823E-02	2.13864612018E-02	3.29460340821E-03	2.28766735590E-01
1.71650000000E+09	-6.91408824598E-02	-8.12610269463E-02	-6.38099587451E-02	2.27914796015E-02	-6.38210228176E-02	2.27720826153E-02	9.19008442577E-03	2.31359898892E-01
1.71700000000E+09	-6.63556481535E-02	-8.19018316602E-02	-6.32842346829E-02	2.41680531167E-02	-6.32907488568E-02	2.41372780878E-02	1.51242903699E-02	2.33760949424E-01
1.71750000000E+09	-6.36281280398E-02	-8.26221302475E-02	-6.27352738129E-02	2.55438941118E-02	-6.27382374159E-02	2.55092079768E-02	2.11717584118E-02	2.35963571333E-01
1.71800000000E+09	-6.08828633344E-02	-8.34759578973E-02	-6.21708840279E-02	2.68814366807E-02	-6.21687708997E-02	2.68465211019E-02	2.72371292719E-02	2.37980723773E-01
1.71850000000E+09	-5.82201558219E-02	-8.44205408170E-02	-6.15362219088E-02	2.82104398384E-02	-6.15608044488E-02	2.81556963275E-02	3.33194373169E-02	2.39816965272E-01
1.71900000000E+09	-5.56015969340E-02	-8.54504646974E-02	-6.08973993009E-02	2.95182550509E-02	-6.09169513249E-02	2.94971130146E-02	3.95688189790E-02	2.41459306881E-01
1.71950000000E+09	-5.30050317205E-02	-8.65630707345E-02	-6.02275486219E-02	3.08177222379E-02	-6.02287713443E-02	3.07937767927E-02	4.57516467720E-02	2.42869829616E-01
1.72000000000E+09	-5.04687163876E-02	-8.77847137618E-02	-5.95350059459E-02	3.20960890263E-02	-5.95443025652E-02	3.20716352753E-02	5.19988557615E-02	2.44153030591E-01
1.72050000000E+09	-4.79720778524E-02	-8.90757328322E-02	-5.87822627221E-02	3.33605508470E-02	-5.88145440187E-02	3.33340120383E-02	5.83129034056E-02	2.45180965920E-01
1.72100000000E+09	-4.55259219921E-02	-9.04632511178E-02	-5.80451159154E-02	3.46127796396E-02	-5.80624413730E-02	3.45741727551E-02	6.46227732562E-02	2.46032189425E-01
1.72150000000E+09	-4.31560799141E-02	-9.18931053361E-02	-5.72678532699E-02	3.58432184374E-02	-5.72775706678E-02	3.58018200156E-02	7.09591913335E-02	2.46717315023E-01
1.72200000000E+09	-4.08328282190E-02	-9.34227086910E-02	-5.64757608282E-02	3.70403623472E-02	-5.64639933711E-02	3.70066306287E-02	7.73374661353E-02	2.47147330850E-01
1.72250000000E+09	-3.85813963936E-02	-9.50194480147E-02	-5.56239410122E-02	3.82209984171E-02	-5.56288148583E-02	3.82001594663E-02	8.36750135809E-02	2.47437641310E-01
1.72300000000E+09	-3.64076189900E-02	-9.66830570376E-02	-5.47664757943E-02	3.93989916557E-02	-5.47686059447E-02	3.93703379376E-02	8.99902268738E-02	2.47482327489E-01
1.72350000000E+09	-3.42703983984E-02	-9.83962151740E-02	-5.38632030160E-02	4.05360035478E-02	-5.38793585752E-02	4.05298500745E-02	9.63383706012E-02	2.47335271276E-01
1.72400000000E+09	-3.21923217501E-02	-1.00212344577E-01	-5.29692960477E-02	4.16590503631E-02	-5.29819786602E-02	4.16444663098E-02	1.02684797341E-01	2.47066111198E-01
1.72450000000E+09	-3.02219910216E-02	-1.02066868417E-01	-5.20406030895E-02	4.27696908255E-02	-5.20330619648E-02	4.27364167922E-02	1.09004045232E-01	2.46523387664E-01
1.72500000000E+09	-2.82842159959E-02	-1.03973907559E-01	-5.10805742616E-02	4.38505147993E-02	-5.10803191773E-02	4.38227396143E-02	1.15273321475E-01	2.45799557134E-01
1.72550000000E+09	-2.64348452841E-02	-1.05933766961E-01	-5.00920109672E-02	4.49062520964E-02	-5.01240484442E-02	4.48931316435E-02	1.21562147674E-01	2.44918796817E-01
1.72600000000E+09	-2.46423664559E-02	-1.07927980340E-01	-4.90960140935E-02	4.59335598069E-02	-4.91091318125E-02	4.59049532612E-02	1.27761551982E-01	2.43826192175E-01
1.72650000000E+09	-2.29412796882E-02	-1.09992555601E-01	-4.80863162624E-02	4.69460401808E-02	-4.81010432645E-02	4.69197687022E-02	1.33937255021E-01	2.42522513600E-01
1.72700000000E+09	-2.12940851639E-02	-1.12089471610E-01	-4.70423774159E-02	4.79283897660E-02	-4.70552013302E-02	4.79055686605E-02	1.40079840054E-01	2.41027408996E-01
1.72750000000E+09	-1.97586363443E-02	-1.14229287342E-01	-4.59765674924E-02	4.89010304230E-02	-4.59989620471E-02	4.88547071114E-02	1.46168253488E-01	2.39407429812E-01
1.72800000000E+09	-1.82476652916E-02	-1.16412637133E-01	-4.48903219489E-02	4.98171142109E-02	-4.49089824472E-02	4.97978002864E-02	1.52193984354E-01	2.37575472171E-01
1.72850000000E+09	-1.68551898227E-02	-1.18629408607E-01	-4.37941631614E-02	5.07252617141E-02	-4.38118440307E-02	5.07152323049E-02	1.58161369148E-01	2.35551172777E-01
1.72900000000E+09	-1.54937712228E-02	-1.20899188412E-01	-4.26885401364E-02	5.16209901643E-02	-4.26996351859E-02	5.16009670124E-02	1.64057792635E-01	2.33356366454E-01
1.72950000000E+09	-1.42389527106E-02	-1.23129730668E-01	-4.15530085170E-02	5.24700982392E-02	-4.15710514528E-02	5.24684863282E-02	1.69851090357E-01	2.31008574697E-01
1.73000000000E+09	-1.30587639497E-02	-1.25460456462E-01	-4.03883785699E-02	5.33149314548E-02	-4.04268342274E-02	5.32838094623E-02	1.75591952428E-01	2.28433339067E-01
1.73050000000E+09	-1.19464307193E-02	-1.27790185630E-01	-3.92383305130E-02	5.41087293099E-02	-3.92402417719E-02	5.40993184516E-02	1.81287117268E-01	2.25730496976E-01
1.73100000000E+09	-1.09243097395E-02	-1.30130439315E-01	-3.80512707025E-02	5.48959908255E-02	-3.80704689222E-02	5.48700699608E-02	1.86845052555E-01	2.22856786780E-01
1.73150000000E+09	-9.94629262780E-03	-1.32493636336E-01	-3.68545656508E-02	5.56460951840E-02	-3.68886365153E-02	5.56287468134E-02	1.92324204355E-01	2.19778244266E-01
1.73200000000E+09	-9.06305782560E-03	-1.34868343265E-01	-3.56445918904E-02	5.63694082660E-02	-3.56750152965E-02	5.63602759822E-02	1.97710828699E-01	2.16581256771E-01
1.73250000000E+09	-8.24840326281E-03	-1.37281037826E-01	-3.44455301415E-02	5.70546831913E-02	-3.44575111683E-02	5.70416939110E-02	2.02974609642E-01	2.13197370364E-01
1.73300000000E+09	-7.54582295053E-03	-1.39666994636E-01	-3.31890897496E-02	5.77379575342E-02	-3.32245238358E-02	5.77212921196E-02	2.08136602738E-01	2.09690332201E-01
1.73350000000E+09	-6.87627062832E-03	-1.42109481624E-01	-3.19646428086E-02	5.83818701999E-02	-3.19739413150E-02	5.83554484669E-02	2.13198596197E-01	2.06026439901E-01
1.73400000000E+09	-6.27765303027E-03	-1.44551260460E-01	-3.07011915290E-02	5.89880368973E-02	-3.07151220217E-02	5.89779278141E-02	2.18170900800E-01	2.02158890038E-01
1.73450000000E+09	-5.78367017357E-03	-1.46981817656E-01	-2.94293294708E-02	5.95958909292E-02	-2.94438455581E-02	5.95647110194E-02	2.23008174924E-01	1.98192982464E-01
1.73500000000E+09	-5.35265287193E-03	-1.49421881515E-01	-2.81537798778E-02	6.01431383779E-02	-2.81837486351E-02	6.01376980382E-02	2.27680162437E-01	1.94052928448E-01
1.73550000000E+09	-5.00441585330E-03	-1.51882901365E-01	-2.68679314449E-02	6.06732314312E-02	-2.68850141602E-02	6.06546643795E-02	2.32258912574E-01	1.89810768097E-01
1.73600000000E+09	-4.72181981382E-03	-1.54310413464E-01	-2.55663197032E-02	6.11665148846E-02	-2.55920081421E-02	6.11592263882E-02	2.36681025668E-01	1.85436594959E-01
1.73650000000E+09	-4.50304918860E-03	-1.56748401950E-01	-2.42648903291E-02	6.16544254814E-02	-2.42974881154E-02	6.16324349088E-02	2.41000720726E-01	1.80933132065E-01
1.73700000000E+09	-4.33878319163E-03	-1.59203865643E-01	-2.29535484593E-02	6.20936252801E-02	-2.29822357104E-02	6.20820102100E-02	2.45154862004E-01	1.76262058974E-01
1.73750000000E+09	-4.29443180636E-03	-1.61607537934E-01	-2.16152115373E-02	6.25141826287E-02	-2.16740136086E-02	6.24898326078E-02	2.49175222797E-01	1.71524964443E-01
1.73800000000E+09	-4.29337955381E-03	-1.64055041159E-01	-2.03113561554E-02	6.29092850132E-02	-2.03289327930E-02	6.28885995993E-02	2.53060504796E-01	1.66618259365E-01
1.73850000000E+09	-4.37172978599E-03	-1.66462918524E-01	-1.89866612847E-02	6.32485194827E-02	-1.90159176541E-02	6.32462265685E-02	2.56789375152E-01	1.61651229085E-01
1.73900000000E+09	-4.53687674429E-03	-1.68877639672E-01	-1.76551652501E-02	6.35927769714E-02	-1.76665762271E-02	6.35788377078E-02	2.60335164872E-01	1.56533736823E-01
1.73950000000E+09	-4.72851617872E-03	-1.71264245577E-01	-1.63216681659E-02	6.38943511066E-02	-1.63542960987E-02	6.38990416001E-02	2.63761316262E-01	1.51343233050E-01
1.74000000000E+09	-5.03312632485E-03	-1.73686833946E-01	-1.49634831001E-02	6.41732099671E-02	-1.50160951818E-02	6.41669004458E-02	2.67034099599E-01	1.46031356120E-01
1.74050000000E+09	-5.40632247342E-03	-1.76034367191E-01	-1.36468276799E-02	6.44064627262E-02	-1.36654202197E-02	6.44084337965E-02	2.70102506104E-01	1.40655836008E-01
1.74100000000E+09	-5.84864818045E-03	-1.78392464933E-01	-1.22931051842E-02	6.46490379273E-02	-1.23214107170E-02	6.46249899973E-02	2.72994331943E-01	1.35141576722E-01
1.74150000000E+09	-6.36577120544E-03	-1.80719530526E-01	-1.09363246192E-02	6.48270454529E-02	-1.09718635242E-02	6.48124226808E-02	2.75788299495E-01	1.29560605670E-01
1.74200000000E+09	-6.91601557320E-03	-1.83038355422E-01	-9.60241720371E-03	6.49978442508E-02	-9.62366228086E-03	6.49938943606E-02	2.78408107381E-01	1.23944263553E-01
1.74250000000E+09	-7.59207368398E-03	-1.85341153005E-01	-8.24792819730E-03	6.51299842501E-02	-8.28872105694E-03	6.51229778637E-02	2.80832360193E-01	1.18203031983E-01
1.74300000000E+09	-8.29543456223E-03	-1.87607226188E-01	-6.89456570424E-03	6.52382868119E-02	-6.93328475987E-03	6.52333048176E-02	2.83101079914E-01	1.12375038061E-01
1.74350000000E+09	-9.10570388832E-03	-1.89865719816E-01	-5.57368827121E-03	6.53269087208E-02	-5.59490060007E-03	6.53061014772E-02	2.85151115731E-01	1.06526785672E-01
1.74400000000E+09	-9.97763065886E-03	-1.92040412138E-01	-4.20715554088E-03	6.53623759580E-02	-4.25634136577E-03	6.53702930570E-02	2.87040508567E-01	1.00611520982E-01
1.74450000000E+09	-1.09140796958E-02	-1.94237891382E-01	-2.86250918492E-03	6.53982007883E-02	-2.89906245843E-03	6.53900002736E-02	2.88763867872E-01	9.46298162037E-02
1.74500000000E+09	-1.19260604826E-02	-1.96375000209E-01	-1.51771377992E-03	6.54069285733E-02	-1.55585769917E-03	6.53934368011E-02	2.90309060387E-01	8.86203274771E-02
1.74550000000E+09	-1.30274629539E-02	-1.98483459973E-01	-1.82656152184E-04	6.53554525540E-02	-2.31809865282E-04	6.53589004725E-02	2.91663899030E-01	8.25393058855E-02
1.74600000000E+09	-1.41686035557E-02	-2.00585296118E-01	1.14904875151E-03	6.53137928905E-02	1.13296047659E-03	6.53116333318E-02	2.92852466914E-01	7.64096849821E-02
1.74650000000E+09	-1.54130082846E-02	-2.02618624622E-01	2.48252230811E-03	6.52374605581E-02	2.45560990629E-03	6.52298600119E-02	2.93827740033E-01	7.02822599429E-02
1.74700000000E+09	-1.66891661631E-02	-2.04581836338E-01	3.81234372029E-03	6.51121617847E-02	3.77788122676E-03	6.51113396789E-02	2.94593425468E-01	6.41002844520E-02
1.74750000000E+09	-1.80664914259E-02	-2.06523711191E-01	5.12548456942E-03	6.49838630372E-02	5.10429708286E-03	6.49721655409E-02	2.95211477206E-01	5.79257149446E-02
1.74800000000E+09	-1.94708583336E-02	-2.08430104710E-01	6.43606558800E-03	6.48172029723E-02	6.41753804391E-03	6.48077996274E-02	2.95657075078E-01	5.17146050104E-02
1.74850000000E+09	-2.09859099114E-02	-2.10266209634E-01	7.75568642697E-03	6.46114841041E-02	7.71954265823E-03	6.46217169051E-02	2.95893697500E-01	4.54819990200E-02
1.74900000000E+09	-2.25649247192E-02	-2.12026022398E-01	9.06916818460E-03	6.44094537646E-02	9.02897485497E-03	6.44057349540E-02	2.95917822649E-01	3.92646588984E-02
1.74950000000E+09	-2.41950619512E-02	-2.13740514270E-01	1.03625421295E-02	6.41803302797E-02	1.03280108178E-02	6.41737182573E-02	2.95800798798E-01	3.30536265670E-02
1.75000000000E+09	-2.59291341017E-02	-2.15393362304E-01	1.16389798745E-02	6.38967517548E-02	1.16128147651E-02	6.39129913662E-02	2.95478560645E-01	2.68190398529E-02
1.75050000000E+09	-2.76916678774E-02	-2.17003394099E-01	1.29264784220E-02	6.36254445825E-02	1.28802546410E-02	6.36232852782E-02	2.94915698964E-01	2.06417133423E-02
1.75100000000E+09	-2.94822733931E-02	-2.18537781004E-01	1.41914385234E-02	6.33144787435E-02	1.41679614485E-02	6.33195215625E-02	2.94255614567E-01	1.44221405150E-02
1.75150000000E+09	-3.13869321878E-02	-2.19993468684E-01	1.54687259748E-02	6.29693032346E-02	1.54348267018E-02	6.29758926950E-02	2.93372300260E-01	8.29923839445E-03
1.75200000000E+09	-3.33378944261E-02	-2.21348969686E-01	1.67090415082E-02	6.26163939302E-02	1.66868687557E-02	6.26098171307E-02	2.92301500711E-01	2.11075773311E-03
1.75250000000E+09	-3.53281107171E-02	-2.22647524636E-01	1.79586102137E-02	6.22340876222E-02	1.79470210643E-02	6.22200439986E-02	2.91014759493E-01	-3.98753957343E-03
1.75300000000E+09	-3.73964728737E-02	-2.23849254441E-01	1.91816673782E-02	6.18367004140E-02	1.91581560536E-02	6.18387712496E-02	2.89539030692E-01	-1.00445129930E-02
1.75350000000E+09	-3.94704947179E-02	-2.25004728463E-01	2.04080369352E-02	6.14086001820E-02	2.03845246064E-02	6.14103478238E-02	2.87880771698E-01	-1.60485626119E-02
1.75400000000E+09	-4.16431603396E-02	-2.26030806824E-01	2.16274372665E-02	6.09387691126E-02	2.15983399531E-02	6.09519549906E-02	2.86023859862E-01	-2.20172633968E-02
1.75450000000E+09	-4.38274969867E-02	-2.26932847838E-01	2.28242828138E-02	6.04789588635E-02	2.27978861066E-02	6.04873945826E-02	2.84019797960E-01	-2.79346586680E-02
1.75500000000E+09	-4.60650267466E-02	-2.27767520507E-01	2.40149501990E-02	5.99770698461E-02	2.39825447670E-02	5.99882978173E-02	2.81858957940E-01	-3.37979941040E-02
1.75550000000E+09	-4.83320279323E-02	-2.28482144820E-01	2.52026414144E-02	5.94622162920E-02	2.51637524587E-02	5.94694935584E-02	2.79463176993E-01	-3.95825897497E-02
1.75600000000E+09	-5.06223203090E-02	-2.29149062710E-01	2.63524073941E-02	5.89093740427E-02	2.63426419699E-02	5.89446173533E-02	2.76934939207E-01	-4.52917387158E-02
1.75650000000E+09	-5.29838533299E-02	-2.29654551314E-01	2.75173773613E-02	5.83708504064E-02	2.74911269052E-02	5.83737870520E-02	2.74215056088E-01	-5.09311717274E-02
1.75700000000E+09	-5.53135248896E-02	-2.30087662535E-01	2.86558073629E-02	5.77888019570E-02	2.86298489127E-02	5.78043461205E-02	2.71276294046E-01	-5.64523612980E-02
1.75750000000E+09	-5.76838535875E-02	-2.30398442117E-01	2.98028019821E-02	5.72071846679E-02	2.97619600629E-02	5.72107252587E-02	2.68199396383E-01	-6.19014012949E-02
1.75800000000E+09	-6.00408159945E-02	-2.30604566481E-01	3.09020398744E-02	5.65853506276E-02	3.08829471446E-02	5.66027863434E-02	2.64955390753E-01	-6.72818829990E-02
1.75850000000E+09	-6.24297642433E-02	-2.30686368590E-01	3.20028428632E-02	5.59489373452E-02	3.19868397828E-02	5.59633378013E-02	2.61561315445E-01	-7.25491104421E-02
