# Hz S RI R 50
! CMT, CMT808U, 21440046, 21.4.3/4
! Date: 11/17/2025 2:47:52 PM
! Data: Format (Calibration Info)
! Freq	S11:Re/Im(F2)	S41:Re/Im(F2)	S14:Re/Im(F2)	S44:Re/Im(F2)
1.70000000000E+09	-8.30414961295E-02	-1.32471465026E-01	-4.59324507850E-02	-3.29303047750E-02	-4.60449175774E-02	-3.29274933759E-02	-1.30843770552E-01	-1.88846323749E-02
1.70050000000E+09	-8.25065258040E-02	-1.30079822384E-01	-4.66136590402E-02	-3.20038264244E-02	-4.67577349219E-02	-3.19954562636E-02	-1.32955668067E-01	-1.20777936460E-02
1.70100000000E+09	-8.18202987615E-02	-1.27659072956E-01	-4.73230645607E-02	-3.10447180224E-02	-4.74331138300E-02	-3.10589445109E-02	-1.34834501263E-01	-5.25458033986E-03
1.70150000000E+09	-8.09789221918E-02	-1.25286575435E-01	-4.79777821427E-02	-3.00920475908E-02	-4.81011404816E-02	-3.00963921316E-02	-1.36507331013E-01	1.61232868024E-03
1.70200000000E+09	-7.99753618486E-02	-1.22931647299E-01	-4.86352318699E-02	-2.91129029677E-02	-4.87515902567E-02	-2.91072175458E-02	-1.37926458768E-01	8.56646932232E-03
1.70250000000E+09	-7.88266068999E-02	-1.20596252255E-01	-4.92807449503E-02	-2.81313059463E-02	-4.93918867005E-02	-2.81195873274E-02	-1.39111914834E-01	1.55277733591E-02
1.70300000000E+09	-7.75316210944E-02	-1.18288370526E-01	-4.99030128083E-02	-2.71235593739E-02	-5.00180150703E-02	-2.71186263686E-02	-1.40093103788E-01	2.25190186134E-02
1.70350000000E+09	-7.61440040426E-02	-1.16070456741E-01	-5.04769450866E-02	-2.60885528072E-02	-5.06260690035E-02	-2.60919516705E-02	-1.40827861303E-01	2.95312416147E-02
1.70400000000E+09	-7.45392990870E-02	-1.13892021637E-01	-5.10819323341E-02	-2.50590798617E-02	-5.11999118314E-02	-2.50456695067E-02	-1.41334015863E-01	3.65751749080E-02
1.70450000000E+09	-7.28753262618E-02	-1.11807283832E-01	-5.16515173267E-02	-2.40086299210E-02	-5.17687290302E-02	-2.39946800964E-02	-1.41622667374E-01	4.36239153040E-02
1.70500000000E+09	-7.10642890135E-02	-1.09746639011E-01	-5.21987146973E-02	-2.29199532730E-02	-5.23305906810E-02	-2.28920742205E-02	-1.41625896806E-01	5.06827186572E-02
1.70550000000E+09	-6.91334874187E-02	-1.07835847415E-01	-5.27287976869E-02	-2.18336779910E-02	-5.28317626955E-02	-2.18227503707E-02	-1.41434231639E-01	5.76952262867E-02
1.70600000000E+09	-6.70875696198E-02	-1.05966497856E-01	-5.32228435570E-02	-2.07411537674E-02	-5.33538204509E-02	-2.07205941238E-02	-1.41036788648E-01	6.46917659015E-02
1.70650000000E+09	-6.49196523773E-02	-1.04212518911E-01	-5.37020487070E-02	-1.96129825396E-02	-5.38290776762E-02	-1.95878152150E-02	-1.40370711984E-01	7.16787861052E-02
1.70700000000E+09	-6.26940583655E-02	-1.02561758642E-01	-5.41583743734E-02	-1.84783975330E-02	-5.42886639878E-02	-1.84506130210E-02	-1.39488976156E-01	7.86455776778E-02
1.70750000000E+09	-6.03371156944E-02	-1.01000682825E-01	-5.46058658490E-02	-1.73369176454E-02	-5.47212291722E-02	-1.73081820386E-02	-1.38413448057E-01	8.55259467820E-02
1.70800000000E+09	-5.79043688524E-02	-9.95461219763E-02	-5.50236268663E-02	-1.61711837662E-02	-5.51469890129E-02	-1.61398056517E-02	-1.37070872926E-01	9.24006587769E-02
1.70850000000E+09	-5.54008395500E-02	-9.82311220730E-02	-5.54127706777E-02	-1.49864104337E-02	-5.55358920695E-02	-1.49562811003E-02	-1.35505224526E-01	9.92194294456E-02
1.70900000000E+09	-5.28301073487E-02	-9.70097547893E-02	-5.57738020369E-02	-1.37881722432E-02	-5.58871217847E-02	-1.37732354534E-02	-1.33772594201E-01	1.05959430077E-01
1.70950000000E+09	-5.02053084065E-02	-9.59285405347E-02	-5.61173883437E-02	-1.26084386262E-02	-5.62203312797E-02	-1.25707170120E-02	-1.31792628514E-01	1.12641170850E-01
1.71000000000E+09	-4.75156434089E-02	-9.49675372802E-02	-5.64302320963E-02	-1.13967568106E-02	-5.65441042017E-02	-1.13515655621E-02	-1.29609112590E-01	1.19235481520E-01
1.71050000000E+09	-4.47870725306E-02	-9.40970077216E-02	-5.67100283577E-02	-1.01705910049E-02	-5.68320263576E-02	-1.01185296633E-02	-1.27241099695E-01	1.25760723974E-01
1.71100000000E+09	-4.20457448010E-02	-9.33640476187E-02	-5.69626393328E-02	-8.95119400697E-03	-5.70812041347E-02	-8.87252646725E-03	-1.24593076085E-01	1.32182946565E-01
1.71150000000E+09	-3.92634853044E-02	-9.27619394366E-02	-5.72051872321E-02	-7.69134132686E-03	-5.73091947041E-02	-7.64447522934E-03	-1.21799850299E-01	1.38528960846E-01
1.71200000000E+09	-3.64151895670E-02	-9.22675986071E-02	-5.73975921083E-02	-6.45561622628E-03	-5.75045937046E-02	-6.37692554152E-03	-1.18794358144E-01	1.44770512743E-01
1.71250000000E+09	-3.35770993839E-02	-9.19294622537E-02	-5.75717299844E-02	-5.18370203490E-03	-5.76724225679E-02	-5.11773350151E-03	-1.15585709616E-01	1.50862636720E-01
1.71300000000E+09	-3.07460340367E-02	-9.16903638464E-02	-5.76975102961E-02	-3.92211794748E-03	-5.78105307985E-02	-3.86710868647E-03	-1.12222798225E-01	1.56884665177E-01
1.71350000000E+09	-2.79119050011E-02	-9.15537773383E-02	-5.78253911410E-02	-2.65102924777E-03	-5.79131337559E-02	-2.58903733915E-03	-1.08678733692E-01	1.62745603225E-01
1.71400000000E+09	-2.50315954518E-02	-9.15606353461E-02	-5.78941078504E-02	-1.37435220125E-03	-5.79996240861E-02	-1.30656531197E-03	-1.04915881008E-01	1.68523119265E-01
1.71450000000E+09	-2.22049804045E-02	-9.16911892501E-02	-5.79399620095E-02	-8.35557062622E-05	-5.80323604101E-02	-2.71104999420E-05	-1.00961285254E-01	1.74133159450E-01
1.71500000000E+09	-1.93725688201E-02	-9.19166563055E-02	-5.79678939117E-02	1.19379043124E-03	-5.80644293185E-02	1.25708960967E-03	-9.69001345874E-02	1.79659184527E-01
1.71550000000E+09	-1.65587618580E-02	-9.22617827147E-02	-5.79532223230E-02	2.48196236365E-03	-5.80496005158E-02	2.55906351413E-03	-9.25982835834E-02	1.84994875175E-01
1.71600000000E+09	-1.37682094986E-02	-9.27330591911E-02	-5.79039056758E-02	3.74657486527E-03	-5.79816667101E-02	3.83157555551E-03	-8.81912697657E-02	1.90208307784E-01
1.71650000000E+09	-1.10190904578E-02	-9.33017281053E-02	-5.78257227862E-02	5.04175167529E-03	-5.79012066894E-02	5.13711910753E-03	-8.35828937176E-02	1.95248734764E-01
1.71700000000E+09	-8.28335026404E-03	-9.39564483053E-02	-5.77033838459E-02	6.34350261114E-03	-5.78167846327E-02	6.41453039830E-03	-7.88873872375E-02	2.00162346412E-01
1.71750000000E+09	-5.60452409615E-03	-9.47160748916E-02	-5.75722457489E-02	7.61691357902E-03	-5.76668260917E-02	7.71518836086E-03	-7.39677936775E-02	2.04907208949E-01
1.71800000000E+09	-2.93708600022E-03	-9.55949689524E-02	-5.74141289731E-02	8.90467363374E-03	-5.75089820444E-02	8.98115066030E-03	-6.89574915584E-02	2.09511821999E-01
1.71850000000E+09	-3.44340996890E-04	-9.65821064525E-02	-5.71991614434E-02	1.01779074617E-02	-5.73040189052E-02	1.02718815426E-02	-6.38324324347E-02	2.13900374740E-01
1.71900000000E+09	2.19701927254E-03	-9.76298064542E-02	-5.69785879204E-02	1.14582845169E-02	-5.70620799039E-02	1.15556911969E-02	-5.84979732209E-02	2.18135720730E-01
1.71950000000E+09	4.69008946282E-03	-9.87777340382E-02	-5.67068699013E-02	1.27156749816E-02	-5.67732960593E-02	1.28165687367E-02	-5.31143695894E-02	2.22195207360E-01
1.72000000000E+09	7.13130034920E-03	-1.00024407717E-01	-5.64140738083E-02	1.39830834075E-02	-5.64855051707E-02	1.40714224966E-02	-4.76211082000E-02	2.26104133949E-01
1.72050000000E+09	9.52228797452E-03	-1.01326786865E-01	-5.60937766528E-02	1.52316816739E-02	-5.61550870539E-02	1.53296048525E-02	-4.19706890253E-02	2.29798983222E-01
1.72100000000E+09	1.18432268692E-02	-1.02742141715E-01	-5.57267363019E-02	1.64846269967E-02	-5.58063799822E-02	1.65732600693E-02	-3.62201291983E-02	2.33308656971E-01
1.72150000000E+09	1.41027586443E-02	-1.04185743818E-01	-5.53417033176E-02	1.77087635764E-02	-5.54110125052E-02	1.78144575733E-02	-3.03918316237E-02	2.36640880183E-01
1.72200000000E+09	1.63005630054E-02	-1.05732325056E-01	-5.49259965699E-02	1.89504896965E-02	-5.50013641527E-02	1.90425339560E-02	-2.44571915893E-02	2.39825416444E-01
1.72250000000E+09	1.84077387099E-02	-1.07352280773E-01	-5.44732602029E-02	2.01579149479E-02	-5.45492538739E-02	2.02586877283E-02	-1.84540440737E-02	2.42787327985E-01
1.72300000000E+09	2.04710458880E-02	-1.09036622265E-01	-5.40041406990E-02	2.13689885700E-02	-5.40635774077E-02	2.14748319945E-02	-1.23861024285E-02	2.45534059529E-01
1.72350000000E+09	2.24489327482E-02	-1.10757804564E-01	-5.35091726252E-02	2.25580535680E-02	-5.35687162291E-02	2.26677794370E-02	-6.19046651023E-03	2.48101914782E-01
1.72400000000E+09	2.43604207656E-02	-1.12548935252E-01	-5.29770733651E-02	2.37299963258E-02	-5.30343808273E-02	2.38361501041E-02	5.39315279960E-05	2.50496627449E-01
1.72450000000E+09	2.61947020448E-02	-1.14403216690E-01	-5.24183133740E-02	2.48762312952E-02	-5.24483350672E-02	2.50036875142E-02	6.37458237654E-03	2.52674224329E-01
1.72500000000E+09	2.79504572745E-02	-1.16291314019E-01	-5.18245129323E-02	2.60381263052E-02	-5.18809326653E-02	2.61467839399E-02	1.27064357523E-02	2.54627765669E-01
1.72550000000E+09	2.96421362781E-02	-1.18228576385E-01	-5.12193331047E-02	2.71686806932E-02	-5.12543814538E-02	2.72833906377E-02	1.91370234974E-02	2.56418154308E-01
1.72600000000E+09	3.12418107622E-02	-1.20219557167E-01	-5.05625442062E-02	2.83007413797E-02	-5.06101430617E-02	2.83980224292E-02	2.55611037187E-02	2.57985119143E-01
1.72650000000E+09	3.27803312201E-02	-1.22246293546E-01	-4.99077657278E-02	2.94031230058E-02	-4.99498520569E-02	2.95103708406E-02	3.20560465857E-02	2.59349721739E-01
1.72700000000E+09	3.42196784253E-02	-1.24296770780E-01	-4.92277230863E-02	3.04696841101E-02	-4.92497455623E-02	3.05763762757E-02	3.85606979614E-02	2.60504476156E-01
1.72750000000E+09	3.55801896511E-02	-1.26405473383E-01	-4.85082262699E-02	3.15445178814E-02	-4.85464045986E-02	3.16496814641E-02	4.50931345158E-02	2.61501108000E-01
1.72800000000E+09	3.68682498476E-02	-1.28513945540E-01	-4.77647399066E-02	3.25876490836E-02	-4.78030360658E-02	3.26874595442E-02	5.16544158505E-02	2.62274319704E-01
1.72850000000E+09	3.80737101958E-02	-1.30684231032E-01	-4.70028638730E-02	3.36148462421E-02	-4.70397176825E-02	3.37270059940E-02	5.82331071249E-02	2.62812635817E-01
1.72900000000E+09	3.92291552240E-02	-1.32844957305E-01	-4.62247982830E-02	3.46279021703E-02	-4.62624560035E-02	3.47246043021E-02	6.48224481164E-02	2.63185229898E-01
1.72950000000E+09	4.02711984965E-02	-1.35031139127E-01	-4.54032464977E-02	3.56045500611E-02	-4.54462104723E-02	3.57151196610E-02	7.13863209902E-02	2.63338727183E-01
1.73000000000E+09	4.12514341652E-02	-1.37262446606E-01	-4.45803802013E-02	3.65811093205E-02	-4.46027714531E-02	3.66791005871E-02	7.79232057652E-02	2.63254684721E-01
1.73050000000E+09	4.21627968481E-02	-1.39478348473E-01	-4.37167386019E-02	3.75024115031E-02	-4.37628344301E-02	3.76283978061E-02	8.45017280476E-02	2.63047986395E-01
1.73100000000E+09	4.29702724624E-02	-1.41731874892E-01	-4.28494680806E-02	3.84475323252E-02	-4.28695265056E-02	3.85573018521E-02	9.10635362150E-02	2.62576617498E-01
1.73150000000E+09	4.37124090789E-02	-1.43965859241E-01	-4.19774953700E-02	3.93328565664E-02	-4.19904971425E-02	3.94495705948E-02	9.75469092941E-02	2.61925415833E-01
1.73200000000E+09	4.43959481491E-02	-1.46225384722E-01	-4.10623851032E-02	4.01979260289E-02	-4.10723812163E-02	4.03343494371E-02	1.04042753686E-01	2.61068108842E-01
1.73250000000E+09	4.49802554831E-02	-1.48480943839E-01	-4.01245473839E-02	4.10719909704E-02	-4.01299496731E-02	4.11832151965E-02	1.10486940086E-01	2.60027858637E-01
1.73300000000E+09	4.54754221948E-02	-1.50737257639E-01	-3.91762554942E-02	4.19106010201E-02	-3.91973785136E-02	4.20130899440E-02	1.16893393878E-01	2.58815401622E-01
1.73350000000E+09	4.59225652781E-02	-1.53011164739E-01	-3.82303167289E-02	4.26998488725E-02	-3.82331533647E-02	4.28189708342E-02	1.23241616978E-01	2.57396462781E-01
1.73400000000E+09	4.62893607548E-02	-1.55259910621E-01	-3.72483162012E-02	4.34863402087E-02	-3.72593361752E-02	4.36046573904E-02	1.29572808536E-01	2.55746557429E-01
1.73450000000E+09	4.65918101048E-02	-1.57508960796E-01	-3.62533842053E-02	4.42470788583E-02	-3.62508961554E-02	4.43680361414E-02	1.35828465524E-01	2.53934790043E-01
1.73500000000E+09	4.68093107236E-02	-1.59761421867E-01	-3.52501901963E-02	4.49816126069E-02	-3.52557352482E-02	4.50998125145E-02	1.42007902871E-01	2.51939088434E-01
1.73550000000E+09	4.69611909943E-02	-1.62004482704E-01	-3.42311819308E-02	4.56875443579E-02	-3.42307706600E-02	4.58108618242E-02	1.48109585758E-01	2.49751734179E-01
1.73600000000E+09	4.70392880247E-02	-1.64210974107E-01	-3.31756127502E-02	4.63843048229E-02	-3.31820375953E-02	4.64915844985E-02	1.54144586897E-01	2.47402632341E-01
1.73650000000E+09	4.70679271064E-02	-1.66431851690E-01	-3.21396273248E-02	4.70454060790E-02	-3.21342345574E-02	4.71428499399E-02	1.60102184005E-01	2.44842649838E-01
1.73700000000E+09	4.70162255334E-02	-1.68653025673E-01	-3.10748641613E-02	4.76772351517E-02	-3.10673562847E-02	4.77990128288E-02	1.65988863889E-01	2.42080337936E-01
1.73750000000E+09	4.68800634200E-02	-1.70817978757E-01	-3.00143725019E-02	4.82752546276E-02	-2.99904126193E-02	4.83957186353E-02	1.71786926523E-01	2.39216117662E-01
1.73800000000E+09	4.66870200693E-02	-1.72990276210E-01	-2.89201423751E-02	4.88483797974E-02	-2.89146560816E-02	4.89715979456E-02	1.77441531429E-01	2.36098061748E-01
1.73850000000E+09	4.64411934561E-02	-1.75117619363E-01	-2.78344701562E-02	4.94214527996E-02	-2.78069202015E-02	4.95276729931E-02	1.83045943057E-01	2.32888865244E-01
1.73900000000E+09	4.61037150973E-02	-1.77263871564E-01	-2.67192164150E-02	4.99447040955E-02	-2.67070979094E-02	5.00618430582E-02	1.88518518903E-01	2.29472378103E-01
1.73950000000E+09	4.57541386503E-02	-1.79360471183E-01	-2.56002838728E-02	5.04599758924E-02	-2.55974915730E-02	5.05677281017E-02	1.93904044168E-01	2.25904310392E-01
1.74000000000E+09	4.52936343676E-02	-1.81493664264E-01	-2.44855333854E-02	5.09448523031E-02	-2.44727022574E-02	5.10462363137E-02	1.99154340581E-01	2.22169303002E-01
1.74050000000E+09	4.47705480604E-02	-1.83516399938E-01	-2.33637908798E-02	5.13831801913E-02	-2.33545208223E-02	5.14955790200E-02	2.04273844309E-01	2.18266398060E-01
1.74100000000E+09	4.42036614680E-02	-1.85563031397E-01	-2.22360852134E-02	5.18090862489E-02	-2.22008586819E-02	5.19211336519E-02	2.09299623051E-01	2.14211027586E-01
1.74150000000E+09	4.35647479791E-02	-1.87534943878E-01	-2.10793246422E-02	5.22069532104E-02	-2.10563611956E-02	5.23201414083E-02	2.14149454392E-01	2.10020658130E-01
1.74200000000E+09	4.28822371580E-02	-1.89526867390E-01	-1.99358133772E-02	5.25942521333E-02	-1.99237157044E-02	5.26986796686E-02	2.18938189916E-01	2.05736628803E-01
1.74250000000E+09	4.20957839379E-02	-1.91470373877E-01	-1.87852577128E-02	5.29447609098E-02	-1.87569877825E-02	5.30379789954E-02	2.23583346585E-01	2.01263317868E-01
1.74300000000E+09	4.13141762813E-02	-1.93372138016E-01	-1.76360646903E-02	5.32541546589E-02	-1.76104013301E-02	5.33593079822E-02	2.28042136025E-01	1.96619548233E-01
1.74350000000E+09	4.04252301303E-02	-1.95252730297E-01	-1.64704428553E-02	5.35273915287E-02	-1.64499386783E-02	5.36542046104E-02	2.32366134642E-01	1.91887928874E-01
1.74400000000E+09	3.94942756145E-02	-1.97060913460E-01	-1.53127795433E-02	5.38210921943E-02	-1.53100967358E-02	5.39172345876E-02	2.36554700293E-01	1.87002241732E-01
1.74450000000E+09	3.85021092965E-02	-1.98896561557E-01	-1.41457806645E-02	5.40597463443E-02	-1.41308670296E-02	5.41739612124E-02	2.40618099095E-01	1.81991115782E-01
1.74500000000E+09	3.74900732736E-02	-2.00651381848E-01	-1.29892441899E-02	5.42779438572E-02	-1.29594013700E-02	5.43899029117E-02	2.44517504273E-01	1.76910685313E-01
1.74550000000E+09	3.63755960074E-02	-2.02367140848E-01	-1.18205682641E-02	5.44641731663E-02	-1.17969725383E-02	5.45726232895E-02	2.48203936604E-01	1.71663808124E-01
1.74600000000E+09	3.52392049777E-02	-2.04056123930E-01	-1.06681643577E-02	5.46307026972E-02	-1.06402572866E-02	5.47553862029E-02	2.51807244207E-01	1.66327748715E-01
1.74650000000E+09	3.40254544039E-02	-2.05714030890E-01	-9.49525579481E-03	5.47852875856E-02	-9.44647898811E-03	5.48739688504E-02	2.55184270125E-01	1.60889229894E-01
1.74700000000E+09	3.27535159595E-02	-2.07288764225E-01	-8.32365797037E-03	5.48771276167E-02	-8.29264314652E-03	5.49970795338E-02	2.58385207137E-01	1.55340124837E-01
1.74750000000E+09	3.14468610137E-02	-2.08836148272E-01	-7.18134751161E-03	5.49805029483E-02	-7.13480858180E-03	5.50878007252E-02	2.61468989890E-01	1.49714659830E-01
1.74800000000E+09	3.00842762109E-02	-2.10336680131E-01	-6.02723546556E-03	5.50324864954E-02	-5.95942926905E-03	5.51681881207E-02	2.64348172328E-01	1.43977409643E-01
1.74850000000E+09	2.86606931662E-02	-2.11759266821E-01	-4.85978023076E-03	5.50837046118E-02	-4.79278414066E-03	5.51911248030E-02	2.67067625939E-01	1.38167210227E-01
1.74900000000E+09	2.71866026679E-02	-2.13171038701E-01	-3.70076627235E-03	5.50929154339E-02	-3.64741990000E-03	5.52012524243E-02	2.69575059802E-01	1.32258850462E-01
1.74950000000E+09	2.56743847889E-02	-2.14489948857E-01	-2.55625068133E-03	5.50853864518E-02	-2.49751211885E-03	5.51887820760E-02	2.71934171441E-01	1.26311647939E-01
1.75000000000E+09	2.41029908049E-02	-2.15783620369E-01	-1.40265637213E-03	5.50487263642E-02	-1.34024123558E-03	5.51614974218E-02	2.74085328385E-01	1.20274718561E-01
1.75050000000E+09	2.24767162128E-02	-2.16987826532E-01	-2.52164392261E-04	5.49893979744E-02	-1.93078267367E-04	5.51044884310E-02	2.76068947551E-01	1.14157829593E-01
1.75100000000E+09	2.08548952321E-02	-2.18158545447E-01	8.72827795080E-04	5.49167209666E-02	9.31177352811E-04	5.50115828130E-02	2.77882787347E-01	1.07969368373E-01
1.75150000000E+09	1.91171702705E-02	-2.19246079793E-01	2.00274867707E-03	5.48293814185E-02	2.07105618936E-03	5.49175333164E-02	2.79494051248E-01	1.01817120496E-01
1.75200000000E+09	1.73624840787E-02	-2.20243187876E-01	3.13177755659E-03	5.46860916256E-02	3.19129287147E-03	5.48043988614E-02	2.80898986267E-01	9.55308498022E-02
1.75250000000E+09	1.56006926638E-02	-2.21220691607E-01	4.23812446676E-03	5.45438320106E-02	4.32451221226E-03	5.46383293695E-02	2.82133518783E-01	8.92344012947E-02
1.75300000000E+09	1.37724697098E-02	-2.22070612490E-01	5.36518236397E-03	5.43739034898E-02	5.44742999380E-03	5.44801723221E-02	2.83143363689E-01	8.29233646357E-02
1.75350000000E+09	1.19181174452E-02	-2.22869626360E-01	6.47449067864E-03	5.41841137404E-02	6.54609824998E-03	5.42909197464E-02	2.83977422550E-01	7.65281562192E-02
1.75400000000E+09	1.00056425143E-02	-2.23581352460E-01	7.56145236967E-03	5.39572171935E-02	7.63030145818E-03	5.40642262953E-02	2.84604083385E-01	7.01484661271E-02
1.75450000000E+09	8.10308763205E-03	-2.24211756233E-01	8.64558980048E-03	5.37298895542E-02	8.71927831817E-03	5.38226895367E-02	2.85040909251E-01	6.37250852805E-02
1.75500000000E+09	6.15383121875E-03	-2.24772363538E-01	9.72306149981E-03	5.34814798288E-02	9.79966324583E-03	5.35725828240E-02	2.85295434715E-01	5.73026302914E-02
1.75550000000E+09	4.18162803937E-03	-2.25221705264E-01	1.07936449011E-02	5.32007760090E-02	1.08644603030E-02	5.32912911836E-02	2.85307339715E-01	5.08690982862E-02
1.75600000000E+09	2.19021532904E-03	-2.25656394811E-01	1.18623296176E-02	5.29141575459E-02	1.19392869374E-02	5.30073439887E-02	2.85172425776E-01	4.44507704235E-02
1.75650000000E+09	1.69565087435E-04	-2.25896193218E-01	1.29103611660E-02	5.25968711267E-02	1.29757946484E-02	5.26875816279E-02	2.84829449893E-01	3.80166545409E-02
1.75700000000E+09	-1.84995400640E-03	-2.26110776005E-01	1.39558486663E-02	5.22571047465E-02	1.40373236993E-02	5.23461639793E-02	2.84261244959E-01	3.16146432363E-02
1.75750000000E+09	-3.85780554781E-03	-2.26226195344E-01	1.49807122166E-02	5.19116817591E-02	1.50685784661E-02	5.19985743424E-02	2.83531224331E-01	2.52315337283E-02
1.75800000000E+09	-5.90064210325E-03	-2.26214220615E-01	1.60082525909E-02	5.15444772767E-02	1.60939643953E-02	5.16279925315E-02	2.82593881872E-01	1.88522475072E-02
1.75850000000E+09	-7.94352865654E-03	-2.26154521269E-01	1.70137628478E-02	5.11514735659E-02	1.70957338660E-02	5.12403093006E-02	2.81426429738E-01	1.24861485829E-02
