# Hz S RI R 50
! CMT, CMT808U, 21440046, 21.4.3/4
! Date: 11/12/2025 10:16:33 AM
! Data: Format (Calibration Info)
! Freq	S11:Re/Im(F2)	S41:Re/Im(F2)	S14:Re/Im(F2)	S44:Re/Im(F2)
1.60000000000E+09	-2.85485908702E-01	-2.35267096395E-01	-7.64217441470E-03	6.15623615716E-02	-8.36515121838E-03	6.11561499531E-02	-1.20127286079E-01	3.74738312681E-03
1.60100000000E+09	-2.80778474036E-01	-2.33861932027E-01	-4.84165368206E-03	6.19415530000E-02	-5.58322787415E-03	6.15675665435E-02	-1.22984907344E-01	1.55262686514E-02
1.60200000000E+09	-2.76251342406E-01	-2.32978252185E-01	-2.01776995799E-03	6.21775019238E-02	-2.77984952787E-03	6.18349139329E-02	-1.25043959381E-01	2.74550973879E-02
1.60300000000E+09	-2.71959421350E-01	-2.32597642873E-01	8.11837090253E-04	6.22575884436E-02	3.43374636648E-05	6.19504933081E-02	-1.26302079318E-01	3.94777750877E-02
1.60400000000E+09	-2.67991943399E-01	-2.32689249964E-01	3.63704485014E-03	6.21909411318E-02	2.84659000359E-03	6.19151519685E-02	-1.26752358511E-01	5.15409856456E-02
1.60500000000E+09	-2.64425670287E-01	-2.33203784575E-01	6.44894359796E-03	6.19737742168E-02	5.64765687067E-03	6.17313978603E-02	-1.26394823761E-01	6.35787997633E-02
1.60600000000E+09	-2.61305022302E-01	-2.34081587259E-01	9.23602443886E-03	6.16038305814E-02	8.42655149175E-03	6.14030444836E-02	-1.25246114067E-01	7.55438350066E-02
1.60700000000E+09	-2.58690758359E-01	-2.35256516396E-01	1.19856259029E-02	6.10948996831E-02	1.11680179565E-02	6.09263377349E-02	-1.23304243740E-01	8.73844304936E-02
1.60800000000E+09	-2.56623160663E-01	-2.36639145541E-01	1.46902574555E-02	6.04485288346E-02	1.38676499604E-02	6.03163611013E-02	-1.20594697159E-01	9.90426447278E-02
1.60900000000E+09	-2.55132376192E-01	-2.38160972625E-01	1.73365366499E-02	5.96756613751E-02	1.65110264279E-02	5.95760897840E-02	-1.17120502472E-01	1.10481878124E-01
1.61000000000E+09	-2.54231587808E-01	-2.39730866316E-01	1.99174021054E-02	5.87729794462E-02	1.90903203118E-02	5.87114679010E-02	-1.12912282824E-01	1.21627732201E-01
1.61100000000E+09	-2.53913722700E-01	-2.41242884441E-01	2.24313904153E-02	5.77565798156E-02	2.16062797062E-02	5.77329484965E-02	-1.07979964147E-01	1.32454349459E-01
1.61200000000E+09	-2.54163152507E-01	-2.42629098934E-01	2.48663931488E-02	5.66405071723E-02	2.40420449388E-02	5.66482148996E-02	-1.02373732055E-01	1.42906045139E-01
1.61300000000E+09	-2.54945452350E-01	-2.43785226625E-01	2.72237605924E-02	5.54266352802E-02	2.64028076083E-02	5.54670253364E-02	-9.60977435264E-02	1.52941123890E-01
1.61400000000E+09	-2.56209892181E-01	-2.44653696088E-01	2.95003719599E-02	5.41216324375E-02	2.86844513820E-02	5.41982221521E-02	-8.91920184834E-02	1.62518400736E-01
1.61500000000E+09	-2.57912530607E-01	-2.45161694356E-01	3.16948701563E-02	5.27426927723E-02	3.08841814590E-02	5.28465414045E-02	-8.16894911267E-02	1.71609884569E-01
1.61600000000E+09	-2.59979737651E-01	-2.45270805510E-01	3.38082864115E-02	5.12920733053E-02	3.30046578381E-02	5.14267645590E-02	-7.36355054446E-02	1.80161440864E-01
1.61700000000E+09	-2.62341619509E-01	-2.44909870370E-01	3.58438191587E-02	4.97748380850E-02	3.50473177892E-02	4.99414856821E-02	-6.50493322081E-02	1.88156638312E-01
1.61800000000E+09	-2.64927298167E-01	-2.44085048685E-01	3.78032820614E-02	4.81985628841E-02	3.70162439883E-02	4.83988041179E-02	-5.59824289351E-02	1.95552708707E-01
1.61900000000E+09	-2.67667176776E-01	-2.42758767239E-01	3.96855158073E-02	4.65719446721E-02	3.89080412472E-02	4.68023799762E-02	-4.64724804383E-02	2.02324047431E-01
1.62000000000E+09	-2.70475412128E-01	-2.40928652966E-01	4.14967057728E-02	4.48924884503E-02	4.07327648472E-02	4.51466222713E-02	-3.65689479058E-02	2.08448509882E-01
1.62100000000E+09	-2.73302386271E-01	-2.38623459315E-01	4.32451154408E-02	4.31655472181E-02	4.24852910588E-02	4.34458543955E-02	-2.62960428863E-02	2.13897126111E-01
1.62200000000E+09	-2.76064464910E-01	-2.35839737868E-01	4.49232907653E-02	4.13872381216E-02	4.41758932854E-02	4.16964094642E-02	-1.57185496275E-02	2.18657620905E-01
1.62300000000E+09	-2.78724199769E-01	-2.32609804832E-01	4.65357381487E-02	3.95639726059E-02	4.58003862908E-02	3.98990549891E-02	-4.87459350786E-03	2.22710793576E-01
1.62400000000E+09	-2.81222275139E-01	-2.28957341714E-01	4.80872750353E-02	3.76922573272E-02	4.73620759233E-02	3.80568296346E-02	6.19253447084E-03	2.26041650477E-01
1.62500000000E+09	-2.83532120753E-01	-2.24919614183E-01	4.95800697536E-02	3.57754807723E-02	4.88609913637E-02	3.61683899429E-02	1.74277304618E-02	2.28638379373E-01
1.62600000000E+09	-2.85595691635E-01	-2.20527568180E-01	5.10060390540E-02	3.38097040821E-02	5.03034035670E-02	3.42291667863E-02	2.87843593108E-02	2.30501289150E-01
1.62700000000E+09	-2.87394427050E-01	-2.15818620130E-01	5.23717412279E-02	3.17971594278E-02	5.16813176920E-02	3.22455831478E-02	4.02189544420E-02	2.31618774792E-01
1.62800000000E+09	-2.88903456479E-01	-2.10834505944E-01	5.36761309764E-02	2.97370666755E-02	5.29962663005E-02	3.02101113331E-02	5.16865084637E-02	2.31984880015E-01
1.62900000000E+09	-2.90110100671E-01	-2.05599578812E-01	5.49113336707E-02	2.76231546303E-02	5.42480084946E-02	2.81247308304E-02	6.31293652424E-02	2.31612882962E-01
1.63000000000E+09	-2.90992949075E-01	-2.00149266160E-01	5.60823721449E-02	2.54582850542E-02	5.54352462024E-02	2.59894260822E-02	7.45076679546E-02	2.30506612329E-01
1.63100000000E+09	-2.91538517689E-01	-1.94543496626E-01	5.71800688789E-02	2.32484520837E-02	5.65504311287E-02	2.38018755885E-02	8.57687544896E-02	2.28658529831E-01
1.63200000000E+09	-2.91745808133E-01	-1.88785949458E-01	5.82093723012E-02	2.09822809446E-02	5.75967626444E-02	2.15675463993E-02	9.68829291805E-02	2.26094647554E-01
1.63300000000E+09	-2.91608892359E-01	-1.82931568082E-01	5.91615336709E-02	1.86684762273E-02	5.85652737356E-02	1.92812976412E-02	1.07783364654E-01	2.22825125191E-01
1.63400000000E+09	-2.91127416784E-01	-1.76999358828E-01	6.00315449689E-02	1.63027533031E-02	5.94544738800E-02	1.69436318122E-02	1.18441760549E-01	2.18860724613E-01
1.63500000000E+09	-2.90304066742E-01	-1.71023802704E-01	6.08192460679E-02	1.38950387445E-02	6.02678359868E-02	1.45623193087E-02	1.28805812291E-01	2.14227608867E-01
1.63600000000E+09	-2.89146446488E-01	-1.65020408910E-01	6.15232429112E-02	1.14383578038E-02	6.09957515867E-02	1.21341849645E-02	1.38844388543E-01	2.08940952360E-01
1.63700000000E+09	-2.87649049064E-01	-1.59022701246E-01	6.21358622391E-02	8.93576060814E-03	6.16306084927E-02	9.65897212126E-03	1.48510109038E-01	2.03022338411E-01
1.63800000000E+09	-2.85819115579E-01	-1.53058790272E-01	6.26553297091E-02	6.39453027468E-03	6.21751773770E-02	7.14702304829E-03	1.57768663544E-01	1.96503613518E-01
1.63900000000E+09	-2.83672490585E-01	-1.47138735530E-01	6.30748646115E-02	3.81397516690E-03	6.26272473314E-02	4.59337853668E-03	1.66583419024E-01	1.89406527571E-01
1.64000000000E+09	-2.81212829626E-01	-1.41298137638E-01	6.33932244364E-02	1.19958238283E-03	6.29727652578E-02	2.00552924999E-03	1.74911004927E-01	1.81767846591E-01
1.64100000000E+09	-2.78438189730E-01	-1.35537775703E-01	6.36070074744E-02	-1.44464455457E-03	6.32246149885E-02	-6.15602970741E-04	1.82741221529E-01	1.73610092539E-01
1.64200000000E+09	-2.75362960040E-01	-1.29891040690E-01	6.37121092980E-02	-4.11864179927E-03	6.33606894599E-02	-3.26494921166E-03	1.90018466391E-01	1.64972777056E-01
1.64300000000E+09	-2.71994798896E-01	-1.24369178571E-01	6.37070857675E-02	-6.81425289442E-03	6.33923960864E-02	-5.94146238009E-03	1.96732780152E-01	1.55901053469E-01
1.64400000000E+09	-2.68344700271E-01	-1.18989870576E-01	6.35868201897E-02	-9.53212568417E-03	6.33106977596E-02	-8.63337348238E-03	2.02840394185E-01	1.46409543498E-01
1.64500000000E+09	-2.64423532019E-01	-1.13774958707E-01	6.33548643569E-02	-1.22571977824E-02	6.31136892450E-02	-1.13437841018E-02	2.08337161426E-01	1.36558472860E-01
1.64600000000E+09	-2.60228488706E-01	-1.08727372996E-01	6.29996713695E-02	-1.49938315023E-02	6.28036700474E-02	-1.40588118690E-02	2.13185187440E-01	1.26370702214E-01
1.64700000000E+09	-2.55774938272E-01	-1.03881488529E-01	6.25245678259E-02	-1.77333028001E-02	6.23683930804E-02	-1.67814557717E-02	2.17380200033E-01	1.15897260051E-01
1.64800000000E+09	-2.51077636974E-01	-9.92396308318E-02	6.19238163940E-02	-2.04694680066E-02	6.18150057312E-02	-1.95036987018E-02	2.20887589792E-01	1.05181916464E-01
1.64900000000E+09	-2.46142997045E-01	-9.48304902650E-02	6.12026515401E-02	-2.31966294526E-02	6.11352542808E-02	-2.22173180698E-02	2.23711481103E-01	9.42551190576E-02
1.65000000000E+09	-2.40981759397E-01	-9.06641301627E-02	6.03531775715E-02	-2.59063901184E-02	6.03340936859E-02	-2.49230430421E-02	2.25826442659E-01	8.31706021307E-02
1.65100000000E+09	-2.35611102043E-01	-8.67484368534E-02	5.93761216218E-02	-2.85983068499E-02	5.94038391087E-02	-2.76048225234E-02	2.27225605370E-01	7.19853492666E-02
1.65200000000E+09	-2.30036830532E-01	-8.31095639254E-02	5.82694445193E-02	-3.12602572253E-02	5.83485723449E-02	-3.02626040716E-02	2.27906377716E-01	6.07194359781E-02
1.65300000000E+09	-2.24274597322E-01	-7.97639259104E-02	5.70367680796E-02	-3.38885830990E-02	5.71614223205E-02	-3.28893170325E-02	2.27867584457E-01	4.94275416380E-02
1.65400000000E+09	-2.18352722148E-01	-7.67122515953E-02	5.56755059333E-02	-3.64738438868E-02	5.58549559863E-02	-3.54771824682E-02	2.27103803174E-01	3.81585044450E-02
1.65500000000E+09	-2.12274243751E-01	-7.39855773626E-02	5.41874488553E-02	-3.90128349322E-02	5.44134929349E-02	-3.80202718693E-02	2.25613437494E-01	2.69640718037E-02
1.65600000000E+09	-2.06059863013E-01	-7.15930591248E-02	5.25736445551E-02	-4.14925085761E-02	5.28469634607E-02	-4.05081210944E-02	2.23411149398E-01	1.58759018242E-02
1.65700000000E+09	-1.99731480788E-01	-6.95445426776E-02	5.08341422799E-02	-4.39114007791E-02	5.11577318824E-02	-4.29331826626E-02	2.20491325094E-01	4.95455074476E-03
1.65800000000E+09	-1.93312538298E-01	-6.78585816264E-02	4.89687058051E-02	-4.62560378890E-02	4.93407921385E-02	-4.52965902763E-02	2.16880467097E-01	-5.77037050772E-03
1.65900000000E+09	-1.86808662046E-01	-6.65473563443E-02	4.69839294804E-02	-4.85235812850E-02	4.74067070641E-02	-4.75788707753E-02	2.12581655787E-01	-1.62375768696E-02
1.66000000000E+09	-1.80264108248E-01	-6.56204966820E-02	4.48811396234E-02	-5.07084879018E-02	4.53520745781E-02	-4.97799657111E-02	2.07610701103E-01	-2.64171799796E-02
1.66100000000E+09	-1.73697794095E-01	-6.50956282040E-02	4.26656291648E-02	-5.27992734525E-02	4.31847112832E-02	-5.18909268392E-02	2.01990617151E-01	-3.62483642791E-02
1.66200000000E+09	-1.67137356502E-01	-6.49763120164E-02	4.03387416265E-02	-5.47866662783E-02	4.09013028781E-02	-5.39073555684E-02	1.95737507930E-01	-4.57038612514E-02
1.66300000000E+09	-1.60623393204E-01	-6.52835615404E-02	3.79096246198E-02	-5.66626345397E-02	3.85138300406E-02	-5.58162930483E-02	1.88879733853E-01	-5.47438904989E-02
1.66400000000E+09	-1.54178566600E-01	-6.60045614688E-02	3.53787893841E-02	-5.84318732947E-02	3.60248854857E-02	-5.76113083516E-02	1.81449917446E-01	-6.33251891476E-02
1.66500000000E+09	-1.47842386093E-01	-6.71599395704E-02	3.27549943147E-02	-6.00784929627E-02	3.34431542894E-02	-5.92858770402E-02	1.73460549297E-01	-7.13980391627E-02
1.66600000000E+09	-1.41660579198E-01	-6.87278564305E-02	3.00422381645E-02	-6.15937016439E-02	3.07711932930E-02	-6.08366066510E-02	1.64956265177E-01	-7.89442798098E-02
1.66700000000E+09	-1.35663917773E-01	-7.07243173761E-02	2.72528692877E-02	-6.29781244003E-02	2.80131240040E-02	-6.22571578590E-02	1.55975151507E-01	-8.59227565020E-02
1.66800000000E+09	-1.29891291565E-01	-7.31311530765E-02	2.43862377209E-02	-6.42227078523E-02	2.51868480539E-02	-6.35414051802E-02	1.46546159361E-01	-9.22981042885E-02
1.66900000000E+09	-1.24390545000E-01	-7.59413000920E-02	2.14627545319E-02	-6.53239829111E-02	2.22882473924E-02	-6.46801470986E-02	1.36715028161E-01	-9.80467486215E-02
1.67000000000E+09	-1.19204838752E-01	-7.91359630858E-02	1.84769530644E-02	-6.62771799380E-02	1.93347276647E-02	-6.56729970066E-02	1.26517283299E-01	-1.03136316897E-01
1.67100000000E+09	-1.14375524566E-01	-8.26970141783E-02	1.54472592205E-02	-6.70798915615E-02	1.63312704427E-02	-6.65157387615E-02	1.15994955992E-01	-1.07552308660E-01
1.67200000000E+09	-1.09940232357E-01	-8.65842551883E-02	1.23808335696E-02	-6.77214973340E-02	1.32917157784E-02	-6.72013159401E-02	1.05193894982E-01	-1.11255422082E-01
1.67300000000E+09	-1.05949521425E-01	-9.07741165211E-02	9.29158241426E-03	-6.82097746226E-02	1.02227820878E-02	-6.77341422000E-02	9.41660178572E-02	-1.14244725128E-01
1.67400000000E+09	-1.02437790915E-01	-9.52315995622E-02	6.18270089198E-03	-6.85369726191E-02	7.13505349476E-03	-6.81036904659E-02	8.29522394837E-02	-1.16489885875E-01
1.67500000000E+09	-9.94472685206E-02	-9.98916046093E-02	3.07217455759E-03	-6.87069828322E-02	4.04004572920E-03	-6.83178305500E-02	7.16051196538E-02	-1.17988906553E-01
1.67600000000E+09	-9.70011041978E-02	-1.04709300126E-01	-3.45019998421E-05	-6.87179972519E-02	9.50461479456E-04	-6.83761814287E-02	6.01744269916E-02	-1.18734494190E-01
1.67700000000E+09	-9.51323339132E-02	-1.09633232265E-01	-3.12382129918E-03	-6.85739287247E-02	-2.12763165729E-03	-6.82760311872E-02	4.87053085691E-02	-1.18705081058E-01
1.67800000000E+09	-9.38625004142E-02	-1.14578429704E-01	-6.19320001596E-03	-6.82738718886E-02	-5.18036401089E-03	-6.80233278366E-02	3.72599415502E-02	-1.17913148789E-01
1.67900000000E+09	-9.31974057927E-02	-1.19481242321E-01	-9.22194094364E-03	-6.78244828459E-02	-8.20109487122E-03	-6.76220978408E-02	2.58763387928E-02	-1.16351467295E-01
1.68000000000E+09	-9.31312085370E-02	-1.24269502662E-01	-1.22057060141E-02	-6.72327874870E-02	-1.11793877991E-02	-6.70773398029E-02	1.46141331939E-02	-1.14034191779E-01
1.68100000000E+09	-9.36695693231E-02	-1.28858999223E-01	-1.51341662430E-02	-6.65005867708E-02	-1.41045785179E-02	-6.63933970000E-02	3.52668785538E-03	-1.10951474633E-01
1.68200000000E+09	-9.47740178856E-02	-1.33177103286E-01	-1.80033250037E-02	-6.56379975655E-02	-1.69721153500E-02	-6.55771909850E-02	-7.34255031336E-03	-1.07136461436E-01
1.68300000000E+09	-9.64198667293E-02	-1.37146261699E-01	-2.08054884817E-02	-6.46527036852E-02	-1.97763443969E-02	-6.46320452618E-02	-1.79411551161E-02	-1.02587700134E-01
1.68400000000E+09	-9.85612915861E-02	-1.40698790536E-01	-2.35366003300E-02	-6.35460058489E-02	-2.25017601184E-02	-6.35757882582E-02	-2.82143532052E-02	-9.73319383847E-02
1.68500000000E+09	-1.01132360559E-01	-1.43761257438E-01	-2.61852192913E-02	-6.23294063317E-02	-2.51573657849E-02	-6.24070973269E-02	-3.81249733047E-02	-9.13892929192E-02
1.68600000000E+09	-1.04070042384E-01	-1.46285453887E-01	-2.87556322940E-02	-6.10140375373E-02	-2.77329655537E-02	-6.11365836429E-02	-4.76132762371E-02	-8.47818237580E-02
1.68700000000E+09	-1.07307955200E-01	-1.48225359724E-01	-3.12389137383E-02	-5.96083165929E-02	-3.02233197752E-02	-5.97746748046E-02	-5.66466460196E-02	-7.75408742053E-02
1.68800000000E+09	-1.10756102145E-01	-1.49540116848E-01	-3.36416004169E-02	-5.81155809091E-02	-3.26394376178E-02	-5.83277093923E-02	-6.51684500510E-02	-6.97015954026E-02
1.68900000000E+09	-1.14332672051E-01	-1.50199930272E-01	-3.59590707037E-02	-5.65441577445E-02	-3.49692246314E-02	-5.67996828951E-02	-7.31548291372E-02	-6.13008034270E-02
1.69000000000E+09	-1.17934736033E-01	-1.50196178160E-01	-3.81930362933E-02	-5.49058849958E-02	-3.72145948877E-02	-5.52029251115E-02	-8.05588837538E-02	-5.23675952238E-02
1.69100000000E+09	-1.21483731164E-01	-1.49540728752E-01	-4.03504767529E-02	-5.31990080358E-02	-3.93836514711E-02	-5.35379732918E-02	-8.73393470302E-02	-4.29518246711E-02
1.69200000000E+09	-1.24874071557E-01	-1.48239265719E-01	-4.24233658966E-02	-5.14339970991E-02	-4.14817045375E-02	-5.18099942548E-02	-9.34815063155E-02	-3.30921385823E-02
1.69300000000E+09	-1.28025192412E-01	-1.46338177432E-01	-4.44287594840E-02	-4.96089096232E-02	-4.35043554985E-02	-5.00241141135E-02	-9.89359185541E-02	-2.28388372302E-02
1.69400000000E+09	-1.30854103438E-01	-1.43865841135E-01	-4.63613408614E-02	-4.77269556624E-02	-4.54543396916E-02	-4.81852622333E-02	-1.03694247751E-01	-1.22424399242E-02
1.69500000000E+09	-1.33296832539E-01	-1.40895657103E-01	-4.82217574832E-02	-4.57919615632E-02	-4.73369210859E-02	-4.62846291173E-02	-1.07725312441E-01	-1.33919651974E-03
1.69600000000E+09	-1.35292794974E-01	-1.37488968518E-01	-5.00179203835E-02	-4.38030719635E-02	-4.91551784060E-02	-4.43347538385E-02	-1.11012910591E-01	9.79672060123E-03
1.69700000000E+09	-1.36794776886E-01	-1.33704570290E-01	-5.17442742114E-02	-4.17600639271E-02	-5.09093439671E-02	-4.23243029312E-02	-1.13546256439E-01	2.11315875076E-02
1.69800000000E+09	-1.37765570198E-01	-1.29625761765E-01	-5.34126601407E-02	-3.96597684422E-02	-5.25979622392E-02	-4.02587427006E-02	-1.15312610606E-01	3.26075272739E-02
1.69900000000E+09	-1.38181844452E-01	-1.25327519103E-01	-5.50141268713E-02	-3.74994835038E-02	-5.42280755689E-02	-3.81320401200E-02	-1.16315309410E-01	4.41658142163E-02
1.70000000000E+09	-1.38024721587E-01	-1.20877624690E-01	-5.65486836184E-02	-3.52792620193E-02	-5.57895159843E-02	-3.59409238259E-02	-1.16546486313E-01	5.57584678783E-02
1.70100000000E+09	-1.37296473142E-01	-1.16357681490E-01	-5.80142854209E-02	-3.29943853926E-02	-5.72817027706E-02	-3.36900537182E-02	-1.16006821448E-01	6.73275929890E-02
1.70200000000E+09	-1.36000167274E-01	-1.11841161795E-01	-5.94093263954E-02	-3.06491504134E-02	-5.87051739932E-02	-3.13700521297E-02	-1.14710964154E-01	7.88316977355E-02
1.70300000000E+09	-1.34152662586E-01	-1.07387575840E-01	-6.07245692501E-02	-2.82281787875E-02	-6.00538684427E-02	-2.89836132017E-02	-1.12659159323E-01	9.02102780841E-02
1.70400000000E+09	-1.31774749832E-01	-1.03070032838E-01	-6.19615565599E-02	-2.57477929483E-02	-6.13202408940E-02	-2.65309316823E-02	-1.09877103171E-01	1.01406406891E-01
1.70500000000E+09	-1.28902652048E-01	-9.89379592261E-02	-6.31122386496E-02	-2.32000229062E-02	-6.24996756807E-02	-2.40034905393E-02	-1.06371609898E-01	1.12395858195E-01
1.70600000000E+09	-1.25567026361E-01	-9.50446169047E-02	-6.41633764406E-02	-2.05818499951E-02	-6.35863010144E-02	-2.14134613333E-02	-1.02166481306E-01	1.23101629839E-01
1.70700000000E+09	-1.21809833064E-01	-9.14276316366E-02	-6.51181663335E-02	-1.78988374646E-02	-6.45783902282E-02	-1.87576024898E-02	-9.72882727300E-02	1.33498592040E-01
1.70800000000E+09	-1.17671301435E-01	-8.81384759998E-02	-6.59665754954E-02	-1.51572289480E-02	-6.54582628674E-02	-1.60388846566E-02	-9.17616133241E-02	1.43546950361E-01
1.70900000000E+09	-1.13188386399E-01	-8.51860341074E-02	-6.66973594978E-02	-1.23611478976E-02	-6.62302895793E-02	-1.32646704581E-02	-8.56157571759E-02	1.53204580977E-01
1.71000000000E+09	-1.08418437731E-01	-8.26102267202E-02	-6.73123789509E-02	-9.50817627985E-03	-6.68787556816E-02	-1.04357051675E-02	-7.88867215837E-02	1.62432632824E-01
1.71100000000E+09	-1.03391693466E-01	-8.04253430076E-02	-6.78015659159E-02	-6.61644764649E-03	-6.74076884576E-02	-7.56089984510E-03	-7.15986974769E-02	1.71192444235E-01
1.71200000000E+09	-9.81586982203E-02	-7.86428386073E-02	-6.81585210920E-02	-3.68179429165E-03	-6.78042861624E-02	-4.64665591070E-03	-6.37846654737E-02	1.79451345050E-01
1.71300000000E+09	-9.27623465646E-02	-7.72720376071E-02	-6.83783474905E-02	-7.14649915523E-04	-6.80706412831E-02	-1.69736487778E-03	-5.54852471908E-02	1.87197200631E-01
1.71400000000E+09	-8.72444882171E-02	-7.63199780559E-02	-6.84655850464E-02	2.27605832100E-03	-6.81992617616E-02	1.27757795635E-03	-4.67447113259E-02	1.94388937372E-01
1.71500000000E+09	-8.16335753035E-02	-7.57848135992E-02	-6.84038625776E-02	5.28170187043E-03	-6.81823695991E-02	4.27055366308E-03	-3.75805459834E-02	2.00996790290E-01
1.71600000000E+09	-7.59813268843E-02	-7.56718179578E-02	-6.82042382308E-02	8.29199794282E-03	-6.80280283865E-02	7.27069470113E-03	-2.80518706453E-02	2.07013281857E-01
1.71700000000E+09	-7.03170601330E-02	-7.59652363526E-02	-6.78583740444E-02	1.13019727959E-02	-6.77293534412E-02	1.02721690843E-02	-1.81922910003E-02	2.12424452643E-01
