# Hz S RI R 50
! CMT, CMT808U, 21440046, 21.4.3/4
! Date: 11/12/2025 10:26:31 AM
! Data: Format (Calibration Info)
! Freq	S11:Re/Im(F2)	S41:Re/Im(F2)	S14:Re/Im(F2)	S44:Re/Im(F2)
1.60000000000E+09	-2.90079720857E-01	-2.33233909087E-01	-7.71858744480E-03	6.18432374026E-02	-8.63204629676E-03	6.14902420784E-02	-9.91478750218E-02	2.04077022928E-03
1.60100000000E+09	-2.85293932536E-01	-2.31881176565E-01	-4.91697316348E-03	6.22228352511E-02	-5.84732382778E-03	6.19072322557E-02	-1.02167363068E-01	1.33154506331E-02
1.60200000000E+09	-2.80693286293E-01	-2.31054994128E-01	-2.10318664540E-03	6.24548989599E-02	-3.04869449024E-03	6.21810453875E-02	-1.04402670487E-01	2.47587111229E-02
1.60300000000E+09	-2.76335195779E-01	-2.30732588191E-01	7.19036461084E-04	6.25449813660E-02	-2.39557745190E-04	6.23053546249E-02	-1.05862381887E-01	3.63097232249E-02
1.60400000000E+09	-2.72295447865E-01	-2.30890934112E-01	3.53999506598E-03	6.24794213312E-02	2.57023300212E-03	6.22860263657E-02	-1.06537134675E-01	4.79179947724E-02
1.60500000000E+09	-2.68658822465E-01	-2.31485268230E-01	6.34763873638E-03	6.22721026262E-02	5.36456188319E-03	6.21187215570E-02	-1.06421540444E-01	5.95257286183E-02
1.60600000000E+09	-2.65468792743E-01	-2.32435187244E-01	9.12639260085E-03	6.19197604200E-02	8.13890422384E-03	6.18062010305E-02	-1.05533563976E-01	7.10844796811E-02
1.60700000000E+09	-2.62794454426E-01	-2.33699595864E-01	1.18723644190E-02	6.14272133180E-02	1.08795378816E-02	6.13569689325E-02	-1.03867901962E-01	8.25347864487E-02
1.60800000000E+09	-2.60665653046E-01	-2.35177285072E-01	1.45740447867E-02	6.08022077437E-02	1.35750608940E-02	6.07739244334E-02	-1.01448934362E-01	9.38264983782E-02
1.60900000000E+09	-2.59128739431E-01	-2.36798622453E-01	1.72245225506E-02	6.00510382165E-02	1.62223320468E-02	6.00687448546E-02	-9.82799087647E-02	1.04913460961E-01
1.61000000000E+09	-2.58186396922E-01	-2.38476040962E-01	1.98096518512E-02	5.91767949361E-02	1.88110381532E-02	5.92374713229E-02	-9.43786078219E-02	1.15739118163E-01
1.61100000000E+09	-2.57828305699E-01	-2.40104560651E-01	2.23310122614E-02	5.81941821384E-02	2.13377063897E-02	5.82969524639E-02	-8.97772508978E-02	1.26257595193E-01
1.61200000000E+09	-2.58065421377E-01	-2.41604537435E-01	2.47875305278E-02	5.71061551468E-02	2.37937056675E-02	5.72502436966E-02	-8.44973476628E-02	1.36426521457E-01
1.61300000000E+09	-2.58832081028E-01	-2.42879287273E-01	2.71663091553E-02	5.59242919339E-02	2.61803013878E-02	5.61070564195E-02	-7.85611552444E-02	1.46198549832E-01
1.61400000000E+09	-2.60104491067E-01	-2.43864569481E-01	2.94706927521E-02	5.46522341058E-02	2.84945418277E-02	5.48814107552E-02	-7.20031901971E-02	1.55538711220E-01
1.61500000000E+09	-2.61815038157E-01	-2.44488527048E-01	3.17005286510E-02	5.32994922788E-02	3.07382346934E-02	5.35719794700E-02	-6.48528937072E-02	1.64400040026E-01
1.61600000000E+09	-2.63913777448E-01	-2.44698244670E-01	3.38586223520E-02	5.18725321230E-02	3.29062199509E-02	5.21835602268E-02	-5.71556238467E-02	1.72746688222E-01
1.61700000000E+09	-2.66311028377E-01	-2.44448156069E-01	3.59417785765E-02	5.03742805790E-02	3.50028361098E-02	5.07299076297E-02	-4.89335802965E-02	1.80553418786E-01
1.61800000000E+09	-2.68936168687E-01	-2.43717837899E-01	3.79500458476E-02	4.88124080571E-02	3.70279041963E-02	4.92044120628E-02	-4.02372100400E-02	1.87782352493E-01
1.61900000000E+09	-2.71723548878E-01	-2.42488261085E-01	3.98893221078E-02	4.71886900565E-02	3.89839337627E-02	4.76187228490E-02	-3.10984578681E-02	1.94402852092E-01
1.62000000000E+09	-2.74587606827E-01	-2.40753246276E-01	4.17569373550E-02	4.55062295839E-02	4.08708609775E-02	4.59736791719E-02	-2.15712059611E-02	2.00397453670E-01
1.62100000000E+09	-2.77477454753E-01	-2.38520051568E-01	4.35590547763E-02	4.37701212132E-02	4.26958717544E-02	4.42705101868E-02	-1.16790674281E-02	2.05740941972E-01
1.62200000000E+09	-2.80308530966E-01	-2.35805351567E-01	4.52924755953E-02	4.19732074358E-02	4.44529394581E-02	4.25121775550E-02	-1.48447390893E-03	2.10412269317E-01
1.62300000000E+09	-2.83048680730E-01	-2.32632306882E-01	4.69607185033E-02	4.01304812892E-02	4.61440157249E-02	4.06996275592E-02	8.97374426343E-03	2.14390266793E-01
1.62400000000E+09	-2.85628424570E-01	-2.29033720150E-01	4.85651829402E-02	3.82288684928E-02	4.77729920489E-02	3.88304651958E-02	1.96470556978E-02	2.17678732884E-01
1.62500000000E+09	-2.88018119879E-01	-2.25026840170E-01	5.00983601214E-02	3.62745363375E-02	4.93279346577E-02	3.69078314032E-02	3.04944721077E-02	2.20250090116E-01
1.62600000000E+09	-2.90161450895E-01	-2.20665200719E-01	5.15721867868E-02	3.42701339568E-02	5.08265863618E-02	3.49312552927E-02	4.14620805960E-02	2.22105723454E-01
1.62700000000E+09	-2.92039196179E-01	-2.15967656052E-01	5.29738348387E-02	3.22102662935E-02	5.22570216205E-02	3.28980778759E-02	5.25092590638E-02	2.23236658303E-01
1.62800000000E+09	-2.93621637086E-01	-2.10990668435E-01	5.43080047250E-02	3.00996388304E-02	5.36116848720E-02	3.08124616720E-02	6.35848508620E-02	2.23638073089E-01
1.62900000000E+09	-2.94904176040E-01	-2.05757903682E-01	5.55687836026E-02	2.79304848173E-02	5.49059918039E-02	2.86767556410E-02	7.46479114036E-02	2.23335161152E-01
1.63000000000E+09	-2.95852125473E-01	-2.00304187522E-01	5.67583826456E-02	2.57156668609E-02	5.61233222870E-02	2.64850184961E-02	8.56431880588E-02	2.22312462678E-01
1.63100000000E+09	-2.96461388469E-01	-1.94677987178E-01	5.78736067153E-02	2.34463104315E-02	5.72650656582E-02	2.42448004309E-02	9.65356782200E-02	2.20573458092E-01
1.63200000000E+09	-2.96733803206E-01	-1.88903279709E-01	5.89103164102E-02	2.11258216835E-02	5.83317620716E-02	2.19508660202E-02	1.07284824330E-01	2.18147513672E-01
1.63300000000E+09	-2.96649393634E-01	-1.83025059696E-01	5.98620302026E-02	1.87564162651E-02	5.93134264946E-02	1.96088801882E-02	1.17827012994E-01	2.15033273161E-01
1.63400000000E+09	-2.96210062734E-01	-1.77056360327E-01	6.07295797996E-02	1.63397228561E-02	6.02137713842E-02	1.72094539271E-02	1.28146329544E-01	2.11243998569E-01
1.63500000000E+09	-2.95429539072E-01	-1.71044387964E-01	6.15106478977E-02	1.38764617611E-02	6.10257652451E-02	1.47729365074E-02	1.38178515415E-01	2.06807734237E-01
1.63600000000E+09	-2.94295657975E-01	-1.65003210452E-01	6.21986221291E-02	1.13700688181E-02	6.17492833807E-02	1.22871676768E-02	1.47890195675E-01	2.01743461999E-01
1.63700000000E+09	-2.92830963255E-01	-1.58973422553E-01	6.27921935757E-02	8.82209688268E-03	6.23759365735E-02	9.76295690249E-03	1.57251623011E-01	1.96073035018E-01
1.63800000000E+09	-2.91017047814E-01	-1.52967259949E-01	6.32878599820E-02	6.23713909414E-03	6.29098935526E-02	7.19619693730E-03	1.66215593703E-01	1.89819626896E-01
1.63900000000E+09	-2.88883841108E-01	-1.47010123425E-01	6.36839099028E-02	3.61528116979E-03	6.33408341906E-02	4.60021354077E-03	1.74758103188E-01	1.83016732461E-01
1.64000000000E+09	-2.86423314116E-01	-1.41125260412E-01	6.39727418839E-02	9.64304240630E-04	6.36698126833E-02	1.96521655892E-03	1.82841400392E-01	1.75681103954E-01
1.64100000000E+09	-2.83658245901E-01	-1.35334645370E-01	6.41565851201E-02	-1.71457275284E-03	6.38953322559E-02	-6.97112352407E-04	1.90439948021E-01	1.67852334076E-01
1.64200000000E+09	-2.80576312048E-01	-1.29649780842E-01	6.42288596751E-02	-4.41833293032E-03	6.40075357929E-02	-3.38329593768E-03	1.97512468671E-01	1.59560536362E-01
1.64300000000E+09	-2.77197250347E-01	-1.24094125038E-01	6.41902475173E-02	-7.14077034183E-03	6.40087431380E-02	-6.08915433453E-03	2.04043659264E-01	1.50838923133E-01
1.64400000000E+09	-2.73537572872E-01	-1.18680263152E-01	6.40343662689E-02	-9.87544636848E-03	6.38967191920E-02	-8.81027963534E-03	2.09989418395E-01	1.41724055433E-01
1.64500000000E+09	-2.69590206692E-01	-1.13431539494E-01	6.37637074696E-02	-1.26189886704E-02	6.36703921119E-02	-1.15462593758E-02	2.15353838177E-01	1.32255619697E-01
1.64600000000E+09	-2.65374003657E-01	-1.08359216666E-01	6.33708113126E-02	-1.53679979531E-02	6.33210888879E-02	-1.42842241680E-02	2.20097759342E-01	1.22468637092E-01
1.64700000000E+09	-2.60893744150E-01	-1.03490542825E-01	6.28582246705E-02	-1.81213645230E-02	6.28555995455E-02	-1.70247596932E-02	2.24218338920E-01	1.12401685871E-01
1.64800000000E+09	-2.56163753984E-01	-9.88351498870E-02	6.22238533643E-02	-2.08592074919E-02	6.22676872056E-02	-1.97599431386E-02	2.27676046648E-01	1.02096793485E-01
1.64900000000E+09	-2.51192699301E-01	-9.44104983739E-02	6.14624128104E-02	-2.35840705426E-02	6.15555399912E-02	-2.24816517423E-02	2.30483208170E-01	9.15887467254E-02
1.65000000000E+09	-2.45996587590E-01	-9.02231994557E-02	6.05815114719E-02	-2.62968093657E-02	6.07207596203E-02	-2.51887148403E-02	2.32612219929E-01	8.09397690379E-02
1.65100000000E+09	-2.40586518369E-01	-8.62969046841E-02	5.95689859983E-02	-2.89839671308E-02	5.97603333579E-02	-2.78765387213E-02	2.34059584142E-01	7.01752090429E-02
1.65200000000E+09	-2.34967466645E-01	-8.26543855292E-02	5.84336899185E-02	-3.16347294689E-02	5.86754329171E-02	-3.05323478893E-02	2.34812283145E-01	5.93372920805E-02
1.65300000000E+09	-2.29156789440E-01	-7.93060493185E-02	5.71684542840E-02	-3.42569884612E-02	5.74638462713E-02	-3.31512567435E-02	2.34886524486E-01	4.84745593920E-02
1.65400000000E+09	-2.23185641684E-01	-7.62542437759E-02	5.57822551006E-02	-3.68257566103E-02	5.61266161437E-02	-3.57330860016E-02	2.34262215417E-01	3.76247956098E-02
1.65500000000E+09	-2.17054573038E-01	-7.35432562033E-02	5.42683543914E-02	-3.93468459181E-02	5.46623150513E-02	-3.82618650896E-02	2.32942061504E-01	2.68393613043E-02
1.65600000000E+09	-2.10790679979E-01	-7.11640750091E-02	5.26313109650E-02	-4.18086246238E-02	5.30809232288E-02	-4.07366466680E-02	2.30953442910E-01	1.61571306929E-02
1.65700000000E+09	-2.04412956562E-01	-6.91309204527E-02	5.08720091557E-02	-4.42062535798E-02	5.13709285048E-02	-4.31490822661E-02	2.28265686339E-01	5.63634737790E-03
1.65800000000E+09	-1.97940062291E-01	-6.74724122234E-02	4.89925026107E-02	-4.65326223273E-02	4.95446780285E-02	-4.54934168203E-02	2.24921678808E-01	-4.70271966980E-03
1.65900000000E+09	-1.91389284278E-01	-6.61952660505E-02	4.69991192870E-02	-4.87731046343E-02	4.75976216571E-02	-4.77599821870E-02	2.20916047495E-01	-1.48050065372E-02
1.66000000000E+09	-1.84795843253E-01	-6.53047351230E-02	4.48845278316E-02	-5.09326253928E-02	4.55350152668E-02	-4.99403874969E-02	2.16274270102E-01	-2.46350395799E-02
1.66100000000E+09	-1.78186942693E-01	-6.48269595261E-02	4.26671852853E-02	-5.30010033550E-02	4.33669133938E-02	-5.20341521174E-02	2.11001007509E-01	-3.41394377361E-02
1.66200000000E+09	-1.71583466033E-01	-6.47588504076E-02	4.03393767258E-02	-5.49651327366E-02	4.10853650599E-02	-5.40280538741E-02	2.05132633872E-01	-4.32871192205E-02
1.66300000000E+09	-1.65031089081E-01	-6.51150400788E-02	3.79112558914E-02	-5.68188204014E-02	3.87032202711E-02	-5.59168941416E-02	1.98676044338E-01	-5.20354943045E-02
1.66400000000E+09	-1.58551233912E-01	-6.58948244033E-02	3.53849661022E-02	-5.85616964251E-02	3.62252546071E-02	-5.76903700814E-02	1.91675272894E-01	-6.03565527767E-02
1.66500000000E+09	-1.52183742005E-01	-6.71040721653E-02	3.27709854524E-02	-6.01859388977E-02	3.36490005631E-02	-5.93507594539E-02	1.84140231896E-01	-6.81936076556E-02
1.66600000000E+09	-1.45972894492E-01	-6.87386710564E-02	3.00741813824E-02	-6.16850138912E-02	3.09909326542E-02	-6.08879739562E-02	1.76111303739E-01	-7.55358587280E-02
1.66700000000E+09	-1.39945720643E-01	-7.08069119724E-02	2.72993719502E-02	-6.30475307293E-02	2.82555324750E-02	-6.22911884928E-02	1.67619590821E-01	-8.23351965509E-02
1.66800000000E+09	-1.34158768687E-01	-7.32815021348E-02	2.44545341432E-02	-6.42753821972E-02	2.54512643464E-02	-6.35637441580E-02	1.58698418617E-01	-8.85633323151E-02
1.66900000000E+09	-1.28637975732E-01	-7.61681767601E-02	2.15487988866E-02	-6.53587519897E-02	2.25796644211E-02	-6.46952734073E-02	1.49382801134E-01	-9.41957284065E-02
1.67000000000E+09	-1.23439247969E-01	-7.94421343949E-02	1.85926793546E-02	-6.63001530155E-02	1.96546595559E-02	-6.56821539787E-02	1.39718563988E-01	-9.92054154880E-02
1.67100000000E+09	-1.18601485709E-01	-8.30831199372E-02	1.55941285638E-02	-6.70925363315E-02	1.66856072300E-02	-6.65202519811E-02	1.29742937960E-01	-1.03564000040E-01
1.67200000000E+09	-1.14165854076E-01	-8.70553932075E-02	1.25586585172E-02	-6.77373978593E-02	1.36835045650E-02	-6.72129086433E-02	1.19494579001E-01	-1.07255097162E-01
1.67300000000E+09	-1.10177722810E-01	-9.13309290425E-02	9.50318293395E-03	-6.82234457259E-02	1.06482183062E-02	-6.77508731029E-02	1.09022544933E-01	-1.10255844946E-01
1.67400000000E+09	-1.06673373050E-01	-9.58751350402E-02	6.43257643959E-03	-6.85551238382E-02	7.60137738963E-03	-6.81361618030E-02	9.83736410391E-02	-1.12553511864E-01
1.67500000000E+09	-1.03697680255E-01	-1.00632059287E-01	3.35710031135E-03	-6.87390621594E-02	4.54879892851E-03	-6.83743595113E-02	8.75874079513E-02	-1.14141430673E-01
1.67600000000E+09	-1.01276880748E-01	-1.05541630061E-01	2.88600118944E-04	-6.87691041742E-02	1.50090092498E-03	-6.84576390341E-02	7.67160270686E-02	-1.14997912842E-01
1.67700000000E+09	-9.94407064284E-02	-1.10554744614E-01	-2.76325272272E-03	-6.86480218487E-02	-1.53884001380E-03	-6.83934325056E-02	6.58121955760E-02	-1.15122481567E-01
1.67800000000E+09	-9.82070948522E-02	-1.15591185371E-01	-5.79310462320E-03	-6.83789750891E-02	-4.55308641312E-03	-6.81821913797E-02	5.49202766354E-02	-1.14515843235E-01
1.67900000000E+09	-9.75830235907E-02	-1.20588596403E-01	-8.78629823989E-03	-6.79686206377E-02	-7.53863282466E-03	-6.78305149915E-02	4.40890342050E-02	-1.13172309007E-01
1.68000000000E+09	-9.75762764588E-02	-1.25464410144E-01	-1.17345605764E-02	-6.74244598986E-02	-1.04843616006E-02	-6.73408930381E-02	3.33662878035E-02	-1.11107006371E-01
1.68100000000E+09	-9.81718884206E-02	-1.30143598715E-01	-1.46386718220E-02	-6.67414885645E-02	-1.33818311578E-02	-6.67225249279E-02	2.28109753184E-02	-1.08309345874E-01
1.68200000000E+09	-9.93458405174E-02	-1.34547838315E-01	-1.74823167205E-02	-6.59386439986E-02	-1.62269746161E-02	-6.59784380491E-02	1.24601339792E-02	-1.04802838115E-01
1.68300000000E+09	-1.01067702848E-01	-1.38602977378E-01	-2.02709265584E-02	-6.50184227286E-02	-1.90167917197E-02	-6.51146385257E-02	2.37100016801E-03	-1.00598635484E-01
1.68400000000E+09	-1.03293425501E-01	-1.42234857980E-01	-2.29868819028E-02	-6.39839590794E-02	-2.17390099094E-02	-6.41389374076E-02	-7.41229098806E-03	-9.57106448475E-02
1.68500000000E+09	-1.05960413240E-01	-1.45376729937E-01	-2.56382501079E-02	-6.28477074509E-02	-2.44015204304E-02	-6.30629412952E-02	-1.68452837920E-02	-9.01663831373E-02
1.68600000000E+09	-1.09007024236E-01	-1.47968136940E-01	-2.82158688344E-02	-6.16132499148E-02	-2.69945217726E-02	-6.18851876223E-02	-2.58756575100E-02	-8.39886424009E-02
1.68700000000E+09	-1.12361951367E-01	-1.49970525675E-01	-3.07261243786E-02	-6.02897233472E-02	-2.95203518533E-02	-6.06206656364E-02	-3.44650215295E-02	-7.72062547546E-02
1.68800000000E+09	-1.15930509681E-01	-1.51327936531E-01	-3.31597540845E-02	-5.88820496994E-02	-3.19753613032E-02	-5.92652938804E-02	-4.25688325493E-02	-6.98418210669E-02
1.68900000000E+09	-1.19639502104E-01	-1.52024885882E-01	-3.55255109995E-02	-5.73992674504E-02	-3.43643031246E-02	-5.78331522504E-02	-5.01559865206E-02	-6.19446991068E-02
1.69000000000E+09	-1.23378894912E-01	-1.52042347764E-01	-3.78220559088E-02	-5.58350503614E-02	-3.66820882923E-02	-5.63211358294E-02	-5.71774066277E-02	-5.35349958360E-02
1.69100000000E+09	-1.27062100439E-01	-1.51392123139E-01	-4.00525790365E-02	-5.42024690732E-02	-3.89388650431E-02	-5.47391742221E-02	-6.36037831781E-02	-4.46665465964E-02
1.69200000000E+09	-1.30590987840E-01	-1.50085413009E-01	-4.22163535555E-02	-5.25055167183E-02	-4.11335972223E-02	-5.30846461475E-02	-6.94159651686E-02	-3.53767164251E-02
1.69300000000E+09	-1.33877508439E-01	-1.48160779942E-01	-4.43164942381E-02	-5.07349939173E-02	-4.32587741273E-02	-5.13584173197E-02	-7.45661742774E-02	-2.57117266262E-02
1.69400000000E+09	-1.36835097947E-01	-1.45659047953E-01	-4.63531095393E-02	-4.88995486862E-02	-4.53302763830E-02	-4.95666321237E-02	-7.90440186229E-02	-1.57207539075E-02
1.69500000000E+09	-1.39404944582E-01	-1.42642285932E-01	-4.83285725276E-02	-4.69959564834E-02	-4.73427459121E-02	-4.77046291210E-02	-8.28220361658E-02	-5.44824289793E-03
1.69600000000E+09	-1.41516361788E-01	-1.39175108307E-01	-5.02461859682E-02	-4.50226479424E-02	-4.92904690280E-02	-4.57706493175E-02	-8.58872897528E-02	5.05181657455E-03
1.69700000000E+09	-1.43126453578E-01	-1.35326108569E-01	-5.20991342625E-02	-4.29763874834E-02	-5.11779505668E-02	-4.37614143103E-02	-8.82252564342E-02	1.57315459147E-02
1.69800000000E+09	-1.44198271195E-01	-1.31166787626E-01	-5.38866226897E-02	-4.08608077304E-02	-5.30038177401E-02	-4.16779975497E-02	-8.98289564574E-02	2.65416206689E-02
1.69900000000E+09	-1.44703062088E-01	-1.26778886080E-01	-5.56096448849E-02	-3.86675807656E-02	-5.47586116171E-02	-3.95184809325E-02	-9.06963248830E-02	3.74229870819E-02
1.70000000000E+09	-1.44629019870E-01	-1.22240885376E-01	-5.72592355452E-02	-3.63976573879E-02	-5.64497466491E-02	-3.72815276945E-02	-9.08270392790E-02	4.83252406469E-02
1.70100000000E+09	-1.43966795947E-01	-1.17620779283E-01	-5.88341796596E-02	-3.40543352138E-02	-5.80573277251E-02	-3.49664630746E-02	-9.02171428160E-02	5.91990128691E-02
1.70200000000E+09	-1.42728922266E-01	-1.13003293046E-01	-6.03272640717E-02	-3.16268048097E-02	-5.95883482103E-02	-3.25685116212E-02	-8.88773711759E-02	7.00007045372E-02
1.70300000000E+09	-1.40924025819E-01	-1.08450228783E-01	-6.17352683104E-02	-2.91237063859E-02	-6.10355552727E-02	-3.00952092308E-02	-8.68247734361E-02	8.06744904269E-02
1.70400000000E+09	-1.38582620228E-01	-1.04029369036E-01	-6.30460219031E-02	-2.65487357977E-02	-6.23847732715E-02	-2.75420966356E-02	-8.40674308988E-02	9.11634927000E-02
1.70500000000E+09	-1.35734073576E-01	-9.97948875778E-02	-6.42623368332E-02	-2.38963234476E-02	-6.36378878749E-02	-2.49142370470E-02	-8.06162188755E-02	1.01443706513E-01
1.70600000000E+09	-1.32409770340E-01	-9.58026593644E-02	-6.53636017591E-02	-2.11717609572E-02	-6.47806021890E-02	-2.22165675096E-02	-7.65026681729E-02	1.11440944506E-01
1.70700000000E+09	-1.28657761370E-01	-9.20874549919E-02	-6.63584113443E-02	-1.83806006684E-02	-6.58146958388E-02	-1.94486732765E-02	-7.17438578461E-02	1.21139729150E-01
1.70800000000E+09	-1.24509423318E-01	-8.87028688826E-02	-6.72289902286E-02	-1.55295531873E-02	-6.67251424417E-02	-1.66169194616E-02	-6.63656433550E-02	1.30483902184E-01
1.70900000000E+09	-1.20019118104E-01	-8.56568913623E-02	-6.79764765447E-02	-1.26197099671E-02	-6.75144311879E-02	-1.37350634473E-02	-6.04013411248E-02	1.39447139721E-01
1.71000000000E+09	-1.15225373973E-01	-8.29914537989E-02	-6.85882393274E-02	-9.66593717072E-03	-6.81707468746E-02	-1.07985138274E-02	-5.38813650100E-02	1.47982458358E-01
1.71100000000E+09	-1.10168407615E-01	-8.07263589010E-02	-6.90656968719E-02	-6.66276669613E-03	-6.86918905831E-02	-7.81642040987E-03	-4.68290188179E-02	1.56059153688E-01
1.71200000000E+09	-1.04896080171E-01	-7.88690863315E-02	-6.94033063798E-02	-3.63373832209E-03	-6.90743655255E-02	-4.80390078992E-03	-3.92805141464E-02	1.63648464865E-01
1.71300000000E+09	-9.94544536919E-02	-7.74341641893E-02	-6.95975786026E-02	-5.73900318396E-04	-6.93165891664E-02	-1.76271260368E-03	-3.12805500260E-02	1.70726544954E-01
1.71400000000E+09	-9.38842793922E-02	-7.64222995488E-02	-6.96453932528E-02	2.50466734848E-03	-6.94118795186E-02	1.29935447122E-03	-2.28563216212E-02	1.77263554405E-01
1.71500000000E+09	-8.82236253056E-02	-7.58333333435E-02	-6.95449318251E-02	5.58939607837E-03	-6.93577660838E-02	4.37032261098E-03	-1.40422260130E-02	1.83223567898E-01
1.71600000000E+09	-8.25167170197E-02	-7.56779692154E-02	-6.92950778453E-02	8.67117164694E-03	-6.91577572097E-02	7.44006263944E-03	-4.88913550826E-03	1.88604890524E-01
1.71700000000E+09	-7.68022901244E-02	-7.59340036224E-02	-6.88930400204E-02	1.17472923540E-02	-6.88105395612E-02	1.05062666552E-02	4.56979096925E-03	1.93383457602E-01
