# Hz S RI R 50
! CMT, CMT808U, 21440046, 21.4.3/4
! Date: 11/17/2025 2:26:38 PM
! Data: Format (Calibration Info)
! Freq	S11:Re/Im(F2)	S41:Re/Im(F2)	S14:Re/Im(F2)	S44:Re/Im(F2)
1.70000000000E+09	-8.15850333654E-02	-1.35761050964E-01	-7.04691872554E-02	-5.20085343554E-03	-7.05393647266E-02	-5.07432314047E-03	-2.58752447116E-02	1.07052865133E-02
1.70050000000E+09	-8.12225694925E-02	-1.33400392940E-01	-7.06485679082E-02	-3.59825641200E-03	-7.06962340363E-02	-3.50234839252E-03	-2.71086710129E-02	1.46832189793E-02
1.70100000000E+09	-8.07118926774E-02	-1.31058563562E-01	-7.07636629046E-02	-2.04194683684E-03	-7.08321823971E-02	-1.92405197077E-03	-2.82221424431E-02	1.86834486661E-02
1.70150000000E+09	-8.00538632931E-02	-1.28690469667E-01	-7.08459565925E-02	-4.49793679875E-04	-7.09167376698E-02	-3.44407983529E-04	-2.91906846367E-02	2.26911436624E-02
1.70200000000E+09	-7.92258121267E-02	-1.26368383425E-01	-7.09024695529E-02	1.15006304590E-03	-7.09664255198E-02	1.23387312207E-03	-2.99993478659E-02	2.67810045159E-02
1.70250000000E+09	-7.82650263127E-02	-1.24054213138E-01	-7.09260957971E-02	2.72333175835E-03	-7.09771058101E-02	2.83137259987E-03	-3.06796931023E-02	3.08907526922E-02
1.70300000000E+09	-7.71607472206E-02	-1.21761150661E-01	-7.09026285283E-02	4.31785654489E-03	-7.09597079161E-02	4.44389879934E-03	-3.12506202861E-02	3.50195054672E-02
1.70350000000E+09	-7.59400887857E-02	-1.19510289082E-01	-7.08183177192E-02	5.93419904879E-03	-7.08793837378E-02	6.03468212699E-03	-3.16801280525E-02	3.91310720557E-02
1.70400000000E+09	-7.45218862245E-02	-1.17337942442E-01	-7.07291275257E-02	7.52491541893E-03	-7.07689017954E-02	7.64493737197E-03	-3.19646421582E-02	4.32934937617E-02
1.70450000000E+09	-7.30327156141E-02	-1.15205279248E-01	-7.05827330564E-02	9.12542754203E-03	-7.06221657473E-02	9.23742444202E-03	-3.20991569504E-02	4.74865962786E-02
1.70500000000E+09	-7.13923974356E-02	-1.13117249737E-01	-7.03966588434E-02	1.07207028207E-02	-7.04298551262E-02	1.08524740177E-02	-3.20767514206E-02	5.16717909754E-02
1.70550000000E+09	-6.96175700011E-02	-1.11146564470E-01	-7.01516640293E-02	1.23047688271E-02	-7.01959070832E-02	1.24419904317E-02	-3.19292121841E-02	5.58163768973E-02
1.70600000000E+09	-6.77692883517E-02	-1.09248688960E-01	-6.99130541280E-02	1.39149069152E-02	-6.99228766528E-02	1.40351279402E-02	-3.16509130620E-02	6.00044253726E-02
1.70650000000E+09	-6.57894191913E-02	-1.07402033442E-01	-6.95821705030E-02	1.54869912002E-02	-6.96270697879E-02	1.56330959741E-02	-3.12147815227E-02	6.41820558843E-02
1.70700000000E+09	-6.37149713641E-02	-1.05663121975E-01	-6.92420699458E-02	1.70653058424E-02	-6.92513618156E-02	1.72001770312E-02	-3.06515936565E-02	6.83282539491E-02
1.70750000000E+09	-6.15301075532E-02	-1.04023890061E-01	-6.88492302136E-02	1.86636218578E-02	-6.88777311880E-02	1.87828710965E-02	-2.99386008196E-02	7.24386653780E-02
1.70800000000E+09	-5.92539526858E-02	-1.02492345512E-01	-6.84220035786E-02	2.02101065317E-02	-6.84490716686E-02	2.03394449435E-02	-2.90827710361E-02	7.65900662871E-02
1.70850000000E+09	-5.68859220537E-02	-1.01049320129E-01	-6.79483939680E-02	2.17631800494E-02	-6.79736245374E-02	2.18762558818E-02	-2.80828711004E-02	8.06172277488E-02
1.70900000000E+09	-5.44629074267E-02	-9.97313247322E-02	-6.74544809601E-02	2.33039388943E-02	-6.74559596045E-02	2.34318164977E-02	-2.70114418517E-02	8.47030346714E-02
1.70950000000E+09	-5.19963650971E-02	-9.85286322853E-02	-6.68970270167E-02	2.48247022628E-02	-6.69084746518E-02	2.49647809151E-02	-2.57567507939E-02	8.86962220721E-02
1.71000000000E+09	-4.94328978484E-02	-9.74331900838E-02	-6.63194205221E-02	2.63375390249E-02	-6.63110124721E-02	2.64722312931E-02	-2.43486807328E-02	9.26605700817E-02
1.71050000000E+09	-4.68402959048E-02	-9.64493113263E-02	-6.56901108881E-02	2.78393457485E-02	-6.56954202321E-02	2.79574029367E-02	-2.28473298784E-02	9.65998473522E-02
1.71100000000E+09	-4.41969050118E-02	-9.55663477352E-02	-6.50287642058E-02	2.93089165799E-02	-6.50174496882E-02	2.94494007042E-02	-2.11628587249E-02	1.00460544208E-01
1.71150000000E+09	-4.15049088858E-02	-9.48168412742E-02	-6.43291679071E-02	3.07625992440E-02	-6.43220451810E-02	3.08993657131E-02	-1.94023167355E-02	1.04294975087E-01
1.71200000000E+09	-3.87837144156E-02	-9.41774205386E-02	-6.36048225479E-02	3.22255270158E-02	-6.36013990495E-02	3.23387287384E-02	-1.74907186986E-02	1.08050943709E-01
1.71250000000E+09	-3.60384277243E-02	-9.36782325085E-02	-6.28209256004E-02	3.36333961341E-02	-6.28274886332E-02	3.37539136980E-02	-1.54543001599E-02	1.11739754862E-01
1.71300000000E+09	-3.32703679056E-02	-9.32775547759E-02	-6.20393191529E-02	3.50307522760E-02	-6.20230520472E-02	3.51505674750E-02	-1.32948719246E-02	1.15366842392E-01
1.71350000000E+09	-3.04921422275E-02	-9.29891433348E-02	-6.11983734200E-02	3.64132930820E-02	-6.11848653229E-02	3.65335809052E-02	-1.10511872617E-02	1.18902281839E-01
1.71400000000E+09	-2.77087847900E-02	-9.28378110203E-02	-6.03257622414E-02	3.77635725894E-02	-6.03179349457E-02	3.78756461943E-02	-8.65141752535E-03	1.22406101489E-01
1.71450000000E+09	-2.49039209114E-02	-9.27740101594E-02	-5.94267862774E-02	3.90701347831E-02	-5.94018720518E-02	3.92200701061E-02	-6.14413518206E-03	1.25797151509E-01
1.71500000000E+09	-2.21105005784E-02	-9.28271496391E-02	-5.85114012895E-02	4.03777696477E-02	-5.84723023937E-02	4.05012305120E-02	-3.52976006731E-03	1.29136751370E-01
1.71550000000E+09	-1.93478029175E-02	-9.30141451928E-02	-5.75400543068E-02	4.16567054571E-02	-5.75238031916E-02	4.17848976777E-02	-7.73938109935E-04	1.32342879034E-01
1.71600000000E+09	-1.65832588795E-02	-9.32883510806E-02	-5.65352005453E-02	4.29160897394E-02	-5.65155499423E-02	4.30310462566E-02	2.04081141693E-03	1.35499870324E-01
1.71650000000E+09	-1.38193623087E-02	-9.37018199424E-02	-5.55284750351E-02	4.41483304133E-02	-5.54841115021E-02	4.42792382771E-02	4.99017121947E-03	1.38547921246E-01
1.71700000000E+09	-1.11028618100E-02	-9.41951900230E-02	-5.44902787185E-02	4.53385711640E-02	-5.44515261138E-02	4.54540619073E-02	8.00289679297E-03	1.41483165561E-01
1.71750000000E+09	-8.41660578438E-03	-9.47873306977E-02	-5.34161566206E-02	4.64968807031E-02	-5.33628534399E-02	4.66399253579E-02	1.11620754283E-02	1.44353961925E-01
1.71800000000E+09	-5.74941427772E-03	-9.55096661199E-02	-5.23222129040E-02	4.76528026688E-02	-5.22699741128E-02	4.77607024903E-02	1.43681320536E-02	1.47090718252E-01
1.71850000000E+09	-3.13666638864E-03	-9.63202962674E-02	-5.11974264094E-02	4.87518777092E-02	-5.11579230167E-02	4.88626212352E-02	1.76762557567E-02	1.49746791953E-01
1.71900000000E+09	-5.46329983637E-04	-9.72209557032E-02	-5.00647072990E-02	4.98396441091E-02	-5.00033473963E-02	4.99465720853E-02	2.11051591119E-02	1.52261010382E-01
1.71950000000E+09	1.98130331036E-03	-9.81956305110E-02	-4.88943486386E-02	5.08896604644E-02	-4.88464362080E-02	5.10077044556E-02	2.45638172887E-02	1.54670908224E-01
1.72000000000E+09	4.47808018677E-03	-9.92793797912E-02	-4.76954993893E-02	5.18919392556E-02	-4.76519050269E-02	5.19988277265E-02	2.81142366732E-02	1.56973977180E-01
1.72050000000E+09	6.89862036795E-03	-1.00428528770E-01	-4.64863871433E-02	5.28882549290E-02	-4.64403593953E-02	5.30072613797E-02	3.17624626311E-02	1.59175952400E-01
1.72100000000E+09	9.29426797106E-03	-1.01703246825E-01	-4.52707462504E-02	5.38290227435E-02	-4.52108101459E-02	5.39465108422E-02	3.54542686553E-02	1.61266220489E-01
1.72150000000E+09	1.16164736591E-02	-1.03024439012E-01	-4.40301613502E-02	5.47621213717E-02	-4.39572351073E-02	5.48740339160E-02	3.92313477119E-02	1.63219070281E-01
1.72200000000E+09	1.38869056567E-02	-1.04425554425E-01	-4.27836305095E-02	5.56500572356E-02	-4.27004380206E-02	5.57611385165E-02	4.31064800280E-02	1.65044511198E-01
1.72250000000E+09	1.60852073254E-02	-1.05905985848E-01	-4.14674995336E-02	5.65232407865E-02	-4.14095228174E-02	5.66186167951E-02	4.69667322956E-02	1.66786563619E-01
1.72300000000E+09	1.82165934414E-02	-1.07439077147E-01	-4.01847986900E-02	5.73380001314E-02	-4.01202920783E-02	5.74471201613E-02	5.08937936517E-02	1.68323458253E-01
1.72350000000E+09	2.02788184257E-02	-1.09048478921E-01	-3.88829938252E-02	5.81399748378E-02	-3.88237821373E-02	5.82343182275E-02	5.48960015172E-02	1.69771638847E-01
1.72400000000E+09	2.22887657260E-02	-1.10721157674E-01	-3.75689862462E-02	5.89035122479E-02	-3.75000899941E-02	5.89987992662E-02	5.89478646600E-02	1.71123730851E-01
1.72450000000E+09	2.42366090130E-02	-1.12469951386E-01	-3.62379574791E-02	5.96364417452E-02	-3.61665624038E-02	5.97306680109E-02	6.30204569662E-02	1.72314329002E-01
1.72500000000E+09	2.60969744949E-02	-1.14255322024E-01	-3.48900060900E-02	6.03360069663E-02	-3.48075409873E-02	6.04214835923E-02	6.71111453977E-02	1.73357973389E-01
1.72550000000E+09	2.78836750474E-02	-1.16067760431E-01	-3.35282700924E-02	6.09954698931E-02	-3.34491967125E-02	6.10832992438E-02	7.13040759177E-02	1.74260281964E-01
1.72600000000E+09	2.96067436738E-02	-1.17973453690E-01	-3.21648152233E-02	6.16285227823E-02	-3.20772065744E-02	6.17271433696E-02	7.54772596629E-02	1.75069226058E-01
1.72650000000E+09	3.12395265028E-02	-1.19907945546E-01	-3.07938594944E-02	6.22333372068E-02	-3.07071695056E-02	6.23359983385E-02	7.96807830594E-02	1.75724255028E-01
1.72700000000E+09	3.28430732496E-02	-1.21885646004E-01	-2.94264727204E-02	6.28032205401E-02	-2.93149139008E-02	6.28831859417E-02	8.38792969259E-02	1.76243984641E-01
1.72750000000E+09	3.43178059095E-02	-1.23919586500E-01	-2.80113761263E-02	6.33377649256E-02	-2.79328494198E-02	6.34126803722E-02	8.81297992829E-02	1.76648262712E-01
1.72800000000E+09	3.57327302383E-02	-1.25945867457E-01	-2.66220476327E-02	6.38286101215E-02	-2.65365947501E-02	6.39162544224E-02	9.23728973161E-02	1.76891938412E-01
1.72850000000E+09	3.70736290545E-02	-1.28055337699E-01	-2.52173210400E-02	6.42961766287E-02	-2.51425489579E-02	6.44068772459E-02	9.66264168117E-02	1.77027652710E-01
1.72900000000E+09	3.83520646962E-02	-1.30164697013E-01	-2.38163514312E-02	6.47439677637E-02	-2.37207299168E-02	6.48329017862E-02	1.00871809708E-01	1.77001851380E-01
1.72950000000E+09	3.95264860877E-02	-1.32309786216E-01	-2.23983944798E-02	6.51459848104E-02	-2.23061160115E-02	6.52260081696E-02	1.05139738926E-01	1.76871185902E-01
1.73000000000E+09	4.06369644429E-02	-1.34505792531E-01	-2.09874762133E-02	6.55180290655E-02	-2.09014121403E-02	6.56000055248E-02	1.09369287631E-01	1.76551853314E-01
1.73050000000E+09	4.16851776690E-02	-1.36680485171E-01	-1.95843151665E-02	6.58608624586E-02	-1.94790422034E-02	6.59482448317E-02	1.13613240032E-01	1.76148783479E-01
1.73100000000E+09	4.26193004100E-02	-1.38873805820E-01	-1.81552877686E-02	6.61821459352E-02	-1.80657834664E-02	6.62386578941E-02	1.17836493334E-01	1.75615101334E-01
1.73150000000E+09	4.34914164625E-02	-1.41113294104E-01	-1.67465267305E-02	6.64778205379E-02	-1.66407109393E-02	6.65395662190E-02	1.22052804106E-01	1.74908381582E-01
1.73200000000E+09	4.43132723274E-02	-1.43362311582E-01	-1.53248603371E-02	6.67216818148E-02	-1.52301958715E-02	6.68006754957E-02	1.26228394928E-01	1.74070484473E-01
1.73250000000E+09	4.50325828747E-02	-1.45594001152E-01	-1.39088152178E-02	6.69593123862E-02	-1.38039084173E-02	6.70041180235E-02	1.30371735416E-01	1.73123696533E-01
1.73300000000E+09	4.56569055136E-02	-1.47842717063E-01	-1.24768513270E-02	6.71379540970E-02	-1.23669615090E-02	6.72005431356E-02	1.34495736033E-01	1.72092438211E-01
1.73350000000E+09	4.62354885250E-02	-1.50123100333E-01	-1.10612319633E-02	6.73134943890E-02	-1.09561884125E-02	6.73571166269E-02	1.38589195015E-01	1.70866203167E-01
1.73400000000E+09	4.67457396092E-02	-1.52381266642E-01	-9.64279521055E-03	6.74272488816E-02	-9.54632680625E-03	6.74829697226E-02	1.42631374833E-01	1.69523070781E-01
1.73450000000E+09	4.71723656886E-02	-1.54651531032E-01	-8.22677688490E-03	6.75444258284E-02	-8.12585405391E-03	6.75925510760E-02	1.46650404698E-01	1.68056994905E-01
1.73500000000E+09	4.74991385016E-02	-1.56921364043E-01	-6.81622878639E-03	6.76106206694E-02	-6.71865841943E-03	6.76674229049E-02	1.50573411669E-01	1.66475558153E-01
1.73550000000E+09	4.77925778338E-02	-1.59177084865E-01	-5.41274363535E-03	6.76575217529E-02	-5.29976050928E-03	6.77103437522E-02	1.54502317509E-01	1.64729047774E-01
1.73600000000E+09	4.79884242529E-02	-1.61430836022E-01	-3.99254713460E-03	6.76827613654E-02	-3.89573187938E-03	6.76980006356E-02	1.58341164355E-01	1.62914679889E-01
1.73650000000E+09	4.81204597730E-02	-1.63661547446E-01	-2.61770122950E-03	6.76511394309E-02	-2.50214024280E-03	6.77000031839E-02	1.62114592617E-01	1.60982281081E-01
1.73700000000E+09	4.82200023600E-02	-1.65917500161E-01	-1.21964175363E-03	6.76258447745E-02	-1.11965345238E-03	6.76617251811E-02	1.65859713568E-01	1.58916435660E-01
1.73750000000E+09	4.82025335740E-02	-1.68140635678E-01	1.77913285002E-04	6.75772667952E-02	2.75399885358E-04	6.76015250701E-02	1.69496169725E-01	1.56725532814E-01
1.73800000000E+09	4.81032680718E-02	-1.70363016863E-01	1.54884782939E-03	6.74811627128E-02	1.66303605351E-03	6.75042600160E-02	1.73086378604E-01	1.54400079424E-01
1.73850000000E+09	4.79708511750E-02	-1.72548067998E-01	2.92765867073E-03	6.73520885847E-02	3.05480211445E-03	6.74009460154E-02	1.76626905077E-01	1.52036886713E-01
1.73900000000E+09	4.77565627139E-02	-1.74742679313E-01	4.30208976896E-03	6.72161117498E-02	4.40840945908E-03	6.72518437662E-02	1.80059588962E-01	1.49504565526E-01
1.73950000000E+09	4.75087407902E-02	-1.76889435674E-01	5.66493256371E-03	6.70383397232E-02	5.77332167934E-03	6.70781747186E-02	1.83441450428E-01	1.46879486716E-01
1.74000000000E+09	4.71544736269E-02	-1.79081736921E-01	7.01347566154E-03	6.68455203714E-02	7.12692615258E-03	6.68739349573E-02	1.86716756360E-01	1.44155508768E-01
1.74050000000E+09	4.67286868245E-02	-1.81176910242E-01	8.38396547185E-03	6.66252394171E-02	8.48648353564E-03	6.66564982314E-02	1.89909164864E-01	1.41318737538E-01
1.74100000000E+09	4.62692526292E-02	-1.83300284593E-01	9.72139989818E-03	6.63833901925E-02	9.84057605513E-03	6.64082606941E-02	1.93011872319E-01	1.38404220682E-01
1.74150000000E+09	4.57018615428E-02	-1.85375042936E-01	1.10580445968E-02	6.61101215528E-02	1.11539738152E-02	6.61366115870E-02	1.96000294842E-01	1.35368012311E-01
1.74200000000E+09	4.51285229903E-02	-1.87425633794E-01	1.23837904710E-02	6.58185567786E-02	1.24936440863E-02	6.58414599677E-02	1.98944271040E-01	1.32261733403E-01
1.74250000000E+09	4.44402805740E-02	-1.89442010661E-01	1.36726573393E-02	6.55129146829E-02	1.38059519006E-02	6.55193476225E-02	2.01805370602E-01	1.29073146273E-01
1.74300000000E+09	4.37185903806E-02	-1.91470886337E-01	1.50015068351E-02	6.51652174046E-02	1.51051721589E-02	6.51838393284E-02	2.04521484190E-01	1.25758071245E-01
1.74350000000E+09	4.28954913109E-02	-1.93422321145E-01	1.62945740406E-02	6.48060261013E-02	1.63846269932E-02	6.48131617617E-02	2.07132390820E-01	1.22402789038E-01
1.74400000000E+09	4.20775106184E-02	-1.95341491073E-01	1.75603632535E-02	6.44089590149E-02	1.76767424063E-02	6.44167688235E-02	2.09622793806E-01	1.18938389651E-01
1.74450000000E+09	4.11576002326E-02	-1.97265591638E-01	1.88448276014E-02	6.40047421863E-02	1.89522238459E-02	6.40067042753E-02	2.12076998925E-01	1.15422345704E-01
1.74500000000E+09	4.01942230933E-02	-1.99112049328E-01	2.01034866149E-02	6.35690572660E-02	2.02155792049E-02	6.35903460275E-02	2.14384022992E-01	1.11845412127E-01
1.74550000000E+09	3.91405051711E-02	-2.00928609004E-01	2.13569066769E-02	6.31183800717E-02	2.14629653293E-02	6.31275151364E-02	2.16568630748E-01	1.08180014466E-01
1.74600000000E+09	3.80634760167E-02	-2.02736515814E-01	2.26041740587E-02	6.26396278174E-02	2.27143969634E-02	6.26512692598E-02	2.18678753382E-01	1.04415807765E-01
1.74650000000E+09	3.68959921031E-02	-2.04477878623E-01	2.38394613449E-02	6.21582129882E-02	2.39308535596E-02	6.21483517558E-02	2.20612393112E-01	1.00626808700E-01
1.74700000000E+09	3.56769791680E-02	-2.06186362075E-01	2.50595374211E-02	6.16188540756E-02	2.51521589535E-02	6.16407192787E-02	2.22443834616E-01	9.67642482433E-02
1.74750000000E+09	3.44351845977E-02	-2.07826107200E-01	2.62638823073E-02	6.10848049878E-02	2.63822449174E-02	6.10935546091E-02	2.24202062031E-01	9.28738462572E-02
1.74800000000E+09	3.31098055704E-02	-2.09444539646E-01	2.74645038274E-02	6.05305477248E-02	2.75662642984E-02	6.05305794898E-02	2.25771945543E-01	8.88930068957E-02
1.74850000000E+09	3.17133618060E-02	-2.11003974266E-01	2.86465530150E-02	5.99549759346E-02	2.87592431960E-02	5.99416974309E-02	2.27284856058E-01	8.48751668740E-02
1.74900000000E+09	3.02971522000E-02	-2.12498848852E-01	2.98231858265E-02	5.93601522327E-02	2.99320779790E-02	5.93522834429E-02	2.28646025330E-01	8.08232787514E-02
1.74950000000E+09	2.87785213317E-02	-2.13954733696E-01	3.09920928854E-02	5.87606337709E-02	3.11016349336E-02	5.87202934989E-02	2.29878303292E-01	7.67270370151E-02
1.75000000000E+09	2.72398208753E-02	-2.15372907741E-01	3.21438726112E-02	5.80926825061E-02	3.22344842504E-02	5.80828708147E-02	2.30999883816E-01	7.25830597273E-02
1.75050000000E+09	2.56465973464E-02	-2.16682898446E-01	3.32700805968E-02	5.74278724739E-02	3.33811947258E-02	5.74208583090E-02	2.31989320424E-01	6.84399870395E-02
1.75100000000E+09	2.40357735711E-02	-2.17961635834E-01	3.43908953626E-02	5.67782068897E-02	3.45130196587E-02	5.67584730993E-02	2.32837675782E-01	6.42245071073E-02
1.75150000000E+09	2.23150099695E-02	-2.19196843817E-01	3.55145206073E-02	5.60772767187E-02	3.56194116762E-02	5.60553891150E-02	2.33583957941E-01	6.00491231071E-02
1.75200000000E+09	2.05447095596E-02	-2.20300709893E-01	3.66109248278E-02	5.53437275135E-02	3.67255746639E-02	5.53384544296E-02	2.34163448050E-01	5.57758702965E-02
1.75250000000E+09	1.87838369330E-02	-2.21383535858E-01	3.76920581224E-02	5.46257025926E-02	3.78143217056E-02	5.46145353012E-02	2.34659746510E-01	5.15044435325E-02
1.75300000000E+09	1.69469722314E-02	-2.22376408013E-01	3.87697246800E-02	5.38869935689E-02	3.88724290945E-02	5.38661724440E-02	2.34975073931E-01	4.72633888636E-02
1.75350000000E+09	1.50995020413E-02	-2.23286782247E-01	3.98208368346E-02	5.31137643298E-02	3.99303020202E-02	5.30887462152E-02	2.35165988556E-01	4.29635498217E-02
1.75400000000E+09	1.31646613185E-02	-2.24111751374E-01	4.08696878548E-02	5.23101518806E-02	4.09853122330E-02	5.22931786989E-02	2.35226699845E-01	3.86594231442E-02
1.75450000000E+09	1.12439640213E-02	-2.24844155761E-01	4.19080741975E-02	5.15141029079E-02	4.20206533229E-02	5.15012865947E-02	2.35213578533E-01	3.43653508594E-02
1.75500000000E+09	9.24722971869E-03	-2.25529151310E-01	4.29367007971E-02	5.06882751346E-02	4.30400250345E-02	5.06746421430E-02	2.35040448872E-01	3.00802116418E-02
1.75550000000E+09	7.24092864580E-03	-2.26114966455E-01	4.39366051058E-02	4.98430939615E-02	4.40402536965E-02	4.98288709054E-02	2.34687342264E-01	2.58027839668E-02
1.75600000000E+09	5.23514238657E-03	-2.26631073353E-01	4.49270941548E-02	4.89923678229E-02	4.50339434979E-02	4.89683921018E-02	2.34277740032E-01	2.15192216209E-02
1.75650000000E+09	3.17890812499E-03	-2.27013037434E-01	4.59066044120E-02	4.81214835606E-02	4.60135934536E-02	4.80793815368E-02	2.33700273717E-01	1.72746673506E-02
1.75700000000E+09	1.12346314483E-03	-2.27333285825E-01	4.68777227567E-02	4.72354529559E-02	4.69888893844E-02	4.71924537486E-02	2.32984459283E-01	1.30643979777E-02
1.75750000000E+09	-9.27627056041E-04	-2.27576079531E-01	4.78263171999E-02	4.63248337566E-02	4.79241984591E-02	4.62832979499E-02	2.32158260832E-01	8.83011604472E-03
1.75800000000E+09	-3.03974830903E-03	-2.27650993786E-01	4.87716717923E-02	4.54074946915E-02	4.88706723990E-02	4.53722128138E-02	2.31169378885E-01	4.63249801690E-03
1.75850000000E+09	-5.13095679880E-03	-2.27693943185E-01	4.96882268822E-02	4.44417040394E-02	4.97835957158E-02	4.44066268998E-02	2.30072858800E-01	4.96201046628E-04
1.75900000000E+09	-7.22025927115E-03	-2.27629237212E-01	5.05895688626E-02	4.34985886017E-02	5.07123034187E-02	4.34538603841E-02	2.28857189384E-01	-3.62663982822E-03
