# Hz S RI R 50
! CMT, CMT808U, 21440046, 21.4.3/4
! Date: 11/12/2025 10:23:16 AM
! Data: Format (Calibration Info)
! Freq	S11:Re/Im(F2)	S41:Re/Im(F2)	S14:Re/Im(F2)	S44:Re/Im(F2)
1.60000000000E+09	-2.84033009783E-01	-2.34547057158E-01	-9.06600552616E-03	6.03240846072E-02	-9.78112435132E-03	5.98871137575E-02	-1.24502296834E-01	-4.98534351257E-03
1.60100000000E+09	-2.79247660989E-01	-2.33214267625E-01	-6.34035113609E-03	6.07613604037E-02	-7.07863821210E-03	6.03563532153E-02	-1.27626821016E-01	6.23339962960E-03
1.60200000000E+09	-2.74657053591E-01	-2.32412058907E-01	-3.59726551792E-03	6.10595391753E-02	-4.35127690938E-03	6.06835720686E-02	-1.29981610613E-01	1.76356233793E-02
1.60300000000E+09	-2.70307613458E-01	-2.32110262716E-01	-8.39448773628E-04	6.12140570064E-02	-1.61414856804E-03	6.08702750217E-02	-1.31569250092E-01	2.91538114777E-02
1.60400000000E+09	-2.66288184367E-01	-2.32289976094E-01	1.91722275953E-03	6.12209259398E-02	1.13003112082E-03	6.09122024385E-02	-1.32370633206E-01	4.07471272782E-02
1.60500000000E+09	-2.62672132037E-01	-2.32892805539E-01	4.66377608892E-03	6.10869995151E-02	3.86062781121E-03	6.08157370460E-02	-1.32393822749E-01	5.23534424593E-02
1.60600000000E+09	-2.59509348574E-01	-2.33862782899E-01	7.38885560816E-03	6.08131711969E-02	6.57635331503E-03	6.05768410580E-02	-1.31638535205E-01	6.39200479375E-02
1.60700000000E+09	-2.56858358385E-01	-2.35141619709E-01	1.00820583758E-02	6.04003150174E-02	9.26080060100E-03	6.01994762740E-02	-1.30114846524E-01	7.53988036560E-02
1.60800000000E+09	-2.54768336934E-01	-2.36635353304E-01	1.27347791050E-02	5.98572773609E-02	1.19123937525E-02	5.96973452053E-02	-1.27833603328E-01	8.67345660859E-02
1.60900000000E+09	-2.53256353052E-01	-2.38267896225E-01	1.53395908571E-02	5.91892720159E-02	1.45111142695E-02	5.90626823548E-02	-1.24800457314E-01	9.78807082466E-02
1.61000000000E+09	-2.52346346425E-01	-2.39945561339E-01	1.78895566077E-02	5.84049511754E-02	1.70570297049E-02	5.83153199968E-02	-1.21037255443E-01	1.08779154660E-01
1.61100000000E+09	-2.52034463157E-01	-2.41576360024E-01	2.03801361618E-02	5.75100303608E-02	1.95444979672E-02	5.74567932150E-02	-1.16564959530E-01	1.19392547674E-01
1.61200000000E+09	-2.52289292915E-01	-2.43077574410E-01	2.28022088439E-02	5.65148464503E-02	2.19710216040E-02	5.64942124121E-02	-1.11406677218E-01	1.29677342003E-01
1.61300000000E+09	-2.53100354325E-01	-2.44355784553E-01	2.51587723923E-02	5.54245766537E-02	2.43283888460E-02	5.54334801083E-02	-1.05584583450E-01	1.39572169924E-01
1.61400000000E+09	-2.54402536198E-01	-2.45335534010E-01	2.74442156120E-02	5.42390643548E-02	2.66176985211E-02	5.42880989816E-02	-9.91300876949E-02	1.49055683615E-01
1.61500000000E+09	-2.56143108690E-01	-2.45956477066E-01	2.96568856379E-02	5.29841664035E-02	2.88357619611E-02	5.30567740687E-02	-9.20673461148E-02	1.58081024648E-01
1.61600000000E+09	-2.58269279519E-01	-2.46169146313E-01	3.18015119324E-02	5.16460354270E-02	3.09856307791E-02	5.17546120807E-02	-8.44406064903E-02	1.66598904807E-01
1.61700000000E+09	-2.60692299093E-01	-2.45913679698E-01	3.38761829579E-02	5.02408989429E-02	3.30639601012E-02	5.03824186135E-02	-7.62706968075E-02	1.74596343179E-01
1.61800000000E+09	-2.63352086412E-01	-2.45186458271E-01	3.58830579248E-02	4.87741793136E-02	3.50788672009E-02	4.89426815001E-02	-6.76074498312E-02	1.82029410306E-01
1.61900000000E+09	-2.66166060339E-01	-2.43949935847E-01	3.78204855955E-02	4.72429304110E-02	3.70222881331E-02	4.74404203299E-02	-5.84877485574E-02	1.88853693691E-01
1.62000000000E+09	-2.69064829691E-01	-2.42204014112E-01	3.96959698340E-02	4.56537665950E-02	3.89043628052E-02	4.58796868019E-02	-4.89430143909E-02	1.95070597515E-01
1.62100000000E+09	-2.71981442526E-01	-2.39971614856E-01	4.15040558342E-02	4.40094183823E-02	4.07240532537E-02	4.42650775146E-02	-3.90249636659E-02	2.00641318343E-01
1.62200000000E+09	-2.74850118805E-01	-2.37252155860E-01	4.32506557482E-02	4.23078918432E-02	4.24781228645E-02	4.25925489628E-02	-2.87697936284E-02	2.05539957429E-01
1.62300000000E+09	-2.77620855402E-01	-2.34082882207E-01	4.49367276743E-02	4.05528563977E-02	4.41733868234E-02	4.08664515964E-02	-1.82316154145E-02	2.09753228985E-01
1.62400000000E+09	-2.80237101752E-01	-2.30469509308E-01	4.65623918199E-02	3.87463158903E-02	4.58098637181E-02	3.90854429288E-02	-7.44053201247E-03	2.13265439694E-01
1.62500000000E+09	-2.82661300192E-01	-2.26463684227E-01	4.81262988542E-02	3.68783534248E-02	4.73796310419E-02	3.72515258672E-02	3.53927813766E-03	2.16059883955E-01
1.62600000000E+09	-2.84840734270E-01	-2.22096061097E-01	4.96245429549E-02	3.49596778312E-02	4.88919297447E-02	3.53613701661E-02	1.46738657112E-02	2.18127429139E-01
1.62700000000E+09	-2.86761351587E-01	-2.17391379329E-01	5.10635938555E-02	3.29888574690E-02	5.03406108979E-02	3.34206836592E-02	2.59107117569E-02	2.19467911851E-01
1.62800000000E+09	-2.88385473536E-01	-2.12404442027E-01	5.24362902509E-02	3.09661743034E-02	5.17258569323E-02	3.14228630282E-02	3.72067723397E-02	2.20062242140E-01
1.62900000000E+09	-2.89698653183E-01	-2.07157153766E-01	5.37431281941E-02	2.88799038162E-02	5.30452907309E-02	2.93694805691E-02	4.85056169415E-02	2.19933780483E-01
1.63000000000E+09	-2.90685796761E-01	-2.01686758225E-01	5.49782706402E-02	2.67409272901E-02	5.42946969342E-02	2.72654803986E-02	5.97693839965E-02	2.19068090935E-01
1.63100000000E+09	-2.91342185021E-01	-1.96047019928E-01	5.61438773624E-02	2.45546878899E-02	5.54792018708E-02	2.51049325931E-02	7.09456869759E-02	2.17463930565E-01
1.63200000000E+09	-2.91647662253E-01	-1.90257571195E-01	5.72331699328E-02	2.23084297717E-02	5.65876647512E-02	2.28910311661E-02	8.19991534487E-02	2.15150236414E-01
1.63300000000E+09	-2.91606696927E-01	-1.84355651975E-01	5.82425894828E-02	2.00116977658E-02	5.76177818525E-02	2.06251228855E-02	9.28628910132E-02	2.12124956982E-01
1.63400000000E+09	-2.91213754057E-01	-1.78360042106E-01	5.91754998188E-02	1.76643621325E-02	5.85687362033E-02	1.83071906222E-02	1.03518403070E-01	2.08405537233E-01
1.63500000000E+09	-2.90478910999E-01	-1.72316282463E-01	6.00234369859E-02	1.52701125177E-02	5.94388820567E-02	1.59369060566E-02	1.13899694321E-01	2.03997176860E-01
1.63600000000E+09	-2.89390549984E-01	-1.66242313184E-01	6.07766676728E-02	1.28214120597E-02	6.02170859177E-02	1.35241540783E-02	1.23976701039E-01	1.98935637734E-01
1.63700000000E+09	-2.87960048077E-01	-1.60168132527E-01	6.14433602969E-02	1.03344475625E-02	6.09093450634E-02	1.10647924045E-02	1.33703185577E-01	1.93239426179E-01
1.63800000000E+09	-2.86185217975E-01	-1.54125466154E-01	6.20115275286E-02	7.80263462626E-03	6.15047688383E-02	8.56319774087E-03	1.43050271949E-01	1.86921215476E-01
1.63900000000E+09	-2.84078864959E-01	-1.48121525223E-01	6.24809790244E-02	5.23367658273E-03	6.20050099308E-02	6.01948849642E-03	1.51964293953E-01	1.80017750317E-01
1.64000000000E+09	-2.81648370743E-01	-1.42190445766E-01	6.28498320783E-02	2.62398697170E-03	6.24002771740E-02	3.43821010683E-03	1.60412556817E-01	1.72560794097E-01
1.64100000000E+09	-2.78905503292E-01	-1.36353859391E-01	6.31141709475E-02	-1.13856014622E-05	6.26980139232E-02	8.27080914144E-04	1.68383604447E-01	1.64564941438E-01
1.64200000000E+09	-2.75846908819E-01	-1.30614790776E-01	6.32652746585E-02	-2.68103230790E-03	6.28851501229E-02	-1.81669902538E-03	1.75819677577E-01	1.56082518125E-01
1.64300000000E+09	-2.72488484725E-01	-1.25011899980E-01	6.33037309315E-02	-5.37084057580E-03	6.29623732326E-02	-4.48012425682E-03	1.82698261100E-01	1.47139191259E-01
1.64400000000E+09	-2.68840077100E-01	-1.19548879602E-01	6.32278418080E-02	-8.07940889340E-03	6.29269959295E-02	-7.16651681295E-03	1.88989293138E-01	1.37769825744E-01
1.64500000000E+09	-2.64904116902E-01	-1.14251637934E-01	6.30378134730E-02	-1.07967655465E-02	6.27764730095E-02	-9.86975263158E-03	1.94674750753E-01	1.28013230554E-01
1.64600000000E+09	-2.60698140907E-01	-1.09133130933E-01	6.27284309177E-02	-1.35259281869E-02	6.25038192019E-02	-1.25775352116E-02	1.99728400594E-01	1.17914622180E-01
1.64700000000E+09	-2.56220649501E-01	-1.04213917993E-01	6.22936342308E-02	-1.62605916632E-02	6.21182323302E-02	-1.52923214354E-02	2.04129845122E-01	1.07507949973E-01
1.64800000000E+09	-2.51487307928E-01	-9.95049679892E-02	6.17366159900E-02	-1.89864700266E-02	6.16066265270E-02	-1.80091618842E-02	2.07858001769E-01	9.68409963139E-02
1.64900000000E+09	-2.46517243616E-01	-9.50356086625E-02	6.10546457216E-02	-2.17073313791E-02	6.09685038104E-02	-2.07122003299E-02	2.10896214259E-01	8.59513494058E-02
1.65000000000E+09	-2.41319826570E-01	-9.08019618643E-02	6.02468529127E-02	-2.44110699359E-02	6.02096355172E-02	-2.34072738392E-02	2.13241811261E-01	7.48865574493E-02
1.65100000000E+09	-2.35899424082E-01	-8.68403723923E-02	5.93122103116E-02	-2.70935578406E-02	5.93202779153E-02	-2.60824073756E-02	2.14874155176E-01	6.36974997997E-02
1.65200000000E+09	-2.30276615286E-01	-8.31597996030E-02	5.82487433557E-02	-2.97453709318E-02	5.83081163192E-02	-2.87304545178E-02	2.15786055328E-01	5.24051547851E-02
1.65300000000E+09	-2.24460926914E-01	-7.97705407351E-02	5.70604073449E-02	-3.23656393182E-02	5.71721452600E-02	-3.13481915059E-02	2.15980644521E-01	4.10847925637E-02
1.65400000000E+09	-2.18484664050E-01	-7.66865034928E-02	5.57466991175E-02	-3.49403535868E-02	5.59054618793E-02	-3.39282575970E-02	2.15453287334E-01	2.97651910928E-02
1.65500000000E+09	-2.12343401065E-01	-7.39361352053E-02	5.43034016734E-02	-3.74648875189E-02	5.45144267056E-02	-3.64545214974E-02	2.14195288093E-01	1.85024027115E-02
1.65600000000E+09	-2.06070146239E-01	-7.15226566930E-02	5.27334880319E-02	-3.99334965237E-02	5.29963277889E-02	-3.89323134461E-02	2.12228614705E-01	7.33448049631E-03
1.65700000000E+09	-1.99681129058E-01	-6.94574420983E-02	5.10445868612E-02	-4.23398621069E-02	5.13547069737E-02	-4.13477303446E-02	2.09546845273E-01	-3.68321355444E-03
1.65800000000E+09	-1.93193986404E-01	-6.77620315828E-02	4.92334572786E-02	-4.46739119380E-02	4.95947247432E-02	-4.36950426500E-02	2.06163145561E-01	-1.45086466047E-02
1.65900000000E+09	-1.86624974514E-01	-6.64507360303E-02	4.73053161600E-02	-4.69308875476E-02	4.77133669023E-02	-4.59715348285E-02	2.02092650655E-01	-2.51058297863E-02
1.66000000000E+09	-1.80008480425E-01	-6.55324722460E-02	4.52608842663E-02	-4.91041003940E-02	4.57196804976E-02	-4.81617977336E-02	1.97344807027E-01	-3.54194369370E-02
1.66100000000E+09	-1.73383153835E-01	-6.50229330545E-02	4.31061961296E-02	-5.11864037948E-02	4.36111286979E-02	-5.02649368975E-02	1.91947685748E-01	-4.54113059538E-02
1.66200000000E+09	-1.66762877152E-01	-6.49333830032E-02	4.08427001670E-02	-5.31660263923E-02	4.13937471591E-02	-5.22686867309E-02	1.85911834466E-01	-5.50316708808E-02
1.66300000000E+09	-1.60189476251E-01	-6.52641340070E-02	3.84831262952E-02	-5.50372865742E-02	3.90747696266E-02	-5.41705565528E-02	1.79267758559E-01	-6.42479586668E-02
1.66400000000E+09	-1.53690196983E-01	-6.60240583392E-02	3.60196568710E-02	-5.68000223996E-02	3.66546695051E-02	-5.59619237492E-02	1.72048205117E-01	-7.30240362236E-02
1.66500000000E+09	-1.47300965353E-01	-6.72181366952E-02	3.34689948634E-02	-5.84454779557E-02	3.41434632368E-02	-5.76318380602E-02	1.64265497568E-01	-8.13004001113E-02
1.66600000000E+09	-1.41069722595E-01	-6.88323051090E-02	3.08353129069E-02	-5.99624394372E-02	3.15490529315E-02	-5.91850017601E-02	1.55960017712E-01	-8.90678071356E-02
1.66700000000E+09	-1.35032797795E-01	-7.08887832747E-02	2.81225677283E-02	-6.13481026024E-02	2.88725131689E-02	-6.06054585159E-02	1.47168428538E-01	-9.62825117732E-02
1.66800000000E+09	-1.29224800038E-01	-7.33494001279E-02	2.53435576643E-02	-6.26017387021E-02	2.61307804670E-02	-6.18948079493E-02	1.37926213456E-01	-1.02902284198E-01
1.66900000000E+09	-1.23685349385E-01	-7.62198937419E-02	2.25039918047E-02	-6.37153125839E-02	2.33187439067E-02	-6.30465789472E-02	1.28271044378E-01	-1.08911786083E-01
1.67000000000E+09	-1.18477430280E-01	-7.94792009359E-02	1.96121853762E-02	-6.46845436321E-02	2.04542725831E-02	-6.40547108135E-02	1.18241276145E-01	-1.14271872097E-01
1.67100000000E+09	-1.13627075360E-01	-8.31080927365E-02	1.66750261862E-02	-6.55035440656E-02	1.75490907054E-02	-6.49182159452E-02	1.07886786663E-01	-1.18968979599E-01
1.67200000000E+09	-1.09178858299E-01	-8.70652807021E-02	1.37066720438E-02	-6.61781580943E-02	1.46057221660E-02	-6.56322019056E-02	9.72339734739E-02	-1.22972172870E-01
1.67300000000E+09	-1.05183619972E-01	-9.13306710986E-02	1.07186948845E-02	-6.67038176315E-02	1.16383481482E-02	-6.61968164632E-02	8.63459624077E-02	-1.26266672077E-01
1.67400000000E+09	-1.01666796800E-01	-9.58589886872E-02	7.71278275674E-03	-6.70754728158E-02	8.65130926628E-03	-6.66144844990E-02	7.52646941620E-02	-1.28841005309E-01
1.67500000000E+09	-9.86788426276E-02	-1.00594778271E-01	4.70332899379E-03	-6.72970225243E-02	5.66246250675E-03	-6.68791980303E-02	6.40372521220E-02	-1.30674966804E-01
1.67600000000E+09	-9.62434016457E-02	-1.05491183643E-01	1.69910898028E-03	-6.73710676440E-02	2.67564587566E-03	-6.69968081280E-02	5.27092087961E-02	-1.31760666083E-01
1.67700000000E+09	-9.43906850905E-02	-1.10486769229E-01	-1.29183383876E-03	-6.72973513311E-02	-2.98888662890E-04	-6.69709603584E-02	4.13350463284E-02	-1.32088566112E-01
1.67800000000E+09	-9.31388337536E-02	-1.15510188156E-01	-4.25236626112E-03	-6.70824501663E-02	-3.25134312045E-03	-6.67994775603E-02	2.99601185130E-02	-1.31667593105E-01
1.67900000000E+09	-9.24982444114E-02	-1.20493233711E-01	-7.18661733970E-03	-6.67255964327E-02	-6.17300406510E-03	-6.64888482363E-02	1.86409216635E-02	-1.30484469474E-01
1.68000000000E+09	-9.24725216866E-02	-1.25360577693E-01	-1.00778961444E-02	-6.62378261389E-02	-9.05641249024E-03	-6.60451601955E-02	7.42130933229E-03	-1.28552574677E-01
1.68100000000E+09	-9.30523696378E-02	-1.30027744114E-01	-1.29225296558E-02	-6.56225915409E-02	-1.18937075676E-02	-6.54719750527E-02	-3.63796058717E-03	-1.25870007329E-01
1.68200000000E+09	-9.42059955435E-02	-1.34421215387E-01	-1.57142559186E-02	-6.48808563122E-02	-1.46791337609E-02	-6.47810103464E-02	-1.45047375893E-02	-1.22456061811E-01
1.68300000000E+09	-9.59105769402E-02	-1.38466685327E-01	-1.84471130308E-02	-6.40318925392E-02	-1.74075334015E-02	-6.39706682660E-02	-2.51101484966E-02	-1.18315769382E-01
1.68400000000E+09	-9.81176595521E-02	-1.42092755342E-01	-2.11137080747E-02	-6.30629276730E-02	-2.00765833384E-02	-6.30565593122E-02	-3.54175007532E-02	-1.13478064325E-01
1.68500000000E+09	-1.00768111394E-01	-1.45229690661E-01	-2.37154064360E-02	-6.20005530055E-02	-2.26790134641E-02	-6.20372594944E-02	-4.53791402180E-02	-1.07953553137E-01
1.68600000000E+09	-1.03789973797E-01	-1.47817544534E-01	-2.62508755889E-02	-6.08426780000E-02	-2.52186693991E-02	-6.09222400313E-02	-5.49488996583E-02	-1.01768488829E-01
1.68700000000E+09	-1.07126314117E-01	-1.49817408008E-01	-2.87177036673E-02	-5.95966318959E-02	-2.76869006362E-02	-5.97227125747E-02	-6.40773426852E-02	-9.49547654997E-02
1.68800000000E+09	-1.10679208547E-01	-1.51179414068E-01	-3.11143807375E-02	-5.82682259328E-02	-3.00948996536E-02	-5.84389182530E-02	-7.27253981142E-02	-8.75364446419E-02
1.68900000000E+09	-1.14366714883E-01	-1.51879231214E-01	-3.34395721763E-02	-5.68605305853E-02	-3.24319081962E-02	-5.70778722124E-02	-8.08555895655E-02	-7.95528065374E-02
1.69000000000E+09	-1.18092403718E-01	-1.51910388289E-01	-3.57029764187E-02	-5.53845410169E-02	-3.47022085147E-02	-5.56415877828E-02	-8.84303467296E-02	-7.10410069853E-02
1.69100000000E+09	-1.21764262428E-01	-1.51267562831E-01	-3.78990017256E-02	-5.38385474038E-02	-3.69137951306E-02	-5.41355117678E-02	-9.54058142164E-02	-6.20321918830E-02
1.69200000000E+09	-1.25283213295E-01	-1.49972623478E-01	-4.00316307273E-02	-5.22216052679E-02	-3.90614519137E-02	-5.25641616070E-02	-1.01763429511E-01	-5.25747123560E-02
1.69300000000E+09	-1.28562518783E-01	-1.48056295385E-01	-4.21024735500E-02	-5.05436819107E-02	-4.11482542924E-02	-5.09242037540E-02	-1.07457242021E-01	-4.27135463229E-02
1.69400000000E+09	-1.31522875754E-01	-1.45565967728E-01	-4.41147263387E-02	-4.88035090719E-02	-4.31796222460E-02	-4.92203079715E-02	-1.12481285081E-01	-3.24917066014E-02
1.69500000000E+09	-1.34088831670E-01	-1.42556901352E-01	-4.60670168548E-02	-4.69930214954E-02	-4.51525234879E-02	-4.74533019259E-02	-1.16793067669E-01	-2.19540918156E-02
1.69600000000E+09	-1.36207624128E-01	-1.39100804755E-01	-4.79637284053E-02	-4.51173967333E-02	-4.70667771699E-02	-4.56177194803E-02	-1.20396760801E-01	-1.11613944114E-02
1.69700000000E+09	-1.37825603463E-01	-1.35255461830E-01	-4.97998100454E-02	-4.31769694260E-02	-4.89287754886E-02	-4.37116096286E-02	-1.23254400119E-01	-1.56578157304E-04
1.69800000000E+09	-1.38907717098E-01	-1.31102930319E-01	-5.15753783202E-02	-4.11645151954E-02	-5.07264701161E-02	-4.17376703512E-02	-1.25365202316E-01	1.10151078064E-02
1.69900000000E+09	-1.39429393599E-01	-1.26719656634E-01	-5.32965705592E-02	-3.90791177939E-02	-5.24675767199E-02	-3.96882688517E-02	-1.26727303680E-01	2.22981523620E-02
1.70000000000E+09	-1.39370259778E-01	-1.22172940207E-01	-5.49434767080E-02	-3.69238892407E-02	-5.41421399912E-02	-3.75664950380E-02	-1.27337597325E-01	3.36340079033E-02
1.70100000000E+09	-1.38719420774E-01	-1.17544148806E-01	-5.65226068240E-02	-3.46932599647E-02	-5.57495858772E-02	-3.53665525995E-02	-1.27180047563E-01	4.49719839281E-02
1.70200000000E+09	-1.37494969861E-01	-1.12917480329E-01	-5.80268227421E-02	-3.23822399562E-02	-5.72850938060E-02	-3.30918914706E-02	-1.26275950352E-01	5.62693987794E-02
1.70300000000E+09	-1.35710608417E-01	-1.08347780988E-01	-5.94543209768E-02	-2.99996812365E-02	-5.87383429689E-02	-3.07410938591E-02	-1.24623413040E-01	6.74756455671E-02
1.70400000000E+09	-1.33379272881E-01	-1.03908243474E-01	-6.07957356718E-02	-2.75415894284E-02	-6.01115091820E-02	-2.83123093887E-02	-1.22243857617E-01	7.85255638580E-02
1.70500000000E+09	-1.30534400674E-01	-9.96548461464E-02	-6.20423467408E-02	-2.50091212193E-02	-6.13907322375E-02	-2.58064760021E-02	-1.19138609627E-01	8.93897971033E-02
1.70600000000E+09	-1.27221779228E-01	-9.56383010017E-02	-6.31857105580E-02	-2.24049043357E-02	-6.25698655907E-02	-2.32325684291E-02	-1.15331222029E-01	1.00011002554E-01
1.70700000000E+09	-1.23474231645E-01	-9.19021053527E-02	-6.42323854329E-02	-1.97332932386E-02	-6.36480364129E-02	-2.05900171292E-02	-1.10844344726E-01	1.10347783290E-01
1.70800000000E+09	-1.19329233653E-01	-8.84897316381E-02	-6.51636093725E-02	-1.69989437769E-02	-6.46176734490E-02	-1.78783798885E-02	-1.05702285813E-01	1.20361628046E-01
1.70900000000E+09	-1.14842202667E-01	-8.54225305052E-02	-6.59797448420E-02	-1.42016303604E-02	-6.54686681479E-02	-1.51091901771E-02	-9.99241515596E-02	1.30003108673E-01
1.71000000000E+09	-1.10043098320E-01	-8.27347345220E-02	-6.66669974882E-02	-1.13548364997E-02	-6.61974935703E-02	-1.22835783229E-02	-9.35490568195E-02	1.39240110616E-01
1.71100000000E+09	-1.04986868168E-01	-8.04421898612E-02	-6.72279827452E-02	-8.46115913373E-03	-6.67981661086E-02	-9.41255645727E-03	-8.65998753662E-02	1.48028056035E-01
1.71200000000E+09	-9.97124331380E-02	-7.85543667356E-02	-6.76593678492E-02	-5.52802887271E-03	-6.72706865927E-02	-6.49728457879E-03	-7.91011947946E-02	1.56344072178E-01
1.71300000000E+09	-9.42672019026E-02	-7.70914619041E-02	-6.79489421503E-02	-2.56354667716E-03	-6.76038234465E-02	-3.55148583948E-03	-7.11043799959E-02	1.64153680600E-01
1.71400000000E+09	-8.86826891292E-02	-7.60514752850E-02	-6.80982121396E-02	4.25639271320E-04	-6.77976602704E-02	-5.79063118576E-04	-6.26352910457E-02	1.71423240971E-01
1.71500000000E+09	-8.30156149980E-02	-7.54354364338E-02	-6.81087969428E-02	3.42829654141E-03	-6.78544043076E-02	2.41281738880E-03	-5.37351443318E-02	1.78122521337E-01
1.71600000000E+09	-7.72940551132E-02	-7.52497843344E-02	-6.79739184969E-02	6.44212947464E-03	-6.77653030266E-02	5.41070351346E-03	-4.44344308074E-02	1.84236592079E-01
1.71700000000E+09	-7.15581425139E-02	-7.54835234348E-02	-6.76966266338E-02	9.45016206040E-03	-6.75318911019E-02	8.41430149787E-03	-3.47818372898E-02	1.89739298295E-01
