# Hz S RI R 50
! CMT, CMT808U, 21440046, 21.4.3/4
! Date: 11/12/2025 3:06:49 PM
! Data: Format (Calibration Info)
! Freq	S11:Re/Im(F2)	S41:Re/Im(F2)	S14:Re/Im(F2)	S44:Re/Im(F2)
1.70000000000E+09	-1.41688105383E-01	-1.18130913892E-01	-5.81874747108E-02	-3.89186725057E-02	-5.81687268316E-02	-3.89312222478E-02	-9.46231613218E-02	2.67761187858E-02
1.70050000000E+09	-1.41035581223E-01	-1.15764673425E-01	-5.90158066481E-02	-3.77629907711E-02	-5.90030255308E-02	-3.77861347119E-02	-9.53227019365E-02	3.20779977342E-02
1.70100000000E+09	-1.40260099019E-01	-1.13400247854E-01	-5.98469282111E-02	-3.65857910408E-02	-5.98270714023E-02	-3.65889687385E-02	-9.58402866724E-02	3.73989789759E-02
1.70150000000E+09	-1.39309473417E-01	-1.11078129146E-01	-6.06753943442E-02	-3.53581448685E-02	-6.06508757561E-02	-3.53917294285E-02	-9.61960442262E-02	4.27083724595E-02
1.70200000000E+09	-1.38243589565E-01	-1.08789367584E-01	-6.14537653696E-02	-3.41508053988E-02	-6.14360793345E-02	-3.41760056535E-02	-9.63540551457E-02	4.80629791705E-02
1.70250000000E+09	-1.36977203512E-01	-1.06521376877E-01	-6.22056811478E-02	-3.28975064265E-02	-6.21900838858E-02	-3.29201030235E-02	-9.63344646137E-02	5.33762226597E-02
1.70300000000E+09	-1.35598136612E-01	-1.04299153956E-01	-6.29429806878E-02	-3.16342705955E-02	-6.29542635198E-02	-3.16382620348E-02	-9.61621910468E-02	5.86989352508E-02
1.70350000000E+09	-1.34099237996E-01	-1.02143686291E-01	-6.36749431263E-02	-3.03252872287E-02	-6.36576863351E-02	-3.03719956917E-02	-9.58093472983E-02	6.39854172317E-02
1.70400000000E+09	-1.32452617873E-01	-1.00081395140E-01	-6.43859959670E-02	-2.90295898544E-02	-6.43625236233E-02	-2.90509434134E-02	-9.52715091663E-02	6.92925152606E-02
1.70450000000E+09	-1.30666822194E-01	-9.80692760085E-02	-6.50503296635E-02	-2.77171170406E-02	-6.50520027172E-02	-2.77275241486E-02	-9.45793344459E-02	7.45576057614E-02
1.70500000000E+09	-1.28810948990E-01	-9.61385374468E-02	-6.57127709375E-02	-2.63364729202E-02	-6.56914773984E-02	-2.63613124537E-02	-9.37054207977E-02	7.98116677355E-02
1.70550000000E+09	-1.26796845038E-01	-9.42972538039E-02	-6.63294683043E-02	-2.49853472485E-02	-6.63193031210E-02	-2.50001517743E-02	-9.26561855210E-02	8.50014466572E-02
1.70600000000E+09	-1.24706888602E-01	-9.25549575490E-02	-6.69165818432E-02	-2.36054903127E-02	-6.69147542470E-02	-2.36115538902E-02	-9.14458489395E-02	9.01531936834E-02
1.70650000000E+09	-1.22490020034E-01	-9.08907190721E-02	-6.74775371117E-02	-2.21817194025E-02	-6.74784183346E-02	-2.22078825332E-02	-9.00629092300E-02	9.52796681150E-02
1.70700000000E+09	-1.20202285378E-01	-8.93301394183E-02	-6.80247977530E-02	-2.07498704203E-02	-6.80200234581E-02	-2.07798476002E-02	-8.85285192945E-02	1.00348175402E-01
1.70750000000E+09	-1.17813274237E-01	-8.78940498083E-02	-6.85358752379E-02	-1.93080492190E-02	-6.85261719423E-02	-1.93270966483E-02	-8.68398250386E-02	1.05323131372E-01
1.70800000000E+09	-1.15349634632E-01	-8.65440723260E-02	-6.90118101085E-02	-1.78543556415E-02	-6.90024452871E-02	-1.78734630354E-02	-8.49353274812E-02	1.10285010640E-01
1.70850000000E+09	-1.12808128619E-01	-8.53092807917E-02	-6.94576754695E-02	-1.63581870773E-02	-6.94433003451E-02	-1.63789107777E-02	-8.28944595008E-02	1.15158086290E-01
1.70900000000E+09	-1.10213278299E-01	-8.41760720238E-02	-6.98447821266E-02	-1.48836493906E-02	-6.98656305424E-02	-1.48990172967E-02	-8.07719151304E-02	1.19944582972E-01
1.70950000000E+09	-1.07588871506E-01	-8.31951222357E-02	-7.02528096630E-02	-1.33598178913E-02	-7.02400824913E-02	-1.33939944682E-02	-7.84397987355E-02	1.24668059462E-01
1.71000000000E+09	-1.04870753525E-01	-8.23227681689E-02	-7.05849390006E-02	-1.18447852807E-02	-7.05892323572E-02	-1.18748683781E-02	-7.59466003135E-02	1.29308960711E-01
1.71050000000E+09	-1.02118292917E-01	-8.15411919299E-02	-7.08891722549E-02	-1.03047584149E-02	-7.08975013428E-02	-1.03490256257E-02	-7.33652945142E-02	1.33872348642E-01
1.71100000000E+09	-9.93653857290E-02	-8.09037552257E-02	-7.11747902766E-02	-8.76311315305E-03	-7.11588327046E-02	-8.78895117624E-03	-7.05867970356E-02	1.38349406279E-01
1.71150000000E+09	-9.65500872816E-02	-8.03572869323E-02	-7.14189898155E-02	-7.21473324966E-03	-7.14006630578E-02	-7.23451271872E-03	-6.76786554872E-02	1.42735249889E-01
1.71200000000E+09	-9.37163334424E-02	-7.99337461004E-02	-7.16121570816E-02	-5.63897081907E-03	-7.16053976613E-02	-5.66287104673E-03	-6.46380413534E-02	1.46992509857E-01
1.71250000000E+09	-9.08750326588E-02	-7.96634168885E-02	-7.17700245318E-02	-4.06477131059E-03	-7.17537247120E-02	-4.09717506111E-03	-6.14721601262E-02	1.51150659009E-01
1.71300000000E+09	-8.80197285156E-02	-7.94844468397E-02	-7.18814100261E-02	-2.48407235366E-03	-7.18792125545E-02	-2.52467942668E-03	-5.81721080549E-02	1.55202681293E-01
1.71350000000E+09	-8.51664730572E-02	-7.94220304971E-02	-7.19845729411E-02	-9.00577831510E-04	-7.19620494848E-02	-9.30498661474E-04	-5.47961232984E-02	1.59166568127E-01
1.71400000000E+09	-8.22807246912E-02	-7.94813639379E-02	-7.20302358797E-02	6.72059000950E-04	-7.20277635990E-02	6.50657899872E-04	-5.12619508260E-02	1.63015113398E-01
1.71450000000E+09	-7.94371447189E-02	-7.96488049809E-02	-7.20413903156E-02	2.27872519391E-03	-7.20409615300E-02	2.25376470368E-03	-4.75592904127E-02	1.66713643115E-01
1.71500000000E+09	-7.65885249138E-02	-7.99233481169E-02	-7.20058652373E-02	3.87560411666E-03	-7.20018755930E-02	3.86313493539E-03	-4.37943573064E-02	1.70346064517E-01
1.71550000000E+09	-7.37675451905E-02	-8.03039987373E-02	-7.19249634702E-02	5.46904588668E-03	-7.19222322512E-02	5.44035913585E-03	-3.98998368376E-02	1.73793080276E-01
1.71600000000E+09	-7.09732608028E-02	-8.08104144478E-02	-7.18180500896E-02	7.06936964902E-03	-7.18207806949E-02	7.03784359361E-03	-3.59496770136E-02	1.77166833282E-01
1.71650000000E+09	-6.81674206012E-02	-8.14115410157E-02	-7.16803950142E-02	8.65847655322E-03	-7.16794796133E-02	8.63596551060E-03	-3.18486911893E-02	1.80360618986E-01
1.71700000000E+09	-6.54279566953E-02	-8.20939901058E-02	-7.14997135410E-02	1.02557530173E-02	-7.14931047777E-02	1.02340564596E-02	-2.76866008062E-02	1.83467866258E-01
1.71750000000E+09	-6.26960473938E-02	-8.28789549057E-02	-7.12621141424E-02	1.18420380549E-02	-7.12723689793E-02	1.18198713568E-02	-2.34072683077E-02	1.86399906881E-01
1.71800000000E+09	-6.00118611975E-02	-8.37765245845E-02	-7.10028704219E-02	1.34265247298E-02	-7.09946734939E-02	1.34098587981E-02	-1.90462031934E-02	1.89201891724E-01
1.71850000000E+09	-5.73828899787E-02	-8.47759909259E-02	-7.06898514758E-02	1.50176263445E-02	-7.07144127742E-02	1.49871186586E-02	-1.46363339034E-02	1.91901119249E-01
1.71900000000E+09	-5.47930976916E-02	-8.58370597667E-02	-7.03396421636E-02	1.65882415316E-02	-7.03661443018E-02	1.65517438214E-02	-1.00676855000E-02	1.94404730356E-01
1.71950000000E+09	-5.22345533452E-02	-8.70187182804E-02	-6.99757846540E-02	1.81282441838E-02	-6.99796062643E-02	1.81040062121E-02	-5.51652077430E-03	1.96792530251E-01
1.72000000000E+09	-4.97393443036E-02	-8.82661695252E-02	-6.95564712252E-02	1.96831577575E-02	-6.95684692121E-02	1.96551586436E-02	-8.52671513498E-04	1.99033454526E-01
1.72050000000E+09	-4.72996557242E-02	-8.95701137963E-02	-6.90989897485E-02	2.12384250674E-02	-6.91076815448E-02	2.11967850481E-02	3.87005206503E-03	2.01088249301E-01
1.72100000000E+09	-4.48916527843E-02	-9.10118113732E-02	-6.86128837376E-02	2.27596326511E-02	-6.86366784702E-02	2.27333776927E-02	8.63378604224E-03	2.03075256021E-01
1.72150000000E+09	-4.25689080882E-02	-9.24779794632E-02	-6.80888526755E-02	2.42681687342E-02	-6.80858413831E-02	2.42527762480E-02	1.35173904375E-02	2.04863851992E-01
1.72200000000E+09	-4.02923736429E-02	-9.40266001446E-02	-6.75103095888E-02	2.57705131598E-02	-6.75366757479E-02	2.57453809385E-02	1.84026221745E-02	2.06499140720E-01
1.72250000000E+09	-3.80760201546E-02	-9.56609676446E-02	-6.69194146402E-02	2.72571097462E-02	-6.69113307587E-02	2.72392696674E-02	2.33339237512E-02	2.08003591831E-01
1.72300000000E+09	-3.59480762906E-02	-9.73499277078E-02	-6.62898950800E-02	2.87401306521E-02	-6.62698802935E-02	2.87189086080E-02	2.82863635289E-02	2.09301300585E-01
1.72350000000E+09	-3.38862822372E-02	-9.90804708786E-02	-6.56222883204E-02	3.01977353010E-02	-6.56351440507E-02	3.01687668440E-02	3.33185236256E-02	2.10465650421E-01
1.72400000000E+09	-3.18536849430E-02	-1.00917303920E-01	-6.49083774322E-02	3.16387415961E-02	-6.49109873060E-02	3.15956640598E-02	3.83565616343E-02	2.11507089404E-01
1.72450000000E+09	-2.99205421222E-02	-1.02789570336E-01	-6.41772701644E-02	3.30291770611E-02	-6.41827168956E-02	3.30289807213E-02	4.34392594024E-02	2.12360036467E-01
1.72500000000E+09	-2.80462622410E-02	-1.04687747699E-01	-6.33862348791E-02	3.44333867813E-02	-6.34203178120E-02	3.44373682223E-02	4.84853020194E-02	2.13034327510E-01
1.72550000000E+09	-2.62362110123E-02	-1.06644810547E-01	-6.25715676587E-02	3.58260649267E-02	-6.26001284619E-02	3.57934385155E-02	5.36292007287E-02	2.13575364005E-01
1.72600000000E+09	-2.44857024569E-02	-1.08666339077E-01	-6.17516802612E-02	3.71870910029E-02	-6.17600374728E-02	3.71549311166E-02	5.87053049560E-02	2.13978423063E-01
1.72650000000E+09	-2.28400358943E-02	-1.10731361034E-01	-6.08797020067E-02	3.85162958532E-02	-6.08975006458E-02	3.84881232706E-02	6.38273488590E-02	2.14163987396E-01
1.72700000000E+09	-2.12516259515E-02	-1.12847874554E-01	-5.99968896093E-02	3.98298939428E-02	-5.99948480488E-02	3.98202500740E-02	6.89564431797E-02	2.14233303502E-01
1.72750000000E+09	-1.97316291958E-02	-1.14964200518E-01	-5.90622940829E-02	4.11265459640E-02	-5.90818280844E-02	4.10920790244E-02	7.40707113311E-02	2.14160527999E-01
1.72800000000E+09	-1.83001546185E-02	-1.17141440199E-01	-5.81072319311E-02	4.23721943241E-02	-5.81251883937E-02	4.23695654744E-02	7.92046039087E-02	2.13909439918E-01
1.72850000000E+09	-1.69303696992E-02	-1.19368324438E-01	-5.71204031464E-02	4.36299424003E-02	-5.71394205672E-02	4.36134404720E-02	8.43059259641E-02	2.13472440380E-01
1.72900000000E+09	-1.56323409061E-02	-1.21591253507E-01	-5.61153017056E-02	4.48472575250E-02	-5.61347535219E-02	4.48184127519E-02	8.93818436755E-02	2.12934858581E-01
1.72950000000E+09	-1.44113363181E-02	-1.23845298305E-01	-5.50876236948E-02	4.60357088915E-02	-5.50919587072E-02	4.60092302061E-02	9.44347106286E-02	2.12198442789E-01
1.73000000000E+09	-1.32721846450E-02	-1.26151070328E-01	-5.40148815359E-02	4.72019099452E-02	-5.40380349302E-02	4.71804210425E-02	9.94419382212E-02	2.11300882540E-01
1.73050000000E+09	-1.21952700303E-02	-1.28462596634E-01	-5.29313002980E-02	4.83374029786E-02	-5.29249456159E-02	4.83142048483E-02	1.04460742290E-01	2.10266890637E-01
1.73100000000E+09	-1.12120339260E-02	-1.30780331703E-01	-5.18266587742E-02	4.94285712598E-02	-5.18453038802E-02	4.94066897677E-02	1.09451146980E-01	2.09105720582E-01
1.73150000000E+09	-1.02874522989E-02	-1.33121348551E-01	-5.06740209204E-02	5.05084655262E-02	-5.06895101917E-02	5.05064287967E-02	1.14335465984E-01	2.07760709941E-01
1.73200000000E+09	-9.42708841199E-03	-1.35486603881E-01	-4.95369739860E-02	5.15576734578E-02	-4.95445908597E-02	5.15506189582E-02	1.19239501400E-01	2.06264375234E-01
1.73250000000E+09	-8.65373284996E-03	-1.37854220986E-01	-4.83496554049E-02	5.25911742246E-02	-4.83648718525E-02	5.25716777172E-02	1.24060744951E-01	2.04625071424E-01
1.73300000000E+09	-7.96280422448E-03	-1.40243619609E-01	-4.71550822325E-02	5.35870131864E-02	-4.71814973459E-02	5.35725435737E-02	1.28828357180E-01	2.02890458579E-01
1.73350000000E+09	-7.33812829399E-03	-1.42672729799E-01	-4.59252355438E-02	5.45558893326E-02	-4.59481769981E-02	5.45203183466E-02	1.33535491081E-01	2.00935137796E-01
1.73400000000E+09	-6.78318523909E-03	-1.45080781683E-01	-4.46992948629E-02	5.54882724271E-02	-4.47177468705E-02	5.54593761008E-02	1.38199791236E-01	1.98814190066E-01
1.73450000000E+09	-6.29367193150E-03	-1.47465762984E-01	-4.34450710983E-02	5.63864803728E-02	-4.34738407956E-02	5.63549900086E-02	1.42822460776E-01	1.96629674722E-01
1.73500000000E+09	-5.88691282145E-03	-1.49896802965E-01	-4.21693692418E-02	5.72495060657E-02	-4.21920317173E-02	5.72476574015E-02	1.47320713356E-01	1.94264202804E-01
1.73550000000E+09	-5.57307877223E-03	-1.52294135703E-01	-4.08701583226E-02	5.80934070687E-02	-4.09061009613E-02	5.80890568553E-02	1.51772580641E-01	1.91789568552E-01
1.73600000000E+09	-5.30845755168E-03	-1.54711852778E-01	-3.95805809345E-02	5.89123546317E-02	-3.95991264954E-02	5.88748519043E-02	1.56107604261E-01	1.89146045252E-01
1.73650000000E+09	-5.10918957792E-03	-1.57122252827E-01	-3.82576164851E-02	5.96688337106E-02	-3.82797920592E-02	5.96647395819E-02	1.60378756009E-01	1.86421943011E-01
1.73700000000E+09	-4.97542581822E-03	-1.59541473348E-01	-3.69172301664E-02	6.04409490423E-02	-3.69512286437E-02	6.04062118553E-02	1.64576683983E-01	1.83500996074E-01
1.73750000000E+09	-4.93065574774E-03	-1.61936136255E-01	-3.55716694202E-02	6.11495115991E-02	-3.55969586261E-02	6.11204566761E-02	1.68688232197E-01	1.80500896006E-01
1.73800000000E+09	-4.96241972821E-03	-1.64336080539E-01	-3.42146250276E-02	6.18144046227E-02	-3.42412216826E-02	6.17997309159E-02	1.72658358658E-01	1.77324263817E-01
1.73850000000E+09	-5.04417437523E-03	-1.66720468287E-01	-3.28440517214E-02	6.24708209721E-02	-3.28787290683E-02	6.24595388520E-02	1.76563306596E-01	1.74102743021E-01
1.73900000000E+09	-5.20058451381E-03	-1.69099616951E-01	-3.14802607328E-02	6.31000584253E-02	-3.14974963360E-02	6.30884039211E-02	1.80397656199E-01	1.70686894261E-01
1.73950000000E+09	-5.40151505213E-03	-1.71470853423E-01	-3.00837301420E-02	6.36894068260E-02	-3.01248346569E-02	6.36791000024E-02	1.84081228828E-01	1.67216209410E-01
1.74000000000E+09	-5.73228397082E-03	-1.73847513791E-01	-2.86766167437E-02	6.42343052117E-02	-2.87069137661E-02	6.42175884248E-02	1.87670317850E-01	1.63584405580E-01
1.74050000000E+09	-6.11220870140E-03	-1.76153969299E-01	-2.72641251410E-02	6.47490784896E-02	-2.73070911852E-02	6.47474070956E-02	1.91136607156E-01	1.59876693557E-01
1.74100000000E+09	-6.55446012681E-03	-1.78487729455E-01	-2.58655626699E-02	6.52574167962E-02	-2.58778639465E-02	6.52304648764E-02	1.94485982678E-01	1.56025961761E-01
1.74150000000E+09	-7.07299615047E-03	-1.80791846579E-01	-2.44385709128E-02	6.56919433732E-02	-2.44709727657E-02	6.56838493551E-02	1.97724098795E-01	1.52117053660E-01
1.74200000000E+09	-7.64285807793E-03	-1.83057464020E-01	-2.29939182685E-02	6.61168875837E-02	-2.30333233852E-02	6.61122248648E-02	2.00829424425E-01	1.48084027276E-01
1.74250000000E+09	-8.29910010678E-03	-1.85331473845E-01	-2.15815160316E-02	6.65227908928E-02	-2.16001620503E-02	6.65102797326E-02	2.03857149935E-01	1.43975052090E-01
1.74300000000E+09	-9.02220969389E-03	-1.87582366500E-01	-2.01390123371E-02	6.68859877718E-02	-2.01755297433E-02	6.68848381522E-02	2.06709480863E-01	1.39756198938E-01
1.74350000000E+09	-9.83246863624E-03	-1.89796062401E-01	-1.86990612932E-02	6.72163524581E-02	-1.87184877484E-02	6.72020317705E-02	2.09453045252E-01	1.35449394616E-01
1.74400000000E+09	-1.06832467482E-02	-1.91962327548E-01	-1.72567364017E-02	6.75162609599E-02	-1.72906551098E-02	6.75086914181E-02	2.12023154073E-01	1.31071039031E-01
1.74450000000E+09	-1.16192779065E-02	-1.94136052624E-01	-1.58195150966E-02	6.77779730291E-02	-1.58473751558E-02	6.77495339639E-02	2.14492001690E-01	1.26603731050E-01
1.74500000000E+09	-1.26157649701E-02	-1.96222746380E-01	-1.43602377076E-02	6.80088558064E-02	-1.44090543123E-02	6.80013015533E-02	2.16812869443E-01	1.22093613043E-01
1.74550000000E+09	-1.37053367120E-02	-1.98337025085E-01	-1.29367388404E-02	6.81902315165E-02	-1.29727834120E-02	6.82046302280E-02	2.19002817842E-01	1.17498456722E-01
1.74600000000E+09	-1.48529072961E-02	-2.00382220293E-01	-1.14873207830E-02	6.83773166196E-02	-1.15078040544E-02	6.83621960182E-02	2.21036981385E-01	1.12782445556E-01
1.74650000000E+09	-1.60765432493E-02	-2.02397147331E-01	-1.00501980838E-02	6.85188980278E-02	-1.00811160639E-02	6.85113220338E-02	2.22903450396E-01	1.08060068450E-01
1.74700000000E+09	-1.73415681068E-02	-2.04359974279E-01	-8.60884855574E-03	6.86320724828E-02	-8.63708803852E-03	6.86112257071E-02	2.24638883363E-01	1.03255917492E-01
1.74750000000E+09	-1.87068853095E-02	-2.06269144146E-01	-7.15754869646E-03	6.86993414607E-02	-7.19800418488E-03	6.86992585183E-02	2.26245994616E-01	9.84207329364E-02
1.74800000000E+09	-2.01139058502E-02	-2.08143731175E-01	-5.73833057106E-03	6.87421638951E-02	-5.76594770487E-03	6.87247539843E-02	2.27662424852E-01	9.35264358545E-02
1.74850000000E+09	-2.16033527762E-02	-2.09959167479E-01	-4.31326999807E-03	6.87644450827E-02	-4.32926041163E-03	6.87572249061E-02	2.28972664742E-01	8.85715655192E-02
1.74900000000E+09	-2.31728721486E-02	-2.11713167161E-01	-2.88072171724E-03	6.87484914859E-02	-2.90189569924E-03	6.87516234979E-02	2.30100434496E-01	8.35706656771E-02
1.74950000000E+09	-2.47936987477E-02	-2.13396265067E-01	-1.44974370293E-03	6.87025293088E-02	-1.48849629020E-03	6.87078259979E-02	2.31080117819E-01	7.85709568016E-02
1.75000000000E+09	-2.65063590685E-02	-2.15051659136E-01	-4.43292429990E-05	6.86333629721E-02	-7.62316188588E-05	6.86372194315E-02	2.31904252664E-01	7.35380614858E-02
1.75050000000E+09	-2.82419550516E-02	-2.16625834201E-01	1.36227507073E-03	6.85438838406E-02	1.35270561728E-03	6.85517194997E-02	2.32568495056E-01	6.84598297303E-02
1.75100000000E+09	-3.00131133168E-02	-2.18152203764E-01	2.77414569445E-03	6.84192717796E-02	2.73065345206E-03	6.84073790031E-02	2.33064527772E-01	6.33651665049E-02
1.75150000000E+09	-3.19206056357E-02	-2.19590420279E-01	4.14638200026E-03	6.82597994986E-02	4.13523448272E-03	6.82552586259E-02	2.33413234557E-01	5.82999828683E-02
1.75200000000E+09	-3.38664544282E-02	-2.20937769776E-01	5.54654912132E-03	6.80818152460E-02	5.52078071162E-03	6.80805299942E-02	2.33613097663E-01	5.31251028508E-02
1.75250000000E+09	-3.58171774439E-02	-2.22238045321E-01	6.91952974130E-03	6.78769533317E-02	6.89819786142E-03	6.78668976557E-02	2.33625726951E-01	4.80236383656E-02
1.75300000000E+09	-3.78637784932E-02	-2.23408281797E-01	8.28392635194E-03	6.76480268883E-02	8.26321195563E-03	6.76434088782E-02	2.33487717346E-01	4.29444974698E-02
1.75350000000E+09	-3.99419575883E-02	-2.24543183889E-01	9.65945210048E-03	6.73668567856E-02	9.62101198750E-03	6.73758316968E-02	2.33170213900E-01	3.78079945413E-02
1.75400000000E+09	-4.20900500612E-02	-2.25539461214E-01	1.10003617430E-02	6.70825382261E-02	1.09704803719E-02	6.70869460261E-02	2.32697226748E-01	3.26717734172E-02
1.75450000000E+09	-4.42697944138E-02	-2.26490821985E-01	1.23305629240E-02	6.67736406604E-02	1.23056584455E-02	6.67823918345E-02	2.32097440987E-01	2.75769819776E-02
1.75500000000E+09	-4.65019548367E-02	-2.27329910146E-01	1.36644182082E-02	6.64417936615E-02	1.36254690078E-02	6.64370786130E-02	2.31334261802E-01	2.25134471139E-02
1.75550000000E+09	-4.87267001513E-02	-2.28038506760E-01	1.49789711467E-02	6.60823109552E-02	1.49535017521E-02	6.60755049535E-02	2.30349600983E-01	1.74375375705E-02
1.75600000000E+09	-5.10058669486E-02	-2.28690394260E-01	1.62744910985E-02	6.57086082357E-02	1.62421335624E-02	6.57035191931E-02	2.29271185606E-01	1.24130681520E-02
1.75650000000E+09	-5.33450498756E-02	-2.29203952091E-01	1.75718195771E-02	6.53087153673E-02	1.75427736711E-02	6.52889218028E-02	2.28008503914E-01	7.45707085506E-03
1.75700000000E+09	-5.56652360822E-02	-2.29603480446E-01	1.88500928411E-02	6.48518289764E-02	1.88339350478E-02	6.48680735187E-02	2.26581017547E-01	2.51089075700E-03
1.75750000000E+09	-5.80111774691E-02	-2.29929519426E-01	2.01229654945E-02	6.44217222782E-02	2.00915347685E-02	6.44240331237E-02	2.25017700217E-01	-2.38204498141E-03
1.75800000000E+09	-6.03899577063E-02	-2.30106537831E-01	2.13791078374E-02	6.39287311198E-02	2.13514901021E-02	6.39496404728E-02	2.23257363061E-01	-7.24345512788E-03
1.75850000000E+09	-6.27973290824E-02	-2.30206436682E-01	2.26204559656E-02	6.34322620321E-02	2.25904465597E-02	6.34634077043E-02	2.21352480090E-01	-1.20484870645E-02
