# Hz S RI R 50
! CMT, CMT808U, 21440046, 21.4.3/4
! Date: 12/11/2025 6:03:08 PM
! Data: Format (Calibration Info)
! Freq	S11:Re/Im(F2)	S41:Re/Im(F2)	S14:Re/Im(F2)	S44:Re/Im(F2)
1.70000000000E+09	-1.54093097456E-01	-8.32172876692E-02	-5.93628158886E-02	-2.82426013742E-02	-5.89827340137E-02	-2.85458624626E-02	-1.07656038896E-01	2.84803170948E-02
1.70100000000E+09	-1.52689891948E-01	-7.80003477337E-02	-6.04419164173E-02	-2.56640167049E-02	-6.01613437583E-02	-2.59780172270E-02	-1.08976049317E-01	3.88789979982E-02
1.70200000000E+09	-1.50491148151E-01	-7.29818400695E-02	-6.15028160620E-02	-2.31161750278E-02	-6.12578865331E-02	-2.33886475053E-02	-1.09770448888E-01	4.93156516835E-02
1.70300000000E+09	-1.47841843773E-01	-6.81394867575E-02	-6.23942020894E-02	-2.04390317428E-02	-6.22177659092E-02	-2.08955276369E-02	-1.09655354604E-01	5.97399605899E-02
1.70400000000E+09	-1.44593127870E-01	-6.34804641833E-02	-6.32877507638E-02	-1.77254273605E-02	-6.30067776893E-02	-1.81885194987E-02	-1.08902249139E-01	7.01201715422E-02
1.70500000000E+09	-1.40724459524E-01	-5.91637156054E-02	-6.39767844035E-02	-1.50743142513E-02	-6.37723696649E-02	-1.54559916563E-02	-1.07436270436E-01	8.04842437977E-02
1.70600000000E+09	-1.36414078824E-01	-5.52856300242E-02	-6.45516153873E-02	-1.23666626258E-02	-6.43486848352E-02	-1.27565437400E-02	-1.05362446997E-01	9.06352064922E-02
1.70700000000E+09	-1.31693698950E-01	-5.17705700618E-02	-6.50714937629E-02	-9.59649555966E-03	-6.49290806565E-02	-9.97117744460E-03	-1.02548707622E-01	1.00800648535E-01
1.70800000000E+09	-1.26601295728E-01	-4.87068618114E-02	-6.53872382031E-02	-6.82978601933E-03	-6.52460240945E-02	-7.20887726650E-03	-9.91355000879E-02	1.10649844321E-01
1.70900000000E+09	-1.21262475151E-01	-4.60777431139E-02	-6.55860472095E-02	-3.91907880521E-03	-6.55025521291E-02	-4.38049682355E-03	-9.50935341274E-02	1.20262109559E-01
1.71000000000E+09	-1.15594228462E-01	-4.39911816343E-02	-6.58145704366E-02	-1.13706122522E-03	-6.56175015847E-02	-1.57925775560E-03	-9.03914471821E-02	1.29572108269E-01
1.71100000000E+09	-1.09803559968E-01	-4.24399735002E-02	-6.57771728672E-02	1.69852449713E-03	-6.56417795631E-02	1.24197687902E-03	-8.51456078970E-02	1.38555190637E-01
1.71200000000E+09	-1.03846478507E-01	-4.13078453945E-02	-6.56364789372E-02	4.53871034133E-03	-6.56357078954E-02	4.03217995707E-03	-7.92791174701E-02	1.47235870153E-01
1.71300000000E+09	-9.77953193459E-02	-4.07837757585E-02	-6.52852731850E-02	7.23628671379E-03	-6.52803238380E-02	6.88296393760E-03	-7.29144664495E-02	1.55453573027E-01
1.71400000000E+09	-9.18115434532E-02	-4.06850553691E-02	-6.49421359055E-02	1.01667352345E-02	-6.49523218469E-02	9.60861168565E-03	-6.61193237628E-02	1.63255678069E-01
1.71500000000E+09	-8.56833304097E-02	-4.11051426687E-02	-6.44447961373E-02	1.29033799846E-02	-6.43613199704E-02	1.24561146025E-02	-5.86515812366E-02	1.70606405240E-01
1.71600000000E+09	-7.97376356303E-02	-4.19601699430E-02	-6.37910382245E-02	1.56484431002E-02	-6.37469759573E-02	1.51655922110E-02	-5.08186912951E-02	1.77451699120E-01
1.71700000000E+09	-7.37853895554E-02	-4.33135045553E-02	-6.30571625309E-02	1.83308438796E-02	-6.29900047385E-02	1.79002493360E-02	-4.25061450064E-02	1.83879474750E-01
1.71800000000E+09	-6.80366764866E-02	-4.49859123996E-02	-6.21292249423E-02	2.09652319032E-02	-6.21207657438E-02	2.05200452746E-02	-3.39783521514E-02	1.89561055376E-01
1.71900000000E+09	-6.25043001581E-02	-4.71912582008E-02	-6.11435573203E-02	2.35993406136E-02	-6.11461247907E-02	2.31781115155E-02	-2.49477562560E-02	1.94943726844E-01
1.72000000000E+09	-5.70874426342E-02	-4.97849570908E-02	-6.00676952729E-02	2.60919294620E-02	-6.00385682282E-02	2.56763536616E-02	-1.56556990159E-02	1.99559111739E-01
1.72100000000E+09	-5.19572897888E-02	-5.25766977438E-02	-5.87709598699E-02	2.86612072384E-02	-5.88627779245E-02	2.82542519511E-02	-5.96408927373E-03	2.03547170624E-01
1.72200000000E+09	-4.69998176416E-02	-5.58299559453E-02	-5.75001167755E-02	3.11376936682E-02	-5.75531282232E-02	3.06056934596E-02	3.78155015940E-03	2.07097694498E-01
1.72300000000E+09	-4.22609020100E-02	-5.93384445953E-02	-5.60819678272E-02	3.34816857264E-02	-5.61733008026E-02	3.30214764478E-02	1.37676386803E-02	2.09967644288E-01
1.72400000000E+09	-3.79271038461E-02	-6.30932357611E-02	-5.45803599357E-02	3.57726842127E-02	-5.46794810148E-02	3.53226919132E-02	2.39650246958E-02	2.12137521387E-01
1.72500000000E+09	-3.37589899199E-02	-6.72023463431E-02	-5.29722099219E-02	3.79810146511E-02	-5.31765656133E-02	3.75495682375E-02	3.42272238819E-02	2.13646700444E-01
1.72600000000E+09	-2.99255918972E-02	-7.14481356524E-02	-5.13121851693E-02	4.02095381693E-02	-5.14353564819E-02	3.97405759039E-02	4.45102508145E-02	2.14461067168E-01
1.72700000000E+09	-2.62986418369E-02	-7.58921350857E-02	-4.95103820425E-02	4.22838204113E-02	-4.96853053898E-02	4.18280002552E-02	5.49609109040E-02	2.14764285894E-01
1.72800000000E+09	-2.30969105939E-02	-8.06194789976E-02	-4.76535093856E-02	4.43128512836E-02	-4.78416739634E-02	4.38763505116E-02	6.52905118531E-02	2.14314470537E-01
1.72900000000E+09	-2.02177192665E-02	-8.54369718405E-02	-4.57221987098E-02	4.62527288243E-02	-4.60403668134E-02	4.58236649839E-02	7.56342340088E-02	2.13316886953E-01
1.73000000000E+09	-1.75770011168E-02	-9.04642315675E-02	-4.37982874574E-02	4.81362057563E-02	-4.40199482645E-02	4.77419618658E-02	8.57939433603E-02	2.11653446627E-01
1.73100000000E+09	-1.52056473524E-02	-9.55894031276E-02	-4.17040187423E-02	4.98379720172E-02	-4.19633200278E-02	4.94243398865E-02	9.59381947150E-02	2.09273403616E-01
1.73200000000E+09	-1.32524709143E-02	-1.00897261985E-01	-3.95248865520E-02	5.15005967958E-02	-3.97727415320E-02	5.11874329809E-02	1.05853214876E-01	2.06304808150E-01
1.73300000000E+09	-1.16070233132E-02	-1.06166860670E-01	-3.73759737637E-02	5.31605662105E-02	-3.76116587481E-02	5.27707252625E-02	1.15599896900E-01	2.02791896808E-01
1.73400000000E+09	-1.02801604771E-02	-1.11654039999E-01	-3.50190224314E-02	5.46297972793E-02	-3.54256158839E-02	5.43791190365E-02	1.25117522545E-01	1.98628059523E-01
1.73500000000E+09	-9.33706431475E-03	-1.17192877716E-01	-3.27327693913E-02	5.61149630871E-02	-3.30991840029E-02	5.57189493472E-02	1.34298798152E-01	1.93894957351E-01
1.73600000000E+09	-8.78988348983E-03	-1.22652910584E-01	-3.03686524398E-02	5.74057364930E-02	-3.07455374897E-02	5.70734526102E-02	1.43088801914E-01	1.88453600327E-01
1.73700000000E+09	-8.49814643020E-03	-1.28201245362E-01	-2.78892375391E-02	5.86034633203E-02	-2.82861293845E-02	5.82612658134E-02	1.51690396561E-01	1.82799579776E-01
1.73800000000E+09	-8.62545524217E-03	-1.33795165837E-01	-2.53739307309E-02	5.97317864985E-02	-2.57723248653E-02	5.93678417842E-02	1.59747851015E-01	1.76403827398E-01
1.73900000000E+09	-9.04894460916E-03	-1.39411472978E-01	-2.27997959561E-02	6.07039122509E-02	-2.32787547444E-02	6.03968489115E-02	1.67607290052E-01	1.69545598357E-01
1.74000000000E+09	-9.94603114781E-03	-1.44926907193E-01	-2.03095552673E-02	6.15745771305E-02	-2.06495542280E-02	6.14044342646E-02	1.74887452415E-01	1.62153471900E-01
1.74100000000E+09	-1.11770314050E-02	-1.50321046882E-01	-1.76388837805E-02	6.23585804202E-02	-1.80957221917E-02	6.21510055311E-02	1.81716033094E-01	1.54538377894E-01
1.74200000000E+09	-1.26769825137E-02	-1.55720785923E-01	-1.50273348255E-02	6.30718051729E-02	-1.54415447432E-02	6.28355813878E-02	1.88025510939E-01	1.46247768004E-01
1.74300000000E+09	-1.47260766964E-02	-1.60903221498E-01	-1.23079528228E-02	6.36927298445E-02	-1.26874866567E-02	6.33895136617E-02	1.93898441803E-01	1.37678392723E-01
1.74400000000E+09	-1.70197921791E-02	-1.65971200440E-01	-9.61973516097E-03	6.40943508592E-02	-1.00621529994E-02	6.38357884707E-02	1.99204670289E-01	1.28802337070E-01
1.74500000000E+09	-1.97751551046E-02	-1.70840198779E-01	-6.88053154984E-03	6.43144589188E-02	-7.26090697772E-03	6.41741027711E-02	2.03873799309E-01	1.19521819661E-01
1.74600000000E+09	-2.28314591333E-02	-1.75563779499E-01	-4.14483420038E-03	6.45191180402E-02	-4.59443521282E-03	6.44000953052E-02	2.07966652489E-01	1.10131611838E-01
1.74700000000E+09	-2.63061659642E-02	-1.80022454147E-01	-1.39887414824E-03	6.46812565486E-02	-1.89918721268E-03	6.45134482857E-02	2.11532476983E-01	1.00275999903E-01
1.74800000000E+09	-3.00360643649E-02	-1.84134654322E-01	1.25836277444E-03	6.46012713934E-02	8.36998624105E-04	6.44929628956E-02	2.14464905816E-01	9.03127191579E-02
1.74900000000E+09	-3.41320418482E-02	-1.87977135566E-01	4.05514331145E-03	6.45149584216E-02	3.60085147585E-03	6.43290958291E-02	2.16766427197E-01	8.02915443677E-02
1.75000000000E+09	-3.85844709671E-02	-1.91554622791E-01	6.67952491963E-03	6.42131481897E-02	6.20244650831E-03	6.40720989234E-02	2.18414754606E-01	6.99904954111E-02
1.75100000000E+09	-4.31188524723E-02	-1.94682444797E-01	9.44583172803E-03	6.38451329015E-02	8.92836241154E-03	6.37131195291E-02	2.19453237085E-01	5.95935751622E-02
1.75200000000E+09	-4.80992668184E-02	-1.97481634671E-01	1.20211254848E-02	6.32859238043E-02	1.16435644776E-02	6.32609039950E-02	2.19726928142E-01	4.92589764127E-02
1.75300000000E+09	-5.31761320070E-02	-1.99724062540E-01	1.46927778064E-02	6.27494256437E-02	1.42629413763E-02	6.26789062922E-02	2.19477075346E-01	3.87552857970E-02
1.75400000000E+09	-5.85787687459E-02	-2.01614882191E-01	1.72824894235E-02	6.19465994683E-02	1.68104635317E-02	6.19867537001E-02	2.18408446142E-01	2.83350756696E-02
1.75500000000E+09	-6.40368290525E-02	-2.03027334294E-01	1.98469445046E-02	6.11492162136E-02	1.94084630126E-02	6.12141875727E-02	2.16815168515E-01	1.79682752159E-02
1.75600000000E+09	-6.96489666867E-02	-2.03817057016E-01	2.23769215117E-02	6.01802120651E-02	2.19606744476E-02	6.02256446677E-02	2.14445758102E-01	7.85975760993E-03
1.75700000000E+09	-7.52319307080E-02	-2.04219213775E-01	2.48104596248E-02	5.92411624795E-02	2.43564322185E-02	5.92466266002E-02	2.11485586730E-01	-2.29522488384E-03
1.75800000000E+09	-8.08663825780E-02	-2.04023448281E-01	2.72501488679E-02	5.80781491657E-02	2.67661886243E-02	5.81861684543E-02	2.07877467039E-01	-1.20681868491E-02
1.75900000000E+09	-8.65567510956E-02	-2.03309411319E-01	2.96282739542E-02	5.68270910510E-02	2.91127170268E-02	5.68991798256E-02	2.03645480197E-01	-2.16829211081E-02
1.76000000000E+09	-9.20364127397E-02	-2.01998752582E-01	3.19280208125E-02	5.55838816474E-02	3.14340290452E-02	5.56895391342E-02	1.98797370402E-01	-3.10675082886E-02
1.76100000000E+09	-9.73721729626E-02	-2.00123474348E-01	3.41242222499E-02	5.41677839939E-02	3.37249820632E-02	5.42591172461E-02	1.93274517808E-01	-4.00640767433E-02
1.76200000000E+09	-1.02520271184E-01	-1.97835909997E-01	3.63659523168E-02	5.27210282907E-02	3.59320733397E-02	5.27727687625E-02	1.87258429071E-01	-4.86881808326E-02
1.76300000000E+09	-1.07380789016E-01	-1.94867768393E-01	3.85006224492E-02	5.11255803511E-02	3.80013263264E-02	5.13029484514E-02	1.80734261934E-01	-5.69904083171E-02
1.76400000000E+09	-1.11850873606E-01	-1.91357406342E-01	4.05464712205E-02	4.94697636996E-02	4.00687303229E-02	4.96413725567E-02	1.73653382169E-01	-6.48166672683E-02
1.76500000000E+09	-1.15890657581E-01	-1.87490135194E-01	4.25352006111E-02	4.78228234978E-02	4.20703938127E-02	4.79365902002E-02	1.65955627252E-01	-7.22473987348E-02
1.76600000000E+09	-1.19533607917E-01	-1.83110877362E-01	4.43962404282E-02	4.59919957673E-02	4.39887414483E-02	4.61496245251E-02	1.57910198899E-01	-7.90474755639E-02
1.76700000000E+09	-1.22551709981E-01	-1.78274689927E-01	4.62934057845E-02	4.40664531586E-02	4.57871742004E-02	4.43368641572E-02	1.49301587927E-01	-8.54351024084E-02
1.76800000000E+09	-1.25052231302E-01	-1.73329833234E-01	4.80396192375E-02	4.21546554867E-02	4.76720347267E-02	4.24636427183E-02	1.40375965682E-01	-9.11034183947E-02
1.76900000000E+09	-1.26860720766E-01	-1.67933675410E-01	4.97774362442E-02	4.01563565896E-02	4.93857026419E-02	4.04650889502E-02	1.31077120497E-01	-9.62558015323E-02
1.77000000000E+09	-1.28049211393E-01	-1.62349313865E-01	5.13937357752E-02	3.80859624085E-02	5.09366615326E-02	3.83790831978E-02	1.21426240136E-01	-1.00886527971E-01
1.77100000000E+09	-1.28598356748E-01	-1.56930452090E-01	5.28369335003E-02	3.60261919943E-02	5.25582839014E-02	3.62477514390E-02	1.11448051944E-01	-1.04778571161E-01
1.77200000000E+09	-1.28298674024E-01	-1.51283179952E-01	5.43592714110E-02	3.37992839026E-02	5.40079545929E-02	3.40961736364E-02	1.01394383152E-01	-1.07995211995E-01
1.77300000000E+09	-1.27414757951E-01	-1.45785358180E-01	5.58275038493E-02	3.14994504415E-02	5.54653835925E-02	3.18278292729E-02	9.09767196426E-02	-1.10606839607E-01
1.77400000000E+09	-1.25682914039E-01	-1.40427219994E-01	5.70890227222E-02	2.92207382637E-02	5.67112164711E-02	2.95206851781E-02	8.03660063967E-02	-1.12524979259E-01
1.77500000000E+09	-1.23365674136E-01	-1.35391630456E-01	5.83028996872E-02	2.68940762287E-02	5.79459693745E-02	2.71768320595E-02	6.98252525320E-02	-1.13705427522E-01
1.77600000000E+09	-1.20368478668E-01	-1.30734130890E-01	5.94735257420E-02	2.43761933279E-02	5.91379735040E-02	2.47859280154E-02	5.90442777109E-02	-1.14236095536E-01
1.77700000000E+09	-1.16851912949E-01	-1.26580493562E-01	6.04907629915E-02	2.18670699976E-02	6.01223940161E-02	2.22782993160E-02	4.83084017328E-02	-1.13955810814E-01
1.77800000000E+09	-1.12762332731E-01	-1.22823627623E-01	6.13645143706E-02	1.93198129930E-02	6.11062156115E-02	1.97904561988E-02	3.76354408571E-02	-1.13116429911E-01
1.77900000000E+09	-1.08193910291E-01	-1.19788583736E-01	6.22320522473E-02	1.68392207404E-02	6.20140820068E-02	1.72289063900E-02	2.70550214353E-02	-1.11419639029E-01
1.78000000000E+09	-1.03391656334E-01	-1.17311238511E-01	6.29385359710E-02	1.41858114027E-02	6.26823635667E-02	1.46090790988E-02	1.65251174591E-02	-1.09037020368E-01
1.78100000000E+09	-9.82653536466E-02	-1.15577941902E-01	6.35401831575E-02	1.14865055954E-02	6.32870780005E-02	1.18877251042E-02	6.20213609828E-03	-1.06147538829E-01
1.78200000000E+09	-9.29661470218E-02	-1.14527989051E-01	6.40000209712E-02	8.69901118741E-03	6.37923638767E-02	9.19986719939E-03	-3.81827244171E-03	-1.02455565713E-01
1.78300000000E+09	-8.76728135228E-02	-1.14144484113E-01	6.43020569378E-02	6.05548827333E-03	6.40551247963E-02	6.44513781505E-03	-1.36960094478E-02	-9.80618832632E-02
1.78400000000E+09	-8.23267802076E-02	-1.14548981263E-01	6.45553643801E-02	3.26990038205E-03	6.44289857358E-02	3.71107375690E-03	-2.32620701108E-02	-9.31486673314E-02
1.78500000000E+09	-7.71379274171E-02	-1.15604023340E-01	6.47141745005E-02	4.85202720037E-04	6.46252959962E-02	9.62167632617E-04	-3.24143667986E-02	-8.74916176137E-02
1.78600000000E+09	-7.21945987743E-02	-1.17227600109E-01	6.46798517262E-02	-2.27092449644E-03	6.45339266035E-02	-1.81893003096E-03	-4.12393321463E-02	-8.13570781877E-02
1.78700000000E+09	-6.75161150405E-02	-1.19501748693E-01	6.44449494257E-02	-5.12991372770E-03	6.43853509371E-02	-4.55415843671E-03	-4.95510975111E-02	-7.44823079056E-02
1.78800000000E+09	-6.32304906555E-02	-1.22347706424E-01	6.42669643993E-02	-7.83045208896E-03	6.41896926380E-02	-7.37600584762E-03	-5.73604073546E-02	-6.71593710889E-02
1.78900000000E+09	-5.92742814588E-02	-1.25657332097E-01	6.38339294787E-02	-1.06228239611E-02	6.37224410044E-02	-1.01280645190E-02	-6.48460219888E-02	-5.93191295945E-02
1.79000000000E+09	-5.57472948935E-02	-1.29472542467E-01	6.32869676898E-02	-1.34051132295E-02	6.32944055714E-02	-1.28629098107E-02	-7.17498438673E-02	-5.10779384354E-02
1.79100000000E+09	-5.27558590316E-02	-1.33521932140E-01	6.26083460704E-02	-1.60044535301E-02	6.26090380273E-02	-1.55529590038E-02	-7.79819676265E-02	-4.23149662942E-02
1.79200000000E+09	-5.02429138621E-02	-1.37878590652E-01	6.17818590610E-02	-1.87596554058E-02	6.18645531952E-02	-1.81840823295E-02	-8.36169126285E-02	-3.32888235616E-02
1.79300000000E+09	-4.82437168649E-02	-1.42498737564E-01	6.09862153301E-02	-2.13146014894E-02	6.09972095809E-02	-2.08982463647E-02	-8.86063618905E-02	-2.38028390984E-02
1.79400000000E+09	-4.67423710241E-02	-1.47237498484E-01	5.99638432799E-02	-2.38916055317E-02	6.00115446475E-02	-2.34061790217E-02	-9.31022775551E-02	-1.41574536856E-02
1.79500000000E+09	-4.58429885307E-02	-1.52109366047E-01	5.87892876382E-02	-2.64119751221E-02	5.88598871643E-02	-2.59104997576E-02	-9.67842023714E-02	-4.08297359937E-03
1.79600000000E+09	-4.54127501666E-02	-1.56994985527E-01	5.75757685495E-02	-2.88451383275E-02	5.76150302878E-02	-2.83282490257E-02	-9.98401443709E-02	6.20632975948E-03
1.79700000000E+09	-4.54473171821E-02	-1.61858988792E-01	5.62436011553E-02	-3.12372017213E-02	5.63088662796E-02	-3.07844257887E-02	-1.02278620807E-01	1.65867291464E-02
1.79800000000E+09	-4.60534273053E-02	-1.66746610068E-01	5.47749327157E-02	-3.35930016820E-02	5.49284298832E-02	-3.31288053267E-02	-1.03879741866E-01	2.71185519077E-02
1.79900000000E+09	-4.70131973173E-02	-1.71437398354E-01	5.32264856957E-02	-3.58022012015E-02	5.34100621976E-02	-3.53400190662E-02	-1.04843358769E-01	3.77697218911E-02
1.80000000000E+09	-4.84742614438E-02	-1.76078505817E-01	5.16550375932E-02	-3.79699637479E-02	5.17854961229E-02	-3.74824106860E-02	-1.05148106946E-01	4.83051799782E-02
1.80100000000E+09	-5.03063561354E-02	-1.80462905679E-01	4.98863966299E-02	-4.01277434641E-02	5.01135603117E-02	-3.96631262050E-02	-1.04657620955E-01	5.89312924071E-02
1.80200000000E+09	-5.24727052798E-02	-1.84674938208E-01	4.81320074666E-02	-4.21009409725E-02	4.84137226235E-02	-4.16315175093E-02	-1.03600960687E-01	6.95746731671E-02
1.80300000000E+09	-5.50299381486E-02	-1.88615987900E-01	4.62458363239E-02	-4.40247754125E-02	4.65472309627E-02	-4.35623196050E-02	-1.01750950290E-01	7.99760361997E-02
1.80400000000E+09	-5.79211832869E-02	-1.92424570739E-01	4.43590814322E-02	-4.58493067202E-02	4.46233268859E-02	-4.53913476188E-02	-9.91535395280E-02	9.02131314660E-02
1.80500000000E+09	-6.10186893351E-02	-1.95854025380E-01	4.23333585242E-02	-4.76369386971E-02	4.26193289141E-02	-4.72279782106E-02	-9.60354608749E-02	1.00207258623E-01
1.80600000000E+09	-6.43487688885E-02	-1.99151767304E-01	4.03670681110E-02	-4.93585257072E-02	4.05803342919E-02	-4.88557268798E-02	-9.22295751271E-02	1.10057743613E-01
1.80700000000E+09	-6.80309326765E-02	-2.02039368755E-01	3.81791319452E-02	-5.09085880631E-02	3.84431792473E-02	-5.04802942616E-02	-8.77951930902E-02	1.19527960257E-01
1.80800000000E+09	-7.18400406507E-02	-2.04732201202E-01	3.60424632358E-02	-5.24014435188E-02	3.62859978930E-02	-5.20016250848E-02	-8.26490494912E-02	1.28819283698E-01
1.80900000000E+09	-7.57667783191E-02	-2.07023081596E-01	3.37245204498E-02	-5.37141460070E-02	3.41039069006E-02	-5.34578184321E-02	-7.70081121559E-02	1.37486858689E-01
1.81000000000E+09	-7.99852811535E-02	-2.09157036337E-01	3.15335502545E-02	-5.51757669270E-02	3.18364940943E-02	-5.47445754723E-02	-7.09118369633E-02	1.45936778712E-01
1.81100000000E+09	-8.42664791857E-02	-2.10999183422E-01	2.91159386474E-02	-5.63202646840E-02	2.95443850809E-02	-5.59561828370E-02	-6.41568455471E-02	1.53932418604E-01
1.81200000000E+09	-8.87376755144E-02	-2.12357614423E-01	2.67294252080E-02	-5.74277823406E-02	2.71092738419E-02	-5.70945794445E-02	-5.68898752253E-02	1.61373463658E-01
1.81300000000E+09	-9.32370321779E-02	-2.13625917955E-01	2.43493823693E-02	-5.85012577073E-02	2.47292720018E-02	-5.81435590450E-02	-4.92206965650E-02	1.68359702572E-01
1.81400000000E+09	-9.77215623235E-02	-2.14501291850E-01	2.18541605743E-02	-5.94249496178E-02	2.23068552717E-02	-5.91507187964E-02	-4.12886406095E-02	1.74897228727E-01
1.81500000000E+09	-1.02489307282E-01	-2.15070604248E-01	1.93124149282E-02	-6.02451224319E-02	1.97560229358E-02	-6.00075832465E-02	-3.27898895557E-02	1.80844500851E-01
1.81600000000E+09	-1.07102749477E-01	-2.15384410177E-01	1.67810967625E-02	-6.10475852576E-02	1.72809684166E-02	-6.07311693613E-02	-2.39161292130E-02	1.86150141953E-01
1.81700000000E+09	-1.11853864219E-01	-2.15392748128E-01	1.42546210854E-02	-6.15993841599E-02	1.47174131295E-02	-6.13314450324E-02	-1.48710131906E-02	1.90994872944E-01
