# Hz S RI R 50
! CMT, CMT808U, 21440046, 21.4.3/4
! Date: 12/11/2025 11:18:47 AM
! Data: Format (Calibration Info)
! Freq	S11:Re/Im(F2)	S41:Re/Im(F2)	S14:Re/Im(F2)	S44:Re/Im(F2)
1.70000000000E+09	-2.01138283748E-01	-1.12323549669E-01	-5.90707154420E-02	-2.88171239919E-02	-5.85736511868E-02	-2.96262364013E-02	-7.85049919502E-02	3.09345040192E-02
1.70167224080E+09	-2.02480871322E-01	-1.04201579614E-01	-6.09905177593E-02	-2.47253561820E-02	-6.05520040792E-02	-2.55495449997E-02	-7.89922808958E-02	4.77549583201E-02
1.70334448161E+09	-2.02350303209E-01	-9.57330947212E-02	-6.26588700473E-02	-2.04913889034E-02	-6.22943186724E-02	-2.13460092446E-02	-7.75860490775E-02	6.45239816663E-02
1.70501672241E+09	-2.00708484559E-01	-8.71347675280E-02	-6.40714415305E-02	-1.61467400541E-02	-6.37604152287E-02	-1.70317530094E-02	-7.42985838202E-02	8.09965064306E-02
1.70668896321E+09	-1.97610857053E-01	-7.87693819957E-02	-6.51978027004E-02	-1.16828956477E-02	-6.49488859359E-02	-1.25782668405E-02	-6.92521388268E-02	9.69962350976E-02
1.70836120401E+09	-1.93137333578E-01	-7.07700694874E-02	-6.60401396315E-02	-7.10475717202E-03	-6.58564021968E-02	-8.02386568247E-03	-6.24152508046E-02	1.12311428160E-01
1.71003344482E+09	-1.87383025170E-01	-6.34348775760E-02	-6.65754971125E-02	-2.44632974270E-03	-6.64538896320E-02	-3.36155251015E-03	-5.39867459596E-02	1.26766587010E-01
1.71170568562E+09	-1.80520324574E-01	-5.69147237018E-02	-6.67854398254E-02	2.28930725925E-03	-6.67291079495E-02	1.37258252950E-03	-4.40472152945E-02	1.40207049690E-01
1.71337792642E+09	-1.72658849362E-01	-5.13564782221E-02	-6.66520879387E-02	7.09080853962E-03	-6.66689681998E-02	6.15027439210E-03	-3.27371442611E-02	1.52443735564E-01
1.71505016722E+09	-1.64024660865E-01	-4.69124597657E-02	-6.61461640491E-02	1.19020052035E-02	-6.62296338070E-02	1.09784212668E-02	-2.01953789520E-02	1.63360451211E-01
1.71672240803E+09	-1.54778861386E-01	-4.36438689152E-02	-6.52852000908E-02	1.67064020767E-02	-6.54354556368E-02	1.57922535225E-02	-6.58130750110E-03	1.72869118751E-01
1.71839464883E+09	-1.45126944642E-01	-4.16348127403E-02	-6.40475670854E-02	2.14746021155E-02	-6.42633197527E-02	2.05676762109E-02	7.89784588167E-03	1.80848453188E-01
1.72006688963E+09	-1.35265912575E-01	-4.09104884777E-02	-6.24228386628E-02	2.61608384547E-02	-6.27047323903E-02	2.52815740798E-02	2.31443394581E-02	1.87254070451E-01
1.72173913043E+09	-1.25390441625E-01	-4.14836918147E-02	-6.04264118640E-02	3.07220003467E-02	-6.07629215172E-02	2.98635679248E-02	3.88956063815E-02	1.91965653811E-01
1.72341137124E+09	-1.15676933320E-01	-4.33256586393E-02	-5.80498366653E-02	3.51215308971E-02	-5.84611030030E-02	3.42999373544E-02	5.50364419867E-02	1.95013353479E-01
1.72508361204E+09	-1.06309620483E-01	-4.63589517716E-02	-5.53317628572E-02	3.93390801185E-02	-5.57952724554E-02	3.85407308486E-02	7.13641386087E-02	1.96319788942E-01
1.72675585284E+09	-9.74470966855E-02	-5.05668667446E-02	-5.22738495106E-02	4.33244892953E-02	-5.27977021934E-02	4.25628866942E-02	8.76733748843E-02	1.95926653860E-01
1.72842809365E+09	-8.92729911483E-02	-5.57998481516E-02	-4.89035734334E-02	4.70344159386E-02	-4.94819463233E-02	4.63104913930E-02	1.03842955912E-01	1.93813139503E-01
1.73010033445E+09	-8.18886772157E-02	-6.20057988311E-02	-4.52643034353E-02	5.04652474992E-02	-4.58807938651E-02	4.97762331407E-02	1.19647047322E-01	1.90051914325E-01
1.73177257525E+09	-7.54312092864E-02	-6.90052688364E-02	-4.13701521058E-02	5.35631249766E-02	-4.20402950305E-02	5.29377093335E-02	1.34920377281E-01	1.84661658765E-01
1.73344481605E+09	-6.99883829504E-02	-7.66812499021E-02	-3.72740239072E-02	5.63360641559E-02	-3.79836659974E-02	5.57556458694E-02	1.49517235007E-01	1.77709665725E-01
1.73511705686E+09	-6.56328236053E-02	-8.48805447167E-02	-3.30046730606E-02	5.87648921307E-02	-3.37447707991E-02	5.82345102691E-02	1.63279318216E-01	1.69298383620E-01
1.73678929766E+09	-6.24392037998E-02	-9.34534350492E-02	-2.85896776603E-02	6.08361813034E-02	-2.93646489269E-02	6.03613576956E-02	1.76052908060E-01	1.59498740314E-01
1.73846153846E+09	-6.04445788398E-02	-1.02240242100E-01	-2.40747886701E-02	6.25621254714E-02	-2.48835861842E-02	6.21406350161E-02	1.87699875833E-01	1.48417690732E-01
1.74013377926E+09	-5.96491691192E-02	-1.11086117222E-01	-1.94877699835E-02	6.39306799527E-02	-2.03229790698E-02	6.35723781130E-02	1.98092353822E-01	1.36199699305E-01
1.74180602007E+09	-6.00311140351E-02	-1.19808826806E-01	-1.48491707450E-02	6.49531504121E-02	-1.57113487122E-02	6.46477443801E-02	2.07128088881E-01	1.22954078646E-01
1.74347826087E+09	-6.16037082978E-02	-1.28263450133E-01	-1.02212222364E-02	6.56485273658E-02	-1.10894890660E-02	6.53983666893E-02	2.14687707216E-01	1.08843971109E-01
1.74515050167E+09	-6.42859098066E-02	-1.36297021265E-01	-5.58599288696E-03	6.59999307173E-02	-6.45890181036E-03	6.58137343562E-02	2.20698751544E-01	9.39955744858E-02
1.74682274247E+09	-6.80319132197E-02	-1.43780607956E-01	-9.84117661287E-04	6.60384774793E-02	-1.85666537035E-03	6.59073120025E-02	2.25099229780E-01	7.86217465651E-02
1.74849498328E+09	-7.28129202887E-02	-1.50558797159E-01	3.57966457303E-03	6.57793034523E-02	2.69226912199E-03	6.57085890974E-02	2.27837964020E-01	6.28528462162E-02
1.75016722408E+09	-7.84861782544E-02	-1.56505111773E-01	8.08237827286E-03	6.52193003583E-02	7.19511757294E-03	6.52021452491E-02	2.28851961249E-01	4.68655681196E-02
1.75183946488E+09	-8.49613898322E-02	-1.61462885897E-01	1.25024771789E-02	6.43652069992E-02	1.16045829426E-02	6.44101837845E-02	2.28153261253E-01	3.08605581604E-02
1.75351170569E+09	-9.20987713494E-02	-1.65348670036E-01	1.68311648613E-02	6.32492880355E-02	1.59396426806E-02	6.33440806594E-02	2.25711890974E-01	1.49882634399E-02
1.75518394649E+09	-9.97418530807E-02	-1.68026150662E-01	2.10601297675E-02	6.18637385374E-02	2.01795656121E-02	6.20162672122E-02	2.21579980584E-01	-5.39603282895E-04
1.75685618729E+09	-1.07729574634E-01	-1.69431978824E-01	2.51688659208E-02	6.02242889969E-02	2.42974867077E-02	6.04269727212E-02	2.15785675935E-01	-1.55484008948E-02
1.75852842809E+09	-1.15884626006E-01	-1.69466476506E-01	2.91591085778E-02	5.83354158763E-02	2.82893486860E-02	5.85885892904E-02	2.08387531498E-01	-2.98594510911E-02
1.76020066890E+09	-1.23981976128E-01	-1.68116632004E-01	3.30015483278E-02	5.62070159190E-02	3.21646506478E-02	5.65180719121E-02	1.99462171081E-01	-4.33494663510E-02
1.76187290970E+09	-1.31797098136E-01	-1.65368243148E-01	3.67169946928E-02	5.38433119660E-02	3.58851720300E-02	5.42165498799E-02	1.89100329914E-01	-5.58154904372E-02
1.76354515050E+09	-1.39084434816E-01	-1.61234791472E-01	4.02701074816E-02	5.12570915809E-02	3.94592683344E-02	5.16807336925E-02	1.77416685956E-01	-6.70905848062E-02
1.76521739130E+09	-1.45609620107E-01	-1.55816975084E-01	4.36459298216E-02	4.84638600020E-02	4.28551694540E-02	4.89399076677E-02	1.64541186592E-01	-7.70762087398E-02
1.76688963211E+09	-1.51115103304E-01	-1.49230902300E-01	4.68546986157E-02	4.54649591069E-02	4.60917247019E-02	4.59926333373E-02	1.50650511350E-01	-8.56287616036E-02
1.76856187291E+09	-1.55405052547E-01	-1.41643990931E-01	4.98827184824E-02	4.22664281625E-02	4.91520855929E-02	4.28477670343E-02	1.35855030079E-01	-9.26115503857E-02
1.77023411371E+09	-1.58317045586E-01	-1.33310657816E-01	5.27207926002E-02	3.88860165387E-02	5.20225296865E-02	3.95161490915E-02	1.20362607474E-01	-9.79837258730E-02
1.77190635452E+09	-1.59657944754E-01	-1.24469899039E-01	5.53594118444E-02	3.53157913892E-02	5.47022830329E-02	3.59990550198E-02	1.04350052678E-01	-1.01634399827E-01
1.77357859532E+09	-1.59374477216E-01	-1.15421999203E-01	5.77935474680E-02	3.15586354006E-02	5.71608408523E-02	3.23025591954E-02	8.79934025200E-02	-1.03523154210E-01
1.77525083612E+09	-1.57447975612E-01	-1.06489426274E-01	6.00060575882E-02	2.76337154938E-02	5.94218164881E-02	2.84258275391E-02	7.15181966542E-02	-1.03620887129E-01
1.77692307692E+09	-1.53876546317E-01	-9.79783374398E-02	6.19807527541E-02	2.35429543835E-02	6.14442738699E-02	2.43753042847E-02	5.51129767916E-02	-1.01913400230E-01
1.77859531773E+09	-1.48787897988E-01	-9.02179832442E-02	6.37054656902E-02	1.92787211501E-02	6.32341048155E-02	2.01627078095E-02	3.89877142809E-02	-9.84424499555E-02
1.78026755853E+09	-1.42347466132E-01	-8.34972292709E-02	6.51792881479E-02	1.48588616480E-02	6.47551972974E-02	1.57977685901E-02	2.33337969938E-02	-9.32230906919E-02
1.78193979933E+09	-1.34817022800E-01	-7.80375461517E-02	6.63507118441E-02	1.02860437279E-02	6.60000386568E-02	1.12583704197E-02	8.32478498898E-03	-8.63335942366E-02
1.78361204013E+09	-1.26401985232E-01	-7.40450317107E-02	6.72118951822E-02	5.58191868025E-03	6.69288962144E-02	6.59000984332E-03	-5.80952466388E-03	-7.78569580518E-02
1.78528428094E+09	-1.17466783957E-01	-7.16103546289E-02	6.77468952293E-02	7.67143478634E-04	6.75419400047E-02	1.80135294742E-03	-1.89306121345E-02	-6.78758904880E-02
1.78695652174E+09	-1.08300208839E-01	-7.08294739395E-02	6.79170810638E-02	-4.16292003946E-03	6.77914077819E-02	-3.10511772474E-03	-3.08555888028E-02	-5.65449124676E-02
1.78862876254E+09	-9.92479428121E-02	-7.16649427730E-02	6.77023984998E-02	-9.14627051137E-03	6.76756012978E-02	-8.06703375752E-03	-4.14660071402E-02	-4.40097598670E-02
1.79030100334E+09	-9.05660953295E-02	-7.40555941928E-02	6.70900658527E-02	-1.41544824388E-02	6.71364527118E-02	-1.30757265344E-02	-5.06232454216E-02	-3.04023846819E-02
1.79197324415E+09	-8.25371662779E-02	-7.78567014287E-02	6.60539168878E-02	-1.91603383088E-02	6.61975107276E-02	-1.80767913593E-02	-5.81996385572E-02	-1.59180841131E-02
1.79364548495E+09	-7.53624761802E-02	-8.29299917507E-02	6.46008009138E-02	-2.41047677160E-02	6.48304312681E-02	-2.30270906204E-02	-6.41124778146E-02	-7.17341610015E-04
1.79531772575E+09	-6.92482285376E-02	-8.90355655195E-02	6.27114554172E-02	-2.89172582230E-02	6.30396654215E-02	-2.78782191918E-02	-6.83116020530E-02	1.50067851828E-02
1.79698996656E+09	-6.43145034749E-02	-9.60067193065E-02	6.04254932621E-02	-3.36076042137E-02	6.08338448795E-02	-3.25685961934E-02	-7.07392634271E-02	3.10630903403E-02
1.79866220736E+09	-6.06591751571E-02	-1.03597302450E-01	5.77270003050E-02	-3.80638002282E-02	5.82298241753E-02	-3.70803840130E-02	-7.13567180738E-02	4.72058441643E-02
1.80033444816E+09	-5.83406343947E-02	-1.11559092375E-01	5.46721157741E-02	-4.22880429375E-02	5.52517402465E-02	-4.13482096127E-02	-7.02036206667E-02	6.33004935419E-02
1.80200668896E+09	-5.73494056161E-02	-1.19704640372E-01	5.12580157208E-02	-4.62246715539E-02	5.19205498218E-02	-4.53408463716E-02	-6.72679236840E-02	7.90980364187E-02
1.80367892977E+09	-5.76702128379E-02	-1.27809975062E-01	4.75588002631E-02	-4.98305427393E-02	4.82835845840E-02	-4.90084686542E-02	-6.26016318210E-02	9.44160253301E-02
1.80535117057E+09	-5.92408835665E-02	-1.35668364296E-01	4.35909462148E-02	-5.31065352979E-02	4.43659505277E-02	-5.23551884663E-02	-5.62659348333E-02	1.09079708658E-01
1.80702341137E+09	-6.19940865272E-02	-1.43144285551E-01	3.93830640760E-02	-5.60097177056E-02	4.02340838416E-02	-5.53328072031E-02	-4.83770114325E-02	1.22894796256E-01
1.80869565217E+09	-6.58368710125E-02	-1.50051411035E-01	3.50204092168E-02	-5.85313222802E-02	3.58988696549E-02	-5.79321709274E-02	-3.90282256413E-02	1.35693486538E-01
1.81036789298E+09	-7.06538548010E-02	-1.56291532596E-01	3.05112785595E-02	-6.06769194679E-02	3.14341031420E-02	-6.01528273157E-02	-2.83560959919E-02	1.47345210019E-01
1.81204013378E+09	-7.63294046497E-02	-1.61720380885E-01	2.59136036506E-02	-6.24423669958E-02	2.68633687506E-02	-6.19905724489E-02	-1.64716938700E-02	1.57695904353E-01
1.81371237458E+09	-8.27578442372E-02	-1.66248873134E-01	2.12547311770E-02	-6.38229038056E-02	2.22285259750E-02	-6.34566998682E-02	-3.57273628711E-03	1.66639139319E-01
1.81538461538E+09	-8.97389989764E-02	-1.69772602594E-01	1.65768425890E-02	-6.48428401920E-02	1.75735236198E-02	-6.45527373765E-02	1.01908939942E-02	1.74085850436E-01
1.81705685619E+09	-9.71745063631E-02	-1.72275886792E-01	1.19272132699E-02	-6.55018678443E-02	1.29125005766E-02	-6.53104167578E-02	2.46558066174E-02	1.79942128936E-01
1.81872909699E+09	-1.04899092594E-01	-1.73692780966E-01	7.28963056098E-03	-6.58528839789E-02	8.29033424857E-03	-6.57134723555E-02	3.96050571512E-02	1.84160472627E-01
1.82040133779E+09	-1.12741969669E-01	-1.74014185132E-01	2.72483207392E-03	-6.58661581603E-02	3.70326864655E-03	-6.58147855040E-02	5.49054858655E-02	1.86717883572E-01
1.82207357860E+09	-1.20601004235E-01	-1.73254381607E-01	-1.77722991209E-03	-6.55997064280E-02	-8.01378959867E-04	-6.56253521158E-02	7.03228981629E-02	1.87599465971E-01
1.82374581940E+09	-1.28294977601E-01	-1.71442044559E-01	-6.19812979538E-03	-6.50491771956E-02	-5.23410738200E-03	-6.51297030836E-02	8.57256664720E-02	1.86799324788E-01
1.82541806020E+09	-1.35730971433E-01	-1.68584792829E-01	-1.05151067904E-02	-6.42396956115E-02	-9.57791529382E-03	-6.43821210141E-02	1.00904102712E-01	1.84376573598E-01
1.82709030100E+09	-1.42750683311E-01	-1.64703189802E-01	-1.47476577856E-02	-6.31793264895E-02	-1.38296100729E-02	-6.33835747343E-02	1.15702817996E-01	1.80334728588E-01
1.82876254181E+09	-1.49242307159E-01	-1.59907591329E-01	-1.88582493848E-02	-6.18883627407E-02	-1.79621159218E-02	-6.21457581112E-02	1.29936667396E-01	1.74793209540E-01
1.83043478261E+09	-1.55088960493E-01	-1.54208884948E-01	-2.28645125950E-02	-6.03521073797E-02	-2.20026383193E-02	-6.06675659136E-02	1.43488352929E-01	1.67775108470E-01
1.83210702341E+09	-1.60126425234E-01	-1.47756863710E-01	-2.67647679905E-02	-5.86051052501E-02	-2.59202103089E-02	-5.89588320394E-02	1.56191153017E-01	1.59410966652E-01
1.83377926421E+09	-1.64300935282E-01	-1.40593412995E-01	-3.05309208650E-02	-5.66273580106E-02	-2.97265761412E-02	-5.70439653191E-02	1.67914146379E-01	1.49766530059E-01
1.83545150502E+09	-1.67482138595E-01	-1.32862719263E-01	-3.41737533532E-02	-5.44513297178E-02	-3.34099473560E-02	-5.48950766642E-02	1.78538542608E-01	1.38973468969E-01
1.83712374582E+09	-1.69573457262E-01	-1.24659294521E-01	-3.76852284510E-02	-5.20453246725E-02	-3.69475833869E-02	-5.25451110882E-02	1.87967181271E-01	1.27143767885E-01
1.83879598662E+09	-1.70509418026E-01	-1.16184060217E-01	-4.10468897352E-02	-4.94541809275E-02	-4.03381387010E-02	-4.99867606671E-02	1.96087927893E-01	1.14467170738E-01
1.84046822742E+09	-1.70219712595E-01	-1.07540222382E-01	-4.42533322840E-02	-4.66421635361E-02	-4.35770305760E-02	-4.72280692087E-02	2.02841400417E-01	1.01051157231E-01
1.84214046823E+09	-1.68642808454E-01	-9.90046206588E-02	-4.72955764659E-02	-4.36464225249E-02	-4.66504821856E-02	-4.42665923430E-02	2.08149569942E-01	8.70212003136E-02
1.84381270903E+09	-1.65773979105E-01	-9.07169541005E-02	-5.01476964036E-02	-4.04557184077E-02	-4.95497845872E-02	-4.11075219504E-02	2.11978126218E-01	7.25592159571E-02
1.84548494983E+09	-1.61669672184E-01	-8.29146250475E-02	-5.28198839941E-02	-3.70854978299E-02	-5.22440705459E-02	-3.77798268505E-02	2.14260647635E-01	5.78275931294E-02
1.84715719064E+09	-1.56367404164E-01	-7.57983634724E-02	-5.52815292833E-02	-3.35378195393E-02	-5.47637221833E-02	-3.42530821507E-02	2.14992416339E-01	4.29763983232E-02
1.84882943144E+09	-1.49964642616E-01	-6.96057280548E-02	-5.75456843321E-02	-2.98139728564E-02	-5.70576944067E-02	-3.05789160925E-02	2.14183296441E-01	2.81630630974E-02
1.85050167224E+09	-1.42618565134E-01	-6.45444473481E-02	-5.95727467335E-02	-2.59485769029E-02	-5.91327613065E-02	-2.67441302699E-02	2.11831036945E-01	1.35665435184E-02
1.85217391304E+09	-1.34551227564E-01	-6.07877982284E-02	-6.13704685946E-02	-2.19279021949E-02	-6.09751570127E-02	-2.27462766114E-02	2.07962744177E-01	-6.83516575913E-04
1.85384615385E+09	-1.25989485857E-01	-5.84752965014E-02	-6.29149659259E-02	-1.77621800779E-02	-6.25693145700E-02	-1.86169426470E-02	2.02656778516E-01	-1.43927624795E-02
1.85551839465E+09	-1.17183777747E-01	-5.76926159949E-02	-6.41937379864E-02	-1.34758417781E-02	-6.39144821013E-02	-1.43561037536E-02	1.95910384197E-01	-2.74314543167E-02
1.85719063545E+09	-1.08501742301E-01	-5.84828880585E-02	-6.52142471115E-02	-9.07217828500E-03	-6.49766504797E-02	-9.97986492582E-03	1.87849900266E-01	-3.96362175629E-02
1.85886287625E+09	-1.00172236348E-01	-6.08025543924E-02	-6.59395880846E-02	-4.55227108894E-03	-6.57625079925E-02	-5.48931892261E-03	1.78551380258E-01	-5.09045577155E-02
1.86053511706E+09	-9.25387416491E-02	-6.45600486994E-02	-6.63617393862E-02	4.19380067561E-05	-6.62517829877E-02	-9.06697187369E-04	1.68110647150E-01	-6.10574169584E-02
1.86220735786E+09	-8.58407117083E-02	-6.95921780517E-02	-6.64659472853E-02	4.72372896998E-03	-6.64199303291E-02	3.75060792460E-03	1.56661448547E-01	-7.00119593195E-02
1.86387959866E+09	-8.03248949309E-02	-7.56964340475E-02	-6.62379604218E-02	9.45294838713E-03	-6.62558100879E-02	8.47178008962E-03	1.44323876015E-01	-7.76673351686E-02
1.86555183946E+09	-7.61564266113E-02	-8.25869118253E-02	-6.56544908970E-02	1.42180730295E-02	-6.57456969705E-02	1.32160728869E-02	1.31247361201E-01	-8.38989310318E-02
1.86722408027E+09	-7.34747395632E-02	-9.00037251275E-02	-6.47055745830E-02	1.89728088281E-02	-6.48763921845E-02	1.79739790958E-02	1.17580885329E-01	-8.86560410032E-02
1.86889632107E+09	-7.23113039115E-02	-9.76295683609E-02	-6.33809387266E-02	2.36844795752E-02	-6.36221145703E-02	2.26993516641E-02	1.03471155368E-01	-9.18704805669E-02
1.87056856187E+09	-7.26416827293E-02	-1.05156583550E-01	-6.16773113745E-02	2.83346720587E-02	-6.19986554435E-02	2.73597326132E-02	8.91295820169E-02	-9.34832090341E-02
1.87224080268E+09	-7.43885425559E-02	-1.12314139224E-01	-5.95808200632E-02	3.28674324245E-02	-5.99894708621E-02	3.19174237566E-02	7.46753381919E-02	-9.34893019322E-02
1.87391304348E+09	-7.74192350162E-02	-1.18895225998E-01	-5.71238849726E-02	3.72437088966E-02	-5.76045821403E-02	3.63131598563E-02	6.03121688428E-02	-9.18942641101E-02
1.87558528428E+09	-8.16210826247E-02	-1.24657019300E-01	-5.43022163162E-02	4.14295849472E-02	-5.48530764634E-02	4.05357716878E-02	4.62500498848E-02	-8.86811315272E-02
1.87725752508E+09	-8.67419552936E-02	-1.29457372337E-01	-5.11293549320E-02	4.53793360624E-02	-5.17545917904E-02	4.45159985050E-02	3.26035522522E-02	-8.39057819772E-02
1.87892976589E+09	-9.26327072472E-02	-1.33151057423E-01	-4.76428730503E-02	4.90537559001E-02	-4.83334084266E-02	4.82472871753E-02	1.96043995888E-02	-7.76142883999E-02
1.88060200669E+09	-9.90536982160E-02	-1.35656188381E-01	-4.38635663066E-02	5.24366702399E-02	-4.46193084486E-02	5.16764247662E-02	7.39575255311E-03	-6.98912018385E-02
1.88227424749E+09	-1.05802313900E-01	-1.36979250311E-01	-3.98419779279E-02	5.54932404894E-02	-4.06484776045E-02	5.47906807042E-02	-3.88968051801E-03	-6.08687431949E-02
1.88394648829E+09	-1.12675328500E-01	-1.37080716066E-01	-3.55981281921E-02	5.82004610969E-02	-3.64580335131E-02	5.75628130905E-02	-1.40428510118E-02	-5.06298049514E-02
1.88561872910E+09	-1.19492183284E-01	-1.35970960371E-01	-3.11701599155E-02	6.05566648971E-02	-3.20865619580E-02	5.99850208940E-02	-2.29922214049E-02	-3.93217772543E-02
1.88729096990E+09	-1.26071819563E-01	-1.33717325796E-01	-2.66085011645E-02	6.25387923517E-02	-2.75590929950E-02	6.20335388967E-02	-3.06118531125E-02	-2.71072277111E-02
1.88896321070E+09	-1.32265468932E-01	-1.30380922182E-01	-2.19251839528E-02	6.41507783839E-02	-2.29071158067E-02	6.37217061985E-02	-3.68327519442E-02	-1.41235772428E-02
1.89063545151E+09	-1.37903083494E-01	-1.26033088196E-01	-1.71771283948E-02	6.53873164942E-02	-1.81843994281E-02	6.50347748944E-02	-4.15490591665E-02	-5.62545794940E-04
1.89230769231E+09	-1.42831675272E-01	-1.20796363169E-01	-1.23801580030E-02	6.62576366991E-02	-1.34314881548E-02	6.59704090401E-02	-4.47253146236E-02	1.33978413538E-02
1.89397993311E+09	-1.46996315017E-01	-1.14769407221E-01	-7.57509682296E-03	6.67472607339E-02	-8.63647346630E-03	6.65462356914E-02	-4.63464488150E-02	2.75771461902E-02
1.89565217391E+09	-1.50244053413E-01	-1.08109612779E-01	-2.81015925771E-03	6.68867280777E-02	-3.88124521144E-03	6.67696766875E-02	-4.64150641800E-02	4.18112176753E-02
