# Hz S RI R 50
! CMT, CMT808U, 21440046, 21.4.3/4
! Date: 12/11/2025 6:17:04 PM
! Data: Format (Calibration Info)
! Freq	S11:Re/Im(F2)	S41:Re/Im(F2)	S14:Re/Im(F2)	S44:Re/Im(F2)
1.70000000000E+09	-1.52104839839E-01	-8.56702692562E-02	-5.83913971148E-02	-3.80980979191E-02	-5.79730903419E-02	-3.83870012636E-02	-9.89701327288E-02	2.78126037578E-02
1.70100000000E+09	-1.50997531042E-01	-8.07279467237E-02	-5.99680044587E-02	-3.56653471301E-02	-5.96188455706E-02	-3.59725080902E-02	-1.00062820385E-01	3.87134943433E-02
1.70200000000E+09	-1.49113826654E-01	-7.59318839752E-02	-6.15495781792E-02	-3.32297284402E-02	-6.12333043857E-02	-3.34888873005E-02	-1.00589178033E-01	4.96591763760E-02
1.70300000000E+09	-1.46812523724E-01	-7.12784508994E-02	-6.29693902591E-02	-3.06366823124E-02	-6.27055198902E-02	-3.10800963244E-02	-1.00185516387E-01	6.05412974883E-02
1.70400000000E+09	-1.43923779120E-01	-6.67576969654E-02	-6.43985180733E-02	-2.79543920525E-02	-6.40418142804E-02	-2.84104726269E-02	-9.91038758113E-02	7.13463637635E-02
1.70500000000E+09	-1.40414710556E-01	-6.25363863680E-02	-6.56315744389E-02	-2.53099578607E-02	-6.53638139871E-02	-2.56761818069E-02	-9.73181374029E-02	8.21081275608E-02
1.70600000000E+09	-1.36482362047E-01	-5.87173259845E-02	-6.67640833385E-02	-2.25699831138E-02	-6.64819366188E-02	-2.29573579711E-02	-9.48894210522E-02	9.26034613539E-02
1.70700000000E+09	-1.32120709373E-01	-5.52037329540E-02	-6.78306452107E-02	-1.97172571883E-02	-6.76067301621E-02	-2.00922037046E-02	-9.16816298105E-02	1.03080459934E-01
1.70800000000E+09	-1.27374525289E-01	-5.20974437062E-02	-6.87049023096E-02	-1.68307804467E-02	-6.84893091312E-02	-1.72288413595E-02	-8.78843864807E-02	1.13200994895E-01
1.70900000000E+09	-1.22361357121E-01	-4.93916344191E-02	-6.94539987836E-02	-1.37596420347E-02	-6.93050785656E-02	-1.42325926422E-02	-8.34348118945E-02	1.23061461921E-01
1.71000000000E+09	-1.17020665865E-01	-4.71958576247E-02	-7.02434897693E-02	-1.07860605835E-02	-6.99539134358E-02	-1.12505894356E-02	-7.83513564444E-02	1.32572091899E-01
1.71100000000E+09	-1.11525964578E-01	-4.54966309535E-02	-7.07193202160E-02	-7.70915752756E-03	-7.05160753998E-02	-8.20410918014E-03	-7.26942011849E-02	1.41712980786E-01
1.71200000000E+09	-1.05839324917E-01	-4.41958934505E-02	-7.11012242332E-02	-4.59803564071E-03	-7.10220877568E-02	-5.14349091815E-03	-6.64206911227E-02	1.50541483920E-01
1.71300000000E+09	-1.00008970080E-01	-4.34889402071E-02	-7.12376374352E-02	-1.61070428202E-03	-7.11494574020E-02	-1.97928631521E-03	-5.96570184929E-02	1.58840679155E-01
1.71400000000E+09	-9.42391587168E-02	-4.31982479777E-02	-7.13642883131E-02	1.68168640596E-03	-7.12933573490E-02	1.08120760780E-03	-5.24783774101E-02	1.66724160170E-01
1.71500000000E+09	-8.82939785772E-02	-4.33922655618E-02	-7.13138307409E-02	4.79029880334E-03	-7.11622294517E-02	4.30420301418E-03	-4.46204413483E-02	1.74120836033E-01
1.71600000000E+09	-8.24954239496E-02	-4.40217020544E-02	-7.10731322778E-02	7.94500261634E-03	-7.09565818779E-02	7.41439265466E-03	-3.64123895650E-02	1.80955863651E-01
1.71700000000E+09	-7.66700962733E-02	-4.51516949266E-02	-7.07128337468E-02	1.10675544157E-02	-7.05873872541E-02	1.05957684882E-02	-2.77460180100E-02	1.87364452934E-01
1.71800000000E+09	-7.10107975014E-02	-4.65906005303E-02	-7.01341823890E-02	1.41432495925E-02	-7.00685657053E-02	1.36684446120E-02	-1.88683750536E-02	1.93012798635E-01
1.71900000000E+09	-6.55703978747E-02	-4.85609059739E-02	-6.94590248276E-02	1.72615301699E-02	-6.94027388107E-02	1.67961252949E-02	-9.51499203287E-03	1.98323306954E-01
1.72000000000E+09	-6.01975160903E-02	-5.09411246846E-02	-6.86459256009E-02	2.02590623844E-02	-6.85669790196E-02	1.97894623749E-02	6.80383065874E-05	2.02864311235E-01
1.72100000000E+09	-5.50921853375E-02	-5.35099463640E-02	-6.75713124584E-02	2.33291795000E-02	-6.76253078932E-02	2.28763478411E-02	1.00574488590E-02	2.06761465177E-01
1.72200000000E+09	-5.01456683161E-02	-5.65533284917E-02	-6.65015487841E-02	2.63330762449E-02	-6.65068489145E-02	2.57342717517E-02	2.00739910687E-02	2.10201592429E-01
1.72300000000E+09	-4.54046859122E-02	-5.98541403963E-02	-6.52260090972E-02	2.91880465266E-02	-6.52784570671E-02	2.86716159646E-02	3.03125446134E-02	2.12944520154E-01
1.72400000000E+09	-4.10577177020E-02	-6.34029949476E-02	-6.38310838222E-02	3.19953236149E-02	-6.38872632855E-02	3.14890230693E-02	4.07439974986E-02	2.14989792518E-01
1.72500000000E+09	-3.68607672677E-02	-6.73311007596E-02	-6.22958722964E-02	3.47311570854E-02	-6.24703775152E-02	3.42383134714E-02	5.12110559889E-02	2.16346931000E-01
1.72600000000E+09	-3.29826933604E-02	-7.13883227558E-02	-6.06580056941E-02	3.74619026591E-02	-6.07505705901E-02	3.69139137476E-02	6.16892697853E-02	2.17008181641E-01
1.72700000000E+09	-2.93115236852E-02	-7.56572086833E-02	-5.88609633615E-02	4.00202312818E-02	-5.89885578755E-02	3.95034623947E-02	7.23057727001E-02	2.17146526785E-01
1.72800000000E+09	-2.60327998264E-02	-8.02126229386E-02	-5.69496532253E-02	4.25313753634E-02	-5.71157882049E-02	4.20288906838E-02	8.28137387273E-02	2.16557894369E-01
1.72900000000E+09	-2.30883560607E-02	-8.48732807182E-02	-5.49433684972E-02	4.49029579057E-02	-5.52560248253E-02	4.44196109794E-02	9.33154650360E-02	2.15398312230E-01
1.73000000000E+09	-2.03516998072E-02	-8.97505696605E-02	-5.29309735706E-02	4.72333140810E-02	-5.31245179563E-02	4.67712350026E-02	1.03604341895E-01	2.13556610256E-01
1.73100000000E+09	-1.78924985422E-02	-9.47179864585E-02	-5.07084012232E-02	4.93389261003E-02	-5.09461860154E-02	4.88662090571E-02	1.13874917294E-01	2.11005682963E-01
1.73200000000E+09	-1.58265533245E-02	-9.98802659278E-02	-4.83913146471E-02	5.13777418678E-02	-4.86212059118E-02	5.09988104723E-02	1.23899284119E-01	2.07870750663E-01
1.73300000000E+09	-1.40870285133E-02	-1.05022311983E-01	-4.61064845781E-02	5.33947530559E-02	-4.63091248119E-02	5.29380844711E-02	1.33742447828E-01	2.04195222133E-01
1.73400000000E+09	-1.26374793069E-02	-1.10396086863E-01	-4.35743488468E-02	5.51889331490E-02	-4.39668044138E-02	5.48631277120E-02	1.43336671187E-01	1.99848154805E-01
1.73500000000E+09	-1.15642834243E-02	-1.15824402454E-01	-4.11225699197E-02	5.69718893775E-02	-4.14673921849E-02	5.65316282642E-02	1.52593949373E-01	1.94970187087E-01
1.73600000000E+09	-1.08807225390E-02	-1.21188273164E-01	-3.85718431940E-02	5.85484302805E-02	-3.89389437824E-02	5.81507938023E-02	1.61447908141E-01	1.89358511669E-01
1.73700000000E+09	-1.04515450571E-02	-1.26647344389E-01	-3.59263030242E-02	5.99970178356E-02	-3.63015758168E-02	5.95938303402E-02	1.70115845452E-01	1.83535606845E-01
1.73800000000E+09	-1.04214330356E-02	-1.32167926116E-01	-3.32298779707E-02	6.13498953738E-02	-3.36216179318E-02	6.09219171341E-02	1.78185874152E-01	1.76989104252E-01
1.73900000000E+09	-1.07010958765E-02	-1.37705433082E-01	-3.04906027860E-02	6.25280606956E-02	-3.09776113834E-02	6.21676961712E-02	1.86084080339E-01	1.69962603149E-01
1.74000000000E+09	-1.14381460459E-02	-1.43167932949E-01	-2.78290798092E-02	6.35873895091E-02	-2.81750684966E-02	6.33789783686E-02	1.93399744483E-01	1.62413161641E-01
1.74100000000E+09	-1.25109858448E-02	-1.48521564487E-01	-2.50148929857E-02	6.45550090320E-02	-2.54876604523E-02	6.42818651774E-02	2.00235322659E-01	1.54623431980E-01
1.74200000000E+09	-1.38497393394E-02	-1.53893182713E-01	-2.22590878707E-02	6.54409110013E-02	-2.26854849083E-02	6.51422868589E-02	2.06533346236E-01	1.46199081955E-01
1.74300000000E+09	-1.57289696700E-02	-1.59054564703E-01	-1.94016996922E-02	6.62118262562E-02	-1.98011088824E-02	6.58491131560E-02	2.12402656052E-01	1.37456529725E-01
1.74400000000E+09	-1.78620532495E-02	-1.64107940515E-01	-1.65877890138E-02	6.67589507776E-02	-1.70418510112E-02	6.64498603161E-02	2.17674609486E-01	1.28425484914E-01
1.74500000000E+09	-2.04409553692E-02	-1.68987574656E-01	-1.37346043516E-02	6.71310772532E-02	-1.41220814728E-02	6.69469890325E-02	2.22325505861E-01	1.18995890097E-01
1.74600000000E+09	-2.33303409421E-02	-1.73725462003E-01	-1.08966386029E-02	6.74698142507E-02	-1.13674130142E-02	6.73007963436E-02	2.26387908742E-01	1.09464366135E-01
1.74700000000E+09	-2.66257002433E-02	-1.78229607857E-01	-8.06716108530E-03	6.77734371628E-02	-8.58767480850E-03	6.75562756733E-02	2.29892043604E-01	9.94718043227E-02
1.74800000000E+09	-3.01836702630E-02	-1.82371799213E-01	-5.32348304419E-03	6.78249676117E-02	-5.75610147452E-03	6.76808292305E-02	2.32754931015E-01	8.93822565346E-02
1.74900000000E+09	-3.41143026433E-02	-1.86274312070E-01	-2.45754952231E-03	6.78960671770E-02	-2.92589538967E-03	6.76575618164E-02	2.35004715143E-01	7.92292388906E-02
1.75000000000E+09	-3.83950659233E-02	-1.89919659425E-01	2.28345369498E-04	6.77364882326E-02	-2.67112446866E-04	6.75579737631E-02	2.36574581812E-01	6.88224781485E-02
1.75100000000E+09	-4.27534164439E-02	-1.93127405811E-01	3.05674754037E-03	6.75366689381E-02	2.51865895986E-03	6.73429835491E-02	2.37532815779E-01	5.83060981412E-02
1.75200000000E+09	-4.75871449629E-02	-1.96018896378E-01	5.67882500112E-03	6.71270284480E-02	5.29309429640E-03	6.70592733131E-02	2.37718843137E-01	4.78685895579E-02
1.75300000000E+09	-5.25139693028E-02	-1.98393289712E-01	8.40752286077E-03	6.67612471028E-02	7.96014505799E-03	6.66544066494E-02	2.37371912688E-01	3.72557427618E-02
1.75400000000E+09	-5.77652546530E-02	-2.00397945247E-01	1.10415646867E-02	6.61317152619E-02	1.05446886675E-02	6.61152143084E-02	2.36198302961E-01	2.67597675468E-02
1.75500000000E+09	-6.30944582704E-02	-2.01961982407E-01	1.36475217656E-02	6.55293471519E-02	1.31849660476E-02	6.55469551251E-02	2.34499023237E-01	1.63052201049E-02
1.75600000000E+09	-6.85637184617E-02	-2.02903821073E-01	1.62211655053E-02	6.47777919710E-02	1.57740318071E-02	6.47723609489E-02	2.32010716148E-01	6.13789844081E-03
1.75700000000E+09	-7.40275493370E-02	-2.03483513872E-01	1.86953342926E-02	6.40570059312E-02	1.82239697520E-02	6.40012663073E-02	2.28915509104E-01	-4.10546751590E-03
1.75800000000E+09	-7.95570869410E-02	-2.03482837814E-01	2.11826443785E-02	6.31186175959E-02	2.06735811898E-02	6.31865202520E-02	2.25194168113E-01	-1.39336827240E-02
1.75900000000E+09	-8.51625053817E-02	-2.02944843850E-01	2.36299980236E-02	6.21203049250E-02	2.30749369029E-02	6.21501552222E-02	2.20835667786E-01	-2.35819259673E-02
1.76000000000E+09	-9.05527170210E-02	-2.01858981068E-01	2.59950467543E-02	6.11356857692E-02	2.54583274703E-02	6.11972176276E-02	2.15845400688E-01	-3.29936002937E-02
1.76100000000E+09	-9.58244219949E-02	-2.00195874237E-01	2.82663775107E-02	6.00086672844E-02	2.78332091128E-02	6.00543387049E-02	2.10188434946E-01	-4.20277196092E-02
1.76200000000E+09	-1.00926882143E-01	-1.98143993206E-01	3.05956387279E-02	5.88512756343E-02	3.01354981424E-02	5.88658525282E-02	2.04032140749E-01	-5.06468400298E-02
1.76300000000E+09	-1.05750950564E-01	-1.95409659524E-01	3.28456101667E-02	5.75690120808E-02	3.23113075774E-02	5.77027101953E-02	1.97367658196E-01	-5.89376794258E-02
1.76400000000E+09	-1.10223507593E-01	-1.92169665678E-01	3.50264240817E-02	5.62481596935E-02	3.45127226714E-02	5.63780166692E-02	1.90154736238E-01	-6.67391819489E-02
1.76500000000E+09	-1.14291508728E-01	-1.88548357058E-01	3.71656362351E-02	5.49338835164E-02	3.66559103850E-02	5.50193514435E-02	1.82315252023E-01	-7.41319245778E-02
1.76600000000E+09	-1.17946504318E-01	-1.84451104629E-01	3.92159874511E-02	5.34701140478E-02	3.87632322032E-02	5.35725405101E-02	1.74145340053E-01	-8.08960929209E-02
1.76700000000E+09	-1.21054708028E-01	-1.79892432408E-01	4.13325536220E-02	5.18857136647E-02	4.07789885797E-02	5.21192443232E-02	1.65421771303E-01	-8.72283858562E-02
1.76800000000E+09	-1.23636555261E-01	-1.75211099440E-01	4.33194636260E-02	5.03279479589E-02	4.29083799305E-02	5.05978699699E-02	1.56373814898E-01	-9.28471928361E-02
1.76900000000E+09	-1.25574837523E-01	-1.70074218139E-01	4.53357361363E-02	4.87012376422E-02	4.48988698288E-02	4.89560127165E-02	1.46964981580E-01	-9.79097005022E-02
1.77000000000E+09	-1.26921735465E-01	-1.64770126923E-01	4.72868905355E-02	4.69860946233E-02	4.67779330236E-02	4.72390366785E-02	1.37226094436E-01	-1.02461964353E-01
1.77100000000E+09	-1.27650984102E-01	-1.59613104286E-01	4.90898160734E-02	4.52787755857E-02	4.87500315075E-02	4.54715380314E-02	1.27122817929E-01	-1.06263569269E-01
1.77200000000E+09	-1.27581509221E-01	-1.54224229819E-01	5.09991556100E-02	4.33816406727E-02	5.05825144221E-02	4.36469912169E-02	1.16983897256E-01	-1.09380725386E-01
1.77300000000E+09	-1.26942420403E-01	-1.48955792583E-01	5.29068630044E-02	4.14149617473E-02	5.24799547436E-02	4.17043170981E-02	1.06492150026E-01	-1.11900839711E-01
1.77400000000E+09	-1.25493952020E-01	-1.43802781002E-01	5.46482995048E-02	3.94293393682E-02	5.42011761390E-02	3.96698725752E-02	9.58357578643E-02	-1.13707207554E-01
1.77500000000E+09	-1.23497492381E-01	-1.38945352131E-01	5.63701518133E-02	3.73583120054E-02	5.59451976687E-02	3.76014883821E-02	8.52315505340E-02	-1.14765269338E-01
1.77600000000E+09	-1.20865991035E-01	-1.34457176626E-01	5.80954746091E-02	3.50831806147E-02	5.76842661110E-02	3.54636373332E-02	7.44233041485E-02	-1.15192039923E-01
1.77700000000E+09	-1.17718555143E-01	-1.30399095614E-01	5.96915995906E-02	3.27650488035E-02	5.92365292531E-02	3.31499234532E-02	6.36565922052E-02	-1.14805732020E-01
1.77800000000E+09	-1.14033685164E-01	-1.26711320405E-01	6.11654327611E-02	3.03537007464E-02	6.08223356662E-02	3.08047605402E-02	5.29440648451E-02	-1.13861618655E-01
1.77900000000E+09	-1.09874112357E-01	-1.23705064877E-01	6.26549326574E-02	2.79874321953E-02	6.23408780608E-02	2.83549260175E-02	4.23644787695E-02	-1.12052329462E-01
1.78000000000E+09	-1.05496550124E-01	-1.21181762706E-01	6.39995478133E-02	2.53875351192E-02	6.36634175950E-02	2.57878904084E-02	3.18104635439E-02	-1.09595385986E-01
1.78100000000E+09	-1.00779200962E-01	-1.19383580890E-01	6.52554893575E-02	2.26933485160E-02	6.49205540841E-02	2.30887123020E-02	2.15004751002E-02	-1.06600410569E-01
1.78200000000E+09	-9.59045728742E-02	-1.18196700767E-01	6.63800957508E-02	1.98536570183E-02	6.60881625264E-02	2.03432850518E-02	1.14598528881E-02	-1.02822365726E-01
1.78300000000E+09	-9.10074271707E-02	-1.17621805529E-01	6.73369913371E-02	1.70983747988E-02	6.69932602348E-02	1.74858341403E-02	1.59382073488E-03	-9.83379258765E-02
1.78400000000E+09	-8.60470653960E-02	-1.17780439562E-01	6.82546873734E-02	1.41511980750E-02	6.80271208588E-02	1.46106105108E-02	-7.95411741127E-03	-9.33474266396E-02
1.78500000000E+09	-8.12083297957E-02	-1.18542265159E-01	6.90481858605E-02	1.11550320721E-02	6.88659127516E-02	1.16398326577E-02	-1.71153854127E-02	-8.76262522382E-02
1.78600000000E+09	-7.65692155269E-02	-1.19829093683E-01	6.96267786990E-02	8.12145628081E-03	6.93866312784E-02	8.59764251749E-03	-2.59403620311E-02	-8.14099800501E-02
1.78700000000E+09	-7.21502228056E-02	-1.21727853610E-01	6.99839410095E-02	4.95278740457E-03	6.98355498041E-02	5.54033864066E-03	-3.42688621474E-02	-7.44712358833E-02
1.78800000000E+09	-6.80826442463E-02	-1.24188258399E-01	7.03694304366E-02	1.89266017693E-03	7.02039519637E-02	2.37060068213E-03	-4.20932785381E-02	-6.70761564682E-02
1.78900000000E+09	-6.42738003271E-02	-1.27076657514E-01	7.04733846992E-02	-1.30991061979E-03	7.02764534386E-02	-7.74337623341E-04	-4.95800629866E-02	-5.91679204045E-02
1.79000000000E+09	-6.08441714762E-02	-1.30449968669E-01	7.03939390057E-02	-4.54218686394E-03	7.03400555465E-02	-3.95844021321E-03	-5.64894243670E-02	-5.08436495488E-02
1.79100000000E+09	-5.79173237073E-02	-1.34075356048E-01	7.01827164897E-02	-7.60774946336E-03	7.01104107643E-02	-7.11079183594E-03	-6.27475519138E-02	-4.20066023060E-02
1.79200000000E+09	-5.53990629459E-02	-1.37988305663E-01	6.97593793667E-02	-1.08769710004E-02	6.97635835479E-02	-1.02325588130E-02	-6.83900084400E-02	-3.28942624226E-02
1.79300000000E+09	-5.33491209037E-02	-1.42209749460E-01	6.93291838601E-02	-1.39407637711E-02	6.92610149018E-02	-1.34777234921E-02	-7.33995212676E-02	-2.33106550799E-02
1.79400000000E+09	-5.17392710128E-02	-1.46528861027E-01	6.86166427665E-02	-1.70684323504E-02	6.85935338646E-02	-1.65258045550E-02	-7.79167762628E-02	-1.35641241319E-02
1.79500000000E+09	-5.06888680018E-02	-1.51017518898E-01	6.77044192417E-02	-2.01361356995E-02	6.77289467116E-02	-1.95762676536E-02	-8.15933647286E-02	-3.38455268761E-03
1.79600000000E+09	-5.00713033158E-02	-1.55551978840E-01	6.67225487571E-02	-2.31291376205E-02	6.66986204718E-02	-2.25622124940E-02	-8.46830477120E-02	7.02585433316E-03
1.79700000000E+09	-4.98701427651E-02	-1.60102750203E-01	6.55547611875E-02	-2.60949189349E-02	6.55590763135E-02	-2.55746585475E-02	-8.71174109819E-02	1.75265316802E-02
1.79800000000E+09	-5.02343120139E-02	-1.64696130423E-01	6.42063541485E-02	-2.90131476828E-02	6.42952066016E-02	-2.84830888327E-02	-8.87247295286E-02	2.81877417207E-02
1.79900000000E+09	-5.09230042265E-02	-1.69156174750E-01	6.27398291262E-02	-3.17766937629E-02	6.28697181076E-02	-3.12507607457E-02	-8.96737359745E-02	3.89815299690E-02
1.80000000000E+09	-5.21046526244E-02	-1.73577598815E-01	6.11957559750E-02	-3.44899439249E-02	6.12812315597E-02	-3.39384270043E-02	-8.99553317150E-02	4.96602916970E-02
1.80100000000E+09	-5.36181765991E-02	-1.77794668240E-01	5.94154989829E-02	-3.71707440134E-02	5.96092907555E-02	-3.66457363376E-02	-8.94346857015E-02	6.04553602200E-02
1.80200000000E+09	-5.54942780063E-02	-1.81871251794E-01	5.76208459918E-02	-3.96511366205E-02	5.78595056717E-02	-3.91181513222E-02	-8.83356572874E-02	7.12360335653E-02
1.80300000000E+09	-5.77472330705E-02	-1.85725631968E-01	5.56688767470E-02	-4.20643818480E-02	5.59237227722E-02	-4.15286261581E-02	-8.64506330262E-02	8.18082820590E-02
1.80400000000E+09	-6.03281595232E-02	-1.89458236650E-01	5.36592953120E-02	-4.43418682269E-02	5.38949335959E-02	-4.38083423622E-02	-8.37764227926E-02	9.22121101633E-02
1.80500000000E+09	-6.31377502650E-02	-1.92847652374E-01	5.15007456570E-02	-4.65478858059E-02	5.17610518417E-02	-4.60800915435E-02	-8.05743639535E-02	1.02375528405E-01
1.80600000000E+09	-6.61769094466E-02	-1.96148938237E-01	4.93704018956E-02	-4.86692793677E-02	4.95602189865E-02	-4.81104753755E-02	-7.66549701316E-02	1.12386485521E-01
1.80700000000E+09	-6.95691208736E-02	-1.99044499626E-01	4.70214909091E-02	-5.05905277739E-02	4.72591049156E-02	-5.00737917484E-02	-7.20941737673E-02	1.22022281273E-01
1.80800000000E+09	-7.31073196555E-02	-2.01791877429E-01	4.46958897904E-02	-5.24123043869E-02	4.49195208998E-02	-5.19309289600E-02	-6.68347204016E-02	1.31451005744E-01
1.80900000000E+09	-7.67777210305E-02	-2.04136536999E-01	4.21830818684E-02	-5.40093576877E-02	4.25471440644E-02	-5.36911569892E-02	-6.10394265537E-02	1.40260782873E-01
1.81000000000E+09	-8.07693562527E-02	-2.06363664497E-01	3.97881414259E-02	-5.57521096299E-02	4.00840995071E-02	-5.52452151649E-02	-5.47758550601E-02	1.48855202578E-01
1.81100000000E+09	-8.48257438395E-02	-2.08302137533E-01	3.71741942716E-02	-5.71254392146E-02	3.76136296843E-02	-5.66944004073E-02	-4.78431169661E-02	1.56988919428E-01
1.81200000000E+09	-8.90897220351E-02	-2.09780393843E-01	3.46060347823E-02	-5.84367302498E-02	3.49850527888E-02	-5.80410374274E-02	-4.03799065297E-02	1.64510848275E-01
1.81300000000E+09	-9.33984663800E-02	-2.11179974897E-01	3.20431085630E-02	-5.97041533296E-02	3.24204595483E-02	-5.92777120865E-02	-3.25057748334E-02	1.71573911233E-01
1.81400000000E+09	-9.76968212970E-02	-2.12203328418E-01	2.93818025789E-02	-6.07776114435E-02	2.98246278444E-02	-6.04413262568E-02	-2.43855942349E-02	1.78189372215E-01
1.81500000000E+09	-1.02310832938E-01	-2.12915335754E-01	2.66865312885E-02	-6.17412571539E-02	2.71367508728E-02	-6.14501051101E-02	-1.56540263909E-02	1.84192289518E-01
1.81600000000E+09	-1.06800381396E-01	-2.13402055416E-01	2.40147438024E-02	-6.26702267799E-02	2.45304328337E-02	-6.22953251761E-02	-6.58586016207E-03	1.89531909505E-01
1.81700000000E+09	-1.11413413957E-01	-2.13564890513E-01	2.13864662348E-02	-6.33436812161E-02	2.18504200629E-02	-6.30074250664E-02	2.68317827216E-03	1.94408454664E-01
