# Hz S RI R 50
! CMT, CMT808U, 21440046, 21.4.3/4
! Date: 12/13/2025 10:46:42 PM
! Data: Format (Calibration Info)
! Freq	S11:Re/Im(F2)	S41:Re/Im(F2)	S14:Re/Im(F2)	S44:Re/Im(F2)
1.70000000000E+09	-8.56443059632E-02	-1.26596001228E-01	-5.65415238303E-02	-3.93645571145E-02	-5.62747832833E-02	-3.93516337227E-02	-4.00292118348E-02	6.04344979098E-02
1.70100000000E+09	-8.72543504966E-02	-1.21557407159E-01	-5.81845876333E-02	-3.69287004248E-02	-5.79785390751E-02	-3.69214476949E-02	-3.87474170578E-02	6.87044767876E-02
1.70200000000E+09	-8.82637246346E-02	-1.16257951810E-01	-5.98117488005E-02	-3.44874443873E-02	-5.96452012972E-02	-3.44422521222E-02	-3.70935036394E-02	7.68651123275E-02
1.70300000000E+09	-8.89227175324E-02	-1.10744594720E-01	-6.12699770371E-02	-3.18914332597E-02	-6.11452272079E-02	-3.20252108939E-02	-3.47410655535E-02	8.48463881562E-02
1.70400000000E+09	-8.90456131813E-02	-1.04967964913E-01	-6.27326511426E-02	-2.92168542701E-02	-6.25092333325E-02	-2.93541286388E-02	-3.18969800011E-02	9.26716137786E-02
1.70500000000E+09	-8.85526418539E-02	-9.90978963261E-02	-6.40069174399E-02	-2.65874634533E-02	-6.38369228916E-02	-2.66508757331E-02	-2.85089469164E-02	1.00326747510E-01
1.70600000000E+09	-8.75394749616E-02	-9.32237706962E-02	-6.51601245933E-02	-2.38788278663E-02	-6.49780301516E-02	-2.39292938419E-02	-2.46953275504E-02	1.07665772738E-01
1.70700000000E+09	-8.60364548314E-02	-8.72746881428E-02	-6.62396097578E-02	-2.10720474767E-02	-6.61129253154E-02	-2.11009595398E-02	-2.02992109522E-02	1.14903899018E-01
1.70800000000E+09	-8.39617162689E-02	-8.13708008159E-02	-6.71390316644E-02	-1.82265131008E-02	-6.69889657414E-02	-1.82774291177E-02	-1.55657452637E-02	1.21768796433E-01
1.70900000000E+09	-8.14250459654E-02	-7.55398773293E-02	-6.79096874641E-02	-1.52070458809E-02	-6.78183677451E-02	-1.53379554210E-02	-1.03528440698E-02	1.28302519923E-01
1.71000000000E+09	-7.83201263752E-02	-6.98914013593E-02	-6.87342565189E-02	-1.22942507603E-02	-6.84816155449E-02	-1.23905222931E-02	-4.70236834215E-03	1.34476582514E-01
1.71100000000E+09	-7.47943402394E-02	-6.44584546205E-02	-6.92530928150E-02	-9.28651205040E-03	-6.90566533635E-02	-9.42098589012E-03	1.30437989776E-03	1.40254828844E-01
1.71200000000E+09	-7.07772263168E-02	-5.92014928460E-02	-6.96652211492E-02	-6.23479322101E-03	-6.95864989071E-02	-6.42753081243E-03	7.72529849952E-03	1.45741461249E-01
1.71300000000E+09	-6.62902377604E-02	-5.42947867864E-02	-6.98533311286E-02	-3.31242368822E-03	-6.97646102752E-02	-3.34262848839E-03	1.43923422454E-02	1.50735339692E-01
1.71400000000E+09	-6.15278846157E-02	-4.96630923888E-02	-7.00373798500E-02	-1.22315259571E-04	-6.99397137648E-02	-3.57337160673E-04	2.13044294470E-02	1.55284135850E-01
1.71500000000E+09	-5.62549346189E-02	-4.53715247273E-02	-7.00538609747E-02	2.91714026682E-03	-6.98577129697E-02	2.79259949164E-03	2.87048514412E-02	1.59418170025E-01
1.71600000000E+09	-5.07520980019E-02	-4.14524920702E-02	-6.98906194083E-02	5.99410403928E-03	-6.97258274439E-02	5.82550547057E-03	3.62166354088E-02	1.63019283864E-01
1.71700000000E+09	-4.48650570220E-02	-3.79600842015E-02	-6.96154931961E-02	9.03636812749E-03	-6.94343854927E-02	8.92282680702E-03	4.40110772782E-02	1.66282556121E-01
1.71800000000E+09	-3.87893991157E-02	-3.47698008247E-02	-6.91487541861E-02	1.20431085688E-02	-6.89814696291E-02	1.19250339219E-02	5.18165353034E-02	1.68836607327E-01
1.71900000000E+09	-3.25851052464E-02	-3.21306586060E-02	-6.85779708745E-02	1.50995379472E-02	-6.84189211936E-02	1.49851197184E-02	5.99613426011E-02	1.71137157020E-01
1.72000000000E+09	-2.60996175782E-02	-2.99518026653E-02	-6.78741430022E-02	1.80405784307E-02	-6.76798562170E-02	1.79078728967E-02	6.81176379992E-02	1.72768720258E-01
1.72100000000E+09	-1.95504694130E-02	-2.80630941750E-02	-6.69456454040E-02	2.10492084208E-02	-6.68503830456E-02	2.09369514882E-02	7.65083104961E-02	1.73828488890E-01
1.72200000000E+09	-1.28545727737E-02	-2.67407389636E-02	-6.60018511179E-02	2.39917460832E-02	-6.58417797058E-02	2.37421576091E-02	8.47937571941E-02	1.74558786305E-01
1.72300000000E+09	-6.06209957741E-03	-2.58408595868E-02	-6.48657086183E-02	2.68393321569E-02	-6.47531846181E-02	2.66325735371E-02	9.31124769817E-02	1.74759985564E-01
1.72400000000E+09	6.20124560049E-04	-2.53752080184E-02	-6.36142530924E-02	2.96112681677E-02	-6.34885460587E-02	2.94164582750E-02	1.01486019667E-01	1.74347197995E-01
1.72500000000E+09	7.40156220866E-03	-2.54358757959E-02	-6.22340476700E-02	3.23376518665E-02	-6.22056320353E-02	3.21444541350E-02	1.09754029987E-01	1.73420654305E-01
1.72600000000E+09	1.40706502602E-02	-2.58466394684E-02	-6.07499840912E-02	3.50717296624E-02	-6.06274899305E-02	3.48222973615E-02	1.17901361099E-01	1.71950380592E-01
1.72700000000E+09	2.07491854770E-02	-2.66883369601E-02	-5.90952769298E-02	3.76488899022E-02	-5.89996377480E-02	3.74071485490E-02	1.26075150215E-01	1.70104214616E-01
1.72800000000E+09	2.72335741249E-02	-2.80402736446E-02	-5.73467748161E-02	4.01811293275E-02	-5.72783274821E-02	3.99399567411E-02	1.33993760837E-01	1.67684129779E-01
1.72900000000E+09	3.35393184307E-02	-2.97088479280E-02	-5.54863172717E-02	4.25865779005E-02	-5.55599195533E-02	4.23554208670E-02	1.41845601494E-01	1.64861516775E-01
1.73000000000E+09	3.97588135672E-02	-3.18763970873E-02	-5.36270807853E-02	4.49683538923E-02	-5.35559378607E-02	4.47505356191E-02	1.49388389805E-01	1.61515869580E-01
1.73100000000E+09	4.58084097565E-02	-3.43608521985E-02	-5.15573911963E-02	4.71332534824E-02	-5.15304703154E-02	4.68935549539E-02	1.56833725400E-01	1.57711229577E-01
1.73200000000E+09	5.15800343293E-02	-3.72856649151E-02	-4.93897350169E-02	4.92533061901E-02	-4.93503047071E-02	4.90923087632E-02	1.63935360690E-01	1.53460214368E-01
1.73300000000E+09	5.71030480907E-02	-4.04229691765E-02	-4.72328892548E-02	5.13405478111E-02	-4.71585578896E-02	5.10859009079E-02	1.70801473128E-01	1.48855148861E-01
1.73400000000E+09	6.23793174673E-02	-4.40449661402E-02	-4.48275631131E-02	5.32433447718E-02	-4.49409107884E-02	5.31030650080E-02	1.77385724985E-01	1.43813061913E-01
1.73500000000E+09	6.73070299771E-02	-4.79530625948E-02	-4.25072233631E-02	5.51146093430E-02	-4.25651193629E-02	5.48542903455E-02	1.83596900968E-01	1.38400300578E-01
1.73600000000E+09	7.19082273185E-02	-5.20507361928E-02	-4.00818149089E-02	5.68001013630E-02	-4.01500787583E-02	5.65795659531E-02	1.89377512085E-01	1.32476684696E-01
1.73700000000E+09	7.62137689422E-02	-5.64766253293E-02	-3.75403974197E-02	5.83699576961E-02	-3.76249024380E-02	5.81241351736E-02	1.94990326925E-01	1.26504416889E-01
1.73800000000E+09	8.01446238566E-02	-6.11695221155E-02	-3.49506117283E-02	5.98560953036E-02	-3.50413485352E-02	5.95853271486E-02	2.00004220149E-01	1.20055761751E-01
1.73900000000E+09	8.36945672570E-02	-6.61063920095E-02	-3.23057364164E-02	6.11802770072E-02	-3.24712211670E-02	6.09476288354E-02	2.04836633957E-01	1.13292632680E-01
1.74000000000E+09	8.68235405299E-02	-7.12325705912E-02	-2.97331555259E-02	6.23796995962E-02	-2.97624015473E-02	6.22776093125E-02	2.09103625260E-01	1.06227874502E-01
1.74100000000E+09	8.95241225272E-02	-7.64311705240E-02	-2.69899260927E-02	6.35074044863E-02	-2.71391239410E-02	6.33323741700E-02	2.12971751818E-01	9.91158517978E-02
1.74200000000E+09	9.18828923201E-02	-8.18396108750E-02	-2.42947716945E-02	6.45367494427E-02	-2.43941531254E-02	6.43357602099E-02	2.16333920591E-01	9.15551830997E-02
1.74300000000E+09	9.36386168213E-02	-8.72924567588E-02	-2.14949998601E-02	6.54873001917E-02	-2.15653478157E-02	6.51971214421E-02	2.19335178735E-01	8.38684033804E-02
1.74400000000E+09	9.50052487414E-02	-9.27928954893E-02	-1.87024350702E-02	6.62028715231E-02	-1.88472997360E-02	6.59491217075E-02	2.21838508154E-01	7.61004158266E-02
1.74500000000E+09	9.58638083556E-02	-9.83128356723E-02	-1.58883428167E-02	6.67416462657E-02	-1.59504098781E-02	6.65983545052E-02	2.23769821286E-01	6.81125867510E-02
1.74600000000E+09	9.62735569077E-02	-1.03827590678E-01	-1.30633151122E-02	6.72729891116E-02	-1.32090666516E-02	6.71240838288E-02	2.25248642079E-01	6.02272190399E-02
1.74700000000E+09	9.61813905365E-02	-1.09288332439E-01	-1.02322920556E-02	6.77439027132E-02	-1.04225420622E-02	6.75466612249E-02	2.26287163717E-01	5.20078368888E-02
1.74800000000E+09	9.56340827522E-02	-1.14541203391E-01	-7.47259450030E-03	6.79611432352E-02	-7.58812677902E-03	6.78311693971E-02	2.26795615417E-01	4.38798131777E-02
1.74900000000E+09	9.46061716819E-02	-1.19683633598E-01	-4.59189002916E-03	6.82190546373E-02	-4.71634365492E-03	6.79685222310E-02	2.26832357495E-01	3.58276698145E-02
1.75000000000E+09	9.30980100070E-02	-1.24659948738E-01	-1.85427476497E-03	6.82305448721E-02	-2.01258335787E-03	6.80338198105E-02	2.26334100771E-01	2.76851472907E-02
1.75100000000E+09	9.13029059051E-02	-1.29323391503E-01	1.02510558375E-03	6.82048391708E-02	8.29268718250E-04	6.79863163170E-02	2.25360222372E-01	1.95879498428E-02
1.75200000000E+09	8.89328480906E-02	-1.33769929296E-01	3.72469264597E-03	6.79731550498E-02	3.65570443552E-03	6.78561627791E-02	2.23821280179E-01	1.16772584554E-02
1.75300000000E+09	8.62721988320E-02	-1.37777181531E-01	6.53507339050E-03	6.77682804834E-02	6.41053940879E-03	6.76149705768E-02	2.21898994063E-01	3.73396261730E-03
1.75400000000E+09	8.31480750959E-02	-1.41520023287E-01	9.26990421387E-03	6.73171815154E-02	9.09961260943E-03	6.72401500174E-02	2.19354282238E-01	-4.02277077370E-03
1.75500000000E+09	7.97935735250E-02	-1.44837718414E-01	1.20047744763E-02	6.68519606569E-02	1.18464450165E-02	6.68016683424E-02	2.16471150960E-01	-1.16186816553E-02
1.75600000000E+09	7.60830590467E-02	-1.47655735644E-01	1.46975566801E-02	6.62467063693E-02	1.45635979781E-02	6.61613766035E-02	2.12995778566E-01	-1.88379489003E-02
1.75700000000E+09	7.21765791402E-02	-1.50079562645E-01	1.73288605283E-02	6.56588814283E-02	1.71613806664E-02	6.55161678705E-02	2.09128056445E-01	-2.60669511782E-02
1.75800000000E+09	6.81023357052E-02	-1.51957953444E-01	1.99761733322E-02	6.48515426039E-02	1.97672203707E-02	6.48103853194E-02	2.04812713212E-01	-3.28340023820E-02
1.75900000000E+09	6.37885012783E-02	-1.53323301817E-01	2.25886639372E-02	6.39612826422E-02	2.23343552517E-02	6.38621613065E-02	2.00104176330E-01	-3.93687693786E-02
1.76000000000E+09	5.94569846108E-02	-1.54122287342E-01	2.51218040989E-02	6.30765477397E-02	2.49009684808E-02	6.29994167881E-02	1.94987158329E-01	-4.56349467319E-02
1.76100000000E+09	5.50805510589E-02	-1.54372554034E-01	2.75908339750E-02	6.20146209462E-02	2.74620967982E-02	6.19103286251E-02	1.89405098635E-01	-5.15119637066E-02
1.76200000000E+09	5.07579964081E-02	-1.54152061912E-01	3.01198086739E-02	6.09207885483E-02	2.99442154068E-02	6.07809887378E-02	1.83566734525E-01	-5.70035350823E-02
1.76300000000E+09	4.64627230032E-02	-1.53264745236E-01	3.25864399854E-02	5.96831805748E-02	3.23299667773E-02	5.96403826581E-02	1.77443300982E-01	-6.21650403620E-02
1.76400000000E+09	4.23729362321E-02	-1.51811325145E-01	3.49668088737E-02	5.83598103182E-02	3.47381734263E-02	5.83029557334E-02	1.70977582094E-01	-6.68771344183E-02
1.76500000000E+09	3.84879606898E-02	-1.49892660086E-01	3.73270007990E-02	5.70406619095E-02	3.70854546576E-02	5.69429715710E-02	1.64127091383E-01	-7.12337319866E-02
1.76600000000E+09	3.48328631474E-02	-1.47436476855E-01	3.95786928159E-02	5.55326924888E-02	3.94007196831E-02	5.54425919518E-02	1.57149279195E-01	-7.50267258894E-02
1.76700000000E+09	3.15504325178E-02	-1.44457769344E-01	4.19031176894E-02	5.39030308840E-02	4.16080343293E-02	5.39277149740E-02	1.49827570134E-01	-7.84614875744E-02
1.76800000000E+09	2.86570659338E-02	-1.41149832182E-01	4.40737084387E-02	5.22736961828E-02	4.39272432652E-02	5.23241046134E-02	1.42391751670E-01	-8.12911412284E-02
1.76900000000E+09	2.61844455862E-02	-1.37276617051E-01	4.62922479176E-02	5.05490669437E-02	4.60976523890E-02	5.05777970618E-02	1.34814249685E-01	-8.36820156861E-02
1.77000000000E+09	2.41214674078E-02	-1.33103662717E-01	4.84038630363E-02	4.87164836533E-02	4.81272836323E-02	4.87283188060E-02	1.27072087820E-01	-8.56618028469E-02
1.77100000000E+09	2.26621037754E-02	-1.28809862833E-01	5.03495761260E-02	4.68831267806E-02	5.02536776041E-02	4.68097202008E-02	1.19195845552E-01	-8.70437218892E-02
1.77200000000E+09	2.17900226910E-02	-1.24102253863E-01	5.24028135947E-02	4.48444858809E-02	5.22239213986E-02	4.48342435646E-02	1.11421141276E-01	-8.79033363717E-02
1.77300000000E+09	2.14172052484E-02	-1.19322412358E-01	5.44283879148E-02	4.27060661514E-02	5.42136006873E-02	4.27193556606E-02	1.03464090653E-01	-8.83136747381E-02
1.77400000000E+09	2.17090750368E-02	-1.14341393702E-01	5.62512862736E-02	4.05473683839E-02	5.60254496078E-02	4.05313045702E-02	9.54993994663E-02	-8.82106170021E-02
1.77500000000E+09	2.25869447883E-02	-1.09391269482E-01	5.80596087433E-02	3.83033369671E-02	5.78208515531E-02	3.82670038270E-02	8.77174644318E-02	-8.75300104714E-02
1.77600000000E+09	2.40861528956E-02	-1.04518513148E-01	5.98231412872E-02	3.58534415024E-02	5.96002885288E-02	3.59398056647E-02	7.98720963705E-02	-8.64313074906E-02
1.77700000000E+09	2.61255165701E-02	-9.97580224657E-02	6.14489065765E-02	3.33625430846E-02	6.11654098458E-02	3.34354288919E-02	7.21703331534E-02	-8.47064619825E-02
1.77800000000E+09	2.87644475524E-02	-9.50730880038E-02	6.29179096311E-02	3.08055065797E-02	6.27302267694E-02	3.09399929556E-02	6.46445470936E-02	-8.26466132084E-02
1.77900000000E+09	3.20233741243E-02	-9.07125956337E-02	6.43834350659E-02	2.82769077320E-02	6.42243915955E-02	2.83343865327E-02	5.73057889074E-02	-7.99703732869E-02
1.78000000000E+09	3.57377535462E-02	-8.66156057352E-02	6.57083779303E-02	2.55477895932E-02	6.55007005937E-02	2.56167002725E-02	5.00978535812E-02	-7.68391545133E-02
1.78100000000E+09	3.99597709244E-02	-8.29509477752E-02	6.69098941067E-02	2.27234949685E-02	6.66857776775E-02	2.27789062729E-02	4.31784086094E-02	-7.34061718639E-02
1.78200000000E+09	4.46728133778E-02	-7.96377199295E-02	6.79803097868E-02	1.97728546566E-02	6.77744278588E-02	1.99267034981E-02	3.65658371580E-02	-6.94457722451E-02
1.78300000000E+09	4.96615145423E-02	-7.67739366992E-02	6.88711793228E-02	1.69343950718E-02	6.86173139602E-02	1.69643867844E-02	3.01313749901E-02	-6.50207259091E-02
1.78400000000E+09	5.50840389748E-02	-7.45041384513E-02	6.97167549564E-02	1.39134998032E-02	6.95733546463E-02	1.40089622088E-02	2.40349706886E-02	-6.03319189005E-02
1.78500000000E+09	6.07402860227E-02	-7.27575906831E-02	7.04466803070E-02	1.08556808716E-02	7.03195386360E-02	1.09868222972E-02	1.83287637612E-02	-5.51580973121E-02
1.78600000000E+09	6.65687037842E-02	-7.14788926920E-02	7.09563805053E-02	7.78968134642E-03	7.07734849447E-02	7.90443612166E-03	1.29045142894E-02	-4.97423400728E-02
1.78700000000E+09	7.25032937023E-02	-7.08284557189E-02	7.12565923603E-02	4.59556899795E-03	7.11433451532E-02	4.81582052691E-03	7.96099756604E-03	-4.38305348596E-02
1.78800000000E+09	7.85593656143E-02	-7.07634886469E-02	7.16094116363E-02	1.50923063202E-03	7.14503265092E-02	1.61411856582E-03	3.43165959136E-03	-3.77102495362E-02
1.78900000000E+09	8.46400658414E-02	-7.12526718230E-02	7.16578390188E-02	-1.69148649377E-03	7.14688580602E-02	-1.53486157515E-03	-8.19989837524E-04	-3.13336597238E-02
1.79000000000E+09	9.07183017130E-02	-7.23765556043E-02	7.15696326901E-02	-4.91794288805E-03	7.14881431048E-02	-4.71132014587E-03	-4.60607940360E-03	-2.47619134578E-02
1.79100000000E+09	9.65780088253E-02	-7.39338319212E-02	7.13358294518E-02	-7.98851205982E-03	7.12256079397E-02	-7.86542963083E-03	-7.84351082388E-03	-1.79045995415E-02
1.79200000000E+09	1.02355555972E-01	-7.60775911242E-02	7.09168233940E-02	-1.12542848247E-02	7.08768732083E-02	-1.09773081846E-02	-1.06290775248E-02	-1.09988698866E-02
1.79300000000E+09	1.07928736735E-01	-7.87418112804E-02	7.04923572624E-02	-1.43074292964E-02	7.03645286392E-02	-1.42341455350E-02	-1.29162421844E-02	-3.84359767738E-03
1.79400000000E+09	1.13271875647E-01	-8.18202895518E-02	6.98254022298E-02	-1.74473674391E-02	6.97117452669E-02	-1.72757845863E-02	-1.48531248059E-02	3.28980123454E-03
1.79500000000E+09	1.18260183804E-01	-8.54024227148E-02	6.89331371301E-02	-2.05212891886E-02	6.88367155288E-02	-2.03259893464E-02	-1.61533578254E-02	1.06703282291E-02
1.79600000000E+09	1.22923666912E-01	-8.93583801453E-02	6.79981634505E-02	-2.35339725715E-02	6.78376042028E-02	-2.33353838356E-02	-1.70500406955E-02	1.80560221185E-02
1.79700000000E+09	1.27233472921E-01	-9.36348545167E-02	6.68792260282E-02	-2.65205964436E-02	6.67280604967E-02	-2.63551640637E-02	-1.75003937305E-02	2.54101326104E-02
1.79800000000E+09	1.31102889275E-01	-9.83415811828E-02	6.55815644309E-02	-2.94754334657E-02	6.55166344028E-02	-2.92972119051E-02	-1.73429161186E-02	3.27844804710E-02
1.79900000000E+09	1.34633725272E-01	-1.03215334609E-01	6.41675691185E-02	-3.22980254093E-02	6.41241689861E-02	-3.21163158645E-02	-1.67445995473E-02	4.01370298802E-02
1.80000000000E+09	1.37692585730E-01	-1.08441795571E-01	6.26924656999E-02	-3.50714946147E-02	6.25784305619E-02	-3.48404240800E-02	-1.57334119316E-02	4.72578257337E-02
1.80100000000E+09	1.40303730418E-01	-1.13779818604E-01	6.09680005630E-02	-3.78277266499E-02	6.09483454037E-02	-3.76292985005E-02	-1.41757199383E-02	5.43986995751E-02
1.80200000000E+09	1.42535872614E-01	-1.19279691687E-01	5.92398236422E-02	-4.03920998973E-02	5.92494528967E-02	-4.01695822027E-02	-1.22613668507E-02	6.14591920599E-02
1.80300000000E+09	1.44216697240E-01	-1.24870451729E-01	5.73323022994E-02	-4.29145523766E-02	5.73338683780E-02	-4.26769092385E-02	-9.83567181227E-03	6.82184239544E-02
1.80400000000E+09	1.45463256609E-01	-1.30596120101E-01	5.53803427583E-02	-4.53014273703E-02	5.53371413240E-02	-4.50567520685E-02	-6.88780238642E-03	7.47751399649E-02
1.80500000000E+09	1.46321200848E-01	-1.36263319226E-01	5.32468589680E-02	-4.76376932716E-02	5.32327038690E-02	-4.74415182688E-02	-3.68612604650E-03	8.10697005472E-02
1.80600000000E+09	1.46758921326E-01	-1.42008386580E-01	5.11537028678E-02	-4.98911120182E-02	5.10406211287E-02	-4.95864607535E-02	-3.39244047055E-05	8.71935013369E-02
1.80700000000E+09	1.46622950667E-01	-1.47592811189E-01	4.88162071563E-02	-5.19643942328E-02	4.87444748457E-02	-5.16997547520E-02	4.00215655231E-03	9.29535607073E-02
1.80800000000E+09	1.46155705399E-01	-1.53263549044E-01	4.64760395213E-02	-5.39304275873E-02	4.63950847360E-02	-5.36899100260E-02	8.49709621377E-03	9.85719561527E-02
1.80900000000E+09	1.45310459736E-01	-1.58667071448E-01	4.39556577359E-02	-5.57190804469E-02	4.40098593960E-02	-5.55975430036E-02	1.32062120671E-02	1.03567377159E-01
1.81000000000E+09	1.43943637929E-01	-1.64048479885E-01	4.15331358101E-02	-5.76216154037E-02	4.15019513635E-02	-5.72924495570E-02	1.81631370904E-02	1.08458295853E-01
1.81100000000E+09	1.42339978572E-01	-1.69291982295E-01	3.88811247817E-02	-5.91680154212E-02	3.89846167061E-02	-5.89122040795E-02	2.35359869323E-02	1.12935702271E-01
1.81200000000E+09	1.40260671634E-01	-1.74217459970E-01	3.62448850009E-02	-6.06356340328E-02	3.62859923049E-02	-6.04100696617E-02	2.91763425208E-02	1.16923190364E-01
1.81300000000E+09	1.37952029245E-01	-1.79043581171E-01	3.36206837247E-02	-6.20798379480E-02	3.36444902959E-02	-6.18037836954E-02	3.49472561343E-02	1.20535597147E-01
1.81400000000E+09	1.35313389100E-01	-1.83586004960E-01	3.08580465549E-02	-6.33228606752E-02	3.09525166531E-02	-6.31176570827E-02	4.08288312034E-02	1.23895011159E-01
1.81500000000E+09	1.32232892876E-01	-1.87936964303E-01	2.80519483026E-02	-6.44634033786E-02	2.81536146655E-02	-6.42690993677E-02	4.70645909824E-02	1.26724999119E-01
1.81600000000E+09	1.29030102689E-01	-1.91943741962E-01	2.52605046301E-02	-6.55489893270E-02	2.54165909774E-02	-6.52580854315E-02	5.34190280638E-02	1.29081669833E-01
1.81700000000E+09	1.25531843669E-01	-1.95750285487E-01	2.24848549205E-02	-6.63708135023E-02	2.25874042448E-02	-6.61202137209E-02	5.97687251212E-02	1.31134451101E-01
1.81800000000E+09	1.21703929732E-01	-1.99177436717E-01	1.96744980038E-02	-6.71201650572E-02	1.96977044392E-02	-6.69032776045E-02	6.63573722965E-02	1.32639891249E-01
