# Hz S RI R 50
! CMT, CMT808U, 21440046, 21.4.3/4
! Date: 12/11/2025 11:19:50 AM
! Data: Format (Calibration Info)
! Freq	S11:Re/Im(F2)	S41:Re/Im(F2)	S14:Re/Im(F2)	S44:Re/Im(F2)
1.70000000000E+09	-2.03699608206E-01	-1.09545567615E-01	-4.23523837586E-02	-4.75574842224E-02	-4.15908107495E-02	-4.80724353409E-02	-5.84663341120E-02	-6.12009915717E-02
1.70167224080E+09	-2.04455060229E-01	-1.01003867069E-01	-4.56335482913E-02	-4.45994251299E-02	-4.49211428894E-02	-4.51598471933E-02	-6.83059368782E-02	-4.77212929026E-02
1.70334448161E+09	-2.03675705808E-01	-9.22631608495E-02	-4.87572062589E-02	-4.14079323381E-02	-4.80726193840E-02	-4.20274867309E-02	-7.65465917545E-02	-3.31802997362E-02
1.70501672241E+09	-2.01360710154E-01	-8.35449433961E-02	-5.16734971295E-02	-3.79929052267E-02	-5.10430715863E-02	-3.86616203641E-02	-8.30700315955E-02	-1.78079657098E-02
1.70668896321E+09	-1.97584206334E-01	-7.51790710342E-02	-5.43713983148E-02	-3.43604057157E-02	-5.38058899903E-02	-3.50655290361E-02	-8.78358482456E-02	-1.76269865994E-03
1.70836120401E+09	-1.92469864965E-01	-6.73229553473E-02	-5.68591854260E-02	-3.04978166073E-02	-5.63285043564E-02	-3.12542399925E-02	-9.07497953358E-02	1.47050552972E-02
1.71003344482E+09	-1.86156807822E-01	-6.02304715227E-02	-5.90681348406E-02	-2.64283128025E-02	-5.86016594303E-02	-2.72287400735E-02	-9.18018201384E-02	3.14072140394E-02
1.71170568562E+09	-1.78789144859E-01	-5.40260231773E-02	-6.10065988219E-02	-2.21781116719E-02	-6.05884546026E-02	-2.30106802584E-02	-9.09916610056E-02	4.81267100340E-02
1.71337792642E+09	-1.70519999941E-01	-4.88764367158E-02	-6.26203035358E-02	-1.77507719211E-02	-6.22720505400E-02	-1.86023885894E-02	-8.83262691389E-02	6.46484203828E-02
1.71505016722E+09	-1.61558206737E-01	-4.48819368687E-02	-6.39029326198E-02	-1.31720958465E-02	-6.36165855634E-02	-1.40452686662E-02	-8.38530748985E-02	8.07725121470E-02
1.71672240803E+09	-1.52074134861E-01	-4.20870321898E-02	-6.48394126836E-02	-8.46751745074E-03	-6.46155390402E-02	-9.36797111531E-03	-7.76314168074E-02	9.63106034939E-02
1.71839464883E+09	-1.42278579843E-01	-4.05634784489E-02	-6.54060510126E-02	-3.66745125277E-03	-6.52454043980E-02	-4.59293858730E-03	-6.97777118491E-02	1.11057154767E-01
1.72006688963E+09	-1.32360266094E-01	-4.03301306101E-02	-6.55725287029E-02	1.16933265544E-03	-6.54946038078E-02	2.43510776404E-04	-6.03482233535E-02	1.24890390931E-01
1.72173913043E+09	-1.22485316888E-01	-4.13626302903E-02	-6.53682278134E-02	6.02883584342E-03	-6.53445398267E-02	5.09740056725E-03	-4.95092394351E-02	1.37580983020E-01
1.72341137124E+09	-1.12850616433E-01	-4.36415413574E-02	-6.47605759963E-02	1.08592769388E-02	-6.48152820057E-02	9.92981836610E-03	-3.73533391033E-02	1.49042360873E-01
1.72508361204E+09	-1.03616756918E-01	-4.70942626819E-02	-6.37690281650E-02	1.56401627988E-02	-6.38954999149E-02	1.47123875614E-02	-2.40721518766E-02	1.59125823836E-01
1.72675585284E+09	-9.49527382052E-02	-5.16598817457E-02	-6.23942654419E-02	2.03153914530E-02	-6.25832251938E-02	1.93958028298E-02	-9.79670432476E-03	1.67746908008E-01
1.72842809365E+09	-8.69968827360E-02	-5.72293603894E-02	-6.06349639054E-02	2.48459939589E-02	-6.08988200663E-02	2.39429882120E-02	5.32401418706E-03	1.74757011496E-01
1.73010033445E+09	-7.98678401585E-02	-6.37253562107E-02	-5.85334348379E-02	2.92077750641E-02	-5.88591656030E-02	2.83306740558E-02	2.10761303352E-02	1.80143933516E-01
1.73177257525E+09	-7.36968277333E-02	-7.09606343106E-02	-5.61032797842E-02	3.33592888635E-02	-5.64889565199E-02	3.25153073286E-02	3.73174733155E-02	1.83801537535E-01
1.73344481605E+09	-6.85697942583E-02	-7.88508362226E-02	-5.33753914434E-02	3.72665942776E-02	-5.38208423257E-02	3.64587522785E-02	5.38230541928E-02	1.85729958134E-01
1.73511705686E+09	-6.45467299675E-02	-8.72040535222E-02	-5.03676071793E-02	4.09362629683E-02	-5.08823619190E-02	4.01682655810E-02	7.04370653652E-02	1.85897231886E-01
1.73678929766E+09	-6.16945534619E-02	-9.59038123284E-02	-4.71313835905E-02	4.43180377968E-02	-4.76901657537E-02	4.36027481335E-02	8.69684933384E-02	1.84298955997E-01
1.73846153846E+09	-6.00402463555E-02	-1.04763169644E-01	-4.36862990138E-02	4.74324291945E-02	-4.42830174098E-02	4.67471518976E-02	1.03226590599E-01	1.80939924383E-01
1.74013377926E+09	-5.95834144649E-02	-1.13627326949E-01	-4.00571408946E-02	5.02475676452E-02	-4.06897579779E-02	4.96162007305E-02	1.19031543897E-01	1.75882150050E-01
1.74180602007E+09	-6.03142917272E-02	-1.22346330107E-01	-3.62668559089E-02	5.27640711272E-02	-3.69517789800E-02	5.21857900669E-02	1.34200431674E-01	1.69179707473E-01
1.74347826087E+09	-6.22297783057E-02	-1.30743588003E-01	-3.23544285716E-02	5.49960186504E-02	-3.30717892589E-02	5.44621338758E-02	1.48575753454E-01	1.60897416067E-01
1.74515050167E+09	-6.52497280117E-02	-1.38692618968E-01	-2.83475122377E-02	5.69176254250E-02	-2.90859784815E-02	5.64403755267E-02	1.62004731055E-01	1.51105790531E-01
1.74682274247E+09	-6.93378656117E-02	-1.46055820932E-01	-2.42442386938E-02	5.85537617343E-02	-2.50109156168E-02	5.81268813684E-02	1.74309904562E-01	1.39946704460E-01
1.74849498328E+09	-7.44101272552E-02	-1.52663726704E-01	-2.00899732888E-02	5.99020067935E-02	-2.08745959887E-02	5.95283243696E-02	1.85364692382E-01	1.27506006040E-01
1.75016722408E+09	-8.03976144275E-02	-1.58383195221E-01	-1.58956058544E-02	6.09733153690E-02	-1.66951157722E-02	6.06598973556E-02	1.95023291325E-01	1.13942662422E-01
1.75183946488E+09	-8.71479035560E-02	-1.63081966505E-01	-1.16678174648E-02	6.17476429883E-02	-1.24871168723E-02	6.14826935516E-02	2.03201057177E-01	9.93889487980E-02
1.75351170569E+09	-9.45324276471E-02	-1.66685498215E-01	-7.42240868333E-03	6.22567412102E-02	-8.26235744299E-03	6.20340246996E-02	2.09758616216E-01	8.39812398263E-02
1.75518394649E+09	-1.02402715825E-01	-1.69018013928E-01	-3.19143591248E-03	6.25048389029E-02	-4.04169791021E-03	6.23356352337E-02	2.14628666270E-01	6.79330741819E-02
1.75685618729E+09	-1.10586815065E-01	-1.70049497498E-01	1.02063728032E-03	6.24755135695E-02	1.63921504277E-04	6.23596454999E-02	2.17765792322E-01	5.14194559356E-02
1.75852842809E+09	-1.18876297546E-01	-1.69645970049E-01	5.20535912579E-03	6.21864317089E-02	4.33958372697E-03	6.21139663886E-02	2.19086056867E-01	3.45974736191E-02
1.76020066890E+09	-1.27040569372E-01	-1.67842038089E-01	9.34955879293E-03	6.16521324792E-02	8.47909390098E-03	6.16391620842E-02	2.18591033891E-01	1.76648706301E-02
1.76187290970E+09	-1.34856728099E-01	-1.64604825608E-01	1.34456577840E-02	6.08750510060E-02	1.25721252986E-02	6.09045251261E-02	2.16249882262E-01	8.20728074938E-04
1.76354515050E+09	-1.42078044878E-01	-1.59946084726E-01	1.74837283309E-02	5.98547637309E-02	1.66029814215E-02	5.99455695726E-02	2.12095447325E-01	-1.57382967199E-02
1.76521739130E+09	-1.48424935608E-01	-1.54009946937E-01	2.14352248411E-02	5.85965975861E-02	2.05697671353E-02	5.87346068554E-02	2.06116763803E-01	-3.18208948070E-02
1.76688963211E+09	-1.53665779173E-01	-1.46914554644E-01	2.53242622241E-02	5.70993077703E-02	2.44622591128E-02	5.73083682236E-02	1.98409925252E-01	-4.72360261112E-02
1.76856187291E+09	-1.57584308039E-01	-1.38850173294E-01	2.91435833762E-02	5.53845116194E-02	2.82811718739E-02	5.56444249021E-02	1.89014410446E-01	-6.17904394792E-02
1.77023411371E+09	-1.60012504249E-01	-1.30092158799E-01	3.28699993206E-02	5.34354081028E-02	3.20183737471E-02	5.37531803921E-02	1.78074994346E-01	-7.53122458749E-02
1.77190635452E+09	-1.60779334683E-01	-1.20924538740E-01	3.64945471367E-02	5.12502581148E-02	3.56530031980E-02	5.16213234791E-02	1.65669259136E-01	-8.76102970354E-02
1.77357859532E+09	-1.59819820436E-01	-1.11624218560E-01	4.00201801703E-02	4.88342648540E-02	3.91926080787E-02	4.92514768305E-02	1.51924457147E-01	-9.85531793088E-02
1.77525083612E+09	-1.57164116455E-01	-1.02607910224E-01	4.34272363618E-02	4.61646523624E-02	4.26237641069E-02	4.66556322636E-02	1.37042478613E-01	-1.07968475290E-01
1.77692307692E+09	-1.52851239044E-01	-9.41615259950E-02	4.67010685071E-02	4.32563727408E-02	4.59256511810E-02	4.38016804811E-02	1.21144623500E-01	-1.15756955307E-01
1.77859531773E+09	-1.47036079033E-01	-8.66397737756E-02	4.98142801382E-02	4.00886008389E-02	4.90718816033E-02	4.06950837524E-02	1.04423022205E-01	-1.21790531655E-01
1.78026755853E+09	-1.39916552800E-01	-8.02921045809E-02	5.27612501995E-02	3.66604052752E-02	5.20471781335E-02	3.73346540757E-02	8.70983360405E-02	-1.26010835443E-01
1.78193979933E+09	-1.31795718555E-01	-7.53506993416E-02	5.54963434419E-02	3.29698343647E-02	5.48149048439E-02	3.37131185814E-02	6.93481664853E-02	-1.28320023102E-01
1.78361204013E+09	-1.22943891150E-01	-7.19856065923E-02	5.79835638528E-02	2.90575682319E-02	5.73705666190E-02	2.98290215077E-02	5.14097631102E-02	-1.28727485958E-01
1.78528428094E+09	-1.13701140693E-01	-7.02764082879E-02	6.02004712037E-02	2.48815904027E-02	5.96317328009E-02	2.57145752067E-02	3.34766098294E-02	-1.27140571252E-01
1.78695652174E+09	-1.04380141243E-01	-7.02447207213E-02	6.21080427459E-02	2.04937825605E-02	6.15973835572E-02	2.13856734453E-02	1.57911631749E-02	-1.23634544835E-01
1.78862876254E+09	-9.53426238347E-02	-7.18282839939E-02	6.36822700094E-02	1.59172054954E-02	6.32419333500E-02	1.68605689139E-02	-1.45544788777E-03	-1.18240435616E-01
1.79030100334E+09	-8.68259655729E-02	-7.49304563896E-02	6.48767991452E-02	1.11840377326E-02	6.45220590404E-02	1.21595400740E-02	-1.80443911210E-02	-1.10975791360E-01
1.79197324415E+09	-7.90840235805E-02	-7.93600666993E-02	6.56899481831E-02	6.31417051013E-03	6.53998734746E-02	7.33590505148E-03	-3.37683416926E-02	-1.01931559601E-01
1.79364548495E+09	-7.22996583321E-02	-8.49834098185E-02	6.60907755324E-02	1.37779309614E-03	6.58905716577E-02	2.42102733283E-03	-4.84048786442E-02	-9.12274591598E-02
1.79531772575E+09	-6.66518554538E-02	-9.15344021067E-02	6.60797982979E-02	-3.58513507922E-03	6.59598457549E-02	-2.53524258743E-03	-6.17955376151E-02	-7.89725512311E-02
1.79698996656E+09	-6.22351097582E-02	-9.88275647149E-02	6.56355040760E-02	-8.56514662760E-03	6.56025616160E-02	-7.49118127883E-03	-7.37797071544E-02	-6.53249518521E-02
1.79866220736E+09	-5.91231412865E-02	-1.06637728731E-01	6.47793121664E-02	-1.34787875798E-02	6.48383941847E-02	-1.24026149088E-02	-8.41972170590E-02	-5.04685377503E-02
1.80033444816E+09	-5.73363918889E-02	-1.14728189934E-01	6.34942603694E-02	-1.82947190803E-02	6.36547733435E-02	-1.72281120454E-02	-9.29012866943E-02	-3.45450840680E-02
1.80200668896E+09	-5.68680798751E-02	-1.22906522946E-01	6.18311234285E-02	-2.29573248172E-02	6.20674937684E-02	-2.19067365566E-02	-9.98117223928E-02	-1.77647163830E-02
1.80367892977E+09	-5.76851602829E-02	-1.30961016913E-01	5.97849089673E-02	-2.74491330132E-02	6.01150744128E-02	-2.64159314792E-02	-1.04830476287E-01	-3.74152443402E-04
1.80535117057E+09	-5.97218713984E-02	-1.38721419066E-01	5.73999692213E-02	-3.17132259548E-02	5.78209370181E-02	-3.07151539005E-02	-1.07860639357E-01	1.74668152979E-02
1.80702341137E+09	-6.28965820524E-02	-1.46022949856E-01	5.46938498100E-02	-3.57347512591E-02	5.51945219102E-02	-3.47839630838E-02	-1.08930825713E-01	3.55008523918E-02
1.80869565217E+09	-6.71151792864E-02	-1.52715843815E-01	5.17063714475E-02	-3.94746268125E-02	5.22781962137E-02	-3.85744441569E-02	-1.08004846555E-01	5.35236142584E-02
1.81036789298E+09	-7.22814696691E-02	-1.58718306395E-01	4.84815279489E-02	-4.29249448839E-02	4.91158482670E-02	-4.20907265530E-02	-1.05083424216E-01	7.12896607968E-02
1.81204013378E+09	-7.82433262591E-02	-1.63845109177E-01	4.50326772330E-02	-4.60941441666E-02	4.57424873247E-02	-4.53149493207E-02	-1.00235108577E-01	8.85939980544E-02
1.81371237458E+09	-8.49000154391E-02	-1.68053193093E-01	4.14171387979E-02	-4.89295608741E-02	4.21832318090E-02	-4.82252143006E-02	-9.35185488514E-02	1.05232093671E-01
1.81538461538E+09	-9.20951324656E-02	-1.71254235691E-01	3.76576441116E-02	-5.14733013751E-02	3.84674995813E-02	-5.08307625354E-02	-8.50415775378E-02	1.20998968134E-01
1.81705685619E+09	-9.96614171306E-02	-1.73421696496E-01	3.37971233945E-02	-5.36968780224E-02	3.46331035574E-02	-5.31238436983E-02	-7.48793406056E-02	1.35712747269E-01
1.81872909699E+09	-1.07491952731E-01	-1.74473306225E-01	2.98467037133E-02	-5.56210883985E-02	3.07075855854E-02	-5.51284661651E-02	-6.32089158470E-02	1.49205666354E-01
1.82040133779E+09	-1.15406627969E-01	-1.74461113548E-01	2.58181512226E-02	-5.72626611253E-02	2.67229523450E-02	-5.68414775352E-02	-5.01581984896E-02	1.61322097092E-01
1.82207357860E+09	-1.23322027343E-01	-1.73345107194E-01	2.17576703612E-02	-5.86186740448E-02	2.26780275416E-02	-5.82737062963E-02	-3.59054921210E-02	1.71923545988E-01
1.82374581940E+09	-1.31008447200E-01	-1.71174123728E-01	1.76821172871E-02	-5.97049346342E-02	1.86141480444E-02	-5.94188283353E-02	-2.06038575269E-02	1.80916399149E-01
1.82541806020E+09	-1.38388071540E-01	-1.67953873170E-01	1.35977750756E-02	-6.05200936482E-02	1.45145837281E-02	-6.03193178685E-02	-4.46540950981E-03	1.88222126980E-01
1.82709030100E+09	-1.45328114386E-01	-1.63716371927E-01	9.50149708673E-03	-6.10941180060E-02	1.04198915812E-02	-6.09518607856E-02	1.23559601364E-02	1.93715883794E-01
1.82876254181E+09	-1.51680472648E-01	-1.58562966284E-01	5.40358531059E-03	-6.14157989413E-02	6.32189177297E-03	-6.13357024604E-02	2.96425663201E-02	1.97434626725E-01
1.83043478261E+09	-1.57364376736E-01	-1.52537804685E-01	1.32138330550E-03	-6.14839962021E-02	2.23783268639E-03	-6.14736924962E-02	4.72054362085E-02	1.99268662240E-01
1.83210702341E+09	-1.62199131386E-01	-1.45746081935E-01	-2.73689884990E-03	-6.13330680506E-02	-1.83740455019E-03	-6.13675659425E-02	6.48490143954E-02	1.99268977617E-01
1.83377926421E+09	-1.66108087362E-01	-1.38275672108E-01	-6.75489370848E-03	-6.09232528573E-02	-5.86832498977E-03	-6.10343084284E-02	8.23860296836E-02	1.97424486403E-01
1.83545150502E+09	-1.68978377418E-01	-1.30258316214E-01	-1.07411162529E-02	-6.03038591238E-02	-9.87485610698E-03	-6.04572510727E-02	9.96154284284E-02	1.93768591046E-01
1.83712374582E+09	-1.70719891174E-01	-1.21812052859E-01	-1.46857588732E-02	-5.94476634986E-02	-1.38319427225E-02	-5.96395394923E-02	1.16391211650E-01	1.88337692915E-01
1.83879598662E+09	-1.71247480080E-01	-1.13100239232E-01	-1.85688443968E-02	-5.83495250269E-02	-1.77332679111E-02	-5.86055950628E-02	1.32496526271E-01	1.81223976370E-01
1.84046822742E+09	-1.70504598798E-01	-1.04308768920E-01	-2.23861640701E-02	-5.70374552762E-02	-2.15774821601E-02	-5.73203197180E-02	1.47780831818E-01	1.72485659617E-01
1.84214046823E+09	-1.68409259358E-01	-9.56671032830E-02	-2.61313587892E-02	-5.54822961238E-02	-2.53408836697E-02	-5.58278420246E-02	1.62090004870E-01	1.62239741876E-01
1.84381270903E+09	-1.65010110872E-01	-8.73543861335E-02	-2.97872187308E-02	-5.37031232403E-02	-2.90213506238E-02	-5.40852768606E-02	1.75279234768E-01	1.50572035969E-01
1.84548494983E+09	-1.60342690072E-01	-7.96155047005E-02	-3.33476276070E-02	-5.16961758098E-02	-3.26064727307E-02	-5.21337824622E-02	1.87184040902E-01	1.37643031621E-01
1.84715719064E+09	-1.54446341558E-01	-7.26606009183E-02	-3.67987182070E-02	-4.94704019589E-02	-3.60838500071E-02	-4.99483814173E-02	1.97688879443E-01	1.23561131032E-01
1.84882943144E+09	-1.47472471998E-01	-6.67507719804E-02	-4.01358410468E-02	-4.70103337186E-02	-3.94418950297E-02	-4.75344818649E-02	2.06722837794E-01	1.08480038925E-01
1.85050167224E+09	-1.39582630385E-01	-6.20762148007E-02	-4.33400776921E-02	-4.43326447502E-02	-4.26808120535E-02	-4.48915062094E-02	2.14172712046E-01	9.25714358367E-02
1.85217391304E+09	-1.31028016068E-01	-5.88467716007E-02	-4.63955272363E-02	-4.14277612517E-02	-4.57656538805E-02	-4.20342971477E-02	2.19948447850E-01	7.59658351134E-02
1.85384615385E+09	-1.22073965640E-01	-5.71523199366E-02	-4.92743464193E-02	-3.83072505150E-02	-4.86728619102E-02	-3.89550822601E-02	2.23983362826E-01	5.88932729268E-02
1.85551839465E+09	-1.13009049190E-01	-5.70872730167E-02	-5.19783090735E-02	-3.49545986418E-02	-5.14177862830E-02	-3.56510768341E-02	2.26235823287E-01	4.14761756296E-02
1.85719063545E+09	-1.04192633289E-01	-5.86669438551E-02	-5.44825119283E-02	-3.13959786929E-02	-5.39606049321E-02	-3.21316133609E-02	2.26676277553E-01	2.39278939390E-02
1.85886287625E+09	-9.59188054823E-02	-6.18157726717E-02	-5.67570466462E-02	-2.76295353312E-02	-5.62709822351E-02	-2.83992822343E-02	2.25282577812E-01	6.42814103915E-03
1.86053511706E+09	-8.84891667046E-02	-6.63816664164E-02	-5.87717074438E-02	-2.36511001529E-02	-5.83339700986E-02	-2.44799483742E-02	2.22085104249E-01	-1.08120116661E-02
1.86220735786E+09	-8.21898859773E-02	-7.21865866840E-02	-6.05167063803E-02	-1.95151595946E-02	-6.01409539407E-02	-2.03687390099E-02	2.17111997165E-01	-2.76274943856E-02
1.86387959866E+09	-7.72204885690E-02	-7.89467125358E-02	-6.19598505753E-02	-1.52114702512E-02	-6.16439767270E-02	-1.60987669292E-02	2.10377142322E-01	-4.38299259720E-02
1.86555183946E+09	-7.37371143456E-02	-8.63830455858E-02	-6.30908425425E-02	-1.07611342965E-02	-6.28335633595E-02	-1.16821166487E-02	2.01969743104E-01	-5.92362073363E-02
1.86722408027E+09	-7.18347339170E-02	-9.41628671723E-02	-6.38831613498E-02	-6.21003107954E-03	-6.36932835876E-02	-7.14943293347E-03	1.91969927110E-01	-7.36245879441E-02
1.86889632107E+09	-7.14994486824E-02	-1.01997514902E-01	-6.43233356476E-02	-1.57987107389E-03	-6.41957988313E-02	-2.53044713346E-03	1.80469273794E-01	-8.68811970277E-02
1.87056856187E+09	-7.26679357659E-02	-1.09538257966E-01	-6.44006846085E-02	3.10081758321E-03	-6.43476773169E-02	2.12679736068E-03	1.67604945349E-01	-9.88246917285E-02
1.87224080268E+09	-7.52201709458E-02	-1.16544841956E-01	-6.41040194939E-02	7.79649598037E-03	-6.41301297058E-02	6.80518197497E-03	1.53520720513E-01	-1.09276953350E-01
1.87391304348E+09	-7.89786972918E-02	-1.22821189186E-01	-6.34412982802E-02	1.24564881432E-02	-6.35371103527E-02	1.14793150064E-02	1.38350167625E-01	-1.18161163198E-01
1.87558528428E+09	-8.37855618418E-02	-1.28162277923E-01	-6.24097342878E-02	1.70650911618E-02	-6.25919046058E-02	1.60879274621E-02	1.22301135276E-01	-1.25315966065E-01
1.87725752508E+09	-8.94334372959E-02	-1.32440742697E-01	-6.10243804864E-02	2.15854113061E-02	-6.12633832773E-02	2.06142309137E-02	1.05554177670E-01	-1.30650296669E-01
1.87892976589E+09	-9.57202698719E-02	-1.35573070007E-01	-5.92856402290E-02	2.59732372460E-02	-5.95977895855E-02	2.50234670818E-02	8.83004618457E-02	-1.34087739650E-01
1.88060200669E+09	-1.02400222926E-01	-1.37487386830E-01	-5.72169571316E-02	3.02164172992E-02	-5.75782115502E-02	2.92721009318E-02	7.07632790258E-02	-1.35583364420E-01
1.88227424749E+09	-1.09297686755E-01	-1.38208222286E-01	-5.48320284118E-02	3.42621829693E-02	-5.52828465532E-02	3.33623206257E-02	5.31527751751E-02	-1.35170171676E-01
1.88394648829E+09	-1.16222918829E-01	-1.37699765106E-01	-5.21358578034E-02	3.81107285421E-02	-5.26473206431E-02	3.72460260106E-02	3.57012573416E-02	-1.32734522570E-01
1.88561872910E+09	-1.22986260449E-01	-1.36031140707E-01	-4.91776550987E-02	4.17229508227E-02	-4.97558329864E-02	4.08887935903E-02	1.86259330101E-02	-1.28406841882E-01
1.88729096990E+09	-1.29456013245E-01	-1.33276337279E-01	-4.59621591194E-02	4.50867351405E-02	-4.65944455304E-02	4.42968193227E-02	2.13035875843E-03	-1.22187446756E-01
1.88896321070E+09	-1.35461437216E-01	-1.29459617229E-01	-4.25283241251E-02	4.81768471495E-02	-4.32052278064E-02	4.74265021179E-02	-1.35636315556E-02	-1.14162889750E-01
1.89063545151E+09	-1.40851424149E-01	-1.24690506908E-01	-3.88808234515E-02	5.09941533153E-02	-3.96177098402E-02	5.02868542012E-02	-2.82577178366E-02	-1.04442333190E-01
1.89230769231E+09	-1.45508314925E-01	-1.19094185564E-01	-3.50780043943E-02	5.35012926603E-02	-3.58716335169E-02	5.28552849232E-02	-4.17765759100E-02	-9.31625234518E-02
1.89397993311E+09	-1.49348060377E-01	-1.12741592752E-01	-3.11090730593E-02	5.57200225072E-02	-3.19431441244E-02	5.51290788546E-02	-5.39604228168E-02	-8.04625920561E-02
