# Hz S RI R 50
! CMT, CMT808U, 21440046, 21.4.3/4
! Date: 12/11/2025 11:15:59 AM
! Data: Format (Calibration Info)
! Freq	S11:Re/Im(F2)	S41:Re/Im(F2)	S14:Re/Im(F2)	S44:Re/Im(F2)
1.70000000000E+09	-2.01400136176E-01	-1.10253831086E-01	5.39887235079E-02	3.62557223441E-02	5.34273499386E-02	3.69272312263E-02	-7.96381985984E-02	2.49178427460E-02
1.70167224080E+09	-2.02370323203E-01	-1.02083927150E-01	5.64283407541E-02	3.25286198772E-02	5.59183990048E-02	3.32402966643E-02	-8.20835556033E-02	4.04637752020E-02
1.70334448161E+09	-2.01847793390E-01	-9.36541777709E-02	5.86507676904E-02	2.86315014817E-02	5.81958775348E-02	2.93939819651E-02	-8.28097701946E-02	5.62029260664E-02
1.70501672241E+09	-1.99853828267E-01	-8.51933477682E-02	6.06554141954E-02	2.45870260570E-02	6.02553156416E-02	2.53696571679E-02	-8.17709492610E-02	7.19198410541E-02
1.70668896321E+09	-1.96419415900E-01	-7.69929500564E-02	6.24069382928E-02	2.03848635778E-02	6.20634353737E-02	2.11856320467E-02	-7.90178930200E-02	8.74492311304E-02
1.70836120401E+09	-1.91670914143E-01	-6.92406546985E-02	6.38822806940E-02	1.60236730757E-02	6.36054429190E-02	1.68506042220E-02	-7.45787850081E-02	1.02574891268E-01
1.71003344482E+09	-1.85680057417E-01	-6.21678644628E-02	6.50841452305E-02	1.15248775144E-02	6.48700001340E-02	1.23727012222E-02	-6.85612345154E-02	1.17131143845E-01
1.71170568562E+09	-1.78641313845E-01	-5.59378914036E-02	6.59852101474E-02	6.90434915564E-03	6.58258684157E-02	7.77625693660E-03	-6.10139316059E-02	1.30937598363E-01
1.71337792642E+09	-1.70659399484E-01	-5.07136075886E-02	6.65532043307E-02	2.18004159145E-03	6.64600138944E-02	3.05890613620E-03	-5.20760346244E-02	1.43873809475E-01
1.71505016722E+09	-1.61965934876E-01	-4.65997941760E-02	6.67799448079E-02	-2.62323562400E-03	6.67425354335E-02	-1.74834163010E-03	-4.18189858805E-02	1.55754009242E-01
1.71672240803E+09	-1.52706308015E-01	-4.36685662185E-02	6.66510225922E-02	-7.47266586554E-03	6.66798983099E-02	-6.60346434712E-03	-3.03787421710E-02	1.66461176692E-01
1.71839464883E+09	-1.43120763429E-01	-4.19801889166E-02	6.61498723151E-02	-1.23491994602E-02	6.62426772156E-02	-1.14756715636E-02	-1.79457122585E-02	1.75905177487E-01
1.72006688963E+09	-1.33368324964E-01	-4.15779433188E-02	6.52666233967E-02	-1.72107586158E-02	6.54236132739E-02	-1.63435323412E-02	-4.58431793594E-03	1.84015396048E-01
1.72173913043E+09	-1.23638593018E-01	-4.24190853756E-02	6.39953871716E-02	-2.20226066890E-02	6.42134979567E-02	-2.11745396898E-02	9.47738252792E-03	1.90663404856E-01
1.72341137124E+09	-1.14112702691E-01	-4.45118825200E-02	6.23493268725E-02	-2.67462596854E-02	6.26233286969E-02	-2.59239878529E-02	2.41083519166E-02	1.95831918324E-01
1.72508361204E+09	-1.04981471155E-01	-4.77530170642E-02	6.03175950214E-02	-3.13741679545E-02	6.06553072126E-02	-3.05541322797E-02	3.91381159109E-02	1.99435641377E-01
1.72675585284E+09	-9.63849449200E-02	-5.21018788332E-02	5.79100407115E-02	-3.58186812023E-02	5.83079728798E-02	-3.50345681664E-02	5.44202154498E-02	2.01525476460E-01
1.72842809365E+09	-8.84781182497E-02	-5.74551527420E-02	5.51489398445E-02	-4.00794443310E-02	5.56122762923E-02	-3.93152722725E-02	6.97906600169E-02	2.01994456523E-01
1.73010033445E+09	-8.13768728542E-02	-6.37129419102E-02	5.20513262534E-02	-4.41091617023E-02	5.25539937956E-02	-4.33812905906E-02	8.50909034521E-02	2.00934604698E-01
1.73177257525E+09	-7.52042448148E-02	-7.07307404616E-02	4.86328235013E-02	-4.78793163353E-02	4.91976796156E-02	-4.71930975070E-02	1.00140198358E-01	1.98299715219E-01
1.73344481605E+09	-7.00330460652E-02	-7.83855822923E-02	4.49195897943E-02	-5.13519749712E-02	4.55271264488E-02	-5.07129831186E-02	1.14819320462E-01	1.94171863408E-01
1.73511705686E+09	-6.59571275628E-02	-8.65043088698E-02	4.09480005115E-02	-5.45272539310E-02	4.16057547756E-02	-5.39304509543E-02	1.28942007965E-01	1.88586379070E-01
1.73678929766E+09	-6.30080111367E-02	-9.49755112790E-02	3.67468365003E-02	-5.73515215998E-02	3.74507543466E-02	-5.68153818444E-02	1.42383382307E-01	1.81595206228E-01
1.73846153846E+09	-6.12244846481E-02	-1.03608031864E-01	3.23580116311E-02	-5.98318545687E-02	3.30825558201E-02	-5.93432074473E-02	1.55019279137E-01	1.73287960979E-01
1.74013377926E+09	-6.06118856785E-02	-1.12277743249E-01	2.78053456202E-02	-6.19319399687E-02	2.85585751587E-02	-6.15036787141E-02	1.66688015588E-01	1.63742850050E-01
1.74180602007E+09	-6.11356718585E-02	-1.20796041575E-01	2.31234969106E-02	-6.36607180271E-02	2.39011612686E-02	-6.32907547417E-02	1.77292323782E-01	1.53048518291E-01
1.74347826087E+09	-6.28130864776E-02	-1.29043453480E-01	1.83562144789E-02	-6.50119433913E-02	1.91676249079E-02	-6.46873833779E-02	1.86707116541E-01	1.41348084789E-01
1.74515050167E+09	-6.55837613689E-02	-1.36869403749E-01	1.35520612202E-02	-6.59836388833E-02	1.43633904282E-02	-6.57134047323E-02	1.94863437237E-01	1.28733855208E-01
1.74682274247E+09	-6.93860943236E-02	-1.44150284364E-01	8.71808346490E-03	-6.65675023879E-02	9.54553229463E-03	-6.63651094791E-02	2.01622252082E-01	1.15353041688E-01
1.74849498328E+09	-7.41650454121E-02	-1.50724534883E-01	3.91417633767E-03	-6.67946154132E-02	4.75586571733E-03	-6.66432344747E-02	2.06952406763E-01	1.01354398341E-01
1.75016722408E+09	-7.98367931775E-02	-1.56458339141E-01	-8.54094977707E-04	-6.66814257658E-02	-2.03012986051E-06	-6.65769241422E-02	2.10753919421E-01	8.68475647885E-02
1.75183946488E+09	-8.62874170546E-02	-1.61220542340E-01	-5.54377581191E-03	-6.62177618540E-02	-4.68260173675E-03	-6.61789829958E-02	2.13003176486E-01	7.20334036937E-02
1.75351170569E+09	-9.33834633279E-02	-1.64921834798E-01	-1.01158936911E-02	-6.54371745521E-02	-9.26775092989E-03	-6.54473144910E-02	2.13640603171E-01	5.70328871370E-02
1.75518394649E+09	-1.00976355127E-01	-1.67399785361E-01	-1.45871940654E-02	-6.43563714075E-02	-1.37428462678E-02	-6.44248693509E-02	2.12675533238E-01	4.20496258195E-02
1.75685618729E+09	-1.08874017786E-01	-1.68625887704E-01	-1.89137858901E-02	-6.29972391071E-02	-1.80752943254E-02	-6.31174982521E-02	2.10116779937E-01	2.72594867923E-02
1.75852842809E+09	-1.16935402507E-01	-1.68483404323E-01	-2.30974025025E-02	-6.13883299323E-02	-2.22722330347E-02	-6.15603125571E-02	2.05942472443E-01	1.27927995748E-02
1.76020066890E+09	-1.24908034457E-01	-1.66967475692E-01	-2.71284404342E-02	-5.95300117862E-02	-2.63014864965E-02	-5.97561699763E-02	2.00233959428E-01	-1.15806531044E-03
1.76187290970E+09	-1.32574400788E-01	-1.64066425620E-01	-3.09972164266E-02	-5.74720466860E-02	-3.01916340210E-02	-5.77410407086E-02	1.93013311926E-01	-1.44489640556E-02
1.76354515050E+09	-1.39703210622E-01	-1.59762108456E-01	-3.47207314690E-02	-5.51915448846E-02	-3.39200732769E-02	-5.55228267444E-02	1.84388440054E-01	-2.68635886580E-02
1.76521739130E+09	-1.46018508281E-01	-1.54190106090E-01	-3.82802931213E-02	-5.27363330550E-02	-3.74947948398E-02	-5.31151380353E-02	1.74419336422E-01	-3.82999713970E-02
1.76688963211E+09	-1.51274545113E-01	-1.47478908830E-01	-4.16799493085E-02	-5.00896833142E-02	-4.09258078822E-02	-5.05213221393E-02	1.63266463021E-01	-4.85957523492E-02
1.76856187291E+09	-1.55291151142E-01	-1.39797659850E-01	-4.49525773572E-02	-4.72781135904E-02	-4.42061054274E-02	-4.77446932983E-02	1.51007907484E-01	-5.76317132190E-02
1.77023411371E+09	-1.57871397695E-01	-1.31426343772E-01	-4.80503414295E-02	-4.42750448474E-02	-4.73384394901E-02	-4.47929892509E-02	1.37829377579E-01	-6.52907482428E-02
1.77190635452E+09	-1.58872577598E-01	-1.22617801087E-01	-5.10117153634E-02	-4.10915216270E-02	-5.03281605553E-02	-4.16733438732E-02	1.23851618771E-01	-7.14578607734E-02
1.77357859532E+09	-1.58240509902E-01	-1.13658079862E-01	-5.38170995969E-02	-3.77285162916E-02	-5.31602163327E-02	-3.83538960438E-02	1.09274995389E-01	-7.60841789660E-02
1.77525083612E+09	-1.55961475793E-01	-1.04885328617E-01	-5.64597201046E-02	-3.41666683885E-02	-5.58394613796E-02	-3.48389763815E-02	9.42780290282E-02	-7.90807212746E-02
1.77692307692E+09	-1.52073719177E-01	-9.66413352292E-02	-5.89132633990E-02	-3.03930485629E-02	-5.83465555623E-02	-3.11134971112E-02	7.90189742122E-02	-8.04052466949E-02
1.77859531773E+09	-1.46728842169E-01	-8.92042391044E-02	-6.11845736851E-02	-2.64210599984E-02	-6.06405780374E-02	-2.72002829675E-02	6.36985261398E-02	-8.00691884254E-02
1.78026755853E+09	-1.40097036537E-01	-8.28674652884E-02	-6.32087085806E-02	-2.22335839029E-02	-6.27293432459E-02	-2.30544858728E-02	4.85055360778E-02	-7.80777054008E-02
1.78193979933E+09	-1.32452424869E-01	-7.78214215439E-02	-6.49914550017E-02	-1.78382256496E-02	-6.45592047314E-02	-1.87203147198E-02	3.36114060351E-02	-7.44237217879E-02
1.78361204013E+09	-1.24026778100E-01	-7.42554572834E-02	-6.64725715925E-02	-1.32592612539E-02	-6.61086343797E-02	-1.41656002170E-02	1.92175932781E-02	-6.91819718162E-02
1.78528428094E+09	-1.15173145203E-01	-7.22776768354E-02	-6.76392642373E-02	-8.49963254375E-03	-6.73417242380E-02	-9.45136668739E-03	5.47512050576E-03	-6.23820642067E-02
1.78695652174E+09	-1.06172133633E-01	-7.18967371575E-02	-6.84535784143E-02	-3.56383509893E-03	-6.82291463163E-02	-4.53625508816E-03	-7.43815333096E-03	-5.41379963410E-02
1.78862876254E+09	-9.73648256508E-02	-7.31080184061E-02	-6.88740066394E-02	1.50384529330E-03	-6.87274220231E-02	4.87209215078E-04	-1.93711052935E-02	-4.45640088429E-02
1.79030100334E+09	-8.90067783661E-02	-7.58064865270E-02	-6.88941187859E-02	6.64556377009E-03	-6.88244048197E-02	5.61472592173E-03	-3.01747346479E-02	-3.37417434133E-02
1.79197324415E+09	-8.13454726268E-02	-7.98311179470E-02	-6.84719900207E-02	1.18291665069E-02	-6.84842038263E-02	1.07987316709E-02	-3.97296321925E-02	-2.18167105750E-02
1.79364548495E+09	-7.45550188669E-02	-8.50445369311E-02	-6.76118382675E-02	1.70110629553E-02	-6.77244824559E-02	1.59745425481E-02	-4.78932911452E-02	-8.93256552994E-03
1.79531772575E+09	-6.88568077794E-02	-9.12265544990E-02	-6.62896501727E-02	2.21338533319E-02	-6.64869626375E-02	2.11040478612E-02	-5.46077640715E-02	4.74936597323E-03
1.79698996656E+09	-6.43107976110E-02	-9.81748385468E-02	-6.45396019627E-02	2.71706601568E-02	-6.48184821263E-02	2.61481832435E-02	-5.97668177935E-02	1.90648793713E-02
1.79866220736E+09	-6.10501445902E-02	-1.05673670110E-01	-6.23469938217E-02	3.20449730783E-02	-6.27221715203E-02	3.10433064577E-02	-6.33132563860E-02	3.38376023724E-02
1.80033444816E+09	-5.90720036266E-02	-1.13493398347E-01	-5.97523756547E-02	3.67068698567E-02	-6.02005891737E-02	3.57450154440E-02	-6.52130858326E-02	4.88959286227E-02
1.80200668896E+09	-5.83925636375E-02	-1.21436616666E-01	-5.67525290908E-02	4.11306580591E-02	-5.72837930242E-02	4.02178005862E-02	-6.54449026769E-02	6.40435749243E-02
1.80367892977E+09	-5.89630254644E-02	-1.29286383097E-01	-5.34052090578E-02	4.52614805272E-02	-5.40128796316E-02	4.43963566616E-02	-6.40194507807E-02	7.90780070795E-02
1.80535117057E+09	-6.07168377011E-02	-1.36880288392E-01	-4.97369099165E-02	4.90966990127E-02	-5.04151069411E-02	4.82838787730E-02	-6.09280537110E-02	9.38519124749E-02
1.80702341137E+09	-6.36195367987E-02	-1.44058446042E-01	-4.57807124698E-02	5.25758395751E-02	-4.65202077006E-02	5.18295709644E-02	-5.62680273895E-02	1.08178394402E-01
1.80869565217E+09	-6.75417669574E-02	-1.50664127949E-01	-4.15716350834E-02	5.56957933423E-02	-4.23670227427E-02	5.50228379011E-02	-5.00506344972E-02	1.21860885561E-01
1.81036789298E+09	-7.24085664263E-02	-1.56605887990E-01	-3.71764038692E-02	5.84270350375E-02	-3.80167846225E-02	5.78379011889E-02	-4.23827191514E-02	1.34773322235E-01
1.81204013378E+09	-7.80696407271E-02	-1.61742282444E-01	-3.26149462267E-02	6.07776943203E-02	-3.34995041302E-02	6.02689212712E-02	-3.33593094933E-02	1.46732687675E-01
1.81371237458E+09	-8.44122089771E-02	-1.66003930486E-01	-2.79487647299E-02	6.27312493182E-02	-2.88503600762E-02	6.22979896062E-02	-2.31271002079E-02	1.57607988053E-01
1.81538461538E+09	-9.13244576097E-02	-1.69276287007E-01	-2.31800033209E-02	6.42957461950E-02	-2.41149460475E-02	6.39412264080E-02	-1.17772767745E-02	1.67311667838E-01
1.81705685619E+09	-9.86243259664E-02	-1.71569066409E-01	-1.83745478379E-02	6.54885532426E-02	-1.93222042597E-02	6.52026619833E-02	5.39470231751E-04	1.75693993249E-01
1.81872909699E+09	-1.06206319863E-01	-1.72772169504E-01	-1.35675441344E-02	6.62893844985E-02	-1.45186057202E-02	6.60877997465E-02	1.36520553047E-02	1.82684062195E-01
1.82040133779E+09	-1.13868157838E-01	-1.72944800127E-01	-8.76846445781E-03	6.67366360234E-02	-9.72251228749E-03	6.66144074800E-02	2.74420058468E-02	1.88218783931E-01
1.82207357860E+09	-1.21560920241E-01	-1.72060096637E-01	-4.03382202187E-03	6.68379418653E-02	-4.97443848908E-03	6.67799491362E-02	4.16884920720E-02	1.92241591123E-01
1.82374581940E+09	-1.29060350824E-01	-1.70128779649E-01	6.42010194411E-04	6.65973215087E-02	-2.97518482542E-04	6.66198531993E-02	5.62622437415E-02	1.94736992592E-01
1.82541806020E+09	-1.36318224079E-01	-1.67205797313E-01	5.22079644514E-03	6.60561747658E-02	4.30355609265E-03	6.61357812115E-02	7.09968930587E-02	1.95675846011E-01
1.82709030100E+09	-1.43157304673E-01	-1.63273977441E-01	9.68051197305E-03	6.52269888065E-02	8.78892369337E-03	6.53561512903E-02	8.57120880958E-02	1.95040122296E-01
1.82876254181E+09	-1.49454635320E-01	-1.58436843013E-01	1.40248838949E-02	6.41048501151E-02	1.31498607643E-02	6.43015423781E-02	1.00254042342E-01	1.92919176253E-01
1.83043478261E+09	-1.55114958575E-01	-1.52709719647E-01	1.82246992932E-02	6.27462113321E-02	1.73775512735E-02	6.29909629970E-02	1.14458538224E-01	1.89298619653E-01
1.83210702341E+09	-1.59968765593E-01	-1.46258603909E-01	2.22857910370E-02	6.11335870276E-02	2.14627661812E-02	6.14331622164E-02	1.28193446159E-01	1.84231268436E-01
1.83377926421E+09	-1.63961459964E-01	-1.39101628819E-01	2.61826701001E-02	5.93104840171E-02	2.54047371817E-02	5.96663722881E-02	1.41303289141E-01	1.77804496850E-01
1.83545150502E+09	-1.66941572442E-01	-1.31392568239E-01	2.99352911855E-02	5.72883335312E-02	2.91762675393E-02	5.76851384231E-02	1.53645154028E-01	1.70110167620E-01
1.83712374582E+09	-1.68845647681E-01	-1.23237836141E-01	3.35286008900E-02	5.50758716759E-02	3.28059557973E-02	5.55037599242E-02	1.65122554344E-01	1.61186175677E-01
1.83879598662E+09	-1.69571567311E-01	-1.14828136087E-01	3.69798018669E-02	5.26921015873E-02	3.62882255428E-02	5.31537683408E-02	1.75593039598E-01	1.51217135369E-01
1.84046822742E+09	-1.69066877396E-01	-1.06290234819E-01	4.02682339284E-02	5.01266184427E-02	3.95982255464E-02	5.06367689831E-02	1.84976783116E-01	1.40266460306E-01
1.84214046823E+09	-1.67274715013E-01	-9.78919912983E-02	4.34029551395E-02	4.74026791097E-02	4.27778950922E-02	4.79530421807E-02	1.93191539219E-01	1.28486502645E-01
1.84381270903E+09	-1.64184906629E-01	-8.97721951841E-02	4.63901186667E-02	4.45253191059E-02	4.58037775079E-02	4.51026910608E-02	2.00148333943E-01	1.15969576119E-01
1.84548494983E+09	-1.59899937693E-01	-8.22068237658E-02	4.92308106679E-02	4.14885030400E-02	4.86689818870E-02	4.20978350902E-02	2.05807900114E-01	1.02864142393E-01
1.84715719064E+09	-1.54429949337E-01	-7.53689150639E-02	5.19189151943E-02	3.82774894621E-02	5.13855253067E-02	3.89313950064E-02	2.10090356717E-01	8.93547832845E-02
1.84882943144E+09	-1.47904881353E-01	-6.94903062223E-02	5.44491789043E-02	3.49216790708E-02	5.39576345057E-02	3.55962365367E-02	2.12989779680E-01	7.55190996675E-02
1.85050167224E+09	-1.40495012594E-01	-6.47785664997E-02	5.68227286172E-02	3.14000834697E-02	5.63578983602E-02	3.21058700434E-02	2.14472861348E-01	6.15237607430E-02
1.85217391304E+09	-1.32417639390E-01	-6.14086759104E-02	5.90119137176E-02	2.76944597543E-02	5.85953781772E-02	2.84337363116E-02	2.14555153801E-01	4.74954590111E-02
1.85384615385E+09	-1.23933961876E-01	-5.95005194874E-02	6.10159763480E-02	2.38151438031E-02	6.06353762138E-02	2.45961062097E-02	2.13215117218E-01	3.36160184146E-02
1.85551839465E+09	-1.15311560437E-01	-5.91322120190E-02	6.28113225959E-02	1.97654416871E-02	6.24783257257E-02	2.05645972460E-02	2.10467064478E-01	1.99993799043E-02
1.85719063545E+09	-1.06888797875E-01	-6.03081547796E-02	6.43749194288E-02	1.55258199198E-02	6.40820786447E-02	1.63600717652E-02	2.06383431476E-01	6.78098572056E-03
1.85886287625E+09	-9.89398112443E-02	-6.29510899155E-02	6.56739588565E-02	1.11206725778E-02	6.54407443568E-02	1.19885178463E-02	2.00995278466E-01	-5.89084460811E-03
1.86053511706E+09	-9.17414961796E-02	-6.69420508825E-02	6.66873093946E-02	6.55025448037E-03	6.65068310949E-02	7.44834783265E-03	1.94334354484E-01	-1.78699749907E-02
1.86220735786E+09	-8.55497732043E-02	-7.21197324070E-02	6.73816714269E-02	1.83190309893E-03	6.72650155535E-02	2.74922623526E-03	1.86491915249E-01	-2.90702313465E-02
1.86387959866E+09	-8.05578022038E-02	-7.82238881587E-02	6.77234191985E-02	-3.00019243289E-03	6.76712890481E-02	-2.07029629022E-03	1.77547378090E-01	-3.93648727980E-02
1.86555183946E+09	-7.68978971367E-02	-8.50145703558E-02	6.77086543307E-02	-7.93721133265E-03	6.77206472492E-02	-6.98221986762E-03	1.67595941514E-01	-4.86109955009E-02
1.86722408027E+09	-7.46817907108E-02	-9.22014967886E-02	6.72766690861E-02	-1.29167483096E-02	6.73736527724E-02	-1.19619255678E-02	1.56733913456E-01	-5.67127629648E-02
1.86889632107E+09	-7.39175705829E-02	-9.95272629048E-02	6.64502681041E-02	-1.79144660583E-02	6.66119900927E-02	-1.69594921350E-02	1.45110514054E-01	-6.35691599860E-02
1.87056856187E+09	-7.45603907373E-02	-1.06663269375E-01	6.52016531973E-02	-2.28717211847E-02	6.54237354769E-02	-2.19226843872E-02	1.32826080525E-01	-6.91055114526E-02
1.87224080268E+09	-7.65424387976E-02	-1.13392615487E-01	6.35240056132E-02	-2.77639558275E-02	6.38262580618E-02	-2.68187587855E-02	1.20050203048E-01	-7.32604020749E-02
1.87391304348E+09	-7.96943652607E-02	-1.19518163418E-01	6.14248639076E-02	-3.25081568752E-02	6.18080185568E-02	-3.15935462898E-02	1.06887888752E-01	-7.59691098121E-02
1.87558528428E+09	-8.39067901144E-02	-1.24845899333E-01	5.89302924946E-02	-3.70912164723E-02	5.93772192263E-02	-3.62006108057E-02	9.35593374879E-02	-7.71930705951E-02
1.87725752508E+09	-8.90007816063E-02	-1.29203303054E-01	5.60467143782E-02	-4.14670321846E-02	5.65741332161E-02	-4.06019523250E-02	8.01873767874E-02	-7.69134198866E-02
1.87892976589E+09	-9.47544947661E-02	-1.32488941495E-01	5.27997709785E-02	-4.55791203638E-02	5.34162802028E-02	-4.47641044193E-02	6.69563951844E-02	-7.51217414449E-02
1.88060200669E+09	-1.00978149211E-01	-1.34628829731E-01	4.92360509254E-02	-4.94084442575E-02	4.99113477457E-02	-4.86342041412E-02	5.40425109518E-02	-7.18515798611E-02
1.88227424749E+09	-1.07464266301E-01	-1.35656976817E-01	4.53851071961E-02	-5.29118996452E-02	4.61046835258E-02	-5.21955711907E-02	4.15698585535E-02	-6.71759409384E-02
1.88394648829E+09	-1.14036826616E-01	-1.35511693236E-01	4.12696917700E-02	-5.60858196483E-02	4.20395556456E-02	-5.54155489318E-02	2.97700969828E-02	-6.11102989698E-02
1.88561872910E+09	-1.20538630210E-01	-1.34222404570E-01	3.69305049194E-02	-5.89055573164E-02	3.77535587822E-02	-5.82919596373E-02	1.87263221540E-02	-5.37737718184E-02
1.88729096990E+09	-1.26806103185E-01	-1.31862413455E-01	3.24088621254E-02	-6.13432143507E-02	3.32676928391E-02	-6.07996912039E-02	8.61044755903E-03	-4.52591032421E-02
1.88896321070E+09	-1.32671448265E-01	-1.28460845993E-01	2.77356816940E-02	-6.34046707094E-02	2.86451225929E-02	-6.29246236700E-02	-4.75937813926E-04	-3.56585036882E-02
1.89063545151E+09	-1.37983782291E-01	-1.24100077176E-01	2.29543268639E-02	-6.50906171158E-02	2.38977811476E-02	-6.46709902728E-02	-8.39233670700E-03	-2.51413966854E-02
1.89230769231E+09	-1.42614561104E-01	-1.18893753758E-01	1.80980123346E-02	-6.63832879519E-02	1.90728055363E-02	-6.60421013617E-02	-1.50810427101E-02	-1.38256250629E-02
1.89397993311E+09	-1.46474675820E-01	-1.12952366306E-01	1.32015121246E-02	-6.73007930876E-02	1.42043629883E-02	-6.70195961618E-02	-2.04319513106E-02	-1.87055561963E-03
1.89565217391E+09	-1.49441944146E-01	-1.06435797218E-01	8.30892806888E-03	-6.78403794112E-02	9.32406961342E-03	-6.76470126135E-02	-2.44234562648E-02	1.05736390893E-02
