# Hz S RI R 50
! CMT, CMT808U, 21440046, 21.4.3/4
! Date: 12/11/2025 11:13:48 AM
! Data: Format (Calibration Info)
! Freq	S11:Re/Im(F2)	S41:Re/Im(F2)	S14:Re/Im(F2)	S44:Re/Im(F2)
1.70000000000E+09	-2.01322955389E-01	-1.10368914276E-01	-5.50454275384E-02	-4.02726166650E-02	-5.44594020886E-02	-4.09195511022E-02	-3.02224511549E-02	4.58809839851E-02
1.70167224080E+09	-2.02306961972E-01	-1.02161392092E-01	-5.77982597474E-02	-3.65280061930E-02	-5.72600691949E-02	-3.72137213986E-02	-2.98454702906E-02	5.63563278160E-02
1.70334448161E+09	-2.01791012911E-01	-9.36855667014E-02	-6.03490866161E-02	-3.25693229092E-02	-5.98592976006E-02	-3.32959311019E-02	-2.82850648155E-02	6.67620295366E-02
1.70501672241E+09	-1.99794577162E-01	-8.51752966385E-02	-6.26706713963E-02	-2.84243090259E-02	-6.22386616070E-02	-2.91883733312E-02	-2.55665239059E-02	7.69066745655E-02
1.70668896321E+09	-1.96328931969E-01	-7.69392922605E-02	-6.47489057696E-02	-2.40948188971E-02	-6.43805187214E-02	-2.48744117359E-02	-2.17863234663E-02	8.67394948478E-02
1.70836120401E+09	-1.91531226733E-01	-6.91547061567E-02	-6.65581520582E-02	-1.95619098165E-02	-6.62499914798E-02	-2.03702321831E-02	-1.69266618115E-02	9.60686050034E-02
1.71003344482E+09	-1.85510490033E-01	-6.20701642226E-02	-6.80796034495E-02	-1.48576275151E-02	-6.78176552141E-02	-1.56884379461E-02	-1.10971921695E-02	1.04849239502E-01
1.71170568562E+09	-1.78396786979E-01	-5.58513363673E-02	-6.92717123652E-02	-9.99228915262E-03	-6.90683447790E-02	-1.08525951463E-02	-4.38333278704E-03	1.12948943318E-01
1.71337792642E+09	-1.70380496786E-01	-5.06520659947E-02	-7.01087647512E-02	-4.99631703137E-03	-6.99654607827E-02	-5.84865710966E-03	3.14224873787E-03	1.20263359550E-01
1.71505016722E+09	-1.61651139738E-01	-4.65833075164E-02	-7.05728341306E-02	1.18975664719E-04	-7.04959263050E-02	-7.50865877625E-04	1.13953960897E-02	1.26753493565E-01
1.71672240803E+09	-1.52368048857E-01	-4.36946470254E-02	-7.06556348214E-02	5.30731374579E-03	-7.06389784478E-02	4.43550279725E-03	2.02698654485E-02	1.32332567681E-01
1.71839464883E+09	-1.42774302328E-01	-4.20702183836E-02	-7.03278896002E-02	1.05456558504E-02	-7.03667224593E-02	9.67262989802E-03	2.96477063679E-02	1.36943224860E-01
1.72006688963E+09	-1.33047616197E-01	-4.16948721160E-02	-6.95709838125E-02	1.57804813594E-02	-6.96722867702E-02	1.49061040782E-02	3.94350995245E-02	1.40581634058E-01
1.72173913043E+09	-1.23349309343E-01	-4.25868380739E-02	-6.83856752802E-02	2.09827373257E-02	-6.85635567033E-02	2.01143048791E-02	4.95173667093E-02	1.43159095356E-01
1.72341137124E+09	-1.13868576691E-01	-4.47137243562E-02	-6.67809773211E-02	2.60979007867E-02	-6.70209150823E-02	2.52373120176E-02	5.97878490626E-02	1.44700141113E-01
1.72508361204E+09	-1.04777419075E-01	-4.79799631967E-02	-6.47557170986E-02	3.10902781889E-02	-6.50631061104E-02	3.02553494456E-02	7.01288605135E-02	1.45175309079E-01
1.72675585284E+09	-9.62464570339E-02	-5.23597717763E-02	-6.23217102025E-02	3.59188115656E-02	-6.26821925150E-02	3.51072396886E-02	8.04306553125E-02	1.44585282716E-01
1.72842809365E+09	-8.84021269225E-02	-5.76976729597E-02	-5.94801283801E-02	4.05455221904E-02	-5.99164185545E-02	3.97534464130E-02	9.05824183151E-02	1.42964060520E-01
1.73010033445E+09	-8.13513177916E-02	-6.39451978600E-02	-5.62896966377E-02	4.49218208514E-02	-5.67632075587E-02	4.41705772435E-02	1.00509602161E-01	1.40325980646E-01
1.73177257525E+09	-7.52361529224E-02	-7.09226570583E-02	-5.27384253453E-02	4.90212931890E-02	-5.32701317547E-02	4.82978363958E-02	1.10061807400E-01	1.36677300796E-01
1.73344481605E+09	-7.01208117516E-02	-7.85262779687E-02	-4.88673652401E-02	5.28068247356E-02	-4.94577211160E-02	5.21355224106E-02	1.19174262712E-01	1.32098358172E-01
1.73511705686E+09	-6.60778945385E-02	-8.65818269975E-02	-4.46954372987E-02	5.62569796012E-02	-4.53456092618E-02	5.56253917003E-02	1.27735901998E-01	1.26626846346E-01
1.73678929766E+09	-6.31517110051E-02	-9.49862881526E-02	-4.03032227313E-02	5.93384317201E-02	-4.09797207243E-02	5.87572768723E-02	1.35675343633E-01	1.20284195780E-01
1.73846153846E+09	-6.13749360157E-02	-1.03552655578E-01	-3.56830620850E-02	6.20493954510E-02	-3.63984716670E-02	6.15253423081E-02	1.42899583388E-01	1.13189814289E-01
1.74013377926E+09	-6.07438806608E-02	-1.12132085124E-01	-3.08955065749E-02	6.43522740833E-02	-3.16498623294E-02	6.38784589486E-02	1.49302014056E-01	1.05407179100E-01
1.74180602007E+09	-6.12586379519E-02	-1.20590229491E-01	-2.59699788899E-02	6.62659923599E-02	-2.67548795209E-02	6.58314159437E-02	1.54868161807E-01	9.69658076139E-02
1.74347826087E+09	-6.28892193176E-02	-1.28767017853E-01	-2.09713144665E-02	6.77576241842E-02	-2.17765423827E-02	6.73798162964E-02	1.59501558968E-01	8.80227418274E-02
1.74515050167E+09	-6.55954443727E-02	-1.36539758619E-01	-1.59088257652E-02	6.88430232620E-02	-1.67277933817E-02	6.85394287001E-02	1.63154629949E-01	7.86484143759E-02
1.74682274247E+09	-6.93304874672E-02	-1.43766082604E-01	-1.08313794416E-02	6.95288694405E-02	-1.16820436411E-02	6.92862302408E-02	1.65792125761E-01	6.89331471706E-02
1.74849498328E+09	-7.40360147173E-02	-1.50304889166E-01	-5.78426102039E-03	6.98299563377E-02	-6.64258762155E-03	6.96375803179E-02	1.67347874623E-01	5.90000498553E-02
1.75016722408E+09	-7.96153259845E-02	-1.56035792509E-01	-7.92307397103E-04	6.97617587203E-02	-1.65992452483E-03	6.96297345522E-02	1.67829720323E-01	4.89406400178E-02
1.75183946488E+09	-8.59679390120E-02	-1.60792473554E-01	4.10945950297E-03	6.93307683286E-02	3.24751885738E-03	6.92519867566E-02	1.67226210563E-01	3.88962209328E-02
1.75351170569E+09	-9.29693763199E-02	-1.64523741424E-01	8.90298877548E-03	6.85670048020E-02	8.03849085768E-03	6.85499590186E-02	1.65509628144E-01	2.89311265637E-02
1.75518394649E+09	-1.00485004997E-01	-1.67063060437E-01	1.35843102461E-02	6.74924453079E-02	1.27131885197E-02	6.75334071120E-02	1.62723551825E-01	1.92142880428E-02
1.75685618729E+09	-1.08349490486E-01	-1.68366529540E-01	1.80886646268E-02	6.61338602858E-02	1.72374687022E-02	6.62262581995E-02	1.58864231222E-01	9.86790483872E-03
1.75852842809E+09	-1.16357124339E-01	-1.68301502595E-01	2.24493617589E-02	6.45122045858E-02	2.16000600913E-02	6.46583815393E-02	1.54001195043E-01	9.93785354618E-04
1.76020066890E+09	-1.24300799538E-01	-1.66860488369E-01	2.66450420575E-02	6.26533746924E-02	2.58053306233E-02	6.28473095325E-02	1.48164915837E-01	-7.33402999542E-03
1.76187290970E+09	-1.31967343642E-01	-1.64045494079E-01	3.06750112712E-02	6.05666151472E-02	2.98473284070E-02	6.08320582839E-02	1.41439254105E-01	-1.49581625538E-02
1.76354515050E+09	-1.39115842547E-01	-1.59836167846E-01	3.45345980746E-02	5.82883152884E-02	3.37275136091E-02	5.86006229335E-02	1.33903811002E-01	-2.17868133685E-02
1.76521739130E+09	-1.45466378547E-01	-1.54342840402E-01	3.82525016084E-02	5.58139588574E-02	3.74440603627E-02	5.61829531118E-02	1.25633782959E-01	-2.77474278590E-02
1.76688963211E+09	-1.50793522185E-01	-1.47707774325E-01	4.17981396016E-02	5.31714315420E-02	4.10223244760E-02	5.35857580156E-02	1.16741279099E-01	-3.27553761287E-02
1.76856187291E+09	-1.54870794696E-01	-1.40078084394E-01	4.52052083901E-02	5.03538254435E-02	4.44493002723E-02	5.08161370099E-02	1.07359102155E-01	-3.67550621566E-02
1.77023411371E+09	-1.57545442587E-01	-1.31728527987E-01	4.84657936502E-02	4.73605462780E-02	4.77398070058E-02	4.78662790279E-02	9.75926661744E-02	-3.97021852058E-02
1.77190635452E+09	-1.58642989131E-01	-1.22921448732E-01	5.15891845676E-02	4.41844985172E-02	5.08819408015E-02	4.47396960297E-02	8.75629616741E-02	-4.15534227857E-02
1.77357859532E+09	-1.58096284603E-01	-1.13930992513E-01	5.45633298247E-02	4.08157126353E-02	5.38930503644E-02	4.14351409468E-02	7.74093984143E-02	-4.22766098886E-02
1.77525083612E+09	-1.55894972693E-01	-1.05113839560E-01	5.73926651159E-02	3.72469399696E-02	5.67535182344E-02	3.79122952124E-02	6.72602051485E-02	-4.18757073407E-02
1.77692307692E+09	-1.52065918744E-01	-9.67806836133E-02	6.00551174397E-02	3.34588040489E-02	5.94533051167E-02	3.41700879505E-02	5.72344664762E-02	-4.03793617120E-02
1.77859531773E+09	-1.46745722780E-01	-8.92726002340E-02	6.25190869761E-02	2.94467333651E-02	6.19699730230E-02	3.02108679428E-02	4.74540832411E-02	-3.78144566850E-02
1.78026755853E+09	-1.40118548742E-01	-8.28450414085E-02	6.47737697520E-02	2.52109531034E-02	6.42761455923E-02	2.60246707717E-02	3.80518994783E-02	-3.42196558338E-02
1.78193979933E+09	-1.32439359954E-01	-7.77261321033E-02	6.67794404480E-02	2.07266604618E-02	6.63241235684E-02	2.15935086136E-02	2.91075534392E-02	-2.96466087993E-02
1.78361204013E+09	-1.23974846083E-01	-7.40954964511E-02	6.84865153795E-02	1.60353518929E-02	6.80984481687E-02	1.69338201362E-02	2.07494483038E-02	-2.41699982792E-02
1.78528428094E+09	-1.15054770303E-01	-7.20745295178E-02	6.98614966317E-02	1.11318736034E-02	6.95436900905E-02	1.20766972758E-02	1.30583794247E-02	-1.78081511763E-02
1.78695652174E+09	-1.05992602128E-01	-7.16771920624E-02	7.08786288569E-02	6.04655707311E-03	7.06253333737E-02	7.02160125865E-03	6.11922731142E-03	-1.07152319743E-02
1.78862876254E+09	-9.71094662384E-02	-7.28921317572E-02	7.14835392220E-02	8.09894606580E-04	7.13054424368E-02	1.80178711004E-03	-5.29011118098E-06	-2.95456999943E-03
1.79030100334E+09	-8.86842561840E-02	-7.56250005857E-02	7.16622288524E-02	-4.53077730033E-03	7.15655298580E-02	-3.51398846074E-03	-5.24451208207E-03	5.39251072631E-03
1.79197324415E+09	-8.09753074248E-02	-7.96876650961E-02	7.13823776299E-02	-9.92867179487E-03	7.13741260211E-02	-8.90117278317E-03	-9.54221733566E-03	1.42169953817E-02
1.79364548495E+09	-7.41689367110E-02	-8.49594209516E-02	7.06453623807E-02	-1.53374684179E-02	7.07300590924E-02	-1.43006069788E-02	-1.28227691911E-02	2.34264643151E-02
1.79531772575E+09	-6.84587047851E-02	-9.11932900994E-02	6.94253489246E-02	-2.06854835878E-02	6.95917196082E-02	-1.96664634212E-02	-1.51046787570E-02	3.29094482409E-02
1.79698996656E+09	-6.39399395177E-02	-9.81978645962E-02	6.77453190071E-02	-2.59358069721E-02	6.79980981347E-02	-2.49190853156E-02	-1.63385619598E-02	4.25708547637E-02
1.79866220736E+09	-6.06900659648E-02	-1.05736998021E-01	6.56118864856E-02	-3.10210830659E-02	6.59422322720E-02	-3.00323133861E-02	-1.65067753525E-02	5.22479878800E-02
1.80033444816E+09	-5.87530077548E-02	-1.13593105173E-01	6.30569795954E-02	-3.59116159482E-02	6.34689264206E-02	-3.49571344045E-02	-1.56075912331E-02	6.18838417766E-02
1.80200668896E+09	-5.81190143256E-02	-1.21547980790E-01	6.00840729767E-02	-4.05388338193E-02	6.05750584005E-02	-3.96265883157E-02	-1.36684494268E-02	7.13407139943E-02
1.80367892977E+09	-5.87377223453E-02	-1.29411756219E-01	5.67434348820E-02	-4.48949600182E-02	5.73126766159E-02	-4.40295849963E-02	-1.07037279293E-02	8.05000439740E-02
1.80535117057E+09	-6.05456213167E-02	-1.36988358394E-01	5.30895982365E-02	-4.89196164342E-02	5.37155229366E-02	-4.81099716806E-02	-6.73101457529E-03	8.92537853117E-02
1.80702341137E+09	-6.34786011989E-02	-1.44134070060E-01	4.91254079683E-02	-5.26083770855E-02	4.98163446362E-02	-5.18568794566E-02	-1.82768041270E-03	9.74985284092E-02
1.80869565217E+09	-6.74433039517E-02	-1.50720881201E-01	4.48993952613E-02	-5.59221019368E-02	4.56608460178E-02	-5.52445967020E-02	3.94593317008E-03	1.05134648675E-01
1.81036789298E+09	-7.23124028153E-02	-1.56615127000E-01	4.04902925617E-02	-5.88574325029E-02	4.12942558198E-02	-5.82349273046E-02	1.05276544931E-02	1.12064309921E-01
1.81204013378E+09	-7.79781724676E-02	-1.61718826279E-01	3.58892458962E-02	-6.14063747589E-02	3.67392153438E-02	-6.08521788436E-02	1.78566792101E-02	1.18232962728E-01
1.81371237458E+09	-8.43269485802E-02	-1.65923222933E-01	3.11886107824E-02	-6.35632906164E-02	3.20524513652E-02	-6.30779009077E-02	2.57997248621E-02	1.23514921684E-01
1.81538461538E+09	-9.12171463699E-02	-1.69163792508E-01	2.63722959296E-02	-6.53163529540E-02	2.72678483070E-02	-6.49165515533E-02	3.42843334329E-02	1.27900157630E-01
1.81705685619E+09	-9.84879588964E-02	-1.71410425837E-01	2.15091463291E-02	-6.66919550151E-02	2.24293152390E-02	-6.63654506660E-02	4.31885988008E-02	1.31285465659E-01
1.81872909699E+09	-1.06029025537E-01	-1.72611966630E-01	1.66317674090E-02	-6.76918329323E-02	1.75562603326E-02	-6.74350705172E-02	5.24057403828E-02	1.33687223374E-01
1.82040133779E+09	-1.13664410194E-01	-1.72769269371E-01	1.17623755314E-02	-6.83230405553E-02	1.26931737054E-02	-6.81463378983E-02	6.18418971068E-02	1.35053016297E-01
1.82207357860E+09	-1.21314902275E-01	-1.71880753055E-01	6.92599082347E-03	-6.86037379514E-02	7.85995123461E-03	-6.84929015552E-02	7.13209429453E-02	1.35358922592E-01
1.82374581940E+09	-1.28780605607E-01	-1.69957764888E-01	2.15408966251E-03	-6.85505798392E-02	3.08157698043E-03	-6.85098684146E-02	8.07863020277E-02	1.34621507727E-01
1.82541806020E+09	-1.35983121323E-01	-1.67032565033E-01	-2.54062954209E-03	-6.81836349973E-02	-1.62123992426E-03	-6.82014201696E-02	9.01249419523E-02	1.32882855518E-01
1.82709030100E+09	-1.42789929339E-01	-1.63139331990E-01	-7.11772794387E-03	-6.75143324641E-02	-6.22364549042E-03	-6.75929057514E-02	9.91782874786E-02	1.30128034420E-01
1.82876254181E+09	-1.49055257628E-01	-1.58329039281E-01	-1.15949007141E-02	-6.65730239794E-02	-1.07109635730E-02	-6.67124987451E-02	1.07883248520E-01	1.26432112061E-01
1.83043478261E+09	-1.54699056499E-01	-1.52665006997E-01	-1.59372919509E-02	-6.53691827803E-02	-1.50691118384E-02	-6.55590292417E-02	1.16108081276E-01	1.21850711251E-01
1.83210702341E+09	-1.59543654196E-01	-1.46253590306E-01	-2.01409144269E-02	-6.39064605015E-02	-1.93112760620E-02	-6.41574753760E-02	1.23786499228E-01	1.16422251962E-01
1.83377926421E+09	-1.63558648299E-01	-1.39135337063E-01	-2.42138591915E-02	-6.22364312514E-02	-2.33986420113E-02	-6.25298929884E-02	1.30804667169E-01	1.10229826842E-01
1.83545150502E+09	-1.66562546243E-01	-1.31482796492E-01	-2.81392829667E-02	-6.03486882733E-02	-2.73530937942E-02	-6.06883745846E-02	1.37107161306E-01	1.03368152051E-01
1.83712374582E+09	-1.68496160767E-01	-1.23368166820E-01	-3.19158119297E-02	-5.82679614219E-02	-3.11557816330E-02	-5.86423752565E-02	1.42622638612E-01	9.58961494748E-02
1.83879598662E+09	-1.69267082440E-01	-1.14965390110E-01	-3.55523573480E-02	-5.59980934390E-02	-3.48216025637E-02	-5.64204586213E-02	1.47287790588E-01	8.79505869270E-02
1.84046822742E+09	-1.68803972862E-01	-1.06442104522E-01	-3.90471344090E-02	-5.35514864092E-02	-3.83456229900E-02	-5.40188476883E-02	1.51100626683E-01	7.96072101870E-02
1.84214046823E+09	-1.67057838690E-01	-9.80203874236E-02	-4.23992840169E-02	-5.09298252797E-02	-4.17284729691E-02	-5.14351826894E-02	1.53973964256E-01	7.09645270399E-02
1.84381270903E+09	-1.64041136578E-01	-8.98859789769E-02	-4.56108368711E-02	-4.81398892547E-02	-4.49656020876E-02	-4.86850935500E-02	1.55934056221E-01	6.21570142760E-02
1.84548494983E+09	-1.59792773861E-01	-8.22636196045E-02	-4.86948691086E-02	-4.51854693738E-02	-4.80780133404E-02	-4.57698986462E-02	1.56945039426E-01	5.32578176187E-02
1.84715719064E+09	-1.54332278582E-01	-7.53696739021E-02	-5.16257723991E-02	-4.20442246591E-02	-5.10504699663E-02	-4.26658694452E-02	1.57017340122E-01	4.43985303002E-02
1.84882943144E+09	-1.47802155281E-01	-6.94190160174E-02	-5.44128718915E-02	-3.87321946998E-02	-5.38645331038E-02	-3.93899108757E-02	1.56188614948E-01	3.56289144993E-02
1.85050167224E+09	-1.40374914067E-01	-6.46482098908E-02	-5.70549095895E-02	-3.52317331951E-02	-5.65474781759E-02	-3.59294861897E-02	1.54458097929E-01	2.71157233818E-02
1.85217391304E+09	-1.32258124148E-01	-6.12189847141E-02	-5.95260272399E-02	-3.15332164145E-02	-5.90610829300E-02	-3.22638970572E-02	1.51888661409E-01	1.88738519623E-02
1.85384615385E+09	-1.23707412457E-01	-5.92558631075E-02	-6.18183358546E-02	-2.76425697155E-02	-6.13911368606E-02	-2.84053150274E-02	1.48511135474E-01	1.10487980532E-02
1.85551839465E+09	-1.14988962325E-01	-5.88462133116E-02	-6.38960423523E-02	-2.35239912979E-02	-6.35338653974E-02	-2.43228646089E-02	1.44352338249E-01	3.69476344143E-03
1.85719063545E+09	-1.06461542338E-01	-6.00109445068E-02	-6.57583210631E-02	-1.92133656385E-02	-6.54263102433E-02	-2.00397386254E-02	1.39496046208E-01	-3.10748910398E-03
1.85886287625E+09	-9.84036344028E-02	-6.26883697105E-02	-6.73420235907E-02	-1.46903502505E-02	-6.70668629594E-02	-1.55499296877E-02	1.33994197816E-01	-9.30743636045E-03
1.86053511706E+09	-9.10979890113E-02	-6.67503621591E-02	-6.86215896344E-02	-9.96515157176E-03	-6.83987683506E-02	-1.08579089392E-02	1.27926333972E-01	-1.48255475219E-02
1.86220735786E+09	-8.48046082277E-02	-7.20141509248E-02	-6.95564115730E-02	-5.07033732848E-03	-6.94044756267E-02	-5.98633203494E-03	1.21352121725E-01	-1.96243402707E-02
1.86387959866E+09	-7.97564138546E-02	-7.82575180935E-02	-7.01306329580E-02	-3.36562211645E-05	-7.00372268189E-02	-9.69615502695E-04	1.14353919931E-01	-2.36484681741E-02
1.86555183946E+09	-7.60759457118E-02	-8.51999807577E-02	-7.02847863055E-02	5.11743749075E-03	-7.02661468546E-02	4.16823031179E-03	1.07004650444E-01	-2.68584241147E-02
1.86722408027E+09	-7.38805545767E-02	-9.25428602433E-02	-7.00335763971E-02	1.03279110667E-02	-7.00616766461E-02	9.37196800787E-03	9.94007781144E-02	-2.92140927981E-02
1.86889632107E+09	-7.31724317287E-02	-9.99893743681E-02	-6.92956114818E-02	1.55814239807E-02	-6.94169063203E-02	1.46093034579E-02	9.15997805900E-02	-3.07066298851E-02
1.87056856187E+09	-7.38989311747E-02	-1.07253869645E-01	-6.81328391884E-02	2.07655207578E-02	-6.83330376144E-02	1.98050184502E-02	8.37326104508E-02	-3.12955327483E-02
1.87224080268E+09	-7.59795963043E-02	-1.14086215881E-01	-6.65106283209E-02	2.58759897564E-02	-6.67846528960E-02	2.49206290042E-02	7.58953618430E-02	-3.09734303395E-02
1.87391304348E+09	-7.92764338609E-02	-1.20290466881E-01	-6.44417034873E-02	3.08247935340E-02	-6.47906985182E-02	2.99019438842E-02	6.81404132155E-02	-2.97757812366E-02
1.87558528428E+09	-8.36539488852E-02	-1.25647157443E-01	-6.19603943339E-02	3.55930424928E-02	-6.23759955483E-02	3.46950488460E-02	6.06171695649E-02	-2.76793329034E-02
1.87725752508E+09	-8.88882242206E-02	-1.30022277968E-01	-5.90802885743E-02	4.01173274948E-02	-5.95817976300E-02	3.92496877317E-02	5.34208410994E-02	-2.47245629477E-02
1.87892976589E+09	-9.48192137998E-02	-1.33284654264E-01	-5.58433511701E-02	4.43711046555E-02	-5.64032687454E-02	4.35300842427E-02	4.66346956213E-02	-2.09526922579E-02
1.88060200669E+09	-1.01184396634E-01	-1.35368875030E-01	-5.22765985456E-02	4.83175905786E-02	-5.29114344306E-02	4.75175886907E-02	4.03506810136E-02	-1.64282327981E-02
1.88227424749E+09	-1.07803798998E-01	-1.36281644390E-01	-4.84394938235E-02	5.19146918543E-02	-4.91204524816E-02	5.11772803132E-02	3.46442951833E-02	-1.12278433410E-02
1.88394648829E+09	-1.14479532365E-01	-1.36017303931E-01	-4.43540984298E-02	5.51738663840E-02	-4.50878423242E-02	5.44806787531E-02	2.96181309346E-02	-5.38697451255E-03
1.88561872910E+09	-1.21055667024E-01	-1.34599387257E-01	-4.00715723381E-02	5.80727747219E-02	-4.08559543833E-02	5.74425221275E-02	2.53129673781E-02	9.62433969345E-04
1.88729096990E+09	-1.27357196111E-01	-1.32088781362E-01	-3.56151651623E-02	6.06041071530E-02	-3.64486681371E-02	6.00227584371E-02	2.17891487767E-02	7.73388108514E-03
1.88896321070E+09	-1.33236910645E-01	-1.28559384828E-01	-3.10389102035E-02	6.27557392688E-02	-3.19033617854E-02	6.22522823307E-02	1.90874559514E-02	1.48614982618E-02
1.89063545151E+09	-1.38529992901E-01	-1.24060680630E-01	-2.63498808624E-02	6.45537703563E-02	-2.72593662950E-02	6.40994435399E-02	1.72223110053E-02	2.22114417957E-02
1.89230769231E+09	-1.43127928859E-01	-1.18733524347E-01	-2.16179209890E-02	6.59633828801E-02	-2.25508993312E-02	6.55981979917E-02	1.62108770475E-02	2.96765461643E-02
1.89397993311E+09	-1.46941769032E-01	-1.12680466615E-01	-1.68435249544E-02	6.70245532328E-02	-1.78017780559E-02	6.67169537262E-02	1.60779925419E-02	3.71764751943E-02
1.89565217391E+09	-1.49867241252E-01	-1.06052585269E-01	-1.20710355042E-02	6.77451029852E-02	-1.30413451146E-02	6.75098554873E-02	1.67623569791E-02	4.45880581663E-02
