# Hz S RI R 50
! CMT, CMT808U, 21440046, 21.4.3/4
! Date: 12/13/2025 10:52:57 PM
! Data: Format (Calibration Info)
! Freq	S11:Re/Im(F2)	S41:Re/Im(F2)	S14:Re/Im(F2)	S44:Re/Im(F2)
1.70000000000E+09	-8.77201335782E-02	-1.24786735512E-01	-4.62622034172E-02	-4.93667777674E-02	-4.60093772956E-02	-4.93117395473E-02	-5.80741806125E-02	4.87579043263E-02
1.70100000000E+09	-8.91124992104E-02	-1.19594835620E-01	-4.82542008140E-02	-4.72740665440E-02	-4.80659271726E-02	-4.72289476960E-02	-5.71559259224E-02	5.57184603770E-02
1.70200000000E+09	-8.98938416503E-02	-1.14175578652E-01	-5.02458143083E-02	-4.51802881526E-02	-5.00755367216E-02	-4.51003408408E-02	-5.59814714908E-02	6.25763764333E-02
1.70300000000E+09	-9.03127391222E-02	-1.08574076781E-01	-5.20763184438E-02	-4.29333676083E-02	-5.19335439515E-02	-4.30220696915E-02	-5.41318513900E-02	6.93123123262E-02
1.70400000000E+09	-9.01861373251E-02	-1.02726563525E-01	-5.39102270441E-02	-4.05988608159E-02	-5.36825040963E-02	-4.06993657060E-02	-5.19017555499E-02	7.58879448875E-02
1.70500000000E+09	-8.94481087362E-02	-9.68262419721E-02	-5.55549033796E-02	-3.83222852811E-02	-5.53968345109E-02	-3.83393335312E-02	-4.91873180189E-02	8.23120667448E-02
1.70600000000E+09	-8.81905868807E-02	-9.09327360480E-02	-5.71322508325E-02	-3.59686230447E-02	-5.69465768984E-02	-3.59720629566E-02	-4.61317429269E-02	8.84832809192E-02
1.70700000000E+09	-8.64398559197E-02	-8.49915080734E-02	-5.86395172895E-02	-3.34940887938E-02	-5.84908343210E-02	-3.34974277185E-02	-4.25773287227E-02	9.45796899018E-02
1.70800000000E+09	-8.41316486255E-02	-7.91398530550E-02	-5.99746397926E-02	-3.09968069681E-02	-5.98167578805E-02	-3.10075814399E-02	-3.87170564351E-02	1.00343149561E-01
1.70900000000E+09	-8.13689441949E-02	-7.33564079178E-02	-6.12140381230E-02	-2.83212168514E-02	-6.11104301318E-02	-2.84144362286E-02	-3.44567756423E-02	1.05819423284E-01
1.71000000000E+09	-7.80590309663E-02	-6.77884145517E-02	-6.25096467991E-02	-2.57415965917E-02	-6.22563890351E-02	-2.58019615815E-02	-2.98186030610E-02	1.11007666593E-01
1.71100000000E+09	-7.43210560207E-02	-6.24506419034E-02	-6.35431015239E-02	-2.30552817526E-02	-6.33327346677E-02	-2.31399148999E-02	-2.48787883015E-02	1.15817544758E-01
1.71200000000E+09	-7.01120497557E-02	-5.73025182803E-02	-6.44792009253E-02	-2.03100408834E-02	-6.44028656727E-02	-2.04547622761E-02	-1.95676447777E-02	1.20420290833E-01
1.71300000000E+09	-6.54457299255E-02	-5.25303361251E-02	-6.52317359982E-02	-1.76860526731E-02	-6.51301695290E-02	-1.76525833364E-02	-1.40605217364E-02	1.24580279340E-01
1.71400000000E+09	-6.05295235498E-02	-4.80350786864E-02	-6.60027358070E-02	-1.47634252534E-02	-6.58799055989E-02	-1.49521278569E-02	-8.36302843347E-03	1.28357163015E-01
1.71500000000E+09	-5.50933779976E-02	-4.39020305083E-02	-6.66271263558E-02	-1.19867028217E-02	-6.64107280335E-02	-1.20586137404E-02	-2.22029314583E-03	1.31779159855E-01
1.71600000000E+09	-4.94642775471E-02	-4.01388514989E-02	-6.70992929114E-02	-9.12864507346E-03	-6.69036858976E-02	-9.25907085117E-03	4.01817989110E-03	1.34740927679E-01
1.71700000000E+09	-4.34628975321E-02	-3.68277577741E-02	-6.74664119679E-02	-6.29397569958E-03	-6.72654859133E-02	-6.36119101717E-03	1.04882012778E-02	1.37419139513E-01
1.71800000000E+09	-3.72826530660E-02	-3.38137841343E-02	-6.76811947019E-02	-3.44707345989E-03	-6.74909894569E-02	-3.54801254609E-03	1.69662732888E-02	1.39474887457E-01
1.71900000000E+09	-3.09889444509E-02	-3.13551093288E-02	-6.78111306228E-02	-5.44325902459E-04	-6.76143557483E-02	-6.27003325348E-04	2.37117106007E-02	1.41341950027E-01
1.72000000000E+09	-2.44429150765E-02	-2.93792299228E-02	-6.78244940952E-02	2.27429219221E-03	-6.76033509109E-02	2.17120219888E-03	3.04767602707E-02	1.42593974401E-01
1.72100000000E+09	-1.78547585615E-02	-2.76834299390E-02	-6.76311763223E-02	5.21749330331E-03	-6.75189907134E-02	5.13081888580E-03	3.74426035199E-02	1.43348589433E-01
1.72200000000E+09	-1.11232531076E-02	-2.65647130552E-02	-6.74444727949E-02	8.11733626346E-03	-6.72392991100E-02	7.89106991757E-03	4.42942554983E-02	1.43842602272E-01
1.72300000000E+09	-4.32074294859E-03	-2.58577995387E-02	-6.70677778535E-02	1.09527354324E-02	-6.69086915905E-02	1.07994623502E-02	5.11642730116E-02	1.43898312425E-01
1.72400000000E+09	2.34757224075E-03	-2.55750262378E-02	-6.65940456484E-02	1.37879460602E-02	-6.64185698970E-02	1.36309803484E-02	5.81072151367E-02	1.43365779335E-01
1.72500000000E+09	9.11758200225E-03	-2.58400956817E-02	-6.59848782174E-02	1.65998655645E-02	-6.59101363932E-02	1.64404284837E-02	6.49034685846E-02	1.42428656286E-01
1.72600000000E+09	1.57584679415E-02	-2.64345933697E-02	-6.52789078968E-02	1.94683236430E-02	-6.51221889274E-02	1.92325312974E-02	7.15923291552E-02	1.41020333821E-01
1.72700000000E+09	2.23873635242E-02	-2.74715589318E-02	-6.44205676551E-02	2.22272055923E-02	-6.42934387091E-02	2.20176120530E-02	7.83162727426E-02	1.39297250220E-01
1.72800000000E+09	2.88077449400E-02	-2.90100835610E-02	-6.34555174523E-02	2.49853048086E-02	-6.33624960201E-02	2.47764754741E-02	8.47836295083E-02	1.37054349472E-01
1.72900000000E+09	3.50230553740E-02	-3.08457663333E-02	-6.23934927605E-02	2.76891604599E-02	-6.23985493775E-02	2.74694051181E-02	9.11734340633E-02	1.34494702207E-01
1.73000000000E+09	4.11544594240E-02	-3.32020836156E-02	-6.12914064540E-02	3.03913302770E-02	-6.11831547043E-02	3.01944827800E-02	9.72632070603E-02	1.31501699267E-01
1.73100000000E+09	4.70994278993E-02	-3.58291428403E-02	-5.99690087238E-02	3.29304698885E-02	-5.98910081489E-02	3.27125948367E-02	1.03282270596E-01	1.28058665890E-01
1.73200000000E+09	5.27429384843E-02	-3.89262270541E-02	-5.85473016586E-02	3.54896244261E-02	-5.84497360219E-02	3.53501988173E-02	1.08985402084E-01	1.24303238393E-01
1.73300000000E+09	5.81220491354E-02	-4.22044402955E-02	-5.70989733772E-02	3.80627665201E-02	-5.69808392434E-02	3.78269198938E-02	1.14475550546E-01	1.20252115455E-01
1.73400000000E+09	6.32439796620E-02	-4.59580244809E-02	-5.53684452604E-02	4.04875171506E-02	-5.54291398072E-02	4.03676775487E-02	1.19694679914E-01	1.15823881074E-01
1.73500000000E+09	6.80065289316E-02	-4.99909774282E-02	-5.36996696918E-02	4.29527093494E-02	-5.37111872625E-02	4.26899714617E-02	1.24574224823E-01	1.11074031510E-01
1.73600000000E+09	7.24230328125E-02	-5.42015808536E-02	-5.18835432422E-02	4.52596146533E-02	-5.19051574861E-02	4.50265928351E-02	1.29061684199E-01	1.05920882362E-01
1.73700000000E+09	7.65469835181E-02	-5.87029658707E-02	-4.99063630380E-02	4.74942215142E-02	-4.99421449275E-02	4.72378447779E-02	1.33360695743E-01	1.00736133320E-01
1.73800000000E+09	8.02864589251E-02	-6.34808248175E-02	-4.78387338630E-02	4.96706307589E-02	-4.78834316696E-02	4.93725472690E-02	1.37165073886E-01	9.51662683258E-02
1.73900000000E+09	8.36371995662E-02	-6.84702623905E-02	-4.56721811022E-02	5.17173167703E-02	-4.57853269369E-02	5.14685824479E-02	1.40796399423E-01	8.93366430890E-02
1.74000000000E+09	8.65418880081E-02	-7.36180253597E-02	-4.35283368956E-02	5.36715474556E-02	-4.35111231524E-02	5.35611311890E-02	1.43931747222E-01	8.33164933598E-02
1.74100000000E+09	8.90289311347E-02	-7.88302630420E-02	-4.11622425194E-02	5.55833435662E-02	-4.12645712903E-02	5.54007941273E-02	1.46694100474E-01	7.72542712167E-02
1.74200000000E+09	9.11644156438E-02	-8.42361935509E-02	-3.87780898556E-02	5.74094719560E-02	-3.88258502568E-02	5.71948415618E-02	1.49033408293E-01	7.08168993250E-02
1.74300000000E+09	9.27090019953E-02	-8.96565140057E-02	-3.62368879904E-02	5.91717496597E-02	-3.62527348547E-02	5.88658932164E-02	1.51017116081E-01	6.43315420304E-02
1.74400000000E+09	9.38784745071E-02	-9.51023307899E-02	-3.36451132197E-02	6.07102789094E-02	-3.37412245609E-02	6.04394797630E-02	1.52586372563E-01	5.77894711250E-02
1.74500000000E+09	9.45145149872E-02	-1.00547642224E-01	-3.09769266398E-02	6.20643844520E-02	-3.10010794685E-02	6.19049030083E-02	1.53697084045E-01	5.11020978933E-02
1.74600000000E+09	9.47242470935E-02	-1.05965228234E-01	-2.82374987328E-02	6.34090999062E-02	-2.83492503675E-02	6.32486830808E-02	1.54362183653E-01	4.45066590931E-02
1.74700000000E+09	9.44499882722E-02	-1.11313607265E-01	-2.54472924502E-02	6.46900158254E-02	-2.56085288875E-02	6.44844284797E-02	1.54657879347E-01	3.76754377107E-02
1.74800000000E+09	9.37315355822E-02	-1.16437226466E-01	-2.26695883383E-02	6.57337668063E-02	-2.27496569968E-02	6.55724886526E-02	1.54512897107E-01	3.09516724381E-02
1.74900000000E+09	9.25418129979E-02	-1.21421518568E-01	-1.97065337132E-02	6.67541365857E-02	-1.98124905167E-02	6.64888195539E-02	1.53963853987E-01	2.43387180036E-02
1.75000000000E+09	9.08764723471E-02	-1.26233734265E-01	-1.68672504422E-02	6.75454811484E-02	-1.69981564671E-02	6.73301375434E-02	1.52956996107E-01	1.76845523926E-02
1.75100000000E+09	8.89566587448E-02	-1.30713220512E-01	-1.38112964689E-02	6.82560755845E-02	-1.39875849945E-02	6.80153085906E-02	1.51559776139E-01	1.10749172039E-02
1.75200000000E+09	8.64902211151E-02	-1.34962667365E-01	-1.09094589454E-02	6.87229621654E-02	-1.09493494980E-02	6.86118402937E-02	1.49698479129E-01	4.68446172401E-03
1.75300000000E+09	8.37419978969E-02	-1.38775801865E-01	-7.84522931491E-03	6.92192530607E-02	-7.94538362734E-03	6.90358455707E-02	1.47498711554E-01	-1.72227932366E-03
1.75400000000E+09	8.05499794612E-02	-1.42301802088E-01	-4.82587282778E-03	6.94133608196E-02	-4.98008987686E-03	6.93128575170E-02	1.44772365637E-01	-7.92642674608E-03
1.75500000000E+09	7.71504164791E-02	-1.45406091779E-01	-1.78043177335E-03	6.95726388693E-02	-1.90470398676E-03	6.94901275714E-02	1.41768892275E-01	-1.39863407610E-02
1.75600000000E+09	7.34273115328E-02	-1.48014201821E-01	1.27581180254E-03	6.95441211430E-02	1.16916421234E-03	6.94285136360E-02	1.38306248007E-01	-1.96515455278E-02
1.75700000000E+09	6.95121576612E-02	-1.50213233469E-01	4.26590268962E-03	6.94950932385E-02	4.12225214059E-03	6.93141738186E-02	1.34510091546E-01	-2.53038293842E-02
1.75800000000E+09	6.54530635715E-02	-1.51890742888E-01	7.30728566702E-03	6.91808465897E-02	7.10788929063E-03	6.91067339726E-02	1.30341982649E-01	-3.05320545994E-02
1.75900000000E+09	6.11948701004E-02	-1.53042912460E-01	1.03075666286E-02	6.87523124160E-02	1.00727946912E-02	6.86052303487E-02	1.25882477660E-01	-3.55639691174E-02
1.76000000000E+09	5.69047222304E-02	-1.53633316576E-01	1.32737779689E-02	6.82661867558E-02	1.30667961519E-02	6.81628124172E-02	1.21081614559E-01	-4.03148417954E-02
1.76100000000E+09	5.26099556002E-02	-1.53701152732E-01	1.61725505149E-02	6.75792455109E-02	1.60395708720E-02	6.74593540872E-02	1.15920255946E-01	-4.47012224090E-02
1.76200000000E+09	4.83922376953E-02	-1.53290899442E-01	1.91079188096E-02	6.68252293573E-02	1.89458541698E-02	6.66498862780E-02	1.10534856940E-01	-4.87398154254E-02
1.76300000000E+09	4.41978701175E-02	-1.52216474616E-01	2.19846725654E-02	6.58788515740E-02	2.17563742961E-02	6.58039750667E-02	1.04992053172E-01	-5.25094355819E-02
1.76400000000E+09	4.02451652424E-02	-1.50612924988E-01	2.47800860639E-02	6.48226217064E-02	2.45687596298E-02	6.47405267968E-02	9.91467897677E-02	-5.58263550651E-02
1.76500000000E+09	3.65094699748E-02	-1.48530438647E-01	2.75407933085E-02	6.37243684951E-02	2.73194688307E-02	6.35767983686E-02	9.30026414088E-02	-5.88296813823E-02
1.76600000000E+09	3.29986619332E-02	-1.45952419439E-01	3.01773918607E-02	6.24225639658E-02	3.00103427363E-02	6.22945798261E-02	8.67880174034E-02	-6.13356565479E-02
1.76700000000E+09	2.98798073302E-02	-1.42834720074E-01	3.28622554998E-02	6.09543597603E-02	3.25962954970E-02	6.09516436161E-02	8.03289586291E-02	-6.35132245393E-02
1.76800000000E+09	2.71515780247E-02	-1.39449278027E-01	3.54082878140E-02	5.94641310001E-02	3.52541662775E-02	5.94955633299E-02	7.37928718788E-02	-6.51540010275E-02
1.76900000000E+09	2.48803781941E-02	-1.35488474888E-01	3.79404613459E-02	5.78762358452E-02	3.77414777950E-02	5.78685535151E-02	6.71912989999E-02	-6.64408236954E-02
1.77000000000E+09	2.30105448997E-02	-1.31247995338E-01	4.03623726777E-02	5.61447902232E-02	4.00858895838E-02	5.61314931415E-02	6.04636300612E-02	-6.73539171559E-02
1.77100000000E+09	2.17322048102E-02	-1.26911253765E-01	4.25834770941E-02	5.44224087690E-02	4.24875856436E-02	5.43178741937E-02	5.36568608087E-02	-6.77168932798E-02
1.77200000000E+09	2.10502844792E-02	-1.22161563027E-01	4.48920968130E-02	5.24752408466E-02	4.47138720011E-02	5.24217351641E-02	4.69871535165E-02	-6.76655605750E-02
1.77300000000E+09	2.08729707683E-02	-1.17362098066E-01	4.71529742188E-02	5.04405545397E-02	4.69375543098E-02	5.04280213045E-02	4.02117736485E-02	-6.71968708320E-02
1.77400000000E+09	2.13670990000E-02	-1.12386680400E-01	4.91798012121E-02	4.83789327238E-02	4.89515344126E-02	4.83322586718E-02	3.34425552925E-02	-6.62867964819E-02
1.77500000000E+09	2.24381938722E-02	-1.07440207350E-01	5.11777793407E-02	4.62506400432E-02	5.09396909569E-02	4.61950906280E-02	2.69056956501E-02	-6.49098319914E-02
1.77600000000E+09	2.41432941272E-02	-1.02594219293E-01	5.31092228051E-02	4.39235655521E-02	5.28824889940E-02	4.39749559568E-02	2.03099964841E-02	-6.31577120120E-02
1.77700000000E+09	2.63765269878E-02	-9.78878023141E-02	5.48985782167E-02	4.15835531359E-02	5.46245835826E-02	4.16338673651E-02	1.39226850160E-02	-6.08609726680E-02
1.77800000000E+09	2.92452957241E-02	-9.32779358093E-02	5.65236796356E-02	3.91690815622E-02	5.63297417663E-02	3.92795134222E-02	7.69314463783E-03	-5.83257489405E-02
1.77900000000E+09	3.26798080355E-02	-8.90202046176E-02	5.81359968642E-02	3.68249712939E-02	5.79828690758E-02	3.68439703990E-02	1.71028069242E-03	-5.52554735698E-02
1.78000000000E+09	3.65821987219E-02	-8.50344376424E-02	5.95967895277E-02	3.43009212910E-02	5.93864332043E-02	3.43492687987E-02	-4.17672747286E-03	-5.17840341623E-02
1.78100000000E+09	4.09602872454E-02	-8.15025154969E-02	6.09610539947E-02	3.16971587936E-02	6.07336512188E-02	3.17271086798E-02	-9.76252481443E-03	-4.81084666668E-02
1.78200000000E+09	4.58250904783E-02	-7.83386640697E-02	6.21783107553E-02	2.90074805383E-02	6.19824503239E-02	2.91206267496E-02	-1.50296226047E-02	-4.39868380165E-02
1.78300000000E+09	5.09639130392E-02	-7.56277288120E-02	6.32478002190E-02	2.64362904499E-02	6.30015283183E-02	2.64273440653E-02	-2.01088548695E-02	-3.95012299522E-02
1.78400000000E+09	5.65101537283E-02	-7.35400295505E-02	6.42982024791E-02	2.36945231521E-02	6.41460095232E-02	2.37827657129E-02	-2.48744257795E-02	-3.47799356931E-02
1.78500000000E+09	6.22780762461E-02	-7.19714128014E-02	6.52448322836E-02	2.09546014283E-02	6.51249979073E-02	2.10552595177E-02	-2.92568160922E-02	-2.96879051549E-02
1.78600000000E+09	6.82095667418E-02	-7.08994243546E-02	6.60159964282E-02	1.82116406557E-02	6.58175927808E-02	1.83022060168E-02	-3.33655017998E-02	-2.44287678568E-02
1.78700000000E+09	7.42174971705E-02	-7.04454573966E-02	6.65956962479E-02	1.53476405559E-02	6.64576780766E-02	1.55332724428E-02	-3.70374738944E-02	-1.87600772773E-02
1.78800000000E+09	8.03337109880E-02	-7.06003761372E-02	6.72527754255E-02	1.26101292951E-02	6.70826563152E-02	1.26912445684E-02	-4.03118591049E-02	-1.29567553428E-02
1.78900000000E+09	8.64411392359E-02	-7.13153250772E-02	6.76651605931E-02	9.75345998121E-03	6.74483676107E-02	9.87647426664E-03	-4.33456935551E-02	-6.96464129418E-03
1.79000000000E+09	9.25354562621E-02	-7.26763824732E-02	6.79592955402E-02	6.86648981494E-03	6.78747600772E-02	7.03580762603E-03	-4.59567275008E-02	-8.49557037158E-04
1.79100000000E+09	9.83889206503E-02	-7.44724957942E-02	6.81569947502E-02	4.12572915811E-03	6.80287643044E-02	4.21916602161E-03	-4.80700424627E-02	5.47306410221E-03
1.79200000000E+09	1.04127449226E-01	-7.68266793372E-02	6.82095662430E-02	1.18573227352E-03	6.81382690695E-02	1.42727490311E-03	-4.97653038276E-02	1.17554524791E-02
1.79300000000E+09	1.09642656381E-01	-7.97159619509E-02	6.82936304889E-02	-1.58422446808E-03	6.81480476856E-02	-1.53988961487E-03	-5.10114749583E-02	1.82695198981E-02
1.79400000000E+09	1.14900336797E-01	-8.30205668873E-02	6.81624631105E-02	-4.43816309802E-03	6.80374519297E-02	-4.28742141636E-03	-5.20092668838E-02	2.46711687546E-02
1.79500000000E+09	1.19787973329E-01	-8.68066249402E-02	6.78554570321E-02	-7.25559052707E-03	6.77476847226E-02	-7.09808207853E-03	-5.23968821254E-02	3.12881922081E-02
1.79600000000E+09	1.24326686604E-01	-9.09626068400E-02	6.75431428318E-02	-1.00495452327E-02	6.73645552186E-02	-9.87411058404E-03	-5.24327904535E-02	3.78469659064E-02
1.79700000000E+09	1.28491873906E-01	-9.54144180957E-02	6.70705726438E-02	-1.28543328299E-02	6.69030728782E-02	-1.27204008704E-02	-5.21366873803E-02	4.43310574938E-02
1.79800000000E+09	1.32203954739E-01	-1.00285709371E-01	6.64497009928E-02	-1.56645592927E-02	6.63666821615E-02	-1.55135173148E-02	-5.12967781786E-02	5.07796602767E-02
1.79900000000E+09	1.35549555206E-01	-1.05314082441E-01	6.57510802734E-02	-1.83735309621E-02	6.56663067655E-02	-1.82225314353E-02	-5.00924358740E-02	5.72047018974E-02
1.80000000000E+09	1.38412365484E-01	-1.10681325750E-01	6.49950338507E-02	-2.11083087011E-02	6.48638203184E-02	-2.09060990255E-02	-4.85431984318E-02	6.33462434977E-02
1.80100000000E+09	1.40831431573E-01	-1.16120452143E-01	6.40269278803E-02	-2.38397852442E-02	6.39650149117E-02	-2.36868732549E-02	-4.65207995934E-02	6.95067340531E-02
1.80200000000E+09	1.42832215202E-01	-1.21718168715E-01	6.30379801252E-02	-2.64754509740E-02	6.30180657991E-02	-2.62731423286E-02	-4.42634795027E-02	7.55686636133E-02
1.80300000000E+09	1.44308735311E-01	-1.27375397201E-01	6.19026244678E-02	-2.90925505294E-02	6.18762953771E-02	-2.88729030654E-02	-4.15437469812E-02	8.13236802849E-02
1.80400000000E+09	1.45313453882E-01	-1.33159238862E-01	6.07226326380E-02	-3.16438349078E-02	6.06539942677E-02	-3.14146158833E-02	-3.83951531380E-02	8.68967048819E-02
1.80500000000E+09	1.45953159752E-01	-1.38853159631E-01	5.93623170275E-02	-3.41889483085E-02	5.92977412315E-02	-3.40162111848E-02	-3.50647770486E-02	9.21892434840E-02
1.80600000000E+09	1.46160711195E-01	-1.44607432823E-01	5.80152453484E-02	-3.67113947072E-02	5.78756600730E-02	-3.64274609223E-02	-3.13822044881E-02	9.73399388143E-02
1.80700000000E+09	1.45795062518E-01	-1.50174994016E-01	5.64159222827E-02	-3.91086789062E-02	5.63217868177E-02	-3.88504777710E-02	-2.73685694664E-02	1.02149595934E-01
1.80800000000E+09	1.45103983087E-01	-1.55798275864E-01	5.48154595263E-02	-4.14776311475E-02	5.46939854205E-02	-4.12462641146E-02	-2.30012361605E-02	1.06835337704E-01
1.80900000000E+09	1.44030112107E-01	-1.61135463391E-01	5.30076516461E-02	-4.37095883797E-02	5.30183944613E-02	-4.36080820273E-02	-1.84646984128E-02	1.10949801197E-01
1.81000000000E+09	1.42446854340E-01	-1.66437840924E-01	5.12549911719E-02	-4.60980155229E-02	5.11791791131E-02	-4.57893745686E-02	-1.37537954959E-02	1.14983814390E-01
1.81100000000E+09	1.40641028500E-01	-1.71572890357E-01	4.92309242365E-02	-4.82017039833E-02	4.92935525149E-02	-4.79307348287E-02	-8.68772538083E-03	1.18651089206E-01
1.81200000000E+09	1.38377046003E-01	-1.76384732778E-01	4.72167040729E-02	-5.02724216536E-02	4.71905240626E-02	-5.00488788344E-02	-3.40166104805E-03	1.21898885643E-01
1.81300000000E+09	1.35865999961E-01	-1.81085119236E-01	4.51275799207E-02	-5.23474135237E-02	4.50963113312E-02	-5.20670976643E-02	1.96139718531E-03	1.24836976696E-01
1.81400000000E+09	1.33073346573E-01	-1.85468849496E-01	4.28561858055E-02	-5.42673519168E-02	4.29043005224E-02	-5.40593684589E-02	7.39050082797E-03	1.27542867447E-01
1.81500000000E+09	1.29849034779E-01	-1.89636831455E-01	4.05084036476E-02	-5.61026478295E-02	4.05619701505E-02	-5.59239338378E-02	1.31129637172E-02	1.29802556423E-01
1.81600000000E+09	1.26495093221E-01	-1.93481811523E-01	3.81069636098E-02	-5.79304319234E-02	3.82123017083E-02	-5.76367150282E-02	1.89450713125E-02	1.31641114330E-01
1.81700000000E+09	1.22872678976E-01	-1.97101292702E-01	3.56545691193E-02	-5.95268676246E-02	3.57206870389E-02	-5.92433772910E-02	2.47382888646E-02	1.33241949598E-01
