# Hz S RI R 50
! CMT, CMT808U, 21440046, 21.4.3/4
! Date: 12/11/2025 11:15:01 AM
! Data: Format (Calibration Info)
! Freq	S11:Re/Im(F2)	S41:Re/Im(F2)	S14:Re/Im(F2)	S44:Re/Im(F2)
1.70000000000E+09	-2.01515530529E-01	-1.10616154371E-01	-5.59997575864E-02	-3.53190396215E-02	-5.54613915056E-02	-3.60093567555E-02	-2.11910709638E-02	6.51380537287E-02
1.70167224080E+09	-2.02550959252E-01	-1.02375513534E-01	-5.83769066099E-02	-3.14816785679E-02	-5.79047519630E-02	-3.22047143162E-02	-1.82873536067E-02	7.45703410553E-02
1.70334448161E+09	-2.02060154851E-01	-9.38514701797E-02	-6.05465771299E-02	-2.74702344305E-02	-6.01339687784E-02	-2.82377642138E-02	-1.43195849218E-02	8.36269000576E-02
1.70501672241E+09	-2.00075567103E-01	-8.52969919243E-02	-6.24966994109E-02	-2.33201057190E-02	-6.21330953350E-02	-2.41081535800E-02	-9.34512491660E-03	9.21670607094E-02
1.70668896321E+09	-1.96637109907E-01	-7.69988698117E-02	-6.42137671961E-02	-1.90015712611E-02	-6.38927381842E-02	-1.98039629144E-02	-3.46647074323E-03	1.00095744028E-01
1.70836120401E+09	-1.91850156482E-01	-6.91509970101E-02	-6.56469889962E-02	-1.45097348704E-02	-6.53880021216E-02	-1.53291027589E-02	3.26498621218E-03	1.07304071873E-01
1.71003344482E+09	-1.85813365152E-01	-6.20257103736E-02	-6.67899444192E-02	-9.89174849169E-03	-6.66021777085E-02	-1.07300056571E-02	1.07505770294E-02	1.13729118423E-01
1.71170568562E+09	-1.78681547132E-01	-5.57627349187E-02	-6.76262736280E-02	-5.12583839377E-03	-6.74949553425E-02	-5.97246331603E-03	1.88637605446E-02	1.19282602251E-01
1.71337792642E+09	-1.70635275271E-01	-5.05086529327E-02	-6.81277603917E-02	-2.68489137507E-04	-6.80448930927E-02	-1.11579139991E-03	2.74912305968E-02	1.23904288145E-01
1.71505016722E+09	-1.61876821214E-01	-4.63897403205E-02	-6.82567886193E-02	4.69589035590E-03	-6.82446487177E-02	3.84057888440E-03	3.65783183932E-02	1.27553074310E-01
1.71672240803E+09	-1.52557563733E-01	-4.34763664214E-02	-6.80216933677E-02	9.71212439044E-03	-6.80617232101E-02	8.83964186198E-03	4.59728930081E-02	1.30203289216E-01
1.71839464883E+09	-1.42907054999E-01	-4.18340949503E-02	-6.73977866099E-02	1.47410047690E-02	-6.74939444710E-02	1.38779275529E-02	5.55420038414E-02	1.31820789696E-01
1.72006688963E+09	-1.33126920873E-01	-4.14527090328E-02	-6.63608558613E-02	1.97557791508E-02	-6.65293114326E-02	1.88977108627E-02	6.52213848797E-02	1.32423787272E-01
1.72173913043E+09	-1.23381770429E-01	-4.23567564839E-02	-6.49259929971E-02	2.47165914073E-02	-6.51477686960E-02	2.38754097104E-02	7.48436006771E-02	1.31970361790E-01
1.72341137124E+09	-1.13851645460E-01	-4.44866426445E-02	-6.30850921814E-02	2.95863452967E-02	-6.33742290207E-02	2.87426576996E-02	8.43523321162E-02	1.30513035576E-01
1.72508361204E+09	-1.04735992517E-01	-4.77724676714E-02	-6.08411610150E-02	3.43174745729E-02	-6.12043097850E-02	3.35050481164E-02	9.35977888404E-02	1.28061424218E-01
1.72675585284E+09	-9.61638959649E-02	-5.21569151006E-02	-5.82160011025E-02	3.88747173174E-02	-5.86243081134E-02	3.80842184605E-02	1.02494400134E-01	1.24683153755E-01
1.72842809365E+09	-8.83002104500E-02	-5.75382386272E-02	-5.52066724166E-02	4.32089743034E-02	-5.56809258899E-02	4.24565515749E-02	1.10958854625E-01	1.20389426481E-01
1.73010033445E+09	-8.12415298890E-02	-6.37956095329E-02	-5.18481292546E-02	4.73123213125E-02	-5.23625972793E-02	4.65872368322E-02	1.18872011526E-01	1.15239697896E-01
1.73177257525E+09	-7.51102227431E-02	-7.08168923022E-02	-4.81554940108E-02	5.11248793530E-02	-4.87273718742E-02	5.04331772922E-02	1.26187259456E-01	1.09295089304E-01
1.73344481605E+09	-6.99872236674E-02	-7.84350370525E-02	-4.41643231308E-02	5.46083697841E-02	-4.47976522021E-02	5.39673167703E-02	1.32792337620E-01	1.02648550623E-01
1.73511705686E+09	-6.59366767291E-02	-8.65157417311E-02	-3.99091750633E-02	5.77526369800E-02	-4.05869521684E-02	5.71597870452E-02	1.38626792745E-01	9.53572450020E-02
1.73678929766E+09	-6.30010757706E-02	-9.49461019058E-02	-3.54211098854E-02	6.05323627648E-02	-3.61327314388E-02	5.99938074442E-02	1.43632014421E-01	8.74983684418E-02
1.73846153846E+09	-6.12327383185E-02	-1.03518806831E-01	-3.07437977961E-02	6.29426171004E-02	-3.14927288028E-02	6.24563164415E-02	1.47772578769E-01	7.91646463851E-02
1.74013377926E+09	-6.05989001304E-02	-1.12125213788E-01	-2.59015402436E-02	6.49504646539E-02	-2.66878427645E-02	6.45160229549E-02	1.50970152639E-01	7.04472359542E-02
1.74180602007E+09	-6.11146494979E-02	-1.20590659082E-01	-2.09437359628E-02	6.65485651091E-02	-2.17568983885E-02	6.61664331283E-02	1.53203981228E-01	6.14376652532E-02
1.74347826087E+09	-6.27463931234E-02	-1.28782619791E-01	-1.59218839914E-02	6.77464020178E-02	-1.67510189116E-02	6.74259270125E-02	1.54446784579E-01	5.22529201228E-02
1.74515050167E+09	-6.54641505319E-02	-1.36554611463E-01	-1.08465746222E-02	6.85310389448E-02	-1.17000431314E-02	6.82746609392E-02	1.54690470422E-01	4.29841462854E-02
1.74682274247E+09	-6.91949422025E-02	-1.43808840640E-01	-5.78159662121E-03	6.89182188888E-02	-6.65142726364E-03	6.87229940137E-02	1.53897951175E-01	3.37473731376E-02
1.74849498328E+09	-7.38840783655E-02	-1.50355444707E-01	-7.48685783760E-04	6.89035618763E-02	-1.63450724377E-03	6.87708130017E-02	1.52106207184E-01	2.46431331883E-02
1.75016722408E+09	-7.94662265920E-02	-1.56103839385E-01	4.20219625541E-03	6.85389644247E-02	3.32791313231E-03	6.84672427700E-02	1.49314300117E-01	1.57732188838E-02
1.75183946488E+09	-8.58143258578E-02	-1.60881612454E-01	9.07360160384E-03	6.77968670986E-02	8.18113280791E-03	6.77888662546E-02	1.45561038419E-01	7.25726951005E-03
1.75351170569E+09	-9.28015711115E-02	-1.64642799228E-01	1.38116163974E-02	6.67259335889E-02	1.29252960667E-02	6.67722294862E-02	1.40848336499E-01	-8.29217677806E-04
1.75518394649E+09	-1.00302826481E-01	-1.67217242115E-01	1.83996371031E-02	6.53362804761E-02	1.75232479741E-02	6.54407134286E-02	1.35277046133E-01	-8.36966788239E-03
1.75685618729E+09	-1.08156322956E-01	-1.68551749701E-01	2.28289370265E-02	6.36529447710E-02	2.19666198208E-02	6.38187973287E-02	1.28878216408E-01	-1.52408203528E-02
1.75852842809E+09	-1.16179956286E-01	-1.68527975462E-01	2.70826635543E-02	6.16998380854E-02	2.62225186019E-02	6.19243456538E-02	1.21729273480E-01	-2.13731208645E-02
1.76020066890E+09	-1.24143646133E-01	-1.67149745855E-01	3.11422889351E-02	5.95179450113E-02	3.03004580257E-02	5.97882384140E-02	1.13921490404E-01	-2.67102971224E-02
1.76187290970E+09	-1.31848018563E-01	-1.64378681773E-01	3.50229266545E-02	5.71059554407E-02	3.41906742244E-02	5.74434420062E-02	1.05556273036E-01	-3.11751281835E-02
1.76354515050E+09	-1.39045909935E-01	-1.60216316838E-01	3.87027591935E-02	5.44909408753E-02	3.79028648804E-02	5.48664809274E-02	9.67036995470E-02	-3.46540690359E-02
1.76521739130E+09	-1.45448145684E-01	-1.54764351138E-01	4.22003370039E-02	5.16790676934E-02	4.14156065190E-02	5.21283560057E-02	8.75133577910E-02	-3.71451734613E-02
1.76688963211E+09	-1.50847897765E-01	-1.48156069591E-01	4.55072815794E-02	4.87199651875E-02	4.47472475207E-02	4.92047563054E-02	7.80732078631E-02	-3.86253812474E-02
1.76856187291E+09	-1.54999769515E-01	-1.40550832245E-01	4.86318866329E-02	4.55680432352E-02	4.79066205674E-02	4.61193336911E-02	6.85321770086E-02	-3.90353149506E-02
1.77023411371E+09	-1.57765117626E-01	-1.32184110211E-01	5.15874860530E-02	4.22780310445E-02	5.08920351198E-02	4.28655406146E-02	5.89998000812E-02	-3.83933658281E-02
1.77190635452E+09	-1.58944323807E-01	-1.23356789202E-01	5.43649799903E-02	3.88149534393E-02	5.36928807646E-02	3.94520681451E-02	4.95921018752E-02	-3.67012793771E-02
1.77357859532E+09	-1.58489795750E-01	-1.14327617134E-01	5.69614129001E-02	3.51965290562E-02	5.63271237226E-02	3.58891413942E-02	4.04365047927E-02	-3.39903879196E-02
1.77525083612E+09	-1.56362640897E-01	-1.05446129419E-01	5.93693650904E-02	3.13988153831E-02	5.87919216284E-02	3.21342310528E-02	3.16733514288E-02	-3.02991381425E-02
1.77692307692E+09	-1.52598472010E-01	-9.70356379431E-02	6.15884302743E-02	2.74312455049E-02	6.10518696362E-02	2.82108223769E-02	2.33650570165E-02	-2.56714093090E-02
1.77859531773E+09	-1.47306843449E-01	-8.94275861081E-02	6.35931053250E-02	2.32589755296E-02	6.31122886607E-02	2.40922766245E-02	1.56534897856E-02	-2.01998851425E-02
1.78026755853E+09	-1.40706582283E-01	-8.29056645350E-02	6.53733260280E-02	1.89244332847E-02	6.49418513651E-02	1.98004276063E-02	8.61001040256E-03	-1.39530705111E-02
1.78193979933E+09	-1.33030454438E-01	-7.76766860848E-02	6.68868660985E-02	1.43908077597E-02	6.65098054880E-02	1.53043091306E-02	2.30551064919E-03	-7.01339450905E-03
1.78361204013E+09	-1.24543544079E-01	-7.39495863246E-02	6.80977733465E-02	9.67097175667E-03	6.77933494341E-02	1.06242163065E-02	-3.16062867778E-03	5.21600974621E-04
1.78528428094E+09	-1.15567245010E-01	-7.18244113484E-02	6.89895714118E-02	4.80638218869E-03	6.87484170699E-02	5.78697180094E-03	-7.77104098576E-03	8.57021540260E-03
1.78695652174E+09	-1.06440379263E-01	-7.13564455811E-02	6.95076898075E-02	-2.02637435543E-04	6.93480201361E-02	8.06498049661E-04	-1.14627029644E-02	1.70051134011E-02
1.78862876254E+09	-9.74909083640E-02	-7.25005786849E-02	6.96369389366E-02	-5.30799397424E-03	6.95588125299E-02	-4.29200611933E-03	-1.42182755949E-02	2.57233749727E-02
1.79030100334E+09	-8.89623773507E-02	-7.51753671503E-02	6.93593575346E-02	-1.04806978099E-02	6.93627125565E-02	-9.45684864477E-03	-1.60179805256E-02	3.46500662553E-02
1.79197324415E+09	-8.11653524551E-02	-7.92295918625E-02	6.86525664507E-02	-1.56781644719E-02	6.87355792717E-02	-1.46500335474E-02	-1.68619504417E-02	4.36462844988E-02
1.79364548495E+09	-7.42611940940E-02	-8.44866280577E-02	6.74804309962E-02	-2.08487473323E-02	6.76571514329E-02	-1.98295584786E-02	-1.66962389387E-02	5.26269676379E-02
1.79531772575E+09	-6.84532934900E-02	-9.07467916123E-02	6.58759761595E-02	-2.59311672346E-02	6.61509549157E-02	-2.49275946401E-02	-1.55910475333E-02	6.14960875919E-02
1.79698996656E+09	-6.38596343732E-02	-9.77820311267E-02	6.38387104093E-02	-3.08902114369E-02	6.41756278621E-02	-2.99090130488E-02	-1.35427939823E-02	7.01474285437E-02
1.79866220736E+09	-6.05462871326E-02	-1.05371099846E-01	6.13773426816E-02	-3.56632881378E-02	6.18122709510E-02	-3.47135545890E-02	-1.05875521341E-02	7.84855970818E-02
1.80033444816E+09	-5.85549275403E-02	-1.13272848429E-01	5.85149141015E-02	-4.02032629923E-02	5.90223733723E-02	-3.92990727195E-02	-6.75708130143E-03	8.64236207130E-02
1.80200668896E+09	-5.78716866286E-02	-1.21283594530E-01	5.52885138380E-02	-4.44948504065E-02	5.58649318412E-02	-4.36286078740E-02	-2.11763311537E-03	9.38581050965E-02
1.80367892977E+09	-5.84640914448E-02	-1.29209657523E-01	5.17176788923E-02	-4.84811089764E-02	5.23584086217E-02	-4.76673932691E-02	3.29069092640E-03	1.00711899190E-01
1.80535117057E+09	-6.02479712551E-02	-1.36848938273E-01	4.78576677562E-02	-5.21341817621E-02	4.85568246464E-02	-5.13813035911E-02	9.39816035614E-03	1.06912202769E-01
1.80702341137E+09	-6.31760197904E-02	-1.44051860562E-01	4.37218106792E-02	-5.54484574165E-02	4.44721535860E-02	-5.47534262760E-02	1.61294591881E-02	1.12410856695E-01
1.80869565217E+09	-6.71404455878E-02	-1.50674192115E-01	3.93634402389E-02	-5.83779605597E-02	4.01641311604E-02	-5.77594876305E-02	2.33980636976E-02	1.17103139375E-01
1.81036789298E+09	-7.20309061433E-02	-1.56634238440E-01	3.48327220484E-02	-6.09362847240E-02	3.56832021510E-02	-6.03920571187E-02	3.11173554977E-02	1.20968517064E-01
1.81204013378E+09	-7.77013861679E-02	-1.61762099602E-01	3.01607847619E-02	-6.31101815979E-02	3.10459792883E-02	-6.26258786699E-02	3.92174439051E-02	1.23962770601E-01
1.81371237458E+09	-8.40698157259E-02	-1.66019428153E-01	2.53718021319E-02	-6.48873367218E-02	2.62852860077E-02	-6.44826122690E-02	4.75673377608E-02	1.26038467615E-01
1.81538461538E+09	-9.09754042592E-02	-1.69287070156E-01	2.05273740568E-02	-6.62922318054E-02	2.14496221165E-02	-6.59608760677E-02	5.60827727599E-02	1.27199591308E-01
1.81705685619E+09	-9.82660376999E-02	-1.71555218016E-01	1.56357450544E-02	-6.73057737387E-02	1.65738636603E-02	-6.70590585051E-02	6.46680840576E-02	1.27408279310E-01
1.81872909699E+09	-1.05823597473E-01	-1.72776070215E-01	1.07493445974E-02	-6.79579393090E-02	1.16891796769E-02	-6.77749928736E-02	7.32031954110E-02	1.26698968638E-01
1.82040133779E+09	-1.13461395720E-01	-1.72956033405E-01	5.87695801438E-03	-6.82390349799E-02	6.82315251312E-03	-6.81330215541E-02	8.16024579320E-02	1.25070258337E-01
1.82207357860E+09	-1.21123390779E-01	-1.72080595233E-01	1.05911949758E-03	-6.81866696576E-02	2.00283432722E-03	-6.81466588623E-02	8.97557981201E-02	1.22530754854E-01
1.82374581940E+09	-1.28590471289E-01	-1.70193566431E-01	-3.68945197425E-03	-6.77850138065E-02	-2.75359348887E-03	-6.78202890600E-02	9.75949530536E-02	1.19131805092E-01
1.82541806020E+09	-1.35830655744E-01	-1.67310906276E-01	-8.33396483114E-03	-6.70930814937E-02	-7.42342434513E-03	-6.71789603949E-02	1.04991030827E-01	1.14948794036E-01
1.82709030100E+09	-1.42653062411E-01	-1.63437986082E-01	-1.28781684334E-02	-6.60828021052E-02	-1.19800505712E-02	-6.62301720226E-02	1.11882132923E-01	1.09977895671E-01
1.82876254181E+09	-1.48957588993E-01	-1.58667263803E-01	-1.72898971975E-02	-6.47961832854E-02	-1.63971063324E-02	-6.50045469694E-02	1.18184036581E-01	1.04345706500E-01
1.83043478261E+09	-1.54632065088E-01	-1.53030708331E-01	-2.15608452334E-02	-6.32456093255E-02	-2.06976886473E-02	-6.35098944038E-02	1.23819209989E-01	9.80792411837E-02
1.83210702341E+09	-1.59527420499E-01	-1.46646506225E-01	-2.56804231363E-02	-6.14438488376E-02	-2.48475907939E-02	-6.17609223912E-02	1.28769464379E-01	9.12904403072E-02
1.83377926421E+09	-1.63577761415E-01	-1.39551878369E-01	-2.96340835071E-02	-5.94147240183E-02	-2.88317778968E-02	-5.97831793042E-02	1.32922483154E-01	8.40357155277E-02
1.83545150502E+09	-1.66642346906E-01	-1.31903543684E-01	-3.34299500348E-02	-5.71650872663E-02	-3.26541079201E-02	-5.75894542147E-02	1.36275403356E-01	7.64545809777E-02
1.83712374582E+09	-1.68646457041E-01	-1.23792812241E-01	-3.70630936018E-02	-5.47264982090E-02	-3.63125589075E-02	-5.51814146903E-02	1.38793601503E-01	6.85779211659E-02
1.83879598662E+09	-1.69485851897E-01	-1.15395290909E-01	-4.05157158142E-02	-5.20849702860E-02	-3.98110258518E-02	-5.26009446645E-02	1.40442474247E-01	6.05491057666E-02
1.84046822742E+09	-1.69113447316E-01	-1.06863523669E-01	-4.37988753364E-02	-4.92796759074E-02	-4.31225107194E-02	-4.98259408772E-02	1.41222281882E-01	5.24633077531E-02
1.84214046823E+09	-1.67439395716E-01	-9.84043067637E-02	-4.69195379109E-02	-4.62968906415E-02	-4.62785295075E-02	-4.68842174742E-02	1.41166644566E-01	4.44135627376E-02
1.84381270903E+09	-1.64494146837E-01	-9.02205639667E-02	-4.98569840299E-02	-4.31468876519E-02	-4.92583803467E-02	-4.37758163703E-02	1.40248956903E-01	3.64972812336E-02
1.84548494983E+09	-1.60298436816E-01	-8.25332993368E-02	-5.26336262426E-02	-3.98517095690E-02	-5.20643920045E-02	-4.05136416773E-02	1.38517603351E-01	2.88063333421E-02
1.84715719064E+09	-1.54900148117E-01	-7.55451892075E-02	-5.52167018063E-02	-3.63842399798E-02	-5.46883559239E-02	-3.70798231211E-02	1.35990993425E-01	2.14305361608E-02
1.84882943144E+09	-1.48408796771E-01	-6.95121734080E-02	-5.76198636954E-02	-3.27685735532E-02	-5.71440805412E-02	-3.34937184584E-02	1.32736138653E-01	1.44355039436E-02
1.85050167224E+09	-1.41023056687E-01	-6.46417063824E-02	-5.98730427909E-02	-2.89850500503E-02	-5.94187497298E-02	-2.97459786603E-02	1.28811062644E-01	7.92296348335E-03
1.85217391304E+09	-1.32899556121E-01	-6.10884820633E-02	-6.18981997238E-02	-2.50503161427E-02	-6.15020919336E-02	-2.58399429553E-02	1.24241681212E-01	1.93882865129E-03
1.85384615385E+09	-1.24320119662E-01	-5.90058020562E-02	-6.37164149205E-02	-2.09341939358E-02	-6.33675321458E-02	-2.17665581298E-02	1.19160689740E-01	-3.44078751337E-03
1.85551839465E+09	-1.15552613142E-01	-5.84845237262E-02	-6.53117997314E-02	-1.66591287150E-02	-6.50136726204E-02	-1.75098374992E-02	1.13571177622E-01	-8.16985899804E-03
1.85719063545E+09	-1.06946275358E-01	-5.95504316913E-02	-6.66649196416E-02	-1.22088833140E-02	-6.64109152174E-02	-1.30956721282E-02	1.07578634602E-01	-1.22193787144E-02
1.85886287625E+09	-9.87699005739E-02	-6.21491021525E-02	-6.77328913284E-02	-7.61727755170E-03	-6.75430386584E-02	-8.51793682289E-03	1.01251259322E-01	-1.55441889916E-02
1.86053511706E+09	-9.13496294499E-02	-6.61614566161E-02	-6.84833421833E-02	-2.85579634386E-03	-6.83496962541E-02	-3.78289322921E-03	9.46876480621E-02	-1.81305205278E-02
1.86220735786E+09	-8.49570530114E-02	-7.14074734502E-02	-6.88929814974E-02	2.04647517262E-03	-6.88222944563E-02	1.08468188735E-03	8.79288992706E-02	-1.99508161106E-02
1.86387959866E+09	-7.97825394588E-02	-7.76514362761E-02	-6.89311533010E-02	7.02968939177E-03	-6.89300536787E-02	6.06383707325E-03	8.11093297176E-02	-2.10169353988E-02
1.86555183946E+09	-7.59994675347E-02	-8.46151085416E-02	-6.85820211571E-02	1.20920034124E-02	-6.86556128408E-02	1.11189963022E-02	7.42524675296E-02	-2.13079300389E-02
1.86722408027E+09	-7.36936731013E-02	-9.20114893012E-02	-6.78062172880E-02	1.71738031165E-02	-6.79517674671E-02	1.61995835357E-02	6.74618031482E-02	-2.08249753348E-02
1.86889632107E+09	-7.29108951207E-02	-9.95207629209E-02	-6.65964739333E-02	2.22346073940E-02	-6.68166445657E-02	2.12638063894E-02	6.08003735857E-02	-1.95904397608E-02
1.87056856187E+09	-7.35770557430E-02	-1.06867356642E-01	-6.49447036985E-02	2.72188165620E-02	-6.52438385135E-02	2.62603676049E-02	5.43727192645E-02	-1.76185188048E-02
1.87224080268E+09	-7.56215842520E-02	-1.13790479244E-01	-6.28599355419E-02	3.20723881769E-02	-6.32520566865E-02	3.11427549373E-02	4.82396972338E-02	-1.49256642810E-02
1.87391304348E+09	-7.88995796108E-02	-1.20076539285E-01	-6.03679326646E-02	3.67445450516E-02	-6.08221350308E-02	3.58520820473E-02	4.24519002775E-02	-1.15653111139E-02
1.87558528428E+09	-8.32791858195E-02	-1.25509713673E-01	-5.74770782483E-02	4.12129539335E-02	-5.80046900992E-02	4.03353927835E-02	3.71172995049E-02	-7.59101774869E-03
1.87725752508E+09	-8.85329958167E-02	-1.29941351836E-01	-5.42238172979E-02	4.54048455870E-02	-5.48157200169E-02	4.45580395469E-02	3.22798368109E-02	-3.02181327483E-03
1.87892976589E+09	-9.44647636554E-02	-1.33256255160E-01	-5.06363191764E-02	4.92870649834E-02	-5.12967446844E-02	4.84946271047E-02	2.80244725155E-02	2.06301656373E-03
1.88060200669E+09	-1.00859088547E-01	-1.35388719470E-01	-4.67553793651E-02	5.28492835743E-02	-4.74855278865E-02	5.21154113823E-02	2.43737887796E-02	7.59751664423E-03
1.88227424749E+09	-1.07489135178E-01	-1.36346282064E-01	-4.26202905633E-02	5.60659706181E-02	-4.34041758824E-02	5.53703649072E-02	2.13695107183E-02	1.34712067104E-02
1.88394648829E+09	-1.14201380811E-01	-1.36126730679E-01	-3.82769940421E-02	5.89090692386E-02	-3.91074407997E-02	5.82875102592E-02	1.90938192029E-02	1.96645384332E-02
1.88561872910E+09	-1.20803081441E-01	-1.34740076322E-01	-3.37620327190E-02	6.13788703088E-02	-3.46385363302E-02	6.08201799608E-02	1.75331039695E-02	2.60371118124E-02
1.88729096990E+09	-1.27137186463E-01	-1.32245538824E-01	-2.91099022683E-02	6.34701574975E-02	-3.00315356470E-02	6.29891593362E-02	1.66916804928E-02	3.25186745835E-02
1.88896321070E+09	-1.33034037112E-01	-1.28726676346E-01	-2.43604168521E-02	6.51965299929E-02	-2.53095758354E-02	6.47753921355E-02	1.65816844455E-02	3.90579353168E-02
1.89063545151E+09	-1.38348370744E-01	-1.24257879516E-01	-1.95468131969E-02	6.65430813703E-02	-2.05079333685E-02	6.61976027757E-02	1.72023730382E-02	4.54955586957E-02
1.89230769231E+09	-1.42978621044E-01	-1.18930254096E-01	-1.46944567819E-02	6.75033748001E-02	-1.56826955745E-02	6.72329900774E-02	1.85175137880E-02	5.18130132862E-02
1.89397993311E+09	-1.46816772177E-01	-1.12903219293E-01	-9.84231727146E-03	6.81287074100E-02	-1.08337105650E-02	6.79232648282E-02	2.05104827357E-02	5.78868264496E-02
1.89565217391E+09	-1.49759110711E-01	-1.06299640313E-01	-4.99979240028E-03	6.83824868667E-02	-6.00295579941E-03	6.82512508048E-02	2.31071909117E-02	6.36654232537E-02
