# Hz S RI R 50
! CMT, CMT808U, 21440046, 21.4.3/4
! Date: 12/11/2025 6:00:32 PM
! Data: Format (Calibration Info)
! Freq	S11:Re/Im(F2)	S41:Re/Im(F2)	S14:Re/Im(F2)	S44:Re/Im(F2)
1.70000000000E+09	-1.50340408483E-01	-8.49007175229E-02	-6.20288461215E-02	-2.79157052449E-02	-6.16614325475E-02	-2.82427249821E-02	-8.39369569526E-02	3.67643706911E-02
1.70100000000E+09	-1.49296569718E-01	-8.11170671325E-02	-6.30760094100E-02	-2.51616016868E-02	-6.27989140854E-02	-2.55091651570E-02	-8.42086464452E-02	4.72328742428E-02
1.70200000000E+09	-1.47627166028E-01	-7.74639751843E-02	-6.40806259936E-02	-2.24521235731E-02	-6.38468421202E-02	-2.27544291673E-02	-8.39443394942E-02	5.76815419400E-02
1.70300000000E+09	-1.45685331269E-01	-7.39068319726E-02	-6.49007944395E-02	-1.96345350740E-02	-6.47285448959E-02	-2.01104721706E-02	-8.27796821401E-02	6.80201349532E-02
1.70400000000E+09	-1.43260812069E-01	-7.04291693801E-02	-6.57210642389E-02	-1.67767302665E-02	-6.54516036169E-02	-1.72550730921E-02	-8.09615157709E-02	7.82481716543E-02
1.70500000000E+09	-1.40386995471E-01	-6.71837159321E-02	-6.63265564406E-02	-1.40004190735E-02	-6.61205972622E-02	-1.43857077606E-02	-7.84448568677E-02	8.83569517973E-02
1.70600000000E+09	-1.37176253924E-01	-6.42509417348E-02	-6.68094164787E-02	-1.11674835215E-02	-6.66124355510E-02	-1.15762279934E-02	-7.53426287175E-02	9.81805583397E-02
1.70700000000E+09	-1.33657660906E-01	-6.15286690814E-02	-6.72162428531E-02	-8.30375114136E-03	-6.70817562688E-02	-8.67841272270E-03	-7.14958209926E-02	1.07939483420E-01
1.70800000000E+09	-1.29857635074E-01	-5.91246165920E-02	-6.74279448058E-02	-5.43365709605E-03	-6.73054152070E-02	-5.83479582683E-03	-6.71051092364E-02	1.17291468433E-01
1.70900000000E+09	-1.25866905922E-01	-5.69962513206E-02	-6.75255066055E-02	-2.44532212742E-03	-6.74595160467E-02	-2.91110650974E-03	-6.20888658961E-02	1.26337487950E-01
1.71000000000E+09	-1.21599025307E-01	-5.52644526571E-02	-6.76555534139E-02	4.00641986567E-04	-6.74611924030E-02	-5.89145687887E-05	-5.64739563352E-02	1.34993329549E-01
1.71100000000E+09	-1.17232684520E-01	-5.39137030351E-02	-6.75094168619E-02	3.29016526564E-03	-6.73787169677E-02	2.81003697855E-03	-5.03505773236E-02	1.43238376292E-01
1.71200000000E+09	-1.12742982182E-01	-5.28132178684E-02	-6.72755812727E-02	6.19054870181E-03	-6.72793041890E-02	5.65605173608E-03	-4.36337536522E-02	1.51163402281E-01
1.71300000000E+09	-1.08120953299E-01	-5.21830583946E-02	-6.68353476151E-02	8.90537596720E-03	-6.68267139846E-02	8.55971388750E-03	-3.65033000344E-02	1.58517042480E-01
1.71400000000E+09	-1.03563999524E-01	-5.18168992230E-02	-6.63922560128E-02	1.18734966048E-02	-6.64055247182E-02	1.12957305422E-02	-2.89980114707E-02	1.65400448027E-01
1.71500000000E+09	-9.88275834737E-02	-5.18057858088E-02	-6.58115497705E-02	1.46295452634E-02	-6.57414370785E-02	1.41763535463E-02	-2.08629814306E-02	1.71790354966E-01
1.71600000000E+09	-9.42266320285E-02	-5.21179031934E-02	-6.50737973738E-02	1.73992144975E-02	-6.50385491124E-02	1.69178226750E-02	-1.24389241565E-02	1.77584566462E-01
1.71700000000E+09	-8.95700266068E-02	-5.28064044655E-02	-6.42654986789E-02	2.01057519457E-02	-6.42097314136E-02	1.96594783294E-02	-3.60950259434E-03	1.82936137682E-01
1.71800000000E+09	-8.50265566590E-02	-5.36652898331E-02	-6.32650686960E-02	2.27455132930E-02	-6.32686069804E-02	2.22931869940E-02	5.33755354626E-03	1.87503183075E-01
1.71900000000E+09	-8.06441880631E-02	-5.49565309782E-02	-6.22230358796E-02	2.53870040442E-02	-6.22325056622E-02	2.49683309619E-02	1.47455161420E-02	1.91735810259E-01
1.72000000000E+09	-7.62627278525E-02	-5.65429954462E-02	-6.10764615055E-02	2.78939953218E-02	-6.10598848256E-02	2.74773465285E-02	2.42936906239E-02	1.95136323540E-01
1.72100000000E+09	-7.20875385657E-02	-5.82327749660E-02	-5.97232366031E-02	3.04682725073E-02	-5.98220719397E-02	3.00713329966E-02	3.41696495706E-02	1.97907528603E-01
1.72200000000E+09	-6.79913523796E-02	-6.03060578687E-02	-5.84034288580E-02	3.29649350334E-02	-5.84610319210E-02	3.24339795896E-02	4.40281796441E-02	2.00232029784E-01
1.72300000000E+09	-6.39995124746E-02	-6.25575338860E-02	-5.69313901256E-02	3.53272954398E-02	-5.70364982845E-02	3.48666855233E-02	5.40269033859E-02	2.01853437176E-01
1.72400000000E+09	-6.03045955247E-02	-6.49947429845E-02	-5.54006191846E-02	3.76244304433E-02	-5.54893170488E-02	3.71747612284E-02	6.41449408035E-02	2.02759784961E-01
1.72500000000E+09	-5.66890225192E-02	-6.77450303991E-02	-5.37404670497E-02	3.98572664714E-02	-5.39569196185E-02	3.94228289974E-02	7.42234023091E-02	2.02996568062E-01
1.72600000000E+09	-5.32750102447E-02	-7.05732543640E-02	-5.20346753310E-02	4.21171547040E-02	-5.21762903982E-02	4.16260720061E-02	8.42386641900E-02	2.02577765534E-01
1.72700000000E+09	-4.99499896933E-02	-7.35707347949E-02	-5.01994811774E-02	4.42036158252E-02	-5.03693791393E-02	4.37446399652E-02	9.43497832157E-02	2.01643425031E-01
1.72800000000E+09	-4.69381777621E-02	-7.68195150127E-02	-4.82829738672E-02	4.62536342102E-02	-4.84963609427E-02	4.58145663995E-02	1.04232160187E-01	1.99965046839E-01
1.72900000000E+09	-4.41448938089E-02	-8.01854369935E-02	-4.63239473883E-02	4.82173811420E-02	-4.66563127263E-02	4.77846249112E-02	1.14046757602E-01	1.97771384932E-01
1.73000000000E+09	-4.14444481895E-02	-8.37193397708E-02	-4.43682103404E-02	5.01392938145E-02	-4.45855185890E-02	4.97442260136E-02	1.23611298984E-01	1.94936022944E-01
1.73100000000E+09	-3.89290011640E-02	-8.73706729403E-02	-4.22113436420E-02	5.18859401297E-02	-4.24817043299E-02	5.14672285222E-02	1.33068390623E-01	1.91435289994E-01
1.73200000000E+09	-3.67031001419E-02	-9.12031045761E-02	-4.00080435960E-02	5.35879296537E-02	-4.02579315685E-02	5.32675204859E-02	1.42210455216E-01	1.87389697657E-01
1.73300000000E+09	-3.46863560883E-02	-9.50320839187E-02	-3.78116859631E-02	5.52829222946E-02	-3.80430058566E-02	5.48855120198E-02	1.51091163766E-01	1.82847205015E-01
1.73400000000E+09	-3.28621671393E-02	-9.90974564286E-02	-3.53847037395E-02	5.68088468580E-02	-3.57984707870E-02	5.65254460588E-02	1.59677620879E-01	1.77696916617E-01
1.73500000000E+09	-3.13277245311E-02	-1.03278894280E-01	-3.30552468800E-02	5.83348759107E-02	-3.34173936901E-02	5.79298873080E-02	1.67876698350E-01	1.72075178942E-01
1.73600000000E+09	-3.00710199355E-02	-1.07390025177E-01	-3.06171414211E-02	5.96762094040E-02	-3.09973730488E-02	5.93318715592E-02	1.75587078846E-01	1.65789066382E-01
1.73700000000E+09	-2.89834936336E-02	-1.11668653129E-01	-2.80761411823E-02	6.09301344257E-02	-2.84700582278E-02	6.05871717805E-02	1.83088464649E-01	1.59340998025E-01
1.73800000000E+09	-2.82142677296E-02	-1.16048176853E-01	-2.54747233760E-02	6.21011639173E-02	-2.58905035542E-02	6.17308279196E-02	1.89942625651E-01	1.52281717849E-01
1.73900000000E+09	-2.76630504943E-02	-1.20519932918E-01	-2.28257652924E-02	6.31316296367E-02	-2.33210501372E-02	6.28077516640E-02	1.96575002000E-01	1.44786764284E-01
1.74000000000E+09	-2.74899405946E-02	-1.24960212366E-01	-2.02484160192E-02	6.40407240833E-02	-2.06018655373E-02	6.38714684318E-02	2.02585584888E-01	1.36849372017E-01
1.74100000000E+09	-2.75770292117E-02	-1.29365734451E-01	-1.74839990013E-02	6.48874305212E-02	-1.79508208531E-02	6.46637469874E-02	2.08126744521E-01	1.28765151290E-01
1.74200000000E+09	-2.78645781540E-02	-1.33874296105E-01	-1.47599035156E-02	6.56525791989E-02	-1.51891000887E-02	6.54035527208E-02	2.13075791940E-01	1.20121073704E-01
1.74300000000E+09	-2.86369387194E-02	-1.38247308631E-01	-1.19246127254E-02	6.63069734487E-02	-1.23281738700E-02	6.59942970498E-02	2.17579268722E-01	1.11267595890E-01
1.74400000000E+09	-2.96086218215E-02	-1.42593674354E-01	-9.11088048622E-03	6.67508054031E-02	-9.57687872427E-03	6.64808339330E-02	2.21480826051E-01	1.02192301674E-01
1.74500000000E+09	-3.09709712692E-02	-1.46849944727E-01	-6.26290189090E-03	6.69981169835E-02	-6.64694580583E-03	6.68520534884E-02	2.24751915231E-01	9.28125656545E-02
1.74600000000E+09	-3.26199700361E-02	-1.51068371850E-01	-3.38029166952E-03	6.72288184999E-02	-3.86369816949E-03	6.71046951029E-02	2.27420851220E-01	8.34446118481E-02
1.74700000000E+09	-3.46217691705E-02	-1.55125397600E-01	-5.05292374074E-04	6.74071254115E-02	-1.02926290441E-03	6.72294776404E-02	2.29584271186E-01	7.36641224411E-02
1.74800000000E+09	-3.68673245928E-02	-1.58942897371E-01	2.31069708386E-03	6.73273387187E-02	1.85565636861E-03	6.72304448014E-02	2.31073829872E-01	6.38991645054E-02
1.74900000000E+09	-3.94613744598E-02	-1.62606229688E-01	5.25124353262E-03	6.72529954429E-02	4.76377696411E-03	6.70626882937E-02	2.31990389601E-01	5.41529476020E-02
1.75000000000E+09	-4.24114921165E-02	-1.66104767320E-01	8.02749306099E-03	6.69477361958E-02	7.52923069948E-03	6.68101861055E-02	2.32234642861E-01	4.42435237212E-02
1.75100000000E+09	-4.54215413288E-02	-1.69271596817E-01	1.09510576227E-02	6.65637716885E-02	1.04124383097E-02	6.64329417807E-02	2.31912693716E-01	3.43156698083E-02
1.75200000000E+09	-4.88941337983E-02	-1.72223054115E-01	1.36909062851E-02	6.59600749558E-02	1.32880405291E-02	6.59472675984E-02	2.30871814166E-01	2.45401830865E-02
1.75300000000E+09	-5.24790792176E-02	-1.74768137116E-01	1.65354979765E-02	6.53855551245E-02	1.60870078458E-02	6.53298428612E-02	2.29308688904E-01	1.46753776449E-02
1.75400000000E+09	-5.64163260010E-02	-1.77053998542E-01	1.93047683559E-02	6.45200791129E-02	1.87925638076E-02	6.45761401928E-02	2.26992314860E-01	4.98423905224E-03
1.75500000000E+09	-6.04522917936E-02	-1.78978169526E-01	2.20367814917E-02	6.36523398758E-02	2.15610091851E-02	6.37322882279E-02	2.24204341695E-01	-4.56228216600E-03
1.75600000000E+09	-6.46730505502E-02	-1.80407109223E-01	2.47362404283E-02	6.26098230313E-02	2.42766206511E-02	6.26685517908E-02	2.20675167690E-01	-1.37535430691E-02
1.75700000000E+09	-6.89417626969E-02	-1.81549124724E-01	2.73297175093E-02	6.15705008578E-02	2.68425113706E-02	6.15903752711E-02	2.16621625900E-01	-2.29483735485E-02
1.75800000000E+09	-7.33085958802E-02	-1.82206354259E-01	2.99269538393E-02	6.02961279037E-02	2.94152844803E-02	6.04310975917E-02	2.11975674760E-01	-3.16941303609E-02
1.75900000000E+09	-7.78293876682E-02	-1.82435276273E-01	3.24595347894E-02	5.89264560200E-02	3.19205262589E-02	5.90234142805E-02	2.06780418347E-01	-4.01804448439E-02
1.76000000000E+09	-8.22053327120E-02	-1.82177726507E-01	3.49155727925E-02	5.75402704376E-02	3.44015091768E-02	5.76751160151E-02	2.01045893654E-01	-4.83871421255E-02
1.76100000000E+09	-8.65262911708E-02	-1.81448950310E-01	3.72505477357E-02	5.59686405265E-02	3.68331910320E-02	5.60804047715E-02	1.94711444882E-01	-5.61607375036E-02
1.76200000000E+09	-9.07819814180E-02	-1.80368493906E-01	3.96265726093E-02	5.43594826429E-02	3.91761750979E-02	5.44356258651E-02	1.87948122225E-01	-6.35036691515E-02
1.76300000000E+09	-9.48635686473E-02	-1.78711614950E-01	4.18837233866E-02	5.25803889873E-02	4.13730570204E-02	5.27938380009E-02	1.80787065073E-01	-7.04511552337E-02
1.76400000000E+09	-9.86943559492E-02	-1.76585157631E-01	4.40339960016E-02	5.07400180400E-02	4.35576909055E-02	5.09490150177E-02	1.73146298926E-01	-7.68968466298E-02
1.76500000000E+09	-1.02212574875E-01	-1.74138123267E-01	4.61303674328E-02	4.88799781973E-02	4.56359620089E-02	4.90435591498E-02	1.64970224499E-01	-8.29006844881E-02
1.76600000000E+09	-1.05463783277E-01	-1.71242337421E-01	4.80677611195E-02	4.68586284696E-02	4.76445886124E-02	4.70445254829E-02	1.56549423140E-01	-8.82762531211E-02
1.76700000000E+09	-1.08261821216E-01	-1.67917603349E-01	5.00193848174E-02	4.47088813827E-02	4.95072907159E-02	4.50124152414E-02	1.47656903039E-01	-9.31745783893E-02
1.76800000000E+09	-1.10696108042E-01	-1.64475637654E-01	5.18123512371E-02	4.25772690407E-02	5.14375347410E-02	4.29073548035E-02	1.38549651481E-01	-9.73643991555E-02
1.76900000000E+09	-1.12599674331E-01	-1.60592981884E-01	5.35654696001E-02	4.03633792382E-02	5.31753123460E-02	4.06952543869E-02	1.29169921988E-01	-1.01020242436E-01
1.77000000000E+09	-1.14041100973E-01	-1.56504915305E-01	5.51956583055E-02	3.80579807122E-02	5.47363114209E-02	3.83841715717E-02	1.19531059735E-01	-1.04134793757E-01
1.77100000000E+09	-1.14984295988E-01	-1.52525346372E-01	5.66326551762E-02	3.57682507187E-02	5.63545210738E-02	3.60176998233E-02	1.09642246243E-01	-1.06517199093E-01
1.77200000000E+09	-1.15258074759E-01	-1.48289970375E-01	5.81210563063E-02	3.33228671730E-02	5.77775581062E-02	3.36469096983E-02	9.97948148772E-02	-1.08240319804E-01
1.77300000000E+09	-1.15085488439E-01	-1.44118074554E-01	5.95314966497E-02	3.08021538828E-02	5.91738761255E-02	3.11664499720E-02	8.96648056760E-02	-1.09367251832E-01
1.77400000000E+09	-1.14246520243E-01	-1.39968218552E-01	6.07310739425E-02	2.83257306498E-02	6.03703784656E-02	2.86357950891E-02	7.94805537208E-02	-1.09820855646E-01
1.77500000000E+09	-1.12943780995E-01	-1.36055002239E-01	6.18755235125E-02	2.57935931027E-02	6.15221467385E-02	2.60994771133E-02	6.94339932996E-02	-1.09554687114E-01
1.77600000000E+09	-1.11077478230E-01	-1.32374397422E-01	6.29540719914E-02	2.30877350351E-02	6.26162822830E-02	2.35221721727E-02	5.92521873706E-02	-1.08660944375E-01
1.77700000000E+09	-1.08805675390E-01	-1.29035489429E-01	6.38594216191E-02	2.04051499589E-02	6.34907343561E-02	2.08476604022E-02	4.91963305507E-02	-1.07012551129E-01
1.77800000000E+09	-1.06049968839E-01	-1.25927386951E-01	6.46151879200E-02	1.77035755212E-02	6.43586114403E-02	1.81950407969E-02	3.92898783491E-02	-1.04842425822E-01
1.77900000000E+09	-1.02873214128E-01	-1.23359922956E-01	6.53512249607E-02	1.50776916589E-02	6.51273590818E-02	1.54956584551E-02	2.95904147029E-02	-1.01882026318E-01
1.78000000000E+09	-9.94894601847E-02	-1.21165843303E-01	6.59302998325E-02	1.22963136388E-02	6.56778172879E-02	1.27348487512E-02	2.00040798900E-02	-9.82883496743E-02
1.78100000000E+09	-9.58163912745E-02	-1.19532186068E-01	6.63951409262E-02	9.48910690542E-03	6.61601402367E-02	9.91001198019E-03	1.07375750086E-02	-9.42356521020E-02
1.78200000000E+09	-9.19388320644E-02	-1.18408791117E-01	6.67248468395E-02	6.59167504126E-03	6.65258095662E-02	7.12018000343E-03	1.81981053951E-03	-8.94563514723E-02
1.78300000000E+09	-8.80460882092E-02	-1.17768487055E-01	6.69084800308E-02	3.86892032292E-03	6.66632068788E-02	4.28717083823E-03	-6.87404649284E-03	-8.40629587723E-02
1.78400000000E+09	-8.40659395294E-02	-1.17723347088E-01	6.70479060948E-02	1.00248269237E-03	6.69016094957E-02	1.47879700964E-03	-1.51680622037E-02	-7.82157849007E-02
1.78500000000E+09	-8.01386234517E-02	-1.18167424301E-01	6.70696426984E-02	-1.84088176281E-03	6.69920563018E-02	-1.33947303290E-03	-2.30130946931E-02	-7.17249709539E-02
1.78600000000E+09	-7.63806171315E-02	-1.19034706636E-01	6.69150081785E-02	-4.65972408411E-03	6.67821529658E-02	-4.17654961702E-03	-3.04532595895E-02	-6.48344229609E-02
1.78700000000E+09	-7.27597637322E-02	-1.20427800100E-01	6.65653351777E-02	-7.56534818329E-03	6.65249115647E-02	-6.97243081637E-03	-3.73305325555E-02	-5.72908616707E-02
1.78800000000E+09	-6.94196564148E-02	-1.22254849322E-01	6.62927681666E-02	-1.03110991285E-02	6.62192037820E-02	-9.83241382345E-03	-4.36797913063E-02	-4.94110589415E-02
1.78900000000E+09	-6.62471596949E-02	-1.24450477008E-01	6.57673113352E-02	-1.31413199617E-02	6.56720164261E-02	-1.26302467963E-02	-4.96417463051E-02	-4.11135505924E-02
1.79000000000E+09	-6.33755628907E-02	-1.27055577611E-01	6.51081878914E-02	-1.59727760625E-02	6.51489368172E-02	-1.54118402579E-02	-5.50036789370E-02	-3.25141219703E-02
1.79100000000E+09	-6.09020330865E-02	-1.29845831751E-01	6.43573850111E-02	-1.86206683116E-02	6.43787037839E-02	-1.81363041129E-02	-5.96818601332E-02	-2.35076730706E-02
1.79200000000E+09	-5.87271495545E-02	-1.32895705343E-01	6.34438684086E-02	-2.14162153270E-02	6.35422615555E-02	-2.08160075098E-02	-6.37264004952E-02	-1.43306208098E-02
1.79300000000E+09	-5.69181926809E-02	-1.36182247658E-01	6.25557024580E-02	-2.40080717841E-02	6.25926658907E-02	-2.35856161717E-02	-6.71337924406E-02	-4.82530484686E-03
1.79400000000E+09	-5.54532466693E-02	-1.39560132565E-01	6.14667965959E-02	-2.66473668835E-02	6.15298845065E-02	-2.61422314745E-02	-7.00354199991E-02	4.74765141154E-03
1.79500000000E+09	-5.44310468102E-02	-1.43096350590E-01	6.02031259796E-02	-2.92095866998E-02	6.03027284363E-02	-2.86951760970E-02	-7.21424014799E-02	1.46353852558E-02
1.79600000000E+09	-5.37391033317E-02	-1.46665304603E-01	5.89127086309E-02	-3.17000014898E-02	5.89831895917E-02	-3.11642280648E-02	-7.36257003690E-02	2.46166574819E-02
1.79700000000E+09	-5.33645119999E-02	-1.50279375200E-01	5.74939019754E-02	-3.41446531045E-02	5.75872308804E-02	-3.36760262960E-02	-7.45241500606E-02	3.45926569314E-02
1.79800000000E+09	-5.34496127488E-02	-1.53942212109E-01	5.59422820384E-02	-3.65647792535E-02	5.61205275536E-02	-3.60738849895E-02	-7.46184105426E-02	4.46071501825E-02
1.79900000000E+09	-5.37596891041E-02	-1.57506069654E-01	5.43125095299E-02	-3.88367118406E-02	5.45219466359E-02	-3.83533406054E-02	-7.41089815480E-02	5.46469891101E-02
1.80000000000E+09	-5.44540198171E-02	-1.61073752046E-01	5.26361309574E-02	-4.10584267323E-02	5.27948707892E-02	-4.05539884211E-02	-7.29811332749E-02	6.44651663749E-02
1.80100000000E+09	-5.54352573736E-02	-1.64472338100E-01	5.07602120301E-02	-4.32716065194E-02	5.10252245447E-02	-4.28086386419E-02	-7.11224481756E-02	7.42896088990E-02
1.80200000000E+09	-5.66504992618E-02	-1.67794291562E-01	4.89155463885E-02	-4.52912799154E-02	4.92148415529E-02	-4.48261750485E-02	-6.87422652257E-02	8.40005684535E-02
1.80300000000E+09	-5.82022344076E-02	-1.70944795881E-01	4.69311556497E-02	-4.72953548517E-02	4.72529399018E-02	-4.68189437003E-02	-6.56585565916E-02	9.34118811637E-02
1.80400000000E+09	-6.00158837828E-02	-1.74038345036E-01	4.49319819863E-02	-4.91731864360E-02	4.51999673316E-02	-4.87012016962E-02	-6.18857233037E-02	1.02575751383E-01
1.80500000000E+09	-6.19894319400E-02	-1.76871649328E-01	4.27779434148E-02	-5.10048518415E-02	4.30866241842E-02	-5.05936414035E-02	-5.76677435633E-02	1.11408991814E-01
1.80600000000E+09	-6.41599574395E-02	-1.79649179134E-01	4.06933931009E-02	-5.27825742775E-02	4.09107728791E-02	-5.22779525871E-02	-5.28512146371E-02	1.20014285797E-01
1.80700000000E+09	-6.66192252827E-02	-1.82127995926E-01	3.83794318890E-02	-5.43780508239E-02	3.86551359252E-02	-5.39346134824E-02	-4.74681063565E-02	1.28186014747E-01
1.80800000000E+09	-6.91797050756E-02	-1.84506459882E-01	3.60932492118E-02	-5.59072254665E-02	3.63551768583E-02	-5.55111537497E-02	-4.15084674117E-02	1.36117853919E-01
1.80900000000E+09	-7.18486391074E-02	-1.86595783222E-01	3.36373997973E-02	-5.72636443365E-02	3.40461729191E-02	-5.70065090228E-02	-3.51337442624E-02	1.43353795159E-01
1.81000000000E+09	-7.48115357949E-02	-1.88612021862E-01	3.12907197382E-02	-5.87653974459E-02	3.16232507883E-02	-5.83202620651E-02	-2.83844864924E-02	1.50371020817E-01
1.81100000000E+09	-7.78135751355E-02	-1.90433531180E-01	2.87183264172E-02	-5.99290726766E-02	2.91849691457E-02	-5.95704750565E-02	-2.10890628314E-02	1.56870043842E-01
1.81200000000E+09	-8.09923191880E-02	-1.91882554845E-01	2.61732484693E-02	-6.10558845168E-02	2.65867001240E-02	-6.07252996831E-02	-1.33936220169E-02	1.62744832148E-01
1.81300000000E+09	-8.42308518176E-02	-1.93359560234E-01	2.36418847327E-02	-6.21559121971E-02	2.40504285038E-02	-6.18025364771E-02	-5.42208564351E-03	1.68157157839E-01
1.81400000000E+09	-8.74693680443E-02	-1.94521116958E-01	2.09748415860E-02	-6.30787222520E-02	2.14511694944E-02	-6.28164337416E-02	2.73972156606E-03	1.73124877790E-01
1.81500000000E+09	-9.10023243587E-02	-1.95469523372E-01	1.82641507939E-02	-6.39052242497E-02	1.87386178101E-02	-6.36734098871E-02	1.13530878125E-02	1.77500850008E-01
1.81600000000E+09	-9.44416969661E-02	-1.96248770710E-01	1.55564515874E-02	-6.46969773931E-02	1.60889506638E-02	-6.43901795956E-02	2.02161812032E-02	1.81205906978E-01
1.81700000000E+09	-9.80162613391E-02	-1.96831600504E-01	1.28669856293E-02	-6.52359214614E-02	1.33504223074E-02	-6.49675361509E-02	2.91570317667E-02	1.84472347614E-01
