# Hz S RI R 50
! CMT, CMT808U, 21440046, 21.4.3/4
! Date: 12/13/2025 10:47:42 PM
! Data: Format (Calibration Info)
! Freq	S11:Re/Im(F2)	S41:Re/Im(F2)	S14:Re/Im(F2)	S44:Re/Im(F2)
1.70000000000E+09	-8.71232269396E-02	-1.23969284566E-01	-4.80371811853E-02	-5.37629809146E-02	-4.77541298927E-02	-5.36956886875E-02	-2.74035009014E-02	4.07488124981E-02
1.70100000000E+09	-8.84362581309E-02	-1.18790734606E-01	-5.02512674238E-02	-5.17978173091E-02	-5.00491726828E-02	-5.17387119916E-02	-2.78007996916E-02	4.68553370684E-02
1.70200000000E+09	-8.91422433578E-02	-1.13388052993E-01	-5.25050964636E-02	-4.97855854385E-02	-5.23238222719E-02	-4.96900802272E-02	-2.79839976023E-02	5.29514951871E-02
1.70300000000E+09	-8.94928426808E-02	-1.07820720848E-01	-5.46357516251E-02	-4.76178597981E-02	-5.44741683972E-02	-4.76942363882E-02	-2.75631391326E-02	5.90170024083E-02
1.70400000000E+09	-8.92953302030E-02	-1.02020031733E-01	-5.67796995412E-02	-4.53333593662E-02	-5.65340337207E-02	-4.54119185602E-02	-2.67979370287E-02	6.50130920852E-02
1.70500000000E+09	-8.84642072284E-02	-9.61513361483E-02	-5.87774819031E-02	-4.30717311171E-02	-5.85975361461E-02	-4.30764350944E-02	-2.55839127255E-02	7.09721446220E-02
1.70600000000E+09	-8.71545017827E-02	-9.03227201102E-02	-6.06894992644E-02	-4.06725262010E-02	-6.04882186895E-02	-4.06718109591E-02	-2.40761150780E-02	7.67367443531E-02
1.70700000000E+09	-8.53320979886E-02	-8.44559953169E-02	-6.25770144059E-02	-3.81369570298E-02	-6.24006053822E-02	-3.81383098094E-02	-2.21002846956E-02	8.25473550161E-02
1.70800000000E+09	-8.29555353054E-02	-7.86661388053E-02	-6.42879791061E-02	-3.55264204384E-02	-6.40999622312E-02	-3.55378058135E-02	-1.98264367999E-02	8.81539147831E-02
1.70900000000E+09	-8.01437961147E-02	-7.29796640467E-02	-6.59016068112E-02	-3.27101236602E-02	-6.57726245302E-02	-3.27992380571E-02	-1.71888225855E-02	9.35506091592E-02
1.71000000000E+09	-7.67882605108E-02	-6.75040327322E-02	-6.75597641244E-02	-2.99364569601E-02	-6.72797734344E-02	-3.00030594770E-02	-1.41806883298E-02	9.87611341922E-02
1.71100000000E+09	-7.30072275571E-02	-6.22805643765E-02	-6.89463038804E-02	-2.70380766275E-02	-6.87232016781E-02	-2.71237341468E-02	-1.08867789690E-02	1.03735100340E-01
1.71200000000E+09	-6.87909537068E-02	-5.72433029417E-02	-7.02470222759E-02	-2.40310440438E-02	-7.01463731274E-02	-2.41795758830E-02	-7.21788803666E-03	1.08580982878E-01
1.71300000000E+09	-6.41159043003E-02	-5.25957291793E-02	-7.13311563838E-02	-2.10937865666E-02	-7.11958477085E-02	-2.10755717707E-02	-3.33942398095E-03	1.13098724964E-01
1.71400000000E+09	-5.92022774616E-02	-4.82126978523E-02	-7.24209001145E-02	-1.78302101215E-02	-7.22637719932E-02	-1.80353089505E-02	7.56130897915E-04	1.17360939967E-01
1.71500000000E+09	-5.37963850339E-02	-4.42016379864E-02	-7.33132813246E-02	-1.46734659783E-02	-7.30805995651E-02	-1.47641351604E-02	5.28590161747E-03	1.21369300887E-01
1.71600000000E+09	-4.81996995712E-02	-4.05448839230E-02	-7.40460150131E-02	-1.14057156671E-02	-7.38294639684E-02	-1.15543566559E-02	9.96030080683E-03	1.25028697873E-01
1.71700000000E+09	-4.22622403281E-02	-3.73457413890E-02	-7.46351789724E-02	-8.14270706076E-03	-7.43993852246E-02	-8.22542236827E-03	1.49067966963E-02	1.28538625911E-01
1.71800000000E+09	-3.61572588149E-02	-3.44471741239E-02	-7.50240853148E-02	-4.83980386690E-03	-7.48081043675E-02	-4.94490080217E-03	1.98846344586E-02	1.31491141401E-01
1.71900000000E+09	-2.99509789417E-02	-3.20799735332E-02	-7.52934772443E-02	-1.45611592991E-03	-7.50834859012E-02	-1.54834891343E-03	2.51991241706E-02	1.34382406851E-01
1.72000000000E+09	-2.35018925057E-02	-3.01865531082E-02	-7.54046445891E-02	1.87155117271E-03	-7.51647184348E-02	1.76272943015E-03	3.06189179805E-02	1.36780088453E-01
1.72100000000E+09	-1.70169575036E-02	-2.85528361075E-02	-7.52611485777E-02	5.33031281998E-03	-7.51151939764E-02	5.21905423577E-03	3.62647121291E-02	1.38753918407E-01
1.72200000000E+09	-1.04134401834E-02	-2.75027883343E-02	-7.50798598158E-02	8.74940696947E-03	-7.48646468181E-02	8.51642482688E-03	4.18947300383E-02	1.40591691278E-01
1.72300000000E+09	-3.72305895830E-03	-2.68283695775E-02	-7.46541306984E-02	1.21129451089E-02	-7.44844205606E-02	1.19322492941E-02	4.76119162831E-02	1.42059895030E-01
1.72400000000E+09	2.81610736037E-03	-2.65780024518E-02	-7.40827415977E-02	1.54484764738E-02	-7.38960232931E-02	1.52779827648E-02	5.34962928976E-02	1.43064566316E-01
1.72500000000E+09	9.45720811862E-03	-2.68513184865E-02	-7.33367211783E-02	1.87667507727E-02	-7.32528291516E-02	1.85906619865E-02	5.93563435144E-02	1.43706498731E-01
1.72600000000E+09	1.59715880878E-02	-2.74337612287E-02	-7.24543241456E-02	2.21298480887E-02	-7.22846518147E-02	2.18793109473E-02	6.52057903575E-02	1.43976376807E-01
1.72700000000E+09	2.24765796417E-02	-2.84556949109E-02	-7.13558723232E-02	2.53635940635E-02	-7.12160907862E-02	2.51220720962E-02	7.11701831611E-02	1.43975737863E-01
1.72800000000E+09	2.87588490316E-02	-2.99570560706E-02	-7.01091545759E-02	2.85802300225E-02	-7.00122653507E-02	2.83446769092E-02	7.70056808950E-02	1.43553811316E-01
1.72900000000E+09	3.48711300002E-02	-3.17377960776E-02	-6.87352258586E-02	3.16882572956E-02	-6.87387871875E-02	3.14371266423E-02	8.28830068600E-02	1.42833602931E-01
1.73000000000E+09	4.08925841122E-02	-3.40070763158E-02	-6.72927662577E-02	3.47784524872E-02	-6.71784088878E-02	3.45650926284E-02	8.86066372541E-02	1.41750339043E-01
1.73100000000E+09	4.67239515084E-02	-3.65665439548E-02	-6.55758958335E-02	3.76701077777E-02	-6.55123316115E-02	3.74183681861E-02	9.43657908885E-02	1.40236546693E-01
1.73200000000E+09	5.22844122871E-02	-3.95573875404E-02	-6.37541605720E-02	4.05219050169E-02	-6.36522147663E-02	4.03617238151E-02	9.99662667904E-02	1.38439915181E-01
1.73300000000E+09	5.75876900034E-02	-4.27247680469E-02	-6.18736611986E-02	4.33551472010E-02	-6.17567315866E-02	4.30953326484E-02	1.05463858114E-01	1.36358163258E-01
1.73400000000E+09	6.26597676559E-02	-4.63654507778E-02	-5.97056819561E-02	4.59945131118E-02	-5.97726706615E-02	4.58500387826E-02	1.10828929732E-01	1.33913400386E-01
1.73500000000E+09	6.73873197423E-02	-5.02875580578E-02	-5.75679317643E-02	4.86261372575E-02	-5.75901614712E-02	4.83520310834E-02	1.16010171482E-01	1.31143106054E-01
1.73600000000E+09	7.17882274431E-02	-5.43678301474E-02	-5.52909337102E-02	5.10500521559E-02	-5.53179432831E-02	5.08094288939E-02	1.20920856627E-01	1.27927476733E-01
1.73700000000E+09	7.58941393360E-02	-5.87605622041E-02	-5.28628850376E-02	5.33640206989E-02	-5.29065090532E-02	5.30844262603E-02	1.25771756790E-01	1.24697320598E-01
1.73800000000E+09	7.96423707658E-02	-6.34119463770E-02	-5.03405345714E-02	5.55577880459E-02	-5.03783380806E-02	5.52407114374E-02	1.30279828438E-01	1.21018454117E-01
1.73900000000E+09	8.30254030203E-02	-6.82771597831E-02	-4.77358447571E-02	5.75925942015E-02	-4.78566700098E-02	5.73155928751E-02	1.34705599301E-01	1.17080997822E-01
1.74000000000E+09	8.59652272686E-02	-7.33278379000E-02	-4.51460078505E-02	5.94847595850E-02	-4.51522855448E-02	5.93658848205E-02	1.38799381936E-01	1.12847890534E-01
1.74100000000E+09	8.85087913396E-02	-7.84391279048E-02	-4.23813040256E-02	6.12809580871E-02	-4.25034067122E-02	6.10916904005E-02	1.42640864683E-01	1.08537876717E-01
1.74200000000E+09	9.07110741923E-02	-8.37566469409E-02	-3.96125198923E-02	6.29864827330E-02	-3.96789909481E-02	6.27519200148E-02	1.46161854889E-01	1.03775540076E-01
1.74300000000E+09	9.23188762819E-02	-8.90923995487E-02	-3.67304302830E-02	6.45822581417E-02	-3.67610138658E-02	6.42539956307E-02	1.49444414734E-01	9.89026380308E-02
1.74400000000E+09	9.35676015856E-02	-9.44782465623E-02	-3.38292246281E-02	6.59189741859E-02	-3.39288890885E-02	6.56288916977E-02	1.52422203495E-01	9.38576115433E-02
1.74500000000E+09	9.43052618308E-02	-9.98740083910E-02	-3.08737268492E-02	6.70421636774E-02	-3.09043055065E-02	6.68818040508E-02	1.55029559549E-01	8.85786202920E-02
1.74600000000E+09	9.46118704146E-02	-1.05248357453E-01	-2.78804461791E-02	6.81372987813E-02	-2.80050669606E-02	6.79694952910E-02	1.57285188559E-01	8.33155065462E-02
1.74700000000E+09	9.44288878359E-02	-1.10581300972E-01	-2.48911626375E-02	6.91819403436E-02	-2.50377901202E-02	6.89551150165E-02	1.59282309980E-01	7.77041993504E-02
1.74800000000E+09	9.37953930972E-02	-1.15694691822E-01	-2.19356955199E-02	6.99422935212E-02	-2.20175028719E-02	6.97828176409E-02	1.60888243405E-01	7.20716112087E-02
1.74900000000E+09	9.26951596906E-02	-1.20687410112E-01	-1.88433456697E-02	7.07085400752E-02	-1.89571722391E-02	7.04374260855E-02	1.62163290947E-01	6.64691196660E-02
1.75000000000E+09	9.11327084496E-02	-1.25527006311E-01	-1.59136332762E-02	7.12208849732E-02	-1.60448652311E-02	7.09994519960E-02	1.63040654668E-01	6.06725452516E-02
1.75100000000E+09	8.92815457957E-02	-1.30033228162E-01	-1.28091135967E-02	7.16832548460E-02	-1.29913147415E-02	7.14335549999E-02	1.63600818062E-01	5.48146521895E-02
1.75200000000E+09	8.68789856084E-02	-1.34335036115E-01	-9.89475827532E-03	7.18989753590E-02	-9.93260008551E-03	7.17685375059E-02	1.63689067548E-01	4.90352274260E-02
1.75300000000E+09	8.41788852699E-02	-1.38196488258E-01	-6.85031238173E-03	7.21513628944E-02	-6.95554796937E-03	7.19652653692E-02	1.63530322660E-01	4.31296218668E-02
1.75400000000E+09	8.10259269004E-02	-1.41761600933E-01	-3.87558988960E-03	7.21225278836E-02	-4.04351355436E-03	7.20208294777E-02	1.62852251162E-01	3.72982465332E-02
1.75500000000E+09	7.76681714400E-02	-1.44930428433E-01	-9.25645195762E-04	7.20999444710E-02	-1.05485520160E-03	7.20063689034E-02	1.61906405457E-01	3.14884407488E-02
1.75600000000E+09	7.39523139486E-02	-1.47602907272E-01	2.02857897660E-03	7.18957089181E-02	1.90356782721E-03	7.17877864040E-02	1.60494492591E-01	2.59340319607E-02
1.75700000000E+09	7.00472788802E-02	-1.49848539751E-01	4.89075250758E-03	7.17069579879E-02	4.74309836792E-03	7.15292319296E-02	1.58792513411E-01	2.02504225317E-02
1.75800000000E+09	6.59929947161E-02	-1.51572027446E-01	7.77184196010E-03	7.12950566840E-02	7.58082633365E-03	7.12178808393E-02	1.56685233566E-01	1.48857394330E-02
1.75900000000E+09	6.17085639805E-02	-1.52772699339E-01	1.06304774924E-02	7.07997434690E-02	1.03914887404E-02	7.06613050903E-02	1.54274878902E-01	9.59096433384E-03
1.76000000000E+09	5.74060679790E-02	-1.53419274667E-01	1.34230668537E-02	7.02881193967E-02	1.32070595394E-02	7.01771681722E-02	1.51519342405E-01	4.43959063776E-03
1.76100000000E+09	5.30945285769E-02	-1.53498087737E-01	1.61369293432E-02	6.96101274134E-02	1.60216795751E-02	6.94760696444E-02	1.48339600998E-01	-4.87184195692E-04
1.76200000000E+09	4.88335453133E-02	-1.53129861471E-01	1.89090540982E-02	6.89051586665E-02	1.87438051022E-02	6.87187582240E-02	1.44919601364E-01	-5.14286093317E-03
1.76300000000E+09	4.46170358337E-02	-1.52069205589E-01	2.16319409600E-02	6.80305081648E-02	2.13931313234E-02	6.79539621961E-02	1.41289544828E-01	-9.66108762449E-03
1.76400000000E+09	4.06233403025E-02	-1.50445557800E-01	2.42766347201E-02	6.70922360900E-02	2.40580436372E-02	6.70160243957E-02	1.37315719421E-01	-1.38254536270E-02
1.76500000000E+09	3.68683135772E-02	-1.48369626722E-01	2.69129952802E-02	6.61679481045E-02	2.66711410970E-02	6.60194119812E-02	1.33006359237E-01	-1.78121498172E-02
1.76600000000E+09	3.33240371953E-02	-1.45768105377E-01	2.94324906154E-02	6.50454976017E-02	2.92772346258E-02	6.49287783700E-02	1.28542190511E-01	-2.13910231377E-02
1.76700000000E+09	3.01893732692E-02	-1.42620000033E-01	3.20575778920E-02	6.38209544187E-02	3.17579374614E-02	6.37869580419E-02	1.23752964544E-01	-2.47433432844E-02
1.76800000000E+09	2.74506979513E-02	-1.39186673066E-01	3.45385741863E-02	6.25820085617E-02	3.43886085984E-02	6.25832563205E-02	1.18842749550E-01	-2.76652398339E-02
1.76900000000E+09	2.51633096568E-02	-1.35200792133E-01	3.70681215397E-02	6.12561662502E-02	3.68606315966E-02	6.12418018926E-02	1.13747198799E-01	-3.03167079207E-02
1.77000000000E+09	2.32998102052E-02	-1.30911618074E-01	3.95290088498E-02	5.98227078163E-02	3.92536406069E-02	5.97954634976E-02	1.08504329111E-01	-3.26903525337E-02
1.77100000000E+09	2.20487802726E-02	-1.26514088997E-01	4.18575058710E-02	5.83987609973E-02	4.17312999411E-02	5.82855623538E-02	1.03039888469E-01	-3.46023441293E-02
1.77200000000E+09	2.14185691583E-02	-1.21719989137E-01	4.42905631772E-02	5.67577157894E-02	4.40930013815E-02	5.67065050148E-02	9.76492243811E-02	-3.61614833641E-02
1.77300000000E+09	2.12871752014E-02	-1.16887185947E-01	4.67323561452E-02	5.50235965395E-02	4.64951618991E-02	5.50008488625E-02	9.20545376043E-02	-3.73891786947E-02
1.77400000000E+09	2.18581032282E-02	-1.11876680855E-01	4.90049248203E-02	5.32603486450E-02	4.87545118559E-02	5.32088724338E-02	8.63639782829E-02	-3.82619125876E-02
1.77500000000E+09	2.30118726737E-02	-1.06924136421E-01	5.12694902361E-02	5.14107215924E-02	5.10384733327E-02	5.13353388567E-02	8.07813216843E-02	-3.87166908355E-02
1.77600000000E+09	2.47952229050E-02	-1.02089059872E-01	5.35532054130E-02	4.93449041661E-02	5.33100354340E-02	4.93829160594E-02	7.50492301011E-02	-3.88474889770E-02
1.77700000000E+09	2.71127234099E-02	-9.74075095604E-02	5.57145204514E-02	4.72253012114E-02	5.54213125943E-02	4.72563484676E-02	6.93977149719E-02	-3.85086296005E-02
1.77800000000E+09	3.00343825072E-02	-9.28386725412E-02	5.77666794511E-02	4.49950161502E-02	5.75586143118E-02	4.50848001936E-02	6.37783177243E-02	-3.79699396317E-02
1.77900000000E+09	3.35498117384E-02	-8.86241955600E-02	5.98336252911E-02	4.27840723189E-02	5.96635259136E-02	4.27918695857E-02	5.82730137583E-02	-3.69289969568E-02
1.78000000000E+09	3.75085593825E-02	-8.46959921671E-02	6.17869563083E-02	4.03437136152E-02	6.15615606060E-02	4.03838863892E-02	5.27602005330E-02	-3.55254841321E-02
1.78100000000E+09	4.19537206901E-02	-8.12423534135E-02	6.36600387287E-02	3.77864747159E-02	6.34151006966E-02	3.78013529203E-02	4.74070819113E-02	-3.39375742036E-02
1.78200000000E+09	4.68664387052E-02	-7.81563736194E-02	6.54108100993E-02	3.50608265473E-02	6.52044377224E-02	3.51681349185E-02	4.22484523809E-02	-3.19159370458E-02
1.78300000000E+09	5.20344802906E-02	-7.55571442245E-02	6.70197947741E-02	3.23957869712E-02	6.67502170585E-02	3.23851563618E-02	3.70896549088E-02	-2.95186058059E-02
1.78400000000E+09	5.76064397741E-02	-7.35666889952E-02	6.86230895785E-02	2.95073377446E-02	6.84393461581E-02	2.95786995745E-02	3.21565475482E-02	-2.69247992640E-02
1.78500000000E+09	6.33759145588E-02	-7.21179187877E-02	7.00969416927E-02	2.65430190152E-02	6.99400163583E-02	2.66444366001E-02	2.74494941484E-02	-2.39224817371E-02
1.78600000000E+09	6.92698434446E-02	-7.11511259208E-02	7.13778980977E-02	2.35219112279E-02	7.11570290230E-02	2.35929906697E-02	2.28511561160E-02	-2.07378775814E-02
1.78700000000E+09	7.52353635982E-02	-7.08151151230E-02	7.24462493176E-02	2.03147823143E-02	7.22813759463E-02	2.05067193144E-02	1.85974257401E-02	-1.70865305157E-02
1.78800000000E+09	8.13084483089E-02	-7.10923720729E-02	7.35687920590E-02	1.71842671994E-02	7.33739745890E-02	1.72628074955E-02	1.45497992470E-02	-1.32695126442E-02
1.78900000000E+09	8.73427006377E-02	-7.18926722367E-02	7.43975886351E-02	1.38728538357E-02	7.41545901057E-02	1.40005353266E-02	1.06399582010E-02	-9.19551567715E-03
1.79000000000E+09	9.33330901763E-02	-7.33344034673E-02	7.50555758179E-02	1.04876253849E-02	7.49470460764E-02	1.06783823131E-02	7.02019570394E-03	-4.93107754546E-03
1.79100000000E+09	9.90801823437E-02	-7.51963720673E-02	7.55779970183E-02	7.23198895745E-03	7.54111998332E-02	7.31766972303E-03	3.77971737704E-03	-3.81906471535E-04
1.79200000000E+09	1.04699637674E-01	-7.75996561620E-02	7.58862597985E-02	3.70029697669E-03	7.57988459276E-02	3.95980000256E-03	8.21222553773E-04	4.23978580544E-03
1.79300000000E+09	1.10096791434E-01	-8.05124063103E-02	7.61659628567E-02	3.40672109522E-04	7.60029104291E-02	4.03281016700E-04	-1.81002618863E-03	9.15135835143E-03
1.79400000000E+09	1.15217973840E-01	-8.38262256021E-02	7.61797032971E-02	-3.11932234658E-03	7.60130147470E-02	-2.96633911062E-03	-4.24369404962E-03	1.40884736764E-02
1.79500000000E+09	1.19982035570E-01	-8.76078462123E-02	7.59446681287E-02	-6.57218761884E-03	7.57998770584E-02	-6.39861819669E-03	-6.21388537546E-03	1.93452441644E-02
1.79600000000E+09	1.24403795983E-01	-9.17368953222E-02	7.56386835101E-02	-9.99340652715E-03	7.54458444671E-02	-9.79654174714E-03	-7.90465905876E-03	2.46565716297E-02
1.79700000000E+09	1.28450499231E-01	-9.61390166439E-02	7.50992223058E-02	-1.34162544188E-02	7.49323836415E-02	-1.32695968061E-02	-9.30096853072E-03	3.00446034717E-02
1.79800000000E+09	1.32067641778E-01	-1.00935511220E-01	7.43700264092E-02	-1.68428836726E-02	7.42728058732E-02	-1.66749854828E-02	-1.02348136496E-02	3.55243875111E-02
1.79900000000E+09	1.35318099205E-01	-1.05888367071E-01	7.34818709282E-02	-2.01457221573E-02	7.33974326011E-02	-1.99645975828E-02	-1.08579045321E-02	4.11203279053E-02
1.80000000000E+09	1.38106520636E-01	-1.11160089630E-01	7.24987440806E-02	-2.34417387848E-02	7.23505926503E-02	-2.32250080693E-02	-1.11708544969E-02	4.65743250909E-02
1.80100000000E+09	1.40459883408E-01	-1.16529956477E-01	7.12264576178E-02	-2.67202130575E-02	7.11657995367E-02	-2.65236117835E-02	-1.10453238320E-02	5.21860130739E-02
1.80200000000E+09	1.42426254814E-01	-1.22013356100E-01	6.99059665736E-02	-2.98381671334E-02	6.98717749187E-02	-2.96104539169E-02	-1.06799563894E-02	5.78207637186E-02
1.80300000000E+09	1.43869552768E-01	-1.27564018216E-01	6.83813593627E-02	-3.29059680353E-02	6.83467714315E-02	-3.26556881182E-02	-9.87685632537E-03	6.33210443958E-02
1.80400000000E+09	1.44883310058E-01	-1.33242110487E-01	6.67725935139E-02	-3.58550837263E-02	6.66929940206E-02	-3.56018859726E-02	-8.62292756037E-03	6.87316031510E-02
1.80500000000E+09	1.45504245768E-01	-1.38825037439E-01	6.49633867457E-02	-3.87563634858E-02	6.48915390781E-02	-3.85465545449E-02	-7.17863289754E-03	7.40364881416E-02
1.80600000000E+09	1.45734726250E-01	-1.44479212069E-01	6.31429330740E-02	-4.15758207679E-02	6.29834413213E-02	-4.12607215661E-02	-5.34905273629E-03	7.93115599597E-02
1.80700000000E+09	1.45407453533E-01	-1.49955612840E-01	6.10472286703E-02	-4.42065914302E-02	6.09305236109E-02	-4.39324082301E-02	-3.14625521584E-03	8.43598588536E-02
1.80800000000E+09	1.44763095664E-01	-1.55484846188E-01	5.89263651991E-02	-4.67396373155E-02	5.88027877893E-02	-4.64904658283E-02	-5.48105212336E-04	8.94212753319E-02
1.80900000000E+09	1.43745302308E-01	-1.60761714574E-01	5.66002945824E-02	-4.90897898805E-02	5.66068074544E-02	-4.89600012697E-02	2.27431797545E-03	9.40327260956E-02
1.81000000000E+09	1.42241141842E-01	-1.65994808185E-01	5.43409379578E-02	-5.15404680850E-02	5.42645944351E-02	-5.12087715707E-02	5.33108028749E-03	9.86634256976E-02
1.81100000000E+09	1.40513720381E-01	-1.71073985581E-01	5.18280789818E-02	-5.36466506349E-02	5.18955439987E-02	-5.33666941116E-02	8.80271546492E-03	1.03032497368E-01
1.81200000000E+09	1.38316478345E-01	-1.75858689986E-01	4.93293655602E-02	-5.56720374938E-02	4.93050792948E-02	-5.54233484701E-02	1.25668356756E-02	1.07058013150E-01
1.81300000000E+09	1.35875626775E-01	-1.80532454237E-01	4.67794704558E-02	-5.76489320982E-02	4.67571591581E-02	-5.73496073546E-02	1.64890658622E-02	1.10855507530E-01
1.81400000000E+09	1.33173625038E-01	-1.84910742840E-01	4.40876813935E-02	-5.94245874668E-02	4.41359109592E-02	-5.91856838141E-02	2.05622057857E-02	1.14511237557E-01
1.81500000000E+09	1.30014005189E-01	-1.89075846222E-01	4.13470781315E-02	-6.10853977352E-02	4.14108716650E-02	-6.08768313771E-02	2.50227325745E-02	1.17798474659E-01
1.81600000000E+09	1.26737984205E-01	-1.92932397473E-01	3.85892378404E-02	-6.26817503917E-02	3.87092959842E-02	-6.23745866655E-02	2.96451813882E-02	1.20709647193E-01
1.81700000000E+09	1.23170801232E-01	-1.96565018987E-01	3.58435921826E-02	-6.40264267652E-02	3.59021650331E-02	-6.37325925782E-02	3.43620673058E-02	1.23470670892E-01
1.81800000000E+09	1.19303048939E-01	-1.99823932537E-01	3.30357749173E-02	-6.52642102498E-02	3.30257250034E-02	-6.50286270052E-02	3.93711811366E-02	1.25784545423E-01
