# Hz S RI R 50
! CMT, CMT808U, 21440046, 21.4.3/4
! Date: 12/11/2025 11:20:39 AM
! Data: Format (Calibration Info)
! Freq	S11:Re/Im(F2)	S41:Re/Im(F2)	S14:Re/Im(F2)	S44:Re/Im(F2)
1.70000000000E+09	-2.01937409819E-01	-1.10204517750E-01	-5.33654201161E-02	-4.14265121453E-02	-5.26736009618E-02	-4.21358952945E-02	-4.67385338736E-02	4.04434495805E-02
1.70167224080E+09	-2.02893763301E-01	-1.01985871154E-01	-5.61302323901E-02	-3.77316728541E-02	-5.55055324286E-02	-3.84841699806E-02	-4.74970392800E-02	5.08944215861E-02
1.70334448161E+09	-2.02352076140E-01	-9.34778916098E-02	-5.86710584840E-02	-3.38432020827E-02	-5.80885850690E-02	-3.46314794372E-02	-4.70945027078E-02	6.14174690478E-02
1.70501672241E+09	-2.00327135526E-01	-8.49500785549E-02	-6.09881407603E-02	-2.97768472769E-02	-6.04699030641E-02	-3.06162735431E-02	-4.55026323769E-02	7.18902954705E-02
1.70668896321E+09	-1.96859415537E-01	-7.67015997101E-02	-6.30459212341E-02	-2.55631005060E-02	-6.25925586466E-02	-2.64157536565E-02	-4.28021924777E-02	8.21951091009E-02
1.70836120401E+09	-1.92051810336E-01	-6.88841182467E-02	-6.48506177775E-02	-2.11697426482E-02	-6.44556872503E-02	-2.20662431597E-02	-3.89467104811E-02	9.21701530671E-02
1.71003344482E+09	-1.86020440066E-01	-6.17920952636E-02	-6.63756252199E-02	-1.66240985020E-02	-6.60392137180E-02	-1.75394997559E-02	-3.40474821346E-02	1.01730349674E-01
1.71170568562E+09	-1.78896747109E-01	-5.55381648825E-02	-6.75904451465E-02	-1.19305735370E-02	-6.73276470350E-02	-1.28713030531E-02	-2.81178998665E-02	1.10755949446E-01
1.71337792642E+09	-1.70858497236E-01	-5.02908296054E-02	-6.84811244362E-02	-7.11454203731E-03	-6.82854752787E-02	-8.08096496375E-03	-2.12799089186E-02	1.19121082530E-01
1.71505016722E+09	-1.62089604214E-01	-4.61804962171E-02	-6.90331811925E-02	-2.19406898636E-03	-6.88949842620E-02	-3.16074711948E-03	-1.35404028094E-02	1.26749076865E-01
1.71672240803E+09	-1.52772840832E-01	-4.32552866531E-02	-6.92126824363E-02	2.81269657395E-03	-6.91509309771E-02	1.83654305703E-03	-5.02592861282E-03	1.33542922220E-01
1.71839464883E+09	-1.43106908400E-01	-4.15858136316E-02	-6.90020233883E-02	7.85740760453E-03	-6.90177296369E-02	6.87645728806E-03	4.14287138825E-03	1.39422242615E-01
1.72006688963E+09	-1.33305505465E-01	-4.12051135184E-02	-6.83955549422E-02	1.29072917250E-02	-6.84726065629E-02	1.19389589575E-02	1.39247289174E-02	1.44367674061E-01
1.72173913043E+09	-1.23515421898E-01	-4.20907944638E-02	-6.73806976829E-02	1.79387266321E-02	-6.75285950057E-02	1.69691815606E-02	2.41605425105E-02	1.48251785733E-01
1.72341137124E+09	-1.13950412719E-01	-4.42180387754E-02	-6.59605400886E-02	2.28861473413E-02	-6.61791205880E-02	2.19314763294E-02	3.47420734750E-02	1.51089339849E-01
1.72508361204E+09	-1.04774824539E-01	-4.75180371152E-02	-6.41351176900E-02	2.77344156316E-02	-6.44279262299E-02	2.67898568837E-02	4.55842017743E-02	1.52828506052E-01
1.72675585284E+09	-9.61342233369E-02	-5.19307000344E-02	-6.19310070512E-02	3.24136569046E-02	-6.22835577522E-02	3.14961559048E-02	5.65535772154E-02	1.53465200633E-01
1.72842809365E+09	-8.82043116782E-02	-5.73348593795E-02	-5.93303344138E-02	3.69003503565E-02	-5.97577452840E-02	3.60023072666E-02	6.75488117514E-02	1.52943962449E-01
1.73010033445E+09	-8.10790109541E-02	-6.36645236149E-02	-5.63971731297E-02	4.11485151152E-02	-5.68889661653E-02	4.02939346567E-02	7.84361357782E-02	1.51349054608E-01
1.73177257525E+09	-7.48900930916E-02	-7.07539157601E-02	-5.31413235789E-02	4.51303000331E-02	-5.36860818401E-02	4.43111095207E-02	8.91082302164E-02	1.48596104946E-01
1.73344481605E+09	-6.97286259469E-02	-7.84796607166E-02	-4.96003890022E-02	4.88290055577E-02	-5.01966504879E-02	4.80537373843E-02	9.94588185316E-02	1.44784162729E-01
1.73511705686E+09	-6.56556507418E-02	-8.66622501875E-02	-4.57903210568E-02	5.22165597393E-02	-4.64467411425E-02	5.14729193339E-02	1.09354775720E-01	1.39938018340E-01
1.73678929766E+09	-6.27269400252E-02	-9.52166714115E-02	-4.17700790882E-02	5.52670861240E-02	-4.24812122261E-02	5.45840154084E-02	1.18720409443E-01	1.34073999264E-01
1.73846153846E+09	-6.09791072758E-02	-1.03922691781E-01	-3.75598309684E-02	5.79821733519E-02	-3.83084642882E-02	5.73545220735E-02	1.27422936361E-01	1.27264766185E-01
1.74013377926E+09	-6.04049909677E-02	-1.12656110373E-01	-3.31982248260E-02	6.03526802714E-02	-3.39828331204E-02	5.97722078677E-02	1.35351098526E-01	1.19559295952E-01
1.74180602007E+09	-6.09972443389E-02	-1.21243632985E-01	-2.87126433813E-02	6.23724668017E-02	-2.95476663620E-02	6.18554093415E-02	1.42456530122E-01	1.11064639321E-01
1.74347826087E+09	-6.27483571235E-02	-1.29526025323E-01	-2.41391101660E-02	6.40532809397E-02	-2.49969566794E-02	6.36059123742E-02	1.48633344907E-01	1.01848170064E-01
1.74515050167E+09	-6.55957606163E-02	-1.37397003876E-01	-1.95034534525E-02	6.53971179975E-02	-2.03864385583E-02	6.49930651361E-02	1.53817252754E-01	9.20397258192E-02
1.74682274247E+09	-6.94931033176E-02	-1.44700471108E-01	-1.48291520679E-02	6.63991249855E-02	-1.57393456875E-02	6.60640567262E-02	1.57916586363E-01	8.17034764716E-02
1.74849498328E+09	-7.43691765402E-02	-1.51279301063E-01	-1.01412695305E-02	6.70799853084E-02	-1.10564497823E-02	6.68086849918E-02	1.60895239582E-01	7.09918312031E-02
1.75016722408E+09	-8.01226327416E-02	-1.56993340794E-01	-5.44441664879E-03	6.74484667289E-02	-6.37632735624E-03	6.72250289327E-02	1.62698981342E-01	5.99710857385E-02
1.75183946488E+09	-8.66497229853E-02	-1.61715945032E-01	-7.78953103938E-04	6.74854072895E-02	-1.72761967977E-03	6.73421608506E-02	1.63349435366E-01	4.88098085891E-02
1.75351170569E+09	-9.38097681593E-02	-1.65373868160E-01	3.84810590310E-03	6.72350805235E-02	2.89155753735E-03	6.71432560786E-02	1.62759836137E-01	3.75815223536E-02
1.75518394649E+09	-1.01458451474E-01	-1.67819259406E-01	8.42518464953E-03	6.66870740897E-02	7.46430907299E-03	6.66639024128E-02	1.60968984859E-01	2.64855073099E-02
1.75685618729E+09	-1.09427080695E-01	-1.68976402852E-01	1.29439665923E-02	6.58457732587E-02	1.19862659012E-02	6.58842552085E-02	1.57976606419E-01	1.56119557751E-02
1.75852842809E+09	-1.17514716329E-01	-1.68770392388E-01	1.73794455512E-02	6.47300471251E-02	1.64106330344E-02	6.48223997485E-02	1.53801106940E-01	5.09187214019E-03
1.76020066890E+09	-1.25517426909E-01	-1.67159763096E-01	2.17077578619E-02	6.33353007753E-02	2.07591672769E-02	6.34813056596E-02	1.48496779618E-01	-4.96545494084E-03
1.76187290970E+09	-1.33177469949E-01	-1.64174623359E-01	2.59315713478E-02	6.16662298084E-02	2.49924339174E-02	6.18771433087E-02	1.42106158545E-01	-1.44311902584E-02
1.76354515050E+09	-1.40308884955E-01	-1.59834094741E-01	3.00374034688E-02	5.97518902464E-02	2.91150946877E-02	6.00172156936E-02	1.34718582387E-01	-2.31562213328E-02
1.76521739130E+09	-1.46618732191E-01	-1.54199593469E-01	3.40150562646E-02	5.75674749051E-02	3.31034896807E-02	5.79087961294E-02	1.26362574694E-01	-3.10617291956E-02
1.76688963211E+09	-1.51881170644E-01	-1.47435213592E-01	3.78509608872E-02	5.51626142853E-02	3.69514319586E-02	5.55564389116E-02	1.17189131781E-01	-3.80627298013E-02
1.76856187291E+09	-1.55873575928E-01	-1.39718390527E-01	4.15361880376E-02	5.25081004347E-02	4.06630543990E-02	5.29639199500E-02	1.07263038323E-01	-4.40432474784E-02
1.77023411371E+09	-1.58462472155E-01	-1.31279575503E-01	4.50530252517E-02	4.96337830713E-02	4.42044882142E-02	5.01360915579E-02	9.67328322615E-02	-4.89229544653E-02
1.77190635452E+09	-1.59453511671E-01	-1.22400840358E-01	4.83990545265E-02	4.65284679140E-02	4.75777668658E-02	4.70890934290E-02	8.56858198677E-02	-5.26644776552E-02
1.77357859532E+09	-1.58790157064E-01	-1.13383326641E-01	5.15565712099E-02	4.31978135588E-02	5.07604408523E-02	4.38240739988E-02	7.42663687862E-02	-5.51931404715E-02
1.77525083612E+09	-1.56483484134E-01	-1.04540072907E-01	5.45179896311E-02	3.96485514457E-02	5.37662571900E-02	4.03396588052E-02	6.26145611620E-02	-5.64628751463E-02
1.77692307692E+09	-1.52543355267E-01	-9.62130776790E-02	5.72634414187E-02	3.58908949138E-02	5.65620066302E-02	3.66438587821E-02	5.08681880841E-02	-5.64655812102E-02
1.77859531773E+09	-1.47143890971E-01	-8.87024089349E-02	5.97854586564E-02	3.19301884231E-02	5.91194159580E-02	3.27373252961E-02	3.91677671718E-02	-5.52167235231E-02
1.78026755853E+09	-1.40438601652E-01	-8.22981886401E-02	6.20639060043E-02	2.77787698551E-02	6.14410210619E-02	2.86337846503E-02	2.76656569620E-02	-5.26989249452E-02
1.78193979933E+09	-1.32692931196E-01	-7.71941333107E-02	6.40590621143E-02	2.34209833416E-02	6.35154423786E-02	2.43427578419E-02	1.64733394313E-02	-4.89498369330E-02
1.78361204013E+09	-1.24153966032E-01	-7.35915141692E-02	6.57797080755E-02	1.89100117712E-02	6.52866177357E-02	1.98599360218E-02	5.76513001932E-03	-4.40256029623E-02
1.78528428094E+09	-1.15156599962E-01	-7.15829441563E-02	6.71674397981E-02	1.41960006571E-02	6.67598069993E-02	1.52100643493E-02	-4.35054139380E-03	-3.79649010249E-02
1.78695652174E+09	-1.06027898397E-01	-7.12284693344E-02	6.82371734492E-02	9.36887049636E-03	6.78929529914E-02	1.04139534944E-02	-1.37547182812E-02	-3.08414538824E-02
1.78862876254E+09	-9.70736481499E-02	-7.24580813438E-02	6.89415523888E-02	4.41301775669E-03	6.86748396939E-02	5.49505036379E-03	-2.23292070009E-02	-2.27681177861E-02
1.79030100334E+09	-8.85671103958E-02	-7.52384908979E-02	6.92535205009E-02	-6.20625620936E-04	6.90731970351E-02	4.59784393739E-04	-2.99761452936E-02	-1.38057206233E-02
1.79197324415E+09	-8.07794988329E-02	-7.93562545690E-02	6.91646870762E-02	-5.71335535674E-03	6.90792824279E-02	-4.61358880769E-03	-3.65925343132E-02	-4.10239599735E-03
1.79364548495E+09	-7.39024889819E-02	-8.47101448222E-02	6.86761765949E-02	-1.08202380495E-02	6.86735235912E-02	-9.69829157320E-03	-4.21000369290E-02	6.25632626481E-03
1.79531772575E+09	-6.81302849928E-02	-9.10369643110E-02	6.77524660416E-02	-1.59058465597E-02	6.78441492368E-02	-1.47809088202E-02	-4.64532388223E-02	1.71559538991E-02
1.79698996656E+09	-6.35617821498E-02	-9.81359765772E-02	6.64141275307E-02	-2.09063587209E-02	6.66045265241E-02	-1.97845705592E-02	-4.95908802215E-02	2.84341699791E-02
1.79866220736E+09	-6.02873386961E-02	-1.05795456156E-01	6.46666573168E-02	-2.57907328873E-02	6.49379307208E-02	-2.46858645656E-02	-5.14438575451E-02	3.99605600896E-02
1.80033444816E+09	-5.83321267008E-02	-1.13771902694E-01	6.25146452262E-02	-3.04931119920E-02	6.28883705408E-02	-2.94216038223E-02	-5.20520362087E-02	5.16279913357E-02
1.80200668896E+09	-5.76997993211E-02	-1.21853195425E-01	5.99887152508E-02	-3.50133080252E-02	6.04476296330E-02	-3.39689238649E-02	-5.13408232756E-02	6.32630287418E-02
1.80367892977E+09	-5.83522580167E-02	-1.29835335149E-01	5.71165058623E-02	-3.92646029951E-02	5.76560766065E-02	-3.82762388019E-02	-4.93862304467E-02	7.47246183903E-02
1.80535117057E+09	-6.02129937400E-02	-1.37538596092E-01	5.39167775332E-02	-4.32689908058E-02	5.45315678818E-02	-4.23214774887E-02	-4.61413161833E-02	8.59038874960E-02
1.80702341137E+09	-6.32325177111E-02	-1.44809603342E-01	5.04353333205E-02	-4.69611416170E-02	5.11289899180E-02	-4.60744239764E-02	-4.17021987033E-02	9.66468764173E-02
1.80869565217E+09	-6.72882026157E-02	-1.51499417096E-01	4.67060923090E-02	-5.03244060362E-02	4.74576426141E-02	-4.95145855004E-02	-3.61021285371E-02	1.06819506027E-01
1.81036789298E+09	-7.22768001928E-02	-1.57484712147E-01	4.27574156331E-02	-5.33550813444E-02	4.35790250685E-02	-5.26144740492E-02	-2.93952695892E-02	1.16296539148E-01
1.81204013378E+09	-7.80831846171E-02	-1.62643532254E-01	3.86541105988E-02	-5.60580857392E-02	3.95131408754E-02	-5.53825007624E-02	-2.16635050931E-02	1.24964589111E-01
1.81371237458E+09	-8.45824771191E-02	-1.66883260580E-01	3.43953906685E-02	-5.84030680620E-02	3.52961750797E-02	-5.77994035399E-02	-1.30403098148E-02	1.32719360581E-01
1.81538461538E+09	-9.16213685476E-02	-1.70140413886E-01	3.00524977788E-02	-6.04053350211E-02	3.09826089897E-02	-5.98833927539E-02	-3.59948283197E-03	1.39492502326E-01
1.81705685619E+09	-9.90494198939E-02	-1.72368960211E-01	2.56347865617E-02	-6.20596801459E-02	2.65934783804E-02	-6.16187249427E-02	6.53931883848E-03	1.45166873263E-01
1.81872909699E+09	-1.06753461049E-01	-1.73520543256E-01	2.11746407989E-02	-6.34090635070E-02	2.21502330633E-02	-6.30393814242E-02	1.72480477783E-02	1.49680629457E-01
1.82040133779E+09	-1.14534315651E-01	-1.73603015686E-01	1.66842590231E-02	-6.44297995986E-02	1.76763610155E-02	-6.41410494915E-02	2.83822732788E-02	1.53010557672E-01
1.82207357860E+09	-1.22315342241E-01	-1.72608896078E-01	1.21960311982E-02	-6.51580965410E-02	1.32020019581E-02	-6.49443723292E-02	3.98313247483E-02	1.55095700344E-01
1.82374581940E+09	-1.29898876392E-01	-1.70566791620E-01	7.72364377251E-03	-6.55950008807E-02	8.72919546911E-03	-6.54583132871E-02	5.14317304001E-02	1.55912992928E-01
1.82541806020E+09	-1.37188220495E-01	-1.67479734067E-01	3.27193877670E-03	-6.57514909208E-02	4.27306913016E-03	-6.56741129721E-02	6.30634729875E-02	1.55489994564E-01
1.82709030100E+09	-1.44058876341E-01	-1.63422720643E-01	-1.14221839742E-03	-6.56314180065E-02	-1.49932150165E-04	-6.56228829180E-02	7.46008470023E-02	1.53794611149E-01
1.82876254181E+09	-1.50348919856E-01	-1.58434183804E-01	-5.51456493298E-03	-6.52459821125E-02	-4.53444253522E-03	-6.52972016289E-02	8.58802010257E-02	1.50878616137E-01
1.83043478261E+09	-1.55977320354E-01	-1.52591097517E-01	-9.83281957728E-03	-6.46103593138E-02	-8.86820744946E-03	-6.47232266834E-02	9.68059958918E-02	1.46799612384E-01
1.83210702341E+09	-1.60787890556E-01	-1.46013949736E-01	-1.40992892337E-02	-6.37164882876E-02	-1.31340907511E-02	-6.38959575352E-02	1.07251356107E-01	1.41573762027E-01
1.83377926421E+09	-1.64703978070E-01	-1.38754837665E-01	-1.82787884584E-02	-6.25728593599E-02	-1.73565699665E-02	-6.28197743642E-02	1.17058690179E-01	1.35248645490E-01
1.83545150502E+09	-1.67618361081E-01	-1.30952816917E-01	-2.23913454204E-02	-6.11827636073E-02	-2.14853519979E-02	-6.14743782767E-02	1.26171550020E-01	1.27954880514E-01
1.83712374582E+09	-1.69436090881E-01	-1.22736365581E-01	-2.64191341483E-02	-5.95408384695E-02	-2.55396993097E-02	-5.98900771590E-02	1.34464940034E-01	1.19747476995E-01
1.83879598662E+09	-1.70077847288E-01	-1.14269403235E-01	-3.03369436917E-02	-5.76599374591E-02	-2.94815890281E-02	-5.80570926494E-02	1.41845907650E-01	1.10728271782E-01
1.84046822742E+09	-1.69478722866E-01	-1.05694511943E-01	-3.41485361963E-02	-5.55326210741E-02	-3.33201043748E-02	-5.59895291788E-02	1.48254426729E-01	1.00983442801E-01
1.84214046823E+09	-1.67610758869E-01	-9.72489170775E-02	-3.78306444128E-02	-5.31611738221E-02	-3.70306949916E-02	-5.36600115975E-02	1.53622914340E-01	9.06436197173E-02
1.84381270903E+09	-1.64442497699E-01	-8.91156347029E-02	-4.13651223778E-02	-5.05473842221E-02	-4.06049741836E-02	-5.11070479059E-02	1.57867893945E-01	7.98120190866E-02
1.84548494983E+09	-1.60090384913E-01	-8.15215604013E-02	-4.47525784963E-02	-4.77168254984E-02	-4.40239378421E-02	-4.83151967730E-02	1.60949003305E-01	6.86207510966E-02
1.84715719064E+09	-1.54529493080E-01	-7.46578143186E-02	-4.79555141048E-02	-4.46396361164E-02	-4.72643099987E-02	-4.52849979298E-02	1.62858015035E-01	5.72071286310E-02
1.84882943144E+09	-1.47932511243E-01	-6.87647641966E-02	-5.09823172717E-02	-4.13424883649E-02	-5.03220617210E-02	-4.20320079873E-02	1.63555175734E-01	4.56636946980E-02
1.85050167224E+09	-1.40437839014E-01	-6.40420230045E-02	-5.37989603576E-02	-3.78532071738E-02	-5.31822326497E-02	-3.85812650350E-02	1.63055657755E-01	3.41490073868E-02
1.85217391304E+09	-1.32261416751E-01	-6.06589224430E-02	-5.63934799179E-02	-3.41379904396E-02	-5.58155848071E-02	-3.49170236613E-02	1.61330659610E-01	2.27611599995E-02
1.85384615385E+09	-1.23657747769E-01	-5.87517788964E-02	-5.87344395308E-02	-3.02409599683E-02	-5.82160774308E-02	-3.10529387124E-02	1.58449648789E-01	1.16522876222E-02
1.85551839465E+09	-1.14899746362E-01	-5.83829837011E-02	-6.08298604620E-02	-2.61668177279E-02	-6.03635967220E-02	-2.70232391300E-02	1.54392233058E-01	9.66469620469E-04
1.85719063545E+09	-1.06340618923E-01	-5.95901541047E-02	-6.26560534191E-02	-2.19195655661E-02	-6.22360616768E-02	-2.28192172669E-02	1.49233241510E-01	-9.21007226015E-03
1.85886287625E+09	-9.82328518791E-02	-6.22986232414E-02	-6.41864256472E-02	-1.75408786877E-02	-6.38310307187E-02	-1.84673682076E-02	1.43036116849E-01	-1.87319871356E-02
1.86053511706E+09	-9.08682037095E-02	-6.64014624828E-02	-6.54168980598E-02	-1.30222683362E-02	-6.51154806447E-02	-1.39931215378E-02	1.35859038794E-01	-2.75055176088E-02
1.86220735786E+09	-8.45372310172E-02	-7.17283112915E-02	-6.63235295320E-02	-8.40686069499E-03	-6.60940261992E-02	-9.38998341763E-03	1.27807949199E-01	-3.54310105832E-02
1.86387959866E+09	-7.94229900045E-02	-7.80209882303E-02	-6.69222291077E-02	-3.69528766547E-03	-6.67499357547E-02	-4.70696574822E-03	1.18956095581E-01	-4.23992038052E-02
1.86555183946E+09	-7.56843084973E-02	-8.50555097689E-02	-6.71553754417E-02	1.08030986881E-03	-6.70584704033E-02	4.48368891982E-05	1.09419782479E-01	-4.83582220205E-02
1.86722408027E+09	-7.34545199659E-02	-9.25153205959E-02	-6.70475655117E-02	5.88560955434E-03	-6.70197096886E-02	4.84710875305E-03	9.93189175311E-02	-5.31777740471E-02
1.86889632107E+09	-7.27205876515E-02	-1.00099704924E-01	-6.65606419194E-02	1.07014035955E-02	-6.66254651792E-02	9.64394975815E-03	8.87385162963E-02	-5.68559100697E-02
1.87056856187E+09	-7.34738344859E-02	-1.07502054904E-01	-6.57272328586E-02	1.54937215474E-02	-6.58652179499E-02	1.44413653872E-02	7.78775300610E-02	-5.93162760532E-02
1.87224080268E+09	-7.56237629908E-02	-1.14472091981E-01	-6.45147938425E-02	2.02346955755E-02	-6.47297816054E-02	1.91832376912E-02	6.68049045021E-02	-6.05458580673E-02
1.87391304348E+09	-7.89887189543E-02	-1.20792817786E-01	-6.29335376996E-02	2.48675031333E-02	-6.32244419545E-02	2.38405356365E-02	5.56501983997E-02	-6.05355433731E-02
1.87558528428E+09	-8.34697822813E-02	-1.26238933318E-01	-6.09949574533E-02	2.93930390246E-02	-6.13650183058E-02	2.83838421333E-02	4.46049415709E-02	-5.92512270815E-02
1.87725752508E+09	-8.88236969278E-02	-1.30686247617E-01	-5.86909956942E-02	3.37555080334E-02	-5.91520056607E-02	3.27758232464E-02	3.37746045606E-02	-5.67136465531E-02
1.87892976589E+09	-9.48583822514E-02	-1.34003923936E-01	-5.60669240258E-02	3.79257944726E-02	-5.66006838953E-02	3.69764255728E-02	2.33064379557E-02	-5.29766650297E-02
1.88060200669E+09	-1.01341326063E-01	-1.36116702006E-01	-5.31225090306E-02	4.18698229849E-02	-5.37138711118E-02	4.09636394592E-02	1.33219920480E-02	-4.80505138690E-02
1.88227424749E+09	-1.08096193284E-01	-1.37057430126E-01	-4.98854370322E-02	4.55697716757E-02	-5.05483752123E-02	4.47080348371E-02	3.95404267922E-03	-4.20575332334E-02
1.88394648829E+09	-1.14902237119E-01	-1.36786257572E-01	-4.63740186726E-02	4.89881823320E-02	-4.71025434406E-02	4.81843574645E-02	-4.65146047063E-03	-3.50269623780E-02
1.88561872910E+09	-1.21601716365E-01	-1.35339090043E-01	-4.26353235692E-02	5.21136492627E-02	-4.34327589996E-02	5.13532931924E-02	-1.24241346427E-02	-2.70897849447E-02
1.88729096990E+09	-1.28012802872E-01	-1.32786496243E-01	-3.86956835768E-02	5.49317933433E-02	-3.95387414520E-02	5.42258282240E-02	-1.92637587062E-02	-1.83252683173E-02
1.88896321070E+09	-1.34003181239E-01	-1.29191997873E-01	-3.45725489317E-02	5.74256595201E-02	-3.54677976819E-02	5.67822008926E-02	-2.50624351190E-02	-8.82878089328E-03
1.89063545151E+09	-1.39397296686E-01	-1.24625937570E-01	-3.03126581233E-02	5.95848052823E-02	-3.12497727349E-02	5.90127483692E-02	-2.97519499827E-02	1.22934660908E-03
1.89230769231E+09	-1.44085499669E-01	-1.19210778657E-01	-2.59331486114E-02	6.14274501814E-02	-2.69090727207E-02	6.09209439533E-02	-3.32976950810E-02	1.17300329259E-02
1.89397993311E+09	-1.47969432992E-01	-1.13059792639E-01	-2.14660036098E-02	6.29286711623E-02	-2.24710977502E-02	6.24810173939E-02	-3.56486172326E-02	2.25475403291E-02
1.89565217391E+09	-1.50949796681E-01	-1.06325566684E-01	-1.69400409990E-02	6.40886989862E-02	-1.79766187075E-02	6.37315224827E-02	-3.68121045963E-02	3.35305193554E-02
