# Hz S RI R 50
! CMT, CMT808U, 21440046, 21.4.3/4
! Date: 12/11/2025 6:02:19 PM
! Data: Format (Calibration Info)
! Freq	S11:Re/Im(F2)	S41:Re/Im(F2)	S14:Re/Im(F2)	S44:Re/Im(F2)
1.70000000000E+09	-1.54297752956E-01	-8.31291653456E-02	-5.96726417436E-02	-2.87341008225E-02	-5.93160867709E-02	-2.90482704544E-02	-1.11082557156E-01	2.36578992645E-02
1.70100000000E+09	-1.52890389252E-01	-7.78989722733E-02	-6.08090457588E-02	-2.61447624010E-02	-6.05204279786E-02	-2.64681234451E-02	-1.11652823198E-01	3.41374356727E-02
1.70200000000E+09	-1.50683999418E-01	-7.28509242593E-02	-6.18978296752E-02	-2.35848270971E-02	-6.16567798807E-02	-2.38653131714E-02	-1.11691770449E-01	4.46155967424E-02
1.70300000000E+09	-1.48019191558E-01	-6.80015471717E-02	-6.28290143517E-02	-2.09068488298E-02	-6.26403310722E-02	-2.13580605544E-02	-1.10810024141E-01	5.50028675045E-02
1.70400000000E+09	-1.44745234530E-01	-6.33135808562E-02	-6.37635558056E-02	-1.81671221746E-02	-6.34720896211E-02	-1.86263515719E-02	-1.09279581924E-01	6.53130143585E-02
1.70500000000E+09	-1.40859802317E-01	-5.89929201986E-02	-6.44759911800E-02	-1.55057783110E-02	-6.42686692448E-02	-1.58775398704E-02	-1.07072135371E-01	7.55087316318E-02
1.70600000000E+09	-1.36535082840E-01	-5.51127151696E-02	-6.50930683729E-02	-1.27740776281E-02	-6.48763133897E-02	-1.31535950600E-02	-1.04270731617E-01	8.54493015877E-02
1.70700000000E+09	-1.31780709908E-01	-5.15827804788E-02	-6.56373796395E-02	-9.96698936780E-03	-6.54867109294E-02	-1.03463461570E-02	-1.00735245410E-01	9.53563542190E-02
1.70800000000E+09	-1.26655326202E-01	-4.85088889002E-02	-6.59789249949E-02	-7.17583510406E-03	-6.58352850360E-02	-7.56437330702E-03	-9.66160149903E-02	1.04883615395E-01
1.70900000000E+09	-1.21295779128E-01	-4.58800315100E-02	-6.62202320075E-02	-4.24049115468E-03	-6.61330527758E-02	-4.70639171265E-03	-9.19025464916E-02	1.14111493499E-01
1.71000000000E+09	-1.15603517387E-01	-4.37988684597E-02	-6.64888775016E-02	-1.43704823683E-03	-6.62820884984E-02	-1.87945741616E-03	-8.65466024714E-02	1.22994808561E-01
1.71100000000E+09	-1.09795408788E-01	-4.22599279023E-02	-6.64648313098E-02	1.44869296634E-03	-6.63254920548E-02	9.65047070116E-04	-8.06899494596E-02	1.31475468731E-01
1.71200000000E+09	-1.03831173410E-01	-4.11381624027E-02	-6.63634077710E-02	4.32966689656E-03	-6.63572170810E-02	3.79398117463E-03	-7.42282910460E-02	1.39647326433E-01
1.71300000000E+09	-9.77554827663E-02	-4.06264420822E-02	-6.60443057257E-02	7.05069559750E-03	-6.60241474289E-02	6.69952947175E-03	-6.73297680774E-02	1.47295826261E-01
1.71400000000E+09	-9.17534685196E-02	-4.05468228754E-02	-6.57104343180E-02	1.00146752421E-02	-6.57234303875E-02	9.45866716132E-03	-6.00368222738E-02	1.54476912700E-01
1.71500000000E+09	-8.56251863813E-02	-4.09718824602E-02	-6.52417243609E-02	1.27902011965E-02	-6.51590404315E-02	1.23412185102E-02	-5.21140877880E-02	1.61177218577E-01
1.71600000000E+09	-7.96494368425E-02	-4.18430455374E-02	-6.46145998035E-02	1.55911094128E-02	-6.45709200595E-02	1.51047453741E-02	-4.38384575874E-02	1.67332794284E-01
1.71700000000E+09	-7.36929217826E-02	-4.32272940815E-02	-6.38909080392E-02	1.83267506281E-02	-6.38410119143E-02	1.79015129606E-02	-3.51673198945E-02	1.73057156758E-01
1.71800000000E+09	-6.79376942933E-02	-4.49166352904E-02	-6.29833395090E-02	2.10048825222E-02	-6.29710480906E-02	2.05714375195E-02	-2.63230516027E-02	1.77966101695E-01
1.71900000000E+09	-6.24020879089E-02	-4.71296183983E-02	-6.20202463527E-02	2.36976189842E-02	-6.20179792252E-02	2.32704069400E-02	-1.70295024197E-02	1.82580474982E-01
1.72000000000E+09	-5.69825403474E-02	-4.97530907775E-02	-6.09353431341E-02	2.62560761414E-02	-6.09159665295E-02	2.58254514014E-02	-7.52095773761E-03	1.86400684910E-01
1.72100000000E+09	-5.18381563547E-02	-5.25615515469E-02	-5.96601875010E-02	2.88766392779E-02	-5.97518799318E-02	2.84795790555E-02	2.30406353395E-03	1.89555724750E-01
1.72200000000E+09	-4.68837985921E-02	-5.58266660689E-02	-5.83929015809E-02	3.14105092181E-02	-5.84374507803E-02	3.08780527514E-02	1.21613139350E-02	1.92272633899E-01
1.72300000000E+09	-4.21551480145E-02	-5.93567770709E-02	-5.69635875402E-02	3.38222346930E-02	-5.70565644490E-02	3.33585684607E-02	2.21922190439E-02	1.94311748850E-01
1.72400000000E+09	-3.78253295385E-02	-6.31261742854E-02	-5.54638915207E-02	3.61750056318E-02	-5.55503815701E-02	3.57196853307E-02	3.23630890467E-02	1.95637337186E-01
1.72500000000E+09	-3.36742026194E-02	-6.72548682487E-02	-5.38395606864E-02	3.84561538413E-02	-5.40515855395E-02	3.80336954867E-02	4.25639773072E-02	1.96287554833E-01
1.72600000000E+09	-2.98486703436E-02	-7.15123265519E-02	-5.21608356427E-02	4.07506135506E-02	-5.22876884438E-02	4.02616295912E-02	5.27088474185E-02	1.96246597330E-01
1.72700000000E+09	-2.62365440163E-02	-7.59751358964E-02	-5.03363179762E-02	4.28886974375E-02	-5.05053592446E-02	4.24245885433E-02	6.29742856328E-02	1.95683446462E-01
1.72800000000E+09	-2.30548135951E-02	-8.06938714239E-02	-4.84365447874E-02	4.49859454248E-02	-4.86412405958E-02	4.45326021066E-02	7.30622586889E-02	1.94411231273E-01
1.72900000000E+09	-2.01818153592E-02	-8.55289580854E-02	-4.64807387647E-02	4.69791746188E-02	-4.68044740237E-02	4.65396637387E-02	8.31153787168E-02	1.92579638775E-01
1.73000000000E+09	-1.75474696539E-02	-9.05719938690E-02	-4.45119370575E-02	4.89281605107E-02	-4.47345322821E-02	4.85299901445E-02	9.29287442736E-02	1.90080872580E-01
1.73100000000E+09	-1.51924559556E-02	-9.56909077253E-02	-4.23696149291E-02	5.06862080306E-02	-4.26303371321E-02	5.02740563829E-02	1.02653125064E-01	1.86895417689E-01
1.73200000000E+09	-1.32553584699E-02	-1.01003467166E-01	-4.01447409618E-02	5.24008775921E-02	-4.03951722991E-02	5.20854685094E-02	1.12124165319E-01	1.83164386671E-01
1.73300000000E+09	-1.16347918147E-02	-1.06267914024E-01	-3.79506681390E-02	5.41096767482E-02	-3.81776000400E-02	5.37183652681E-02	1.21349986090E-01	1.78895987800E-01
1.73400000000E+09	-1.03208028399E-02	-1.11756288710E-01	-3.55109907906E-02	5.56307610933E-02	-3.59292742114E-02	5.53683514630E-02	1.30294497723E-01	1.74022314206E-01
1.73500000000E+09	-9.40004634116E-03	-1.17300351378E-01	-3.31723637369E-02	5.71589168558E-02	-3.35430621019E-02	5.67702349850E-02	1.38863162258E-01	1.68586879034E-01
1.73600000000E+09	-8.85104444238E-03	-1.22752974046E-01	-3.07377817362E-02	5.84869618600E-02	-3.11116764832E-02	5.81457746124E-02	1.47002818719E-01	1.62482172470E-01
1.73700000000E+09	-8.57944591528E-03	-1.28300421380E-01	-2.81922374210E-02	5.97165102929E-02	-2.85821049270E-02	5.93702104638E-02	1.54905126148E-01	1.56196697294E-01
1.73800000000E+09	-8.70576752275E-03	-1.33883757077E-01	-2.55942217556E-02	6.08598523708E-02	-2.60039594873E-02	6.04992409543E-02	1.62212104965E-01	1.49249306398E-01
1.73900000000E+09	-9.14915372085E-03	-1.39492034326E-01	-2.29506401042E-02	6.18579739358E-02	-2.34341540297E-02	6.15438805789E-02	1.69276651499E-01	1.41833354019E-01
1.74000000000E+09	-1.00438269271E-02	-1.45000023010E-01	-2.03813433018E-02	6.27400316741E-02	-2.07282292216E-02	6.25658558980E-02	1.75737764397E-01	1.33962092999E-01
1.74100000000E+09	-1.12901854192E-02	-1.50398219605E-01	-1.76461039516E-02	6.35219791968E-02	-1.81062340527E-02	6.33165546148E-02	1.81704438966E-01	1.25878594338E-01
1.74200000000E+09	-1.28020486178E-02	-1.55778262860E-01	-1.49518122205E-02	6.42426986144E-02	-1.53689148026E-02	6.40094472199E-02	1.87153284027E-01	1.17214693566E-01
1.74300000000E+09	-1.48559830004E-02	-1.60966806833E-01	-1.21543900274E-02	6.48591336694E-02	-1.25455349222E-02	6.45499328093E-02	1.92078942971E-01	1.08286778990E-01
1.74400000000E+09	-1.71600593700E-02	-1.66006257679E-01	-9.38517588628E-03	6.52550487244E-02	-9.83848235688E-03	6.49941379769E-02	1.96430581515E-01	9.91001752431E-02
1.74500000000E+09	-1.99162690338E-02	-1.70873136898E-01	-6.56997845915E-03	6.54665342109E-02	-6.96076422351E-03	6.53185582128E-02	2.00153108231E-01	8.95984873649E-02
1.74600000000E+09	-2.29792550959E-02	-1.75591465639E-01	-3.76146594306E-03	6.56419222672E-02	-4.22776489907E-03	6.55165897494E-02	2.03257554535E-01	8.00481666734E-02
1.74700000000E+09	-2.64475681403E-02	-1.80039348537E-01	-9.59593376574E-04	6.57822366280E-02	-1.46943623770E-03	6.56017569763E-02	2.05816638071E-01	7.00557814720E-02
1.74800000000E+09	-3.01884863412E-02	-1.84141784407E-01	1.76850391105E-03	6.56652744101E-02	1.33788046395E-03	6.55601338356E-02	2.07725906069E-01	6.00593149123E-02
1.74900000000E+09	-3.42799593147E-02	-1.87968317080E-01	4.62492517900E-03	6.55425019095E-02	4.16416908071E-03	6.53594662410E-02	2.09022016497E-01	5.00403476298E-02
1.75000000000E+09	-3.87411877604E-02	-1.91532235542E-01	7.30747540832E-03	6.52138729882E-02	6.82459546881E-03	6.50831935400E-02	2.09642742392E-01	3.98174310483E-02
1.75100000000E+09	-4.32622429016E-02	-1.94642480826E-01	1.01343760767E-02	6.48124297360E-02	9.60377474004E-03	6.46679366683E-02	2.09639838265E-01	2.95638592768E-02
1.75200000000E+09	-4.82353265975E-02	-1.97415447978E-01	1.27509137606E-02	6.41994209723E-02	1.23669245731E-02	6.41828325326E-02	2.08913536215E-01	1.94210167274E-02
1.75300000000E+09	-5.33141035990E-02	-1.99678343970E-01	1.54702055999E-02	6.36273414395E-02	1.50414783615E-02	6.35616375994E-02	2.07646831603E-01	9.17211446330E-03
1.75400000000E+09	-5.87022226431E-02	-2.01553384139E-01	1.81168878490E-02	6.27631179020E-02	1.76442595239E-02	6.28116047551E-02	2.05594051859E-01	-9.09810247985E-04
1.75500000000E+09	-6.41592364494E-02	-2.02944532363E-01	2.07261455416E-02	6.19209596935E-02	2.02801472045E-02	6.19875180144E-02	2.03021346790E-01	-1.08911841519E-02
1.75600000000E+09	-6.97676553305E-02	-2.03729883086E-01	2.32874130806E-02	6.08977792067E-02	2.28582477377E-02	6.09527184758E-02	1.99690295289E-01	-2.05381586631E-02
1.75700000000E+09	-7.53486033936E-02	-2.04123217800E-01	2.57578938661E-02	5.99046561984E-02	2.53068591204E-02	5.99125867329E-02	1.95791586541E-01	-3.01925750380E-02
1.75800000000E+09	-8.09790595313E-02	-2.03923395920E-01	2.82271401593E-02	5.86866647215E-02	2.77446687822E-02	5.88126458566E-02	1.91282338628E-01	-3.94021942098E-02
1.75900000000E+09	-8.66678906381E-02	-2.03202757054E-01	3.06560787817E-02	5.73878955264E-02	3.01150884749E-02	5.74652207855E-02	1.86195361330E-01	-4.83799014908E-02
1.76000000000E+09	-9.21253917217E-02	-2.01892993489E-01	3.29624877262E-02	5.60886240804E-02	3.24763422703E-02	5.61986163286E-02	1.80542343441E-01	-5.70940906182E-02
1.76100000000E+09	-9.74486685334E-02	-2.00004053198E-01	3.51852692386E-02	5.46129488561E-02	3.47807091740E-02	5.47165176766E-02	1.74238251533E-01	-6.53433551127E-02
1.76200000000E+09	-1.02581362158E-01	-1.97704191999E-01	3.74423886028E-02	5.31124460531E-02	3.70173608805E-02	5.31693073283E-02	1.67484904675E-01	-7.31825754212E-02
1.76300000000E+09	-1.07436632025E-01	-1.94736696758E-01	3.96039515494E-02	5.14600721886E-02	3.90991193809E-02	5.16439794507E-02	1.60296526274E-01	-8.06554408505E-02
1.76400000000E+09	-1.11910804739E-01	-1.91235019138E-01	4.16524866782E-02	4.97392552900E-02	4.11972273208E-02	4.99253143499E-02	1.52569964086E-01	-8.76002115143E-02
1.76500000000E+09	-1.15934124251E-01	-1.87359609882E-01	4.36582370816E-02	4.80423121401E-02	4.31871002626E-02	4.81713034996E-02	1.44307676551E-01	-9.41156181272E-02
1.76600000000E+09	-1.19553427974E-01	-1.82986100850E-01	4.55277753792E-02	4.61566372933E-02	4.51179033799E-02	4.63254953300E-02	1.35755740447E-01	-9.99773091633E-02
1.76700000000E+09	-1.22574137971E-01	-1.78161092545E-01	4.74245827557E-02	4.41695158950E-02	4.69213711154E-02	4.44521560006E-02	1.26718685115E-01	-1.05374154621E-01
1.76800000000E+09	-1.25054895690E-01	-1.73207733701E-01	4.91642964267E-02	4.21988591488E-02	4.88037121953E-02	4.25157454780E-02	1.17403766718E-01	-1.10045284793E-01
1.76900000000E+09	-1.26859953263E-01	-1.67813459625E-01	5.09034665205E-02	4.01506604925E-02	5.05080543259E-02	4.04624526758E-02	1.07808261157E-01	-1.14171609523E-01
1.77000000000E+09	-1.28045345514E-01	-1.62244297040E-01	5.25058464081E-02	3.80212753399E-02	5.20676944872E-02	3.83194838080E-02	9.79279120015E-02	-1.17775796768E-01
1.77100000000E+09	-1.28563601129E-01	-1.56818532783E-01	5.39573331575E-02	3.59059192801E-02	5.36800651270E-02	3.61408187108E-02	8.77697882866E-02	-1.20614630742E-01
1.77200000000E+09	-1.28256910394E-01	-1.51181340102E-01	5.54758160493E-02	3.36289355354E-02	5.51238687298E-02	3.39292210342E-02	7.76138037537E-02	-1.22780481270E-01
1.77300000000E+09	-1.27359367061E-01	-1.45697181285E-01	5.69119059856E-02	3.12797584535E-02	5.65589873850E-02	3.16157046864E-02	6.71632207587E-02	-1.24349075768E-01
1.77400000000E+09	-1.25635344358E-01	-1.40344430888E-01	5.81619743651E-02	2.89427466965E-02	5.77955496007E-02	2.92489121025E-02	5.66109287040E-02	-1.25203368009E-01
1.77500000000E+09	-1.23306926752E-01	-1.35319087244E-01	5.93627509546E-02	2.65687485503E-02	5.90187675908E-02	2.68543941667E-02	4.61737384441E-02	-1.25356622508E-01
1.77600000000E+09	-1.20322911178E-01	-1.30672594878E-01	6.05153727578E-02	2.40084207096E-02	6.01860379412E-02	2.44214654961E-02	3.55777102153E-02	-1.24857860448E-01
1.77700000000E+09	-1.16796959749E-01	-1.26521637004E-01	6.15097036962E-02	2.14492601974E-02	6.11367217923E-02	2.18750746623E-02	2.50880477641E-02	-1.23594529743E-01
1.77800000000E+09	-1.12711441084E-01	-1.22774873941E-01	6.23625556826E-02	1.88600143569E-02	6.20980205319E-02	1.93281200461E-02	1.47307350376E-02	-1.21774150300E-01
1.77900000000E+09	-1.08135597801E-01	-1.19740879110E-01	6.31904719950E-02	1.63476324835E-02	6.29710724270E-02	1.67396445067E-02	4.53538022179E-03	-1.19143388409E-01
1.78000000000E+09	-1.03333521872E-01	-1.17272905028E-01	6.38778800580E-02	1.36572511851E-02	6.36130307800E-02	1.40747088884E-02	-5.56889106073E-03	-1.15868594957E-01
1.78100000000E+09	-9.81943534644E-02	-1.15542445099E-01	6.44517386121E-02	1.09166025877E-02	6.41946539202E-02	1.13270163338E-02	-1.53810797567E-02	-1.12117926691E-01
1.78200000000E+09	-9.28907781884E-02	-1.14498739562E-01	6.48878973898E-02	8.09517628167E-03	6.46741735288E-02	8.59217536160E-03	-2.48819034535E-02	-1.07604804330E-01
1.78300000000E+09	-8.75879905049E-02	-1.14130091652E-01	6.51585932945E-02	5.41947540099E-03	6.49096816754E-02	5.80786510857E-03	-3.41543057173E-02	-1.02453044117E-01
1.78400000000E+09	-8.22496574107E-02	-1.14543231698E-01	6.54041804809E-02	2.59881221138E-03	6.52554602403E-02	3.05723113238E-03	-4.30732372151E-02	-9.68226617629E-02
1.78500000000E+09	-7.70610739891E-02	-1.15603444271E-01	6.55141873451E-02	-2.14562014802E-04	6.54278251899E-02	2.77260852897E-04	-5.15535887396E-02	-9.05117721657E-02
1.78600000000E+09	-7.21199249138E-02	-1.17233653998E-01	6.54515935683E-02	-3.00474516235E-03	6.53123866677E-02	-2.53565361919E-03	-5.96547999810E-02	-8.37712536485E-02
1.78700000000E+09	-6.74215744850E-02	-1.19532612626E-01	6.51876483740E-02	-5.87571292345E-03	6.51236971400E-02	-5.30896651270E-03	-6.72259707247E-02	-7.63557974249E-02
1.78800000000E+09	-6.31473267460E-02	-1.22391831705E-01	6.49820789463E-02	-8.61108794519E-03	6.48960921560E-02	-8.15049487671E-03	-7.42782039267E-02	-6.85407116429E-02
1.78900000000E+09	-5.91906888234E-02	-1.25710562663E-01	6.45070660501E-02	-1.14222688608E-02	6.44201068644E-02	-1.09282091337E-02	-8.09520393267E-02	-6.02867277864E-02
1.79000000000E+09	-5.56666908777E-02	-1.29543831240E-01	6.39359814209E-02	-1.42323467631E-02	6.39583767581E-02	-1.36895763052E-02	-8.70513091299E-02	-5.16853072189E-02
1.79100000000E+09	-5.26878601646E-02	-1.33601268808E-01	6.32335741143E-02	-1.68518289745E-02	6.32400679924E-02	-1.63981579142E-02	-9.24702830548E-02	-4.26409010823E-02
1.79200000000E+09	-5.01807494174E-02	-1.37969740290E-01	6.23780056181E-02	-1.96457755287E-02	6.24644709553E-02	-1.90571999014E-02	-9.72805393704E-02	-3.33856006223E-02
1.79300000000E+09	-4.82006495429E-02	-1.42611591348E-01	6.15516255112E-02	-2.22152393064E-02	6.15680507785E-02	-2.17988627299E-02	-1.01439461438E-01	-2.37274926706E-02
1.79400000000E+09	-4.67007552304E-02	-1.47343203797E-01	6.04996603930E-02	-2.48149219836E-02	6.05527961608E-02	-2.43320099784E-02	-1.05135150766E-01	-1.39844718706E-02
1.79500000000E+09	-4.58104337009E-02	-1.52236831418E-01	5.92938293907E-02	-2.73538628182E-02	5.93759770301E-02	-2.68498528270E-02	-1.08009861152E-01	-3.85908303103E-03
1.79600000000E+09	-4.54001950398E-02	-1.57129605433E-01	5.80583871128E-02	-2.98070670201E-02	5.80989738648E-02	-2.92962789840E-02	-1.10264321849E-01	6.40349678714E-03
1.79700000000E+09	-4.54418798172E-02	-1.61995643942E-01	5.66909230394E-02	-3.22338992547E-02	5.67639385903E-02	-3.17704917799E-02	-1.11933678620E-01	1.67210811542E-02
1.79800000000E+09	-4.60600306017E-02	-1.66888004463E-01	5.51944922719E-02	-3.46133785929E-02	5.53427569508E-02	-3.41388979353E-02	-1.12782114583E-01	2.71383799856E-02
1.79900000000E+09	-4.70494307201E-02	-1.71583932004E-01	5.36158032191E-02	-3.68492145258E-02	5.38058149005E-02	-3.63785394232E-02	-1.13031421161E-01	3.75964307011E-02
1.80000000000E+09	-4.85257291390E-02	-1.76211543380E-01	5.20084872722E-02	-3.90417133924E-02	5.21461267843E-02	-3.85412689553E-02	-1.12625675220E-01	4.79018298148E-02
1.80100000000E+09	-5.03647948718E-02	-1.80604429160E-01	5.02015907658E-02	-4.12161213475E-02	5.04421673033E-02	-4.07559148598E-02	-1.11483694223E-01	5.82663546032E-02
1.80200000000E+09	-5.25538356981E-02	-1.84821109402E-01	4.84071249412E-02	-4.32038917846E-02	4.86947372413E-02	-4.27385145680E-02	-1.09799086650E-01	6.85939938854E-02
1.80300000000E+09	-5.51281992258E-02	-1.88760219642E-01	4.64944546322E-02	-4.51711272625E-02	4.67954032525E-02	-4.46951031897E-02	-1.07364278727E-01	7.86421127344E-02
1.80400000000E+09	-5.80170407670E-02	-1.92553620710E-01	4.45622812564E-02	-4.70051110775E-02	4.48200138636E-02	-4.65477816907E-02	-1.04225749476E-01	8.84966372752E-02
1.80500000000E+09	-6.11439446314E-02	-1.95975541479E-01	4.24998295470E-02	-4.88117968134E-02	4.27749637207E-02	-4.84113800932E-02	-1.00599879528E-01	9.80891755855E-02
1.80600000000E+09	-6.44851997810E-02	-1.99271837867E-01	4.04811962539E-02	-5.05489209399E-02	4.06859311423E-02	-5.00561895074E-02	-9.63333117024E-02	1.07494636486E-01
1.80700000000E+09	-6.81818906387E-02	-2.02146159182E-01	3.82456518469E-02	-5.21294223754E-02	3.85079675583E-02	-5.16933586181E-02	-9.14805902166E-02	1.16496397952E-01
1.80800000000E+09	-7.19936117333E-02	-2.04809381315E-01	3.60450737866E-02	-5.36317391799E-02	3.63034086729E-02	-5.32311090812E-02	-8.59793611810E-02	1.25306589180E-01
1.80900000000E+09	-7.59325230524E-02	-2.07084786541E-01	3.36923301680E-02	-5.49707078587E-02	3.40707014701E-02	-5.47105812873E-02	-8.00115044582E-02	1.33483634819E-01
1.81000000000E+09	-8.01714421581E-02	-2.09203049428E-01	3.14263283405E-02	-5.64494308904E-02	3.17485706239E-02	-5.60188748870E-02	-7.36220882982E-02	1.41438200137E-01
1.81100000000E+09	-8.44536423648E-02	-2.11019575978E-01	2.89553876517E-02	-5.76028726880E-02	2.93979050035E-02	-5.72333932654E-02	-6.66486558654E-02	1.48925572980E-01
1.81200000000E+09	-8.89079560684E-02	-2.12342671153E-01	2.65067882179E-02	-5.87087203780E-02	2.68967738666E-02	-5.83830247953E-02	-5.91778278813E-02	1.55837198180E-01
1.81300000000E+09	-9.34104361718E-02	-2.13618800343E-01	2.40691980675E-02	-5.98061892518E-02	2.44486440927E-02	-5.94436766279E-02	-5.13644968431E-02	1.62299367582E-01
1.81400000000E+09	-9.78903936918E-02	-2.14462975940E-01	2.14999324155E-02	-6.07159104439E-02	2.19670064838E-02	-6.04618318874E-02	-4.33220881650E-02	1.68333406548E-01
1.81500000000E+09	-1.02656204576E-01	-2.15017969781E-01	1.89034484597E-02	-6.15420450951E-02	1.93491400975E-02	-6.13012942048E-02	-3.47713511486E-02	1.73776619447E-01
1.81600000000E+09	-1.07266340599E-01	-2.15327379007E-01	1.62994140436E-02	-6.23357714521E-02	1.68134998490E-02	-6.20221044594E-02	-2.58946744340E-02	1.78570355890E-01
1.81700000000E+09	-1.11988253908E-01	-2.15321544571E-01	1.37065435410E-02	-6.28696559965E-02	1.41855812804E-02	-6.26000354795E-02	-1.68686926162E-02	1.82925467609E-01
