# Hz S RI R 50
! CMT, CMT808U, 21440046, 21.4.3/4
! Date: 12/11/2025 11:10:28 AM
! Data: Format (Calibration Info)
! Freq	S11:Re/Im(F2)	S41:Re/Im(F2)	S14:Re/Im(F2)	S44:Re/Im(F2)
1.70000000000E+09	-2.00942559503E-01	-1.13723835023E-01	-6.12640615183E-02	-2.54436242028E-02	-6.08885940930E-02	-2.61514453507E-02	-1.08224695243E-01	6.89864595624E-02
1.70167224080E+09	-2.02524356525E-01	-1.05538239517E-01	-6.28996049975E-02	-2.11780194667E-02	-6.25905817971E-02	-2.19080758150E-02	-1.04347216571E-01	8.85231065939E-02
1.70334448161E+09	-2.02594793553E-01	-9.69712376784E-02	-6.42705935685E-02	-1.68116494218E-02	-6.40139621854E-02	-1.75479805187E-02	-9.83535376625E-02	1.07508975522E-01
1.70501672241E+09	-2.01143814322E-01	-8.82634101095E-02	-6.53618836294E-02	-1.23504031735E-02	-6.51621389545E-02	-1.30987024386E-02	-9.03342841997E-02	1.25661531793E-01
1.70668896321E+09	-1.98183247605E-01	-7.97255308620E-02	-6.61520375715E-02	-7.79433795685E-03	-6.60190464869E-02	-8.55893757707E-03	-8.04436347292E-02	1.42824860850E-01
1.70836120401E+09	-1.93791962670E-01	-7.15593589842E-02	-6.66472920369E-02	-3.17055020096E-03	-6.65621267879E-02	-3.93909703866E-03	-6.87764303975E-02	1.58736940096E-01
1.71003344482E+09	-1.88115293086E-01	-6.40680161980E-02	-6.68178136013E-02	1.47952140364E-03	-6.67798668761E-02	7.15915335883E-04	-5.55319346348E-02	1.73294802886E-01
1.71170568562E+09	-1.81260237849E-01	-5.73665550547E-02	-6.66730727461E-02	6.17560054493E-03	-6.66988512320E-02	5.41551977313E-03	-4.08408132953E-02	1.86320379287E-01
1.71337792642E+09	-1.73401737976E-01	-5.16592945532E-02	-6.61947650346E-02	1.08675603565E-02	-6.62707593962E-02	1.01205231576E-02	-2.49599175852E-02	1.97649802033E-01
1.71505016722E+09	-1.64731515584E-01	-4.70802415266E-02	-6.53694138052E-02	1.55410495109E-02	-6.54977359634E-02	1.47992246703E-02	-8.00334716742E-03	2.07220309877E-01
1.71672240803E+09	-1.55420358436E-01	-4.36968770366E-02	-6.42097537127E-02	2.01576878575E-02	-6.43961474317E-02	1.94395468633E-02	9.75581488037E-03	2.14913974793E-01
1.71839464883E+09	-1.45716484525E-01	-4.15999028719E-02	-6.27270369908E-02	2.47105029945E-02	-6.29550979271E-02	2.40006854882E-02	2.81305636833E-02	2.20706021339E-01
1.72006688963E+09	-1.35790091990E-01	-4.08094380884E-02	-6.08958529968E-02	2.91413706715E-02	-6.11752117680E-02	2.84595482695E-02	4.69400485426E-02	2.24561157205E-01
1.72173913043E+09	-1.25839663580E-01	-4.13251568046E-02	-5.87460061839E-02	3.34594196458E-02	-5.90627977976E-02	3.27963593862E-02	6.59271197559E-02	2.26383089130E-01
1.72341137124E+09	-1.16071210262E-01	-4.31222523869E-02	-5.62813486158E-02	3.76133019919E-02	-5.66515480287E-02	3.69659986218E-02	8.49083080255E-02	2.26294296045E-01
1.72508361204E+09	-1.06655465660E-01	-4.61296624167E-02	-5.34957361277E-02	4.15923109806E-02	-5.39163513022E-02	4.09607386926E-02	1.03672226214E-01	2.24224394381E-01
1.72675585284E+09	-9.77674071534E-02	-5.03018454974E-02	-5.04455752577E-02	4.53521724705E-02	-5.08848853990E-02	4.47624354976E-02	1.22027996509E-01	2.20270972146E-01
1.72842809365E+09	-8.95513970696E-02	-5.55140612267E-02	-4.71016587323E-02	4.88855206716E-02	-4.75895802223E-02	4.83244636202E-02	1.39801115970E-01	2.14466541418E-01
1.73010033445E+09	-8.21315497310E-02	-6.16831626850E-02	-4.35045147383E-02	5.21694859537E-02	-4.40319208323E-02	5.16521569508E-02	1.56793277500E-01	2.06919576051E-01
1.73177257525E+09	-7.56412354267E-02	-6.86534787039E-02	-3.96710388708E-02	5.51715318107E-02	-4.02240190344E-02	5.46966165515E-02	1.72842446826E-01	1.97679470191E-01
1.73344481605E+09	-7.01741455105E-02	-7.62837407991E-02	-3.56163063600E-02	5.78938161308E-02	-3.62153614110E-02	5.74590555677E-02	1.87775440255E-01	1.86924140462E-01
1.73511705686E+09	-6.57986139422E-02	-8.44322775310E-02	-3.13844664700E-02	6.03053956412E-02	-3.20094253496E-02	5.99054272260E-02	2.01442379401E-01	1.74725413319E-01
1.73678929766E+09	-6.25573874590E-02	-9.29591526982E-02	-2.69865424567E-02	6.23998762078E-02	-2.76275827155E-02	6.20408521621E-02	2.13749297695E-01	1.61224537865E-01
1.73846153846E+09	-6.05122186597E-02	-1.01666707250E-01	-2.24342878191E-02	6.41538721229E-02	-2.30953150845E-02	6.38485469951E-02	2.24529730052E-01	1.46597495550E-01
1.74013377926E+09	-5.96354584850E-02	-1.10439646413E-01	-1.77747793934E-02	6.55767139832E-02	-1.84633012542E-02	6.53069654637E-02	2.33690265666E-01	1.30992743159E-01
1.74180602007E+09	-5.99257903277E-02	-1.19106340125E-01	-1.30340477892E-02	6.66401830702E-02	-1.37371169591E-02	6.64082822446E-02	2.41136455800E-01	1.14544102132E-01
1.74347826087E+09	-6.13839101064E-02	-1.27501374462E-01	-8.23329184291E-03	6.73515740986E-02	-8.94497459291E-03	6.71613493856E-02	2.46813835397E-01	9.74611743249E-02
1.74515050167E+09	-6.39247982328E-02	-1.35505549949E-01	-3.42361040578E-03	6.76944610195E-02	-4.13388761587E-03	6.75687019667E-02	2.50676561181E-01	7.99270955282E-02
1.74682274247E+09	-6.75464502552E-02	-1.42994365507E-01	1.40787207290E-03	6.76998054245E-02	6.75733812649E-04	6.76048511939E-02	2.52635219890E-01	6.21284947126E-02
1.74849498328E+09	-7.21492069823E-02	-1.49801748856E-01	6.19327664725E-03	6.73404788888E-02	5.46439463526E-03	6.73067606484E-02	2.52702341371E-01	4.42488694796E-02
1.75016722408E+09	-7.76586910696E-02	-1.55790242697E-01	1.09255051788E-02	6.66429787685E-02	1.01972973653E-02	6.66530873616E-02	2.50851711918E-01	2.64637760333E-02
1.75183946488E+09	-8.39573336716E-02	-1.60849786023E-01	1.55615430544E-02	6.56023783742E-02	1.48375232969E-02	6.56654933523E-02	2.47142898230E-01	9.00043235729E-03
1.75351170569E+09	-9.09469762223E-02	-1.64872140929E-01	2.01147366195E-02	6.42521148011E-02	1.93723589509E-02	6.43466823132E-02	2.41543673679E-01	-7.97981783706E-03
1.75518394649E+09	-9.84624048401E-02	-1.67710157284E-01	2.45117157538E-02	6.25785522482E-02	2.37894291085E-02	6.27340000612E-02	2.34164969763E-01	-2.42626715580E-02
1.75685618729E+09	-1.06374710620E-01	-1.69324982068E-01	2.87457254174E-02	6.06282037872E-02	2.80394844108E-02	6.08189666216E-02	2.25042941592E-01	-3.96355755667E-02
1.75852842809E+09	-1.14465400897E-01	-1.69601324841E-01	3.28248162802E-02	5.83950592456E-02	3.21227472439E-02	5.86298148486E-02	2.14299109581E-01	-5.39546247155E-02
1.76020066890E+09	-1.22570778899E-01	-1.68501820234E-01	3.67093067299E-02	5.59109411528E-02	3.60129936498E-02	5.61988149304E-02	2.02034476501E-01	-6.70111310643E-02
1.76187290970E+09	-1.30435975759E-01	-1.66006853060E-01	4.03899337368E-02	5.31977680374E-02	3.97182112090E-02	5.35276752005E-02	1.88365326757E-01	-7.86899139689E-02
1.76354515050E+09	-1.37856500903E-01	-1.62130861350E-01	4.38693622312E-02	5.02669685317E-02	4.32196241192E-02	5.06436253169E-02	1.73502931504E-01	-8.87894329310E-02
1.76521739130E+09	-1.44547471035E-01	-1.56933075650E-01	4.71365740414E-02	4.71480041259E-02	4.64991763975E-02	4.75745793033E-02	1.57573056408E-01	-9.72017803452E-02
1.76688963211E+09	-1.50294193906E-01	-1.50525479834E-01	5.01947413483E-02	4.38560922136E-02	4.95752394241E-02	4.43206814368E-02	1.40783932899E-01	-1.03793008398E-01
1.76856187291E+09	-1.54861466538E-01	-1.43069112576E-01	5.30498244014E-02	4.03989599805E-02	5.24570707121E-02	4.09032726375E-02	1.23316231243E-01	-1.08489824334E-01
1.77023411371E+09	-1.58065369204E-01	-1.34802588876E-01	5.56931020578E-02	3.67847201980E-02	5.51289211265E-02	3.73303820203E-02	1.05410979367E-01	-1.11222038232E-01
1.77190635452E+09	-1.59715448933E-01	-1.25956554502E-01	5.81277485593E-02	3.30098638579E-02	5.75968760814E-02	3.36123452810E-02	8.72973890820E-02	-1.11927933380E-01
1.77357859532E+09	-1.59738758719E-01	-1.16841187241E-01	6.03666760384E-02	2.90992047410E-02	5.98653640018E-02	2.97302785006E-02	6.91789135630E-02	-1.10589015541E-01
1.77525083612E+09	-1.58078966535E-01	-1.07762840273E-01	6.23817904544E-02	2.50208178320E-02	6.19245282720E-02	2.56885898717E-02	5.13460223629E-02	-1.07211941666E-01
1.77692307692E+09	-1.54737073936E-01	-9.90680438607E-02	6.41618283566E-02	2.07818925807E-02	6.37521770895E-02	2.14947851771E-02	3.39882624214E-02	-1.01857244961E-01
1.77859531773E+09	-1.49844081236E-01	-9.10849209245E-02	6.57059981661E-02	1.63733131488E-02	6.53333620843E-02	1.71273563820E-02	1.73274392446E-02	-9.45753186418E-02
1.78026755853E+09	-1.43540851845E-01	-8.40951278229E-02	6.69746598750E-02	1.18055487543E-02	6.66534469381E-02	1.25989544951E-02	1.62439356303E-03	-8.54552593567E-02
1.78193979933E+09	-1.36059781661E-01	-7.83556053319E-02	6.79314044276E-02	7.09947661881E-03	6.76821128072E-02	7.91687061962E-03	-1.29532375434E-02	-7.46463606215E-02
1.78361204013E+09	-1.27666892516E-01	-7.40911518477E-02	6.85699746061E-02	2.25249901334E-03	6.83686042810E-02	3.09466664916E-03	-2.61956264491E-02	-6.22721519606E-02
1.78528428094E+09	-1.18692532938E-01	-7.14079342508E-02	6.88349166114E-02	-2.70351208198E-03	6.87045874505E-02	-1.82344580450E-03	-3.79454944479E-02	-4.84804529918E-02
1.78695652174E+09	-1.09427814322E-01	-7.03943203424E-02	6.87232912446E-02	-7.73854531265E-03	6.86567370153E-02	-6.83879082358E-03	-4.80459797557E-02	-3.34805100321E-02
1.78862876254E+09	-1.00230942469E-01	-7.10392370743E-02	6.81958336944E-02	-1.27848219797E-02	6.82166999059E-02	-1.18841972097E-02	-5.63857192413E-02	-1.74707022520E-02
1.79030100334E+09	-9.13960677222E-02	-7.32994700740E-02	6.72570837083E-02	-1.78310306736E-02	6.73451612458E-02	-1.69287758470E-02	-6.28374841692E-02	-6.61958591371E-04
1.79197324415E+09	-8.31930146153E-02	-7.69953142129E-02	6.58920614253E-02	-2.28226156426E-02	6.60509030993E-02	-2.19197596447E-02	-6.73473381168E-02	1.67520587241E-02
1.79364548495E+09	-7.58617174955E-02	-8.20060923287E-02	6.41113626826E-02	-2.77046236506E-02	6.43520729907E-02	-2.68211743302E-02	-6.98574696331E-02	3.45104129547E-02
1.79531772575E+09	-6.95820824674E-02	-8.81029524484E-02	6.19274511040E-02	-3.24331572936E-02	6.22384984246E-02	-3.15759472438E-02	-7.03481384478E-02	5.23973358830E-02
1.79698996656E+09	-6.45165903971E-02	-9.50574823968E-02	5.93420045965E-02	-3.69827746551E-02	5.97423107833E-02	-3.61361922973E-02	-6.88249650343E-02	7.01867755023E-02
1.79866220736E+09	-6.07370559156E-02	-1.02658760327E-01	5.63918016337E-02	-4.12779230974E-02	5.68639639367E-02	-4.04854829070E-02	-6.53170874569E-02	8.76333620586E-02
1.80033444816E+09	-5.83109508888E-02	-1.10657935901E-01	5.31148722372E-02	-4.53215262353E-02	5.36375203828E-02	-4.45762352489E-02	-5.98771618101E-02	1.04552600409E-01
1.80200668896E+09	-5.72336580724E-02	-1.18844061538E-01	4.95254741327E-02	-4.90693314235E-02	5.01213201694E-02	-4.83751488816E-02	-5.26166532307E-02	1.20705624736E-01
1.80367892977E+09	-5.74890843806E-02	-1.26974229377E-01	4.56709203517E-02	-5.25022954172E-02	4.63118310294E-02	-5.18523074009E-02	-4.36086903844E-02	1.35897043766E-01
1.80535117057E+09	-5.89798620185E-02	-1.34893526167E-01	4.15730520426E-02	-5.56021925213E-02	4.22592976266E-02	-5.50063257232E-02	-3.29887750229E-02	1.49965106032E-01
1.80702341137E+09	-6.16731763313E-02	-1.42403367005E-01	3.72722532272E-02	-5.83198289310E-02	3.79880518230E-02	-5.78096430830E-02	-2.08999481391E-02	1.62731874909E-01
1.80869565217E+09	-6.54556331305E-02	-1.49342099134E-01	3.27902801925E-02	-6.06927856980E-02	3.35539515829E-02	-6.02495650458E-02	-7.52862541406E-03	1.74048183641E-01
1.81036789298E+09	-7.02141322894E-02	-1.55615602553E-01	2.81917096602E-02	-6.26858426397E-02	2.89783973712E-02	-6.23176617842E-02	6.99802239235E-03	1.83835906527E-01
1.81204013378E+09	-7.58245644619E-02	-1.61085810497E-01	2.34901841716E-02	-6.43196358129E-02	2.42999021152E-02	-6.40126633723E-02	2.24733593660E-02	1.91942406458E-01
1.81371237458E+09	-8.21789928581E-02	-1.65650410307E-01	1.87341479433E-02	-6.55764810958E-02	1.95428486270E-02	-6.53296848583E-02	3.87033110420E-02	1.98299207182E-01
1.81538461538E+09	-8.90819972285E-02	-1.69241443811E-01	1.39396825999E-02	-6.64601548912E-02	1.47611983755E-02	-6.62890204742E-02	5.54960606038E-02	2.02877156257E-01
1.81705685619E+09	-9.64305996894E-02	-1.71818555389E-01	9.14264976623E-03	-6.69904071647E-02	9.96507821849E-03	-6.68767229196E-02	7.26550066670E-02	2.05612002421E-01
1.81872909699E+09	-1.04076176116E-01	-1.73327318351E-01	4.37615486217E-03	-6.71638291084E-02	5.18595700509E-03	-6.71098407515E-02	8.99684537998E-02	2.06493266834E-01
1.82040133779E+09	-1.11849761254E-01	-1.73782731851E-01	-3.42022430160E-04	-6.69976645289E-02	4.56936069534E-04	-6.70005383494E-02	1.07287839929E-01	2.05539924055E-01
1.82207357860E+09	-1.19669065842E-01	-1.73156145460E-01	-4.97949645314E-03	-6.64901151194E-02	-4.19212256539E-03	-6.65573228070E-02	1.24368216883E-01	2.02766675998E-01
1.82374581940E+09	-1.27331478279E-01	-1.71487271065E-01	-9.52901418911E-03	-6.56892643969E-02	-8.75760898602E-03	-6.57993100526E-02	1.41045437039E-01	1.98240935108E-01
1.82541806020E+09	-1.34749474404E-01	-1.68799399066E-01	-1.39518825302E-02	-6.45804222513E-02	-1.32075581974E-02	-6.47423447112E-02	1.57162624074E-01	1.92005607146E-01
1.82709030100E+09	-1.41797214134E-01	-1.65102547446E-01	-1.82449205944E-02	-6.31939980738E-02	-1.75127722456E-02	-6.34030503826E-02	1.72515317626E-01	1.84101253340E-01
1.82876254181E+09	-1.48349647656E-01	-1.60482080605E-01	-2.23746304199E-02	-6.15512059355E-02	-2.16767873584E-02	-6.17926090148E-02	1.86970560767E-01	1.74704291874E-01
1.83043478261E+09	-1.54269242311E-01	-1.54978231656E-01	-2.63502622150E-02	-5.96539385153E-02	-2.56727022218E-02	-5.99412690033E-02	2.00376115072E-01	1.63890455560E-01
1.83210702341E+09	-1.59440372680E-01	-1.48682824924E-01	-3.01587743599E-02	-5.75429007821E-02	-2.95130252558E-02	-5.78662511346E-02	2.12607710165E-01	1.51757974030E-01
1.83377926421E+09	-1.63790677297E-01	-1.41679124943E-01	-3.37766841441E-02	-5.52169733359E-02	-3.31598186675E-02	-5.55800144992E-02	2.23503484189E-01	1.38472512798E-01
1.83545150502E+09	-1.67153972024E-01	-1.34082008249E-01	-3.72193840144E-02	-5.27089054116E-02	-3.66317168220E-02	-5.31065330728E-02	2.33017809401E-01	1.24150032139E-01
1.83712374582E+09	-1.69486470367E-01	-1.25970660849E-01	-4.04720590993E-02	-5.00281934784E-02	-3.99023296620E-02	-5.04523423519E-02	2.41004149314E-01	1.08950055904E-01
1.83879598662E+09	-1.70680138257E-01	-1.17536298903E-01	-4.35340704277E-02	-4.71966393060E-02	-4.30050632259E-02	-4.76390023672E-02	2.47410746853E-01	9.30477782483E-02
1.84046822742E+09	-1.70657865882E-01	-1.08914696479E-01	-4.64231751715E-02	-4.42154709047E-02	-4.59176760179E-02	-4.46819432334E-02	2.52194585216E-01	7.65830546437E-02
1.84214046823E+09	-1.69354852567E-01	-1.00321046086E-01	-4.91272477777E-02	-4.10949707837E-02	-4.86498023858E-02	-4.15962084348E-02	2.55257694142E-01	5.97599973527E-02
1.84381270903E+09	-1.66755197161E-01	-9.19272855216E-02	-5.16466249546E-02	-3.78513182986E-02	-5.12001130851E-02	-3.83794986957E-02	2.56619936387E-01	4.27351581536E-02
1.84548494983E+09	-1.62911958584E-01	-8.39602012137E-02	-5.40068510430E-02	-3.44840100314E-02	-5.35810147667E-02	-3.50371434405E-02	2.56242002894E-01	2.56952479476E-02
1.84715719064E+09	-1.57810692184E-01	-7.66241975226E-02	-5.61967598713E-02	-3.09882990523E-02	-5.58091844345E-02	-3.15687228280E-02	2.54142375323E-01	8.81723947287E-03
1.84882943144E+09	-1.51574971094E-01	-7.01513876690E-02	-5.82162744350E-02	-2.73592817085E-02	-5.78551053623E-02	-2.79753190466E-02	2.50354494926E-01	-7.74055348602E-03
1.85050167224E+09	-1.44355251565E-01	-6.47797218400E-02	-6.00534959034E-02	-2.36085862830E-02	-5.97150011506E-02	-2.42435979253E-02	2.44900589559E-01	-2.37827524217E-02
1.85217391304E+09	-1.36312718317E-01	-6.06910104579E-02	-6.17047298901E-02	-1.96966949522E-02	-6.14153640680E-02	-2.03684291861E-02	2.37864567719E-01	-3.91843586876E-02
1.85384615385E+09	-1.27711647318E-01	-5.80352476119E-02	-6.31775762610E-02	-1.56574017186E-02	-6.29109690381E-02	-1.63447351349E-02	2.29324302304E-01	-5.37141999394E-02
1.85551839465E+09	-1.18807656711E-01	-5.69262795712E-02	-6.44046402854E-02	-1.14519345430E-02	-6.41858795935E-02	-1.21640712776E-02	2.19315299952E-01	-6.72781897894E-02
1.85719063545E+09	-1.09943923500E-01	-5.74268341751E-02	-6.53921371816E-02	-7.10080435071E-03	-6.52118789872E-02	-7.82790548485E-03	2.08005708887E-01	-7.97012445743E-02
1.85886287625E+09	-1.01381320592E-01	-5.94977928382E-02	-6.60976206108E-02	-2.59776186316E-03	-6.59640324898E-02	-3.34780331953E-03	1.95466431376E-01	-9.08723539013E-02
1.86053511706E+09	-9.34575402775E-02	-6.30709981279E-02	-6.64834184589E-02	2.02630201578E-03	-6.64117898662E-02	1.25018586001E-03	1.81858513466E-01	-1.00645967513E-01
1.86220735786E+09	-8.64562857905E-02	-6.79956548445E-02	-6.65323948741E-02	6.76078788639E-03	-6.65025746589E-02	5.97165239536E-03	1.67315559250E-01	-1.08939496568E-01
1.86387959866E+09	-8.06133201964E-02	-7.40418206621E-02	-6.62151397177E-02	1.15569280331E-02	-6.62437756373E-02	1.07567223340E-02	1.52018037433E-01	-1.15634857276E-01
1.86555183946E+09	-7.61351790642E-02	-8.09511298158E-02	-6.54999861802E-02	1.63766418970E-02	-6.55891171417E-02	1.55675001896E-02	1.36097104813E-01	-1.20672961557E-01
1.86722408027E+09	-7.31448915261E-02	-8.84405169813E-02	-6.44002605565E-02	2.11908064990E-02	-6.45423368812E-02	2.03772256480E-02	1.19743070137E-01	-1.23940303907E-01
1.86889632107E+09	-7.16940386585E-02	-9.61926070619E-02	-6.28803801940E-02	2.59272067968E-02	-6.30917332421E-02	2.51284246124E-02	1.03141302387E-01	-1.25453122239E-01
1.87056856187E+09	-7.17997276591E-02	-1.03903007824E-01	-6.09725480958E-02	3.05654352534E-02	-6.12568456299E-02	2.97706075419E-02	8.64860209085E-02	-1.25149441297E-01
1.87224080268E+09	-7.33630442164E-02	-1.11278371831E-01	-5.86773951501E-02	3.50491694817E-02	-5.90237956070E-02	3.42764459330E-02	6.99875583004E-02	-1.23018407766E-01
1.87391304348E+09	-7.62615813720E-02	-1.18090195593E-01	-5.60133816772E-02	3.93440440087E-02	-5.64202731810E-02	3.85948298151E-02	5.38103814757E-02	-1.19104104482E-01
1.87558528428E+09	-8.03674499790E-02	-1.24085644429E-01	-5.30057839852E-02	4.34165088003E-02	-5.34670559413E-02	4.26948648937E-02	3.81859156154E-02	-1.13438567331E-01
1.87725752508E+09	-8.54618010096E-02	-1.29104444466E-01	-4.96694247490E-02	4.72336836186E-02	-5.01919701154E-02	4.65438346299E-02	2.32991107582E-02	-1.06086398484E-01
1.87892976589E+09	-9.13484512795E-02	-1.33036466716E-01	-4.60452133239E-02	5.07572545771E-02	-4.66281941690E-02	5.01157802532E-02	9.32771693450E-03	-9.71245590701E-02
1.88060200669E+09	-9.77907597233E-02	-1.35745027048E-01	-4.21585509198E-02	5.39890159859E-02	-4.27856929457E-02	5.33771920780E-02	-3.55634034076E-03	-8.66791701270E-02
1.88227424749E+09	-1.04585420311E-01	-1.37254677385E-01	-3.80354427439E-02	5.68847880173E-02	-3.87091098340E-02	5.63185826978E-02	-1.51803260231E-02	-7.49102678500E-02
1.88394648829E+09	-1.11524746982E-01	-1.37518596615E-01	-3.37040958563E-02	5.94358886443E-02	-3.44371478800E-02	5.89221617429E-02	-2.53951144192E-02	-6.19267043052E-02
1.88561872910E+09	-1.18410822486E-01	-1.36563053093E-01	-2.92242554374E-02	6.16286231024E-02	-2.99873744109E-02	6.11770190247E-02	-3.40918761097E-02	-4.79220751817E-02
1.88729096990E+09	-1.25117701448E-01	-1.34459710345E-01	-2.45906249072E-02	6.34694910332E-02	-2.53906337462E-02	6.30690599215E-02	-4.11707461242E-02	-3.30823437314E-02
1.88896321070E+09	-1.31411735137E-01	-1.31236964900E-01	-1.98801492527E-02	6.49280575112E-02	-2.07061982172E-02	6.45918388634E-02	-4.65526632374E-02	-1.75894285911E-02
1.89063545151E+09	-1.37160722764E-01	-1.26999715239E-01	-1.50833006101E-02	6.60203719080E-02	-1.59299760947E-02	6.57405861535E-02	-5.01531195694E-02	-1.65755800337E-03
1.89230769231E+09	-1.42228141855E-01	-1.21858547723E-01	-1.02564511991E-02	6.67278818511E-02	-1.11249838752E-02	6.65202854839E-02	-5.19718543012E-02	1.45291215671E-02
1.89397993311E+09	-1.46530833330E-01	-1.15920897354E-01	-5.41478437575E-03	6.70668961788E-02	-6.29565558390E-03	6.69300620927E-02	-5.20097405732E-02	3.07298848292E-02
1.89565217391E+09	-1.49956650142E-01	-1.09339906844E-01	-6.18768675328E-04	6.70540907869E-02	-1.50313669814E-03	6.69832827761E-02	-5.02654746682E-02	4.67623120852E-02
