# Hz S RI R 50
! CMT, CMT808U, 21440046, 21.4.3/4
! Date: 12/13/2025 10:44:58 PM
! Data: Format (Calibration Info)
! Freq	S11:Re/Im(F2)	S41:Re/Im(F2)	S14:Re/Im(F2)	S44:Re/Im(F2)
1.70000000000E+09	-8.51359187608E-02	-1.26749830632E-01	-5.67495289268E-02	-3.99929011204E-02	-5.64919498319E-02	-3.99815457870E-02	-2.58471382495E-02	7.63653204787E-02
1.70100000000E+09	-8.67663850073E-02	-1.21741979860E-01	-5.84199662299E-02	-3.75324546017E-02	-5.82360240869E-02	-3.75380244337E-02	-2.37250143953E-02	8.40265714590E-02
1.70200000000E+09	-8.78034526361E-02	-1.16465890469E-01	-6.00819203851E-02	-3.50751552443E-02	-5.99086856911E-02	-3.50255686148E-02	-2.12492555353E-02	9.15074718990E-02
1.70300000000E+09	-8.84986089534E-02	-1.10994056399E-01	-6.15701403966E-02	-3.24446805595E-02	-6.14432314021E-02	-3.25739898539E-02	-1.81474060204E-02	9.87491664766E-02
1.70400000000E+09	-8.86507881598E-02	-1.05252582275E-01	-6.30647424025E-02	-2.97535984297E-02	-6.28381076270E-02	-2.98834231656E-02	-1.45981657971E-02	1.05777643051E-01
1.70500000000E+09	-8.81825816851E-02	-9.93966894438E-02	-6.43491249612E-02	-2.70926491511E-02	-6.41833530537E-02	-2.71450611609E-02	-1.05746190554E-02	1.12551220470E-01
1.70600000000E+09	-8.72135462732E-02	-9.35470489703E-02	-6.55274408779E-02	-2.43543092719E-02	-6.53350691086E-02	-2.43971085564E-02	-6.20942494116E-03	1.18985461523E-01
1.70700000000E+09	-8.57428578031E-02	-8.75960541972E-02	-6.66255687457E-02	-2.15074317253E-02	-6.64886027600E-02	-2.15429767887E-02	-1.32384083332E-03	1.25251134675E-01
1.70800000000E+09	-8.36961960740E-02	-8.17247573335E-02	-6.75386672624E-02	-1.86304989122E-02	-6.73859464837E-02	-1.86889584901E-02	3.82930638551E-03	1.31116189954E-01
1.70900000000E+09	-8.12035105258E-02	-7.58930210504E-02	-6.83240961600E-02	-1.55962368315E-02	-6.82259736204E-02	-1.57172947990E-02	9.38865298023E-03	1.36603378308E-01
1.71000000000E+09	-7.81508811036E-02	-7.02402603586E-02	-6.91498697699E-02	-1.26507150852E-02	-6.88899003206E-02	-1.27567867255E-02	1.52895955098E-02	1.41711117474E-01
1.71100000000E+09	-7.46515969847E-02	-6.48088798396E-02	-6.96713529543E-02	-9.62556426576E-03	-6.94739413302E-02	-9.75738848907E-03	2.14684449312E-02	1.46406284873E-01
1.71200000000E+09	-7.06673073190E-02	-5.95432261963E-02	-7.00844009795E-02	-6.55363625880E-03	-7.00258345282E-02	-6.73980802598E-03	2.79807693151E-02	1.50799291406E-01
1.71300000000E+09	-6.62220623058E-02	-5.46499774863E-02	-7.02914917664E-02	-3.61068992311E-03	-7.01978928321E-02	-3.62740788635E-03	3.46413847644E-02	1.54676262690E-01
1.71400000000E+09	-6.14932032263E-02	-5.00005394203E-02	-7.04847743628E-02	-3.85678593251E-04	-7.03785669643E-02	-6.20270729197E-04	4.14801648684E-02	1.58116998509E-01
1.71500000000E+09	-5.62494098234E-02	-4.56984096974E-02	-7.04962441366E-02	2.66002858656E-03	-7.03183525846E-02	2.54209974838E-03	4.87023771557E-02	1.61131449360E-01
1.71600000000E+09	-5.07769628637E-02	-4.17532566036E-02	-7.03370706603E-02	5.76216161319E-03	-7.01767408751E-02	5.59315379992E-03	5.59678432347E-02	1.63639598530E-01
1.71700000000E+09	-4.49294394813E-02	-3.82444117878E-02	-7.00721287364E-02	8.81898616215E-03	-6.98832137347E-02	8.70412880897E-03	6.34055619212E-02	1.65810884913E-01
1.71800000000E+09	-3.88767982734E-02	-3.50333729852E-02	-6.96004468671E-02	1.18597715764E-02	-6.94403239298E-02	1.17135995975E-02	7.07880974313E-02	1.67298333379E-01
1.71900000000E+09	-3.26953184923E-02	-3.23786360767E-02	-6.90445833815E-02	1.49058529994E-02	-6.88732940175E-02	1.47972401705E-02	7.84152824176E-02	1.68572984034E-01
1.72000000000E+09	-2.62369799427E-02	-3.01776478706E-02	-6.83449946434E-02	1.78696054467E-02	-6.81403159456E-02	1.77385913068E-02	8.59997603373E-02	1.69210414447E-01
1.72100000000E+09	-1.97110979600E-02	-2.82447886781E-02	-6.74062722417E-02	2.08954514761E-02	-6.73187486486E-02	2.07811153258E-02	9.37246642222E-02	1.69296672120E-01
1.72200000000E+09	-1.30445418452E-02	-2.69124592531E-02	-6.64765560346E-02	2.38582446566E-02	-6.63236214163E-02	2.35992777324E-02	1.01270954242E-01	1.69134652492E-01
1.72300000000E+09	-6.27583311703E-03	-2.59816077811E-02	-6.53594123465E-02	2.67116012547E-02	-6.52264546892E-02	2.65069561131E-02	1.08784898515E-01	1.68464280467E-01
1.72400000000E+09	3.89023520845E-04	-2.54798857612E-02	-6.41099304415E-02	2.95108476660E-02	-6.39761210658E-02	2.93066138403E-02	1.16276103640E-01	1.67243978898E-01
1.72500000000E+09	7.15940311261E-03	-2.55143543077E-02	-6.27238593715E-02	3.22318456738E-02	-6.26928695563E-02	3.20455220514E-02	1.23592082351E-01	1.65571542816E-01
1.72600000000E+09	1.38245404730E-02	-2.58820024141E-02	-6.12533312212E-02	3.49865744388E-02	-6.11303267639E-02	3.47316394227E-02	1.30721807085E-01	1.63420961090E-01
1.72700000000E+09	2.04967324768E-02	-2.66903414818E-02	-5.95982700337E-02	3.75766553631E-02	-5.95225565250E-02	3.73371243520E-02	1.37836290546E-01	1.60953666742E-01
1.72800000000E+09	2.69618893733E-02	-2.80071009508E-02	-5.78638715522E-02	4.01196837829E-02	-5.78091870889E-02	3.98918857909E-02	1.44614823318E-01	1.57984057812E-01
1.72900000000E+09	3.32682898411E-02	-2.96465378778E-02	-5.60367583196E-02	4.25540140248E-02	-5.60961525695E-02	4.23164105955E-02	1.51308716626E-01	1.54697186571E-01
1.73000000000E+09	3.94893688370E-02	-3.17711069025E-02	-5.41815365075E-02	4.49482112408E-02	-5.41211617708E-02	4.47305408553E-02	1.57640213027E-01	1.50973929664E-01
1.73100000000E+09	4.55405599792E-02	-3.42026067760E-02	-5.21219500444E-02	4.71414703355E-02	-5.20958720158E-02	4.68933215423E-02	1.63830660426E-01	1.46835634774E-01
1.73200000000E+09	5.13220625638E-02	-3.71036023973E-02	-4.99699955208E-02	4.92720532617E-02	-4.99278214377E-02	4.91179892185E-02	1.69647996772E-01	1.42387531929E-01
1.73300000000E+09	5.68499213093E-02	-4.01960900976E-02	-4.78256800716E-02	5.13901488859E-02	-4.77658629069E-02	5.11457701413E-02	1.75210963323E-01	1.37657610039E-01
1.73400000000E+09	6.21358964338E-02	-4.37773351386E-02	-4.54399741236E-02	5.33163762307E-02	-4.55415871134E-02	5.31789693365E-02	1.80427335346E-01	1.32560558544E-01
1.73500000000E+09	6.70851347901E-02	-4.76553360234E-02	-4.31259985482E-02	5.52306390709E-02	-4.31849184850E-02	5.49565707394E-02	1.85280769781E-01	1.27200168992E-01
1.73600000000E+09	7.17074706176E-02	-5.17200729738E-02	-4.07122504134E-02	5.69509851493E-02	-4.07730479100E-02	5.67218092636E-02	1.89694756960E-01	1.21428365631E-01
1.73700000000E+09	7.60365324364E-02	-5.61121451049E-02	-3.81854035319E-02	5.85697651757E-02	-3.82602225936E-02	5.83128745334E-02	1.93911265003E-01	1.15683103484E-01
1.73800000000E+09	7.99883045459E-02	-6.07771376956E-02	-3.55920189281E-02	6.00836236160E-02	-3.56716420274E-02	5.97915894508E-02	1.97574657140E-01	1.09602973491E-01
1.73900000000E+09	8.35868106240E-02	-6.56744976492E-02	-3.29582229730E-02	6.14525244606E-02	-3.31395281949E-02	6.12010808187E-02	2.01007964390E-01	1.03272090440E-01
1.74000000000E+09	8.67281311581E-02	-7.07647865373E-02	-3.03841277827E-02	6.26890304256E-02	-3.04254832033E-02	6.25878189891E-02	2.03915252495E-01	9.67563883619E-02
1.74100000000E+09	8.94685155087E-02	-7.59405356858E-02	-2.76439393569E-02	6.38619864969E-02	-2.77960097547E-02	6.36838837116E-02	2.06427784233E-01	9.02742204480E-02
1.74200000000E+09	9.18633786901E-02	-8.13297810711E-02	-2.49467064214E-02	6.49517322747E-02	-2.50405991739E-02	6.47572818100E-02	2.08482750920E-01	8.34607833697E-02
1.74300000000E+09	9.36615141029E-02	-8.67452308681E-02	-2.21314079251E-02	6.59449129949E-02	-2.21988225354E-02	6.56500319472E-02	2.10157588317E-01	7.66147879186E-02
1.74400000000E+09	9.50682007253E-02	-9.22272719621E-02	-1.93324861388E-02	6.67163175650E-02	-1.94697219287E-02	6.64571752944E-02	2.11401121190E-01	6.97900203485E-02
1.74500000000E+09	9.59759506205E-02	-9.77479957840E-02	-1.64986999168E-02	6.73057256615E-02	-1.65651773173E-02	6.71558037569E-02	2.12119074374E-01	6.28398799275E-02
1.74600000000E+09	9.64270693373E-02	-1.03225739791E-01	-1.36448396862E-02	6.78690561354E-02	-1.37898241949E-02	6.77310285157E-02	2.12416157948E-01	5.60557532819E-02
1.74700000000E+09	9.63981607692E-02	-1.08691684863E-01	-1.07896324407E-02	6.84063623127E-02	-1.09784785408E-02	6.82014808140E-02	2.12341650836E-01	4.90824885366E-02
1.74800000000E+09	9.59052104500E-02	-1.13939066586E-01	-7.99619245198E-03	6.86793974084E-02	-8.10467234079E-03	6.85494054378E-02	2.11800702650E-01	4.22668026253E-02
1.74900000000E+09	9.49402547003E-02	-1.19085632189E-01	-5.06903122377E-03	6.89753188515E-02	-5.20831189810E-03	6.87382161441E-02	2.10865854534E-01	3.56347910944E-02
1.75000000000E+09	9.34875537016E-02	-1.24062634155E-01	-2.30111907217E-03	6.90487085527E-02	-2.46532981542E-03	6.88506038436E-02	2.09437451987E-01	2.89955346125E-02
1.75100000000E+09	9.17525167908E-02	-1.28742275777E-01	6.32079589693E-04	6.90709598796E-02	4.23341454443E-04	6.88468730469E-02	2.07654852691E-01	2.24700554825E-02
1.75200000000E+09	8.94514017375E-02	-1.33223045202E-01	3.37092858118E-03	6.88606841404E-02	3.30822657443E-03	6.87593532281E-02	2.05355359276E-01	1.62168823147E-02
1.75300000000E+09	8.68464276918E-02	-1.37257471916E-01	6.25211452833E-03	6.87006976768E-02	6.12076200929E-03	6.85564153843E-02	2.02801799624E-01	9.99887593174E-03
1.75400000000E+09	8.37858009369E-02	-1.41023208119E-01	9.04229947559E-03	6.82828514180E-02	8.85701447885E-03	6.82141483906E-02	1.99684108255E-01	4.07134714657E-03
1.75500000000E+09	8.04873769271E-02	-1.44415434746E-01	1.18319241972E-02	6.78631568729E-02	1.16793035740E-02	6.78066284242E-02	1.96346278099E-01	-1.67159044425E-03
1.75600000000E+09	7.68211263509E-02	-1.47286119776E-01	1.46037059826E-02	6.72790522945E-02	1.44746572615E-02	6.71939859877E-02	1.92530206654E-01	-6.94460200581E-03
1.75700000000E+09	7.29489340605E-02	-1.49766936037E-01	1.73086422851E-02	6.67198148155E-02	1.71262233426E-02	6.65714979920E-02	1.88447158530E-01	-1.21704153507E-02
1.75800000000E+09	6.89169806320E-02	-1.51714870432E-01	2.00245398872E-02	6.59296174721E-02	1.98084206403E-02	6.58822503576E-02	1.84037384434E-01	-1.69062815055E-02
1.75900000000E+09	6.46270867318E-02	-1.53152485675E-01	2.27147211727E-02	6.50544853278E-02	2.24561780689E-02	6.49579756933E-02	1.79367928791E-01	-2.13591546352E-02
1.76000000000E+09	6.03054424850E-02	-1.54033161996E-01	2.53389934056E-02	6.41745233526E-02	2.51102783616E-02	6.40976609894E-02	1.74417533728E-01	-2.55154173297E-02
1.76100000000E+09	5.59258796419E-02	-1.54374877406E-01	2.78988123813E-02	6.31082842095E-02	2.77467325960E-02	6.30091828349E-02	1.69148033969E-01	-2.92682760659E-02
1.76200000000E+09	5.16088348157E-02	-1.54238901515E-01	3.05103703720E-02	6.20112099449E-02	3.03354200622E-02	6.18568609228E-02	1.63727307891E-01	-3.25980021235E-02
1.76300000000E+09	4.72983645692E-02	-1.53420712593E-01	3.30575892928E-02	6.07412402534E-02	3.28080801763E-02	6.07117681860E-02	1.58201300205E-01	-3.56192693755E-02
1.76400000000E+09	4.31757793313E-02	-1.52055568942E-01	3.55234166197E-02	5.93966504674E-02	3.53058364886E-02	5.93587437746E-02	1.52465070711E-01	-3.81529381132E-02
1.76500000000E+09	3.92733799447E-02	-1.50220422433E-01	3.79744346962E-02	5.80471352053E-02	3.77392584454E-02	5.79420571379E-02	1.46496868038E-01	-4.03649922691E-02
1.76600000000E+09	3.55527840807E-02	-1.47838871865E-01	4.03054600148E-02	5.65037888566E-02	4.01385329187E-02	5.64125507981E-02	1.40536363802E-01	-4.20354603428E-02
1.76700000000E+09	3.22016230765E-02	-1.44906272922E-01	4.27074612116E-02	5.48149304880E-02	4.24157480366E-02	5.48371761517E-02	1.34393060187E-01	-4.33626214105E-02
1.76800000000E+09	2.92258651042E-02	-1.41666412326E-01	4.49715021002E-02	5.31325316111E-02	4.48141631109E-02	5.31821379074E-02	1.28294307942E-01	-4.41429342293E-02
1.76900000000E+09	2.66950357928E-02	-1.37852167512E-01	4.72502029396E-02	5.13370929438E-02	4.70420132776E-02	5.13690409638E-02	1.22176217799E-01	-4.45615268908E-02
1.77000000000E+09	2.45542517053E-02	-1.33711784020E-01	4.94325054071E-02	4.94241762226E-02	4.91527348629E-02	4.94481586224E-02	1.16059926407E-01	-4.46190586950E-02
1.77100000000E+09	2.29817710961E-02	-1.29436395967E-01	5.14444748384E-02	4.75129221813E-02	5.13287691973E-02	4.74534324590E-02	1.09942130161E-01	-4.41430521120E-02
1.77200000000E+09	2.20230750043E-02	-1.24733267919E-01	5.35538215666E-02	4.53948973333E-02	5.33602594538E-02	4.53814965178E-02	1.04046344208E-01	-4.32503900276E-02
1.77300000000E+09	2.15500397705E-02	-1.19943197397E-01	5.56133910949E-02	4.31748872090E-02	5.53944394097E-02	4.31848897512E-02	9.81314585882E-02	-4.19792999578E-02
1.77400000000E+09	2.17607164727E-02	-1.14938733849E-01	5.74742579976E-02	4.09069340675E-02	5.72345823900E-02	4.08912738705E-02	9.23381653175E-02	-4.03185001271E-02
1.77500000000E+09	2.25617152676E-02	-1.09963526344E-01	5.92929474652E-02	3.85811706360E-02	5.90531669272E-02	3.85409970532E-02	8.68297293949E-02	-3.82113883082E-02
1.77600000000E+09	2.39829050432E-02	-1.05045071604E-01	6.10671454446E-02	3.60399370701E-02	6.08473128360E-02	3.61137870838E-02	8.13846001273E-02	-3.57624685155E-02
1.77700000000E+09	2.59615574068E-02	-1.00235047014E-01	6.27005350843E-02	3.34517808866E-02	6.24212731624E-02	3.35303798959E-02	7.62025547576E-02	-3.28508766170E-02
1.77800000000E+09	2.85664544343E-02	-9.54993846646E-02	6.41791823408E-02	3.07790239447E-02	6.39901669360E-02	3.09272387806E-02	7.12670819275E-02	-2.97585572392E-02
1.77900000000E+09	3.17626152378E-02	-9.10845450519E-02	6.56289608260E-02	2.81518033857E-02	6.54757579890E-02	2.82072159423E-02	6.66196968115E-02	-2.61982020719E-02
1.78000000000E+09	3.54408160906E-02	-8.69202808454E-02	6.69295307498E-02	2.53379335566E-02	6.67225610628E-02	2.54033374110E-02	6.21939019286E-02	-2.22987589361E-02
1.78100000000E+09	3.96310572053E-02	-8.31907037678E-02	6.81092301450E-02	2.24099737719E-02	6.78832314257E-02	2.24852431381E-02	5.81084391460E-02	-1.82908260729E-02
1.78200000000E+09	4.43102239271E-02	-7.98070599125E-02	6.91436177255E-02	1.93759774357E-02	6.89446109491E-02	1.95313341660E-02	5.44197775635E-02	-1.39053440301E-02
1.78300000000E+09	4.92911909498E-02	-7.68569440041E-02	6.99968545425E-02	1.64441022484E-02	6.97454008599E-02	1.64895758537E-02	5.09156674458E-02	-9.27042019239E-03
1.78400000000E+09	5.47130478632E-02	-7.45238303857E-02	7.07997113411E-02	1.33559678046E-02	7.06347839013E-02	1.34562747092E-02	4.78444263356E-02	-4.49531521094E-03
1.78500000000E+09	6.03778370660E-02	-7.26975642592E-02	7.14595167827E-02	1.02133955459E-02	7.13389419257E-02	1.03490009250E-02	4.51709099373E-02	5.43025473744E-04
1.78600000000E+09	6.62284991386E-02	-7.13648399003E-02	7.19090992017E-02	7.07090275937E-03	7.17292804752E-02	7.19485960466E-03	4.27713568006E-02	5.65187787605E-03
1.78700000000E+09	7.21870399667E-02	-7.06489032503E-02	7.21548869657E-02	3.81487138005E-03	7.20280920850E-02	4.03928147068E-03	4.08978043851E-02	1.10706192372E-02
1.78800000000E+09	7.82840869205E-02	-7.05290883010E-02	7.24223385129E-02	6.76640924752E-04	7.22661899827E-02	7.95199542762E-04	3.93977897984E-02	1.65074990817E-02
1.78900000000E+09	8.44007314842E-02	-7.09811409746E-02	7.23923392701E-02	-2.57720791604E-03	7.22048310618E-02	-2.41485735481E-03	3.81645952655E-02	2.20289009542E-02
1.79000000000E+09	9.05161258640E-02	-7.20741366979E-02	7.22172908303E-02	-5.83569798262E-03	7.21520475817E-02	-5.63367604425E-03	3.73545101210E-02	2.75350165477E-02
1.79100000000E+09	9.64209160554E-02	-7.36116891456E-02	7.19129231843E-02	-8.93859962896E-03	7.17999932320E-02	-8.81115736939E-03	3.70597195460E-02	3.31610160271E-02
1.79200000000E+09	1.02231427541E-01	-7.57180852547E-02	7.14036800584E-02	-1.22365411800E-02	7.13636723048E-02	-1.19540355365E-02	3.71421427758E-02	3.86302446440E-02
1.79300000000E+09	1.07837263383E-01	-7.83662373687E-02	7.08886888124E-02	-1.53038293084E-02	7.07535879640E-02	-1.52164298065E-02	3.76333935726E-02	4.41660011460E-02
1.79400000000E+09	1.13208068351E-01	-8.14342482989E-02	7.01354124590E-02	-1.84484207417E-02	7.00208156448E-02	-1.82652656180E-02	3.84115450214E-02	4.95475087415E-02
1.79500000000E+09	1.18247545146E-01	-8.49965013824E-02	6.91576755300E-02	-2.15209228355E-02	6.90667369552E-02	-2.13211026541E-02	3.97346486383E-02	5.49984286250E-02
1.79600000000E+09	1.22932668212E-01	-8.89543773731E-02	6.81436222587E-02	-2.45251530037E-02	6.79940111395E-02	-2.43009316109E-02	4.13427432395E-02	6.02318530064E-02
1.79700000000E+09	1.27274013141E-01	-9.32133365235E-02	6.69458894820E-02	-2.74886634655E-02	6.68062377734E-02	-2.73178726294E-02	4.33045800138E-02	6.53443570984E-02
1.79800000000E+09	1.31183720159E-01	-9.79135648711E-02	6.55701473713E-02	-3.04169389490E-02	6.55184634044E-02	-3.02284161782E-02	4.57117989488E-02	7.02956607053E-02
1.79900000000E+09	1.34731934351E-01	-1.02788203359E-01	6.40973003478E-02	-3.32063759788E-02	6.40598940010E-02	-3.30072045264E-02	4.84457002600E-02	7.51375000230E-02
1.80000000000E+09	1.37809698060E-01	-1.08008390619E-01	6.25570290009E-02	-3.59421548896E-02	6.24500042942E-02	-3.57096652133E-02	5.14343033096E-02	7.95613068983E-02
1.80100000000E+09	1.40463669262E-01	-1.13357669908E-01	6.07796573243E-02	-3.86597304106E-02	6.07713057298E-02	-3.84573496748E-02	5.48189388931E-02	8.39279960974E-02
1.80200000000E+09	1.42705887071E-01	-1.18854684067E-01	5.89899556506E-02	-4.11809498424E-02	5.90058538438E-02	-4.09546524293E-02	5.83926073699E-02	8.80801587584E-02
1.80300000000E+09	1.44435045409E-01	-1.24445653073E-01	5.70433433930E-02	-4.36621917180E-02	5.70584960179E-02	-4.34146818022E-02	6.23079722381E-02	9.18485720877E-02
1.80400000000E+09	1.45702219831E-01	-1.30170116406E-01	5.50488507640E-02	-4.59894648951E-02	5.50226201143E-02	-4.57473200346E-02	6.65839270538E-02	9.53191920190E-02
1.80500000000E+09	1.46591789677E-01	-1.35846562922E-01	5.29012767734E-02	-4.82845067772E-02	5.28756563361E-02	-4.80864486415E-02	7.09199202239E-02	9.84437858205E-02
1.80600000000E+09	1.47051627241E-01	-1.41598805791E-01	5.07699924538E-02	-5.04853354181E-02	5.06580424365E-02	-5.01674696668E-02	7.55473831530E-02	1.01340235212E-01
1.80700000000E+09	1.46940107975E-01	-1.47199440872E-01	4.84054336898E-02	-5.24943822452E-02	4.83512649195E-02	-5.22230810911E-02	8.03744552118E-02	1.03812543043E-01
1.80800000000E+09	1.46508208183E-01	-1.52857117058E-01	4.60563280119E-02	-5.44036337943E-02	4.59778038955E-02	-5.41577097624E-02	8.54428780978E-02	1.06132710274E-01
1.80900000000E+09	1.45683589584E-01	-1.58268932104E-01	4.35397313881E-02	-5.61499293774E-02	4.35958767827E-02	-5.60227655861E-02	9.05487012527E-02	1.07777882296E-01
1.81000000000E+09	1.44347878548E-01	-1.63662579385E-01	4.11209429215E-02	-5.79771968221E-02	4.10826975674E-02	-5.76684690252E-02	9.57015560300E-02	1.09294337640E-01
1.81100000000E+09	1.42782482134E-01	-1.68906430384E-01	3.84587343251E-02	-5.94678029852E-02	3.85808152814E-02	-5.92352130977E-02	1.01076374388E-01	1.10416241461E-01
1.81200000000E+09	1.40737525267E-01	-1.73851956122E-01	3.58472179808E-02	-6.09209282294E-02	3.58842224554E-02	-6.06911185421E-02	1.06550024694E-01	1.11020957290E-01
1.81300000000E+09	1.38436803372E-01	-1.78708541431E-01	3.32422273946E-02	-6.23067493107E-02	3.32630887908E-02	-6.20288318390E-02	1.11932544519E-01	1.11287274858E-01
1.81400000000E+09	1.35840951283E-01	-1.83261432429E-01	3.04951905367E-02	-6.35223215459E-02	3.05976975072E-02	-6.33163337094E-02	1.17276946652E-01	1.11364599264E-01
1.81500000000E+09	1.32785763741E-01	-1.87624050063E-01	2.77220662673E-02	-6.46282998427E-02	2.78188077556E-02	-6.44361868152E-02	1.22774542316E-01	1.10915290098E-01
1.81600000000E+09	1.29595453317E-01	-1.91675192552E-01	2.49514716898E-02	-6.56945542207E-02	2.51033763596E-02	-6.54023618126E-02	1.28220372264E-01	1.10034014085E-01
1.81700000000E+09	1.26136783056E-01	-1.95508581079E-01	2.22122388447E-02	-6.65013293390E-02	2.23161374031E-02	-6.62405566855E-02	1.33486201541E-01	1.08941599668E-01
1.81800000000E+09	1.22326204502E-01	-1.98957089749E-01	1.94265645780E-02	-6.72340472591E-02	1.94475886333E-02	-6.70078870290E-02	1.38797778140E-01	1.07346752751E-01
