# Hz S RI R 50
! CMT, CMT808U, 21440046, 21.4.3/4
! Date: 12/11/2025 6:03:54 PM
! Data: Format (Calibration Info)
! Freq	S11:Re/Im(F2)	S41:Re/Im(F2)	S14:Re/Im(F2)	S44:Re/Im(F2)
1.70000000000E+09	-1.51564268415E-01	-8.60317496924E-02	-5.93386577108E-02	-3.43586207443E-02	-5.89290418962E-02	-3.46673879044E-02	-9.21480272869E-02	4.46024134569E-02
1.70100000000E+09	-1.50511995477E-01	-8.10865450851E-02	-6.07349746301E-02	-3.18699310568E-02	-6.04179733924E-02	-3.21820841244E-02	-9.22782604792E-02	5.50110676435E-02
1.70200000000E+09	-1.48670980465E-01	-7.62831629690E-02	-6.21351375146E-02	-2.93846898540E-02	-6.18388589772E-02	-2.96469945531E-02	-9.18783165631E-02	6.53978770843E-02
1.70300000000E+09	-1.46427072215E-01	-7.16190132883E-02	-6.33663176628E-02	-2.67341187506E-02	-6.31397899245E-02	-2.71969899893E-02	-9.05924735308E-02	7.56555404400E-02
1.70400000000E+09	-1.43579466905E-01	-6.70593732100E-02	-6.46050770730E-02	-2.40349165671E-02	-6.42861385577E-02	-2.44954825784E-02	-8.86788232133E-02	8.57930879784E-02
1.70500000000E+09	-1.40131667349E-01	-6.28062366466E-02	-6.56479528066E-02	-2.13708422258E-02	-6.54036911457E-02	-2.17525522279E-02	-8.60662945184E-02	9.58121193098E-02
1.70600000000E+09	-1.36238156276E-01	-5.89391246316E-02	-6.65784219726E-02	-1.86366119730E-02	-6.63374539281E-02	-1.90270946017E-02	-8.28603075835E-02	1.05547005959E-01
1.70700000000E+09	-1.31923543003E-01	-5.53672600890E-02	-6.74451274929E-02	-1.57927588703E-02	-6.72591573919E-02	-1.61752014783E-02	-7.89243967627E-02	1.15206050225E-01
1.70800000000E+09	-1.27208121662E-01	-5.22083120339E-02	-6.81082332842E-02	-1.29387709613E-02	-6.79328433025E-02	-1.33392121772E-02	-7.44538782013E-02	1.24455961752E-01
1.70900000000E+09	-1.22239137715E-01	-4.94474621545E-02	-6.86722022437E-02	-9.91253174667E-03	-6.85525458476E-02	-1.03898502263E-02	-6.93791513167E-02	1.33412949546E-01
1.71000000000E+09	-1.16900516967E-01	-4.71801832115E-02	-6.92641677514E-02	-6.99016912514E-03	-6.90082748475E-02	-7.45087630449E-03	-6.37089562283E-02	1.41995086848E-01
1.71100000000E+09	-1.11416929136E-01	-4.54181283998E-02	-6.95657565995E-02	-3.98473768018E-03	-6.93732497959E-02	-4.48098143021E-03	-5.75123419505E-02	1.50145686568E-01
1.71200000000E+09	-1.05743812028E-01	-4.40621558487E-02	-6.97480784977E-02	-9.45439195239E-04	-6.97050960420E-02	-1.49607381889E-03	-5.07726325861E-02	1.57978834039E-01
1.71300000000E+09	-9.99111511124E-02	-4.32879010973E-02	-6.97238168162E-02	1.94181780214E-03	-6.96636282335E-02	1.57856674693E-03	-4.36097071865E-02	1.65249357478E-01
1.71400000000E+09	-9.41297207929E-02	-4.29238325918E-02	-6.96795853705E-02	5.12431471894E-03	-6.96375942118E-02	4.52962994698E-03	-3.60656081937E-02	1.72050378967E-01
1.71500000000E+09	-8.81691420539E-02	-4.30543745261E-02	-6.94761974390E-02	8.11923284454E-03	-6.93492729069E-02	7.64399186056E-03	-2.79181234564E-02	1.78374088878E-01
1.71600000000E+09	-8.23505686004E-02	-4.36235916677E-02	-6.90833447430E-02	1.11518627781E-02	-6.90010328332E-02	1.06409867948E-02	-1.94620326803E-02	1.84114973990E-01
1.71700000000E+09	-7.64995163120E-02	-4.47040481791E-02	-6.85859896457E-02	1.41486104188E-02	-6.84870339274E-02	1.36879383507E-02	-1.06266096593E-02	1.89394901930E-01
1.71800000000E+09	-7.08023936806E-02	-4.60886488775E-02	-6.78962824073E-02	1.70967978835E-02	-6.78377932488E-02	1.66338508246E-02	-1.65010164253E-03	1.93921804269E-01
1.71900000000E+09	-6.53174703449E-02	-4.80073453509E-02	-6.70985461720E-02	2.00748572537E-02	-6.70714444597E-02	1.96276497052E-02	7.77199629764E-03	1.98095284827E-01
1.72000000000E+09	-5.99061468888E-02	-5.03422023475E-02	-6.61750835503E-02	2.29350615526E-02	-6.61276916738E-02	2.24793203766E-02	1.73475963138E-02	2.01479356335E-01
1.72100000000E+09	-5.47540806434E-02	-5.28698883323E-02	-6.50289638571E-02	2.58567813717E-02	-6.50944186291E-02	2.54308644424E-02	2.72579722098E-02	2.04218447011E-01
1.72200000000E+09	-4.97794682133E-02	-5.58835011304E-02	-6.38752051173E-02	2.87039002101E-02	-6.38865606399E-02	2.81314859443E-02	3.71369066374E-02	2.06520758963E-01
1.72300000000E+09	-4.49784035286E-02	-5.91546699645E-02	-6.25265970584E-02	3.14262681885E-02	-6.25985969632E-02	3.09192908268E-02	4.71707217309E-02	2.08151601763E-01
1.72400000000E+09	-4.05819074635E-02	-6.26915487162E-02	-6.10792350233E-02	3.40813597771E-02	-6.11453912087E-02	3.36024791704E-02	5.73270491149E-02	2.09051344622E-01
1.72500000000E+09	-3.63384618629E-02	-6.65865362824E-02	-5.94836376760E-02	3.66687595800E-02	-5.96783252094E-02	3.62027941279E-02	6.74671559321E-02	2.09295182516E-01
1.72600000000E+09	-3.24132723071E-02	-7.06181155501E-02	-5.78068817963E-02	3.92765065925E-02	-5.79132847938E-02	3.87451622294E-02	7.75700636213E-02	2.08881958356E-01
1.72700000000E+09	-2.86964264055E-02	-7.48823013213E-02	-5.59612799383E-02	4.17001766379E-02	-5.61199853606E-02	4.11984688262E-02	8.77385684508E-02	2.07946695530E-01
1.72800000000E+09	-2.53813434864E-02	-7.94111246650E-02	-5.40378808167E-02	4.40597216669E-02	-5.42125980568E-02	4.35843660006E-02	9.77272309328E-02	2.06285604408E-01
1.72900000000E+09	-2.23692771157E-02	-8.40828671048E-02	-5.20142928840E-02	4.63181964500E-02	-5.23242835981E-02	4.58464592352E-02	1.07676859027E-01	2.04110682807E-01
1.73000000000E+09	-1.95956007239E-02	-8.89409807802E-02	-4.99743573694E-02	4.85126070422E-02	-5.01830632757E-02	4.80727787532E-02	1.17347143044E-01	2.01270951141E-01
1.73100000000E+09	-1.70957643623E-02	-9.39130662325E-02	-4.77435259466E-02	5.04910558170E-02	-4.79921765884E-02	5.00524095735E-02	1.26938703556E-01	1.97763886763E-01
1.73200000000E+09	-1.49918193746E-02	-9.90913746785E-02	-4.54310006301E-02	5.24246895302E-02	-4.56581774038E-02	5.20595753661E-02	1.36238572654E-01	1.93718148596E-01
1.73300000000E+09	-1.31885087493E-02	-1.04228820008E-01	-4.31258561352E-02	5.43084985312E-02	-4.33442890733E-02	5.38860974111E-02	1.45297594895E-01	1.89133630264E-01
1.73400000000E+09	-1.17029086468E-02	-1.09602323200E-01	-4.05899892679E-02	5.60041247137E-02	-4.09995862658E-02	5.57002152966E-02	1.54062634997E-01	1.83956352860E-01
1.73500000000E+09	-1.05897207426E-02	-1.15042808959E-01	-3.81450812280E-02	5.76692035090E-02	-3.84985086461E-02	5.72415640033E-02	1.62441477346E-01	1.78261421645E-01
1.73600000000E+09	-9.85599747347E-03	-1.20420375499E-01	-3.55986289549E-02	5.91347389256E-02	-3.59748735561E-02	5.87619637093E-02	1.70376051772E-01	1.71896281995E-01
1.73700000000E+09	-9.38286226122E-03	-1.25879356757E-01	-3.29501831716E-02	6.04823951985E-02	-3.33405823609E-02	6.01004607183E-02	1.78084799664E-01	1.65364864489E-01
1.73800000000E+09	-9.32593927517E-03	-1.31428349650E-01	-3.02652170821E-02	6.17377227422E-02	-3.06682896012E-02	6.13334222675E-02	1.85167155242E-01	1.58174027598E-01
1.73900000000E+09	-9.56652206056E-03	-1.36981924446E-01	-2.75403026191E-02	6.28223286787E-02	-2.80240808557E-02	6.24713692429E-02	1.92025329267E-01	1.50534070079E-01
1.74000000000E+09	-1.02635819664E-02	-1.42461838036E-01	-2.48905235146E-02	6.37767203188E-02	-2.52383235392E-02	6.35749555868E-02	1.98268326118E-01	1.42434490650E-01
1.74100000000E+09	-1.12995620324E-02	-1.47839799814E-01	-2.20882638253E-02	6.46451779787E-02	-2.25547014813E-02	6.44065665519E-02	2.04015748080E-01	1.34152091001E-01
1.74200000000E+09	-1.26133944695E-02	-1.53227763374E-01	-1.93346166730E-02	6.54334786822E-02	-1.97653512588E-02	6.51619586946E-02	2.09194200525E-01	1.25284547499E-01
1.74300000000E+09	-1.44736204885E-02	-1.58431030674E-01	-1.65002738838E-02	6.61169488530E-02	-1.69000468414E-02	6.57822458138E-02	2.13919537003E-01	1.16178479298E-01
1.74400000000E+09	-1.65676623910E-02	-1.63509687787E-01	-1.36968253723E-02	6.65678929933E-02	-1.41616645771E-02	6.62757230811E-02	2.18038224474E-01	1.06840517204E-01
1.74500000000E+09	-1.91369097902E-02	-1.68415089197E-01	-1.08724468227E-02	6.68337146906E-02	-1.12605901715E-02	6.66679300870E-02	2.21494534386E-01	9.71659764437E-02
1.74600000000E+09	-2.20019581347E-02	-1.73176902041E-01	-8.04275901325E-03	6.70963926695E-02	-8.51675278777E-03	6.69414017513E-02	2.24363965118E-01	8.74424987954E-02
1.74700000000E+09	-2.52782181779E-02	-1.77691863033E-01	-5.25258167678E-03	6.73027808417E-02	-5.75223632516E-03	6.71006927632E-02	2.26672313075E-01	7.73271749834E-02
1.74800000000E+09	-2.88277172117E-02	-1.81868856905E-01	-2.52160022590E-03	6.72689293051E-02	-2.95924187780E-03	6.71389742693E-02	2.28336372454E-01	6.71842731467E-02
1.74900000000E+09	-3.27259620083E-02	-1.85799323834E-01	3.26349623499E-04	6.72374836811E-02	-1.49895855027E-04	6.70164861333E-02	2.29372631629E-01	5.70426671187E-02
1.75000000000E+09	-3.70033327381E-02	-1.89460225642E-01	2.97317422489E-03	6.69970554637E-02	2.50259221891E-03	6.68343628389E-02	2.29715255277E-01	4.66958930996E-02
1.75100000000E+09	-4.13633403562E-02	-1.92697018577E-01	5.78909559403E-03	6.67068186305E-02	5.24606475120E-03	6.65343113185E-02	2.29468036303E-01	3.63306536524E-02
1.75200000000E+09	-4.61586065380E-02	-1.95621224599E-01	8.36401599262E-03	6.61977941043E-02	7.98482190356E-03	6.61661281272E-02	2.28462542642E-01	2.61021314804E-02
1.75300000000E+09	-5.10859377337E-02	-1.98016312330E-01	1.10633010497E-02	6.57581091534E-02	1.06273264792E-02	6.56608319558E-02	2.26920889155E-01	1.57694650361E-02
1.75400000000E+09	-5.63100239779E-02	-2.00066213917E-01	1.36641620162E-02	6.50531105492E-02	1.31754250569E-02	6.50589624787E-02	2.24587629783E-01	5.59889118914E-03
1.75500000000E+09	-6.16247942199E-02	-2.01634477312E-01	1.62381864108E-02	6.43594995490E-02	1.57821097913E-02	6.43913210485E-02	2.21727955542E-01	-4.46225309083E-03
1.75600000000E+09	-6.70886993504E-02	-2.02607594126E-01	1.87814413255E-02	6.35165659899E-02	1.83386916080E-02	6.35340769906E-02	2.18125939782E-01	-1.41689188066E-02
1.75700000000E+09	-7.25486393347E-02	-2.03206940067E-01	2.12219201647E-02	6.27175199417E-02	2.07478888447E-02	6.26810788271E-02	2.13932869557E-01	-2.38830982612E-02
1.75800000000E+09	-7.80717791033E-02	-2.03243943629E-01	2.36678398103E-02	6.17018895080E-02	2.31656989648E-02	6.17736611836E-02	2.09125185520E-01	-3.31294821040E-02
1.75900000000E+09	-8.36580090445E-02	-2.02734971929E-01	2.60655678631E-02	6.06169276137E-02	2.55274198573E-02	6.06619493725E-02	2.03750424022E-01	-4.21390455214E-02
1.76000000000E+09	-8.90468019928E-02	-2.01674929493E-01	2.83885478454E-02	5.95550240115E-02	2.78770509609E-02	5.96178672819E-02	1.97771033975E-01	-5.08686611009E-02
1.76100000000E+09	-9.43043018037E-02	-2.00049476084E-01	3.06223043482E-02	5.83368342649E-02	3.02036033491E-02	5.83925859854E-02	1.91146428384E-01	-5.91345655527E-02
1.76200000000E+09	-9.94014199355E-02	-1.98025165465E-01	3.29124557527E-02	5.70984540338E-02	3.24538981000E-02	5.71222299028E-02	1.84067852722E-01	-6.69719744594E-02
1.76300000000E+09	-1.04236209242E-01	-1.95344916219E-01	3.51222546283E-02	5.57331347684E-02	3.45857466987E-02	5.58805191699E-02	1.76566177336E-01	-7.44074463929E-02
1.76400000000E+09	-1.08696056262E-01	-1.92140059359E-01	3.72411233274E-02	5.43215956568E-02	3.67495051175E-02	5.44605374494E-02	1.68525659602E-01	-8.13140111446E-02
1.76500000000E+09	-1.12770216833E-01	-1.88556110551E-01	3.93505380398E-02	5.29223985856E-02	3.88348014552E-02	5.30096935715E-02	1.59928521295E-01	-8.77654871612E-02
1.76600000000E+09	-1.16441042092E-01	-1.84499599111E-01	4.13282935162E-02	5.13544130475E-02	4.08945829803E-02	5.14878883805E-02	1.51051686222E-01	-9.35645441829E-02
1.76700000000E+09	-1.19548327881E-01	-1.79989785244E-01	4.33908192407E-02	4.96895105286E-02	4.28573122753E-02	4.99406266326E-02	1.41681209448E-01	-9.88636486405E-02
1.76800000000E+09	-1.22164429425E-01	-1.75369937113E-01	4.53154489244E-02	4.80433274739E-02	4.49207809525E-02	4.83207268397E-02	1.32042486879E-01	-1.03431724203E-01
1.76900000000E+09	-1.24140243871E-01	-1.70285728582E-01	4.72830087385E-02	4.63259084017E-02	4.68400584113E-02	4.65856050151E-02	1.22119353899E-01	-1.07420072267E-01
1.77000000000E+09	-1.25524431579E-01	-1.65022548536E-01	4.91581655017E-02	4.44994154841E-02	4.86635154688E-02	4.47720757907E-02	1.11922905441E-01	-1.10868792986E-01
1.77100000000E+09	-1.26286315962E-01	-1.59892941844E-01	5.08789107316E-02	4.26845291178E-02	5.05544731391E-02	4.28891581317E-02	1.01435701797E-01	-1.13540681328E-01
1.77200000000E+09	-1.26269729929E-01	-1.54542502013E-01	5.27100286660E-02	4.07029282103E-02	5.23155198852E-02	4.09624461459E-02	9.09637011759E-02	-1.15520053727E-01
1.77300000000E+09	-1.25685870302E-01	-1.49306155523E-01	5.45245650103E-02	3.86176845267E-02	5.41183575536E-02	3.89217333190E-02	8.02101731810E-02	-1.16872833806E-01
1.77400000000E+09	-1.24319437942E-01	-1.44186192297E-01	5.61552552020E-02	3.65351437813E-02	5.57352601665E-02	3.68102379086E-02	6.93725511050E-02	-1.17515277973E-01
1.77500000000E+09	-1.22398751639E-01	-1.39347506492E-01	5.77862066973E-02	3.43650559384E-02	5.73776829540E-02	3.46341427233E-02	5.86651462196E-02	-1.17399968611E-01
1.77600000000E+09	-1.19845632343E-01	-1.34845399482E-01	5.93760869474E-02	3.19821968884E-02	5.89979731827E-02	3.23799710757E-02	4.78082437038E-02	-1.16656581060E-01
1.77700000000E+09	-1.16778638970E-01	-1.30779106068E-01	6.08461827006E-02	2.95840971324E-02	6.04076821952E-02	2.99697131665E-02	3.70716090861E-02	-1.15087692251E-01
1.77800000000E+09	-1.13164379933E-01	-1.27069507490E-01	6.21832919718E-02	2.70873695653E-02	6.18591225362E-02	2.75497800859E-02	2.64727229197E-02	-1.12997238842E-01
1.77900000000E+09	-1.09093738790E-01	-1.24005846274E-01	6.35115144459E-02	2.46257406647E-02	6.32286158080E-02	2.50182817167E-02	1.60554680441E-02	-1.10048973195E-01
1.78000000000E+09	-1.04779606474E-01	-1.21447458793E-01	6.46946516918E-02	2.19684154404E-02	6.43789635593E-02	2.23786244360E-02	5.73716678597E-03	-1.06452697978E-01
1.78100000000E+09	-1.00133440401E-01	-1.19556892166E-01	6.57739514487E-02	1.91998673922E-02	6.54706349260E-02	1.96191999101E-02	-4.25560721652E-03	-1.02371199287E-01
1.78200000000E+09	-9.52981030663E-02	-1.18300845678E-01	6.67245717920E-02	1.63177372893E-02	6.64594076447E-02	1.68182151700E-02	-1.39186832035E-02	-9.75179270613E-02
1.78300000000E+09	-9.04512888726E-02	-1.17636815063E-01	6.74972600350E-02	1.35374477773E-02	6.71859742021E-02	1.39322646345E-02	-2.33428813609E-02	-9.20008698631E-02
1.78400000000E+09	-8.55245424764E-02	-1.17704641919E-01	6.82273049710E-02	1.05688517227E-02	6.80145561702E-02	1.10278387795E-02	-3.23987343326E-02	-8.60179780878E-02
1.78500000000E+09	-8.06779634970E-02	-1.18357332413E-01	6.88213373391E-02	7.56379631857E-03	6.86669599924E-02	8.07115064583E-03	-4.09932835425E-02	-7.93336958147E-02
1.78600000000E+09	-7.60380720122E-02	-1.19561462323E-01	6.92137124697E-02	4.54479398024E-03	6.90101949243E-02	5.03341252573E-03	-4.91929935860E-02	-7.22090786775E-02
1.78700000000E+09	-7.15946161769E-02	-1.21365314079E-01	6.93722161813E-02	1.40190829806E-03	6.92645484647E-02	1.99126565392E-03	-5.68415135998E-02	-6.44104664550E-02
1.78800000000E+09	-6.74875185411E-02	-1.23719366983E-01	6.95874681312E-02	-1.62273337220E-03	6.94412744702E-02	-1.13912725902E-03	-6.39549290235E-02	-5.62019052190E-02
1.78900000000E+09	-6.36255942576E-02	-1.26513495208E-01	6.94949494025E-02	-4.76632634451E-03	6.93363517728E-02	-4.24266542429E-03	-7.06643404172E-02	-4.75530595038E-02
1.79000000000E+09	-6.01365065666E-02	-1.29821203815E-01	6.92499428602E-02	-7.92619920493E-03	6.92209166786E-02	-7.36170360167E-03	-7.67787140631E-02	-3.85527000519E-02
1.79100000000E+09	-5.71259347234E-02	-1.33369284682E-01	6.88584402885E-02	-1.09162300066E-02	6.88123326228E-02	-1.04353547481E-02	-8.21870193821E-02	-2.90796713352E-02
1.79200000000E+09	-5.45203403490E-02	-1.37239742380E-01	6.82794797349E-02	-1.41011970594E-02	6.83169056734E-02	-1.34641409678E-02	-8.69697605807E-02	-1.94300587333E-02
1.79300000000E+09	-5.23792912213E-02	-1.41403244321E-01	6.76781854758E-02	-1.70724287071E-02	6.76493155162E-02	-1.66257391887E-02	-9.10794609239E-02	-9.35997094576E-03
1.79400000000E+09	-5.06736962765E-02	-1.45691367211E-01	6.68295543551E-02	-2.00918999899E-02	6.68390725496E-02	-1.95677402265E-02	-9.47004605880E-02	8.10769518335E-04
1.79500000000E+09	-4.95249938780E-02	-1.50187465294E-01	6.57873075132E-02	-2.30529128729E-02	6.58344172907E-02	-2.25062514153E-02	-9.74750936662E-02	1.13439569895E-02
1.79600000000E+09	-4.88171060765E-02	-1.54710410330E-01	6.46692472487E-02	-2.59223110677E-02	6.46840480737E-02	-2.53651213471E-02	-9.96149257377E-02	2.20216240227E-02
1.79700000000E+09	-4.85401637626E-02	-1.59278215148E-01	6.33849329505E-02	-2.87633610356E-02	6.34178682000E-02	-2.82575013204E-02	-1.01127468764E-01	3.27508955919E-02
1.79800000000E+09	-4.88142117270E-02	-1.63898682595E-01	6.19301415178E-02	-3.15509259029E-02	6.20563358710E-02	-3.10356529757E-02	-1.01796640927E-01	4.35571162413E-02
1.79900000000E+09	-4.94445190399E-02	-1.68383920416E-01	6.03741041881E-02	-3.41915150189E-02	6.05365233736E-02	-3.36718183313E-02	-1.01843983891E-01	5.44283767995E-02
1.80000000000E+09	-5.05498700559E-02	-1.72837883932E-01	5.87473629091E-02	-3.67701806342E-02	5.88575662958E-02	-3.62263533845E-02	-1.01209344721E-01	6.51283048926E-02
1.80100000000E+09	-5.20148020653E-02	-1.77093861174E-01	5.68961687524E-02	-3.93040471882E-02	5.71059570229E-02	-3.88056275867E-02	-9.98124434702E-02	7.58721466288E-02
1.80200000000E+09	-5.38184580145E-02	-1.81205885764E-01	5.50303862628E-02	-4.16499896536E-02	5.52821365656E-02	-4.11414536633E-02	-9.78483463327E-02	8.65617037658E-02
1.80300000000E+09	-5.60233997130E-02	-1.85109886652E-01	5.30119148881E-02	-4.39337477028E-02	5.32962047469E-02	-4.34228611903E-02	-9.51070108322E-02	9.69685214048E-02
1.80400000000E+09	-5.85663184170E-02	-1.88880058530E-01	5.09716710687E-02	-4.60738459952E-02	5.12079479655E-02	-4.55650750328E-02	-9.16378939362E-02	1.07164346260E-01
1.80500000000E+09	-6.13346862625E-02	-1.92328796131E-01	4.87634470512E-02	-4.81577558891E-02	4.90345302514E-02	-4.76987439553E-02	-8.76374431463E-02	1.17072788117E-01
1.80600000000E+09	-6.43453400298E-02	-1.95667682567E-01	4.65918979733E-02	-5.01451851482E-02	4.67956410373E-02	-4.95908735723E-02	-8.29832584712E-02	1.26772328321E-01
1.80700000000E+09	-6.77173893343E-02	-1.98617232476E-01	4.42120450787E-02	-5.19254000705E-02	4.44594589676E-02	-5.14451600273E-02	-7.77188702888E-02	1.36043542964E-01
1.80800000000E+09	-7.12207438656E-02	-2.01399027902E-01	4.18505012322E-02	-5.36321214707E-02	4.20999906918E-02	-5.31695136470E-02	-7.17748800849E-02	1.45099922371E-01
1.80900000000E+09	-7.48645589295E-02	-2.03797881020E-01	3.93379886109E-02	-5.51039653958E-02	3.97180481634E-02	-5.48022773795E-02	-6.53772767696E-02	1.53489760298E-01
1.81000000000E+09	-7.88351537034E-02	-2.06060424513E-01	3.69384975361E-02	-5.67161680102E-02	3.72344665734E-02	-5.62368875676E-02	-5.85186239376E-02	1.61630506877E-01
1.81100000000E+09	-8.28799807826E-02	-2.08046341509E-01	3.43009967649E-02	-5.79812127418E-02	3.47393847421E-02	-5.75630903133E-02	-5.10507224235E-02	1.69279248389E-01
1.81200000000E+09	-8.71058208393E-02	-2.09552899764E-01	3.17283073402E-02	-5.91738072429E-02	3.21145227046E-02	-5.88015403362E-02	-4.30880302447E-02	1.76304003750E-01
1.81300000000E+09	-9.13975678922E-02	-2.11011937475E-01	2.91648792636E-02	-6.03165485820E-02	2.95493480523E-02	-5.99279928292E-02	-3.47666885264E-02	1.82825875084E-01
1.81400000000E+09	-9.57016554069E-02	-2.12055233428E-01	2.65043511082E-02	-6.12849216710E-02	2.69475014796E-02	-6.09769527150E-02	-2.62245698726E-02	1.88906565278E-01
1.81500000000E+09	-1.00284470935E-01	-2.12824491743E-01	2.38111064402E-02	-6.21433165443E-02	2.42707536354E-02	-6.18608996279E-02	-1.71414234406E-02	1.94355069344E-01
1.81600000000E+09	-1.04749192343E-01	-2.13343968768E-01	2.11521405153E-02	-6.29643832710E-02	2.16632144074E-02	-6.26175497279E-02	-7.74296926038E-03	1.99117512398E-01
1.81700000000E+09	-1.09350699699E-01	-2.13562321114E-01	1.85325259056E-02	-6.35152919800E-02	1.89949986946E-02	-6.32140037300E-02	1.81035503790E-03	2.03412364310E-01
