# Hz S RI R 50
! CMT, CMT808U, 21440046, 21.4.3/4
! Date: 12/11/2025 11:12:04 AM
! Data: Format (Calibration Info)
! Freq	S11:Re/Im(F2)	S41:Re/Im(F2)	S14:Re/Im(F2)	S44:Re/Im(F2)
1.70000000000E+09	-2.00826990777E-01	-1.11141736319E-01	-5.74204097291E-02	-3.93510330521E-02	-5.68857555670E-02	-4.00153401536E-02	-2.16854208969E-02	7.14907053623E-02
1.70167224080E+09	-2.01956717777E-01	-1.03033021413E-01	-6.00588381357E-02	-3.53751103676E-02	-5.95795633099E-02	-3.60648445449E-02	-1.90969350894E-02	8.42776494704E-02
1.70334448161E+09	-2.01615484439E-01	-9.46157677016E-02	-6.24795347817E-02	-3.12036281205E-02	-6.20362874460E-02	-3.19313467707E-02	-1.51444978343E-02	9.67768969271E-02
1.70501672241E+09	-1.99789225068E-01	-8.61347835476E-02	-6.46204594387E-02	-2.68579331594E-02	-6.42443511793E-02	-2.76076758686E-02	-9.82393226878E-03	1.08832374169E-01
1.70668896321E+09	-1.96507701510E-01	-7.78977913870E-02	-6.64779883793E-02	-2.23313495873E-02	-6.61559932470E-02	-2.31030448054E-02	-3.27050850921E-03	1.20266989546E-01
1.70836120401E+09	-1.91880440666E-01	-7.00647034263E-02	-6.80390767603E-02	-1.76666128527E-02	-6.77625853639E-02	-1.84523308431E-02	4.52138578950E-03	1.30988535654E-01
1.71003344482E+09	-1.86018269909E-01	-6.29162246904E-02	-6.92716736288E-02	-1.28520461111E-02	-6.90571038102E-02	-1.36514719316E-02	1.33993228491E-02	1.40855083997E-01
1.71170568562E+09	-1.79036333731E-01	-5.65922796946E-02	-7.01641563206E-02	-7.92733480077E-03	-7.00064368000E-02	-8.75510450096E-03	2.32711106173E-02	1.49776031704E-01
1.71337792642E+09	-1.71131407586E-01	-5.12655251611E-02	-7.06962835098E-02	-2.92691161914E-03	-7.06001647812E-02	-3.74525082983E-03	3.40098453517E-02	1.57616770615E-01
1.71505016722E+09	-1.62465424040E-01	-4.70432850589E-02	-7.08630620272E-02	2.14303795101E-03	-7.08189801465E-02	1.31536993690E-03	4.55412205665E-02	1.64325765731E-01
1.71672240803E+09	-1.53227896823E-01	-4.40219540348E-02	-7.06517120195E-02	7.22191475255E-03	-7.06692252194E-02	6.40297419982E-03	5.77001042273E-02	1.69818962592E-01
1.71839464883E+09	-1.43634950758E-01	-4.22409376257E-02	-7.00567136243E-02	1.22999772160E-02	-7.01430144978E-02	1.14802378506E-02	7.03461621672E-02	1.74056371055E-01
1.72006688963E+09	-1.33883640684E-01	-4.17488287464E-02	-6.90897515698E-02	1.73475589917E-02	-6.92254454880E-02	1.65313330959E-02	8.33565611438E-02	1.77005880404E-01
1.72173913043E+09	-1.24134559475E-01	-4.25228461414E-02	-6.77302128035E-02	2.23115907385E-02	-6.79239191988E-02	2.15083022800E-02	9.65960113012E-02	1.78595802834E-01
1.72341137124E+09	-1.14591923273E-01	-4.45496864417E-02	-6.60060141100E-02	2.71784953731E-02	-6.62550603696E-02	2.63916603553E-02	1.09924059950E-01	1.78860281742E-01
1.72508361204E+09	-1.05435431914E-01	-4.77375494776E-02	-6.39007784685E-02	3.19104513735E-02	-6.42151171429E-02	3.11418529602E-02	1.23179446561E-01	1.77783621108E-01
1.72675585284E+09	-9.68084592726E-02	-5.20537328326E-02	-6.14613836733E-02	3.64752719433E-02	-6.18035564618E-02	3.57191115018E-02	1.36254906456E-01	1.75404098922E-01
1.72842809365E+09	-8.88865677429E-02	-5.73587014642E-02	-5.86627168684E-02	4.08372880265E-02	-5.90639135349E-02	4.01186147118E-02	1.49026063531E-01	1.71702815356E-01
1.73010033445E+09	-8.17633376731E-02	-6.35835938031E-02	-5.55521749231E-02	4.49816189447E-02	-5.60013335596E-02	4.42878289111E-02	1.61318489043E-01	1.66788257178E-01
1.73177257525E+09	-7.55583514250E-02	-7.05613502011E-02	-5.21253357252E-02	4.88693775378E-02	-5.26242426683E-02	4.82132212415E-02	1.73044988604E-01	1.60633181797E-01
1.73344481605E+09	-7.03815389989E-02	-7.81702938960E-02	-4.84241357932E-02	5.24897999220E-02	-4.89768095115E-02	5.18653753233E-02	1.84092959372E-01	1.53369577280E-01
1.73511705686E+09	-6.62661302070E-02	-8.62521460176E-02	-4.44692386586E-02	5.58156390635E-02	-4.50533919865E-02	5.52323461724E-02	1.94321724796E-01	1.45059139931E-01
1.73678929766E+09	-6.32921571819E-02	-9.46845924589E-02	-4.02837521732E-02	5.88231476364E-02	-4.09016470870E-02	5.82916192253E-02	2.03664102701E-01	1.35760425816E-01
1.73846153846E+09	-6.14853643426E-02	-1.03281343392E-01	-3.58808455843E-02	6.15051618289E-02	-3.65468957164E-02	6.10239819656E-02	2.12010086294E-01	1.25575221985E-01
1.74013377926E+09	-6.08234837743E-02	-1.11899264799E-01	-3.13106219357E-02	6.38461460056E-02	-3.20072759802E-02	6.34000839297E-02	2.19291130701E-01	1.14622031077E-01
1.74180602007E+09	-6.13221233506E-02	-1.20383176951E-01	-2.66013896917E-02	6.58159802843E-02	-2.73116468266E-02	6.54297372423E-02	2.25396076325E-01	1.02998898216E-01
1.74347826087E+09	-6.29538808082E-02	-1.28583446356E-01	-2.17666845203E-02	6.74340066379E-02	-2.25187496023E-02	6.70888532387E-02	2.30285736470E-01	9.08372257357E-02
1.74515050167E+09	-6.56567200622E-02	-1.36360218477E-01	-1.68647556087E-02	6.86748602672E-02	-1.76142252823E-02	6.83877931574E-02	2.33943653873E-01	7.82147604193E-02
1.74682274247E+09	-6.93916253330E-02	-1.43600120880E-01	-1.18864893123E-02	6.95589119946E-02	-1.26728253101E-02	6.93011198247E-02	2.36276138374E-01	6.53103802423E-02
1.74849498328E+09	-7.40801761362E-02	-1.50140744646E-01	-6.90572594826E-03	7.00472028884E-02	-7.69754700682E-03	6.98623400326E-02	2.37280070127E-01	5.22355528435E-02
1.75016722408E+09	-7.96516138477E-02	-1.55855652654E-01	-1.93256319243E-03	7.01847560149E-02	-2.73232743686E-03	7.00483822394E-02	2.36940692541E-01	3.91037753300E-02
1.75183946488E+09	-8.59798565807E-02	-1.60621049193E-01	3.00596421696E-03	6.99578809961E-02	2.18766392482E-03	6.98742473209E-02	2.35244352701E-01	2.60598551172E-02
1.75351170569E+09	-9.29420277327E-02	-1.64350104170E-01	7.87568824051E-03	6.93821902343E-02	7.05769631631E-03	6.93525996699E-02	2.32206272796E-01	1.32402313914E-02
1.75518394649E+09	-1.00415317424E-01	-1.66885095932E-01	1.26525404275E-02	6.84688215879E-02	1.18313077375E-02	6.84981562836E-02	2.27851512528E-01	7.80809055643E-04
1.75685618729E+09	-1.08216821655E-01	-1.68192531282E-01	1.73112982322E-02	6.72377347690E-02	1.65001371527E-02	6.73221814571E-02	2.22193848144E-01	-1.11726446929E-02
1.75852842809E+09	-1.16172961931E-01	-1.68166890615E-01	2.18261140542E-02	6.57194408453E-02	2.10198872134E-02	6.58364313098E-02	2.15327729278E-01	-2.24825085727E-02
1.76020066890E+09	-1.24057656174E-01	-1.66790108787E-01	2.61878056412E-02	6.39132988382E-02	2.53886299921E-02	6.40872467856E-02	2.07284651162E-01	-3.30652703275E-02
1.76187290970E+09	-1.31676147722E-01	-1.64040442297E-01	3.03871656532E-02	6.18520810877E-02	2.95931019844E-02	6.20736580928E-02	1.98155538388E-01	-4.27526301011E-02
1.76354515050E+09	-1.38783578450E-01	-1.59925583796E-01	3.44015627821E-02	5.95567898071E-02	3.36240488770E-02	5.98286129540E-02	1.88027836966E-01	-5.14389771954E-02
1.76521739130E+09	-1.45126149723E-01	-1.54550900752E-01	3.82497755216E-02	5.70489632065E-02	3.74905984633E-02	5.73753514115E-02	1.77005180235E-01	-5.90071898033E-02
1.76688963211E+09	-1.50457887812E-01	-1.48023100339E-01	4.19191214626E-02	5.43414026971E-02	4.11652610967E-02	5.47159612083E-02	1.65248838254E-01	-6.53931005617E-02
1.76856187291E+09	-1.54576311408E-01	-1.40516560686E-01	4.54322802588E-02	5.14502520409E-02	4.47018894786E-02	5.18720661692E-02	1.52830297008E-01	-7.04915817842E-02
1.77023411371E+09	-1.57324678245E-01	-1.32282875383E-01	4.87632164263E-02	4.83782030817E-02	4.80600496410E-02	4.88491338457E-02	1.39942867745E-01	-7.42489784836E-02
1.77190635452E+09	-1.58527994389E-01	-1.23568109015E-01	5.19516714136E-02	4.51128100153E-02	5.12676273075E-02	4.56394763628E-02	1.26721525230E-01	-7.65926910469E-02
1.77357859532E+09	-1.58099951885E-01	-1.14676929441E-01	5.49741445316E-02	4.16618435741E-02	5.43191035480E-02	4.22332423246E-02	1.13305420065E-01	-7.75167809907E-02
1.77525083612E+09	-1.56048902330E-01	-1.05915496480E-01	5.78261207461E-02	3.80109958088E-02	5.72028997625E-02	3.86295049912E-02	9.99216514135E-02	-7.69800063490E-02
1.77692307692E+09	-1.52389679420E-01	-9.76143327162E-02	6.05004542562E-02	3.41299274676E-02	5.99211834870E-02	3.48097564810E-02	8.66505150196E-02	-7.50188239343E-02
1.77859531773E+09	-1.47238267209E-01	-9.00879674072E-02	6.29696199499E-02	3.00365424558E-02	6.24247529226E-02	3.07659661305E-02	7.37037054969E-02	-7.16436273724E-02
1.78026755853E+09	-1.40797491712E-01	-8.36095074989E-02	6.51995371240E-02	2.57301804081E-02	6.47157201891E-02	2.64908409497E-02	6.12320214154E-02	-6.69316794771E-02
1.78193979933E+09	-1.33279430272E-01	-7.83838199800E-02	6.71655128063E-02	2.11723240729E-02	6.67255846251E-02	2.19902465945E-02	4.93643382285E-02	-6.09028450898E-02
1.78361204013E+09	-1.24953095959E-01	-7.46212280635E-02	6.88337769614E-02	1.64294562269E-02	6.84296724203E-02	1.72756818969E-02	3.82711945333E-02	-5.36829928330E-02
1.78528428094E+09	-1.16139077937E-01	-7.24307731076E-02	7.01313619850E-02	1.14776736424E-02	6.98114243139E-02	1.23627203256E-02	2.80426820652E-02	-4.53200057054E-02
1.78695652174E+09	-1.07139592294E-01	-7.18437070188E-02	7.10640420365E-02	6.37870079262E-03	7.08001772527E-02	7.29379495247E-03	1.88242434709E-02	-3.59693142690E-02
1.78862876254E+09	-9.82639635330E-02	-7.28517467842E-02	7.15801773521E-02	1.15503808491E-03	7.14092385106E-02	2.10053420021E-03	1.07127758951E-02	-2.57191156967E-02
1.79030100334E+09	-8.98060376115E-02	-7.53913447471E-02	7.16748242130E-02	-4.14857236959E-03	7.15720276842E-02	-3.18146659549E-03	3.76606000880E-03	-1.47010225961E-02
1.79197324415E+09	-8.20114194477E-02	-7.92736067086E-02	7.13271292593E-02	-9.46702610008E-03	7.13055646953E-02	-8.50071947588E-03	-1.91064235008E-03	-3.05761838170E-03
1.79364548495E+09	-7.50947560544E-02	-8.44124139793E-02	7.05336226089E-02	-1.47831542359E-02	7.05883802372E-02	-1.37942108056E-02	-6.25138723629E-03	9.06503021268E-03
1.79531772575E+09	-6.92429377745E-02	-9.05350597669E-02	6.92963425732E-02	-2.00064369266E-02	6.94386044439E-02	-1.90423928331E-02	-9.24522810757E-03	2.15288604895E-02
1.79698996656E+09	-6.45788859408E-02	-9.74689656412E-02	6.76184684916E-02	-2.51386906984E-02	6.78445683957E-02	-2.41637682978E-02	-1.08573512926E-02	3.41734926965E-02
1.79866220736E+09	-6.11782010941E-02	-1.04977045469E-01	6.55344584626E-02	-3.00940294997E-02	6.58404040127E-02	-2.91570419889E-02	-1.10641776015E-02	4.68380186627E-02
1.80033444816E+09	-5.90898868635E-02	-1.12824838555E-01	6.30594926606E-02	-3.48510691481E-02	6.34340745121E-02	-3.39406679174E-02	-9.88577867823E-03	5.93904338133E-02
1.80200668896E+09	-5.83208999757E-02	-1.20809370129E-01	6.01988749906E-02	-3.93734636737E-02	6.06518698609E-02	-3.85097204163E-02	-7.35202921324E-03	7.16737455078E-02
1.80367892977E+09	-5.88367086753E-02	-1.28718855005E-01	5.70143100160E-02	-4.36301558055E-02	5.75378836140E-02	-4.28095744697E-02	-3.49582218279E-03	8.35374914753E-02
1.80535117057E+09	-6.05384938054E-02	-1.36368362894E-01	5.35141114716E-02	-4.76105147008E-02	5.41068103728E-02	-4.68297681383E-02	1.63318808739E-03	9.48455127462E-02
1.80702341137E+09	-6.33999830030E-02	-1.43592465099E-01	4.97427526315E-02	-5.12728047465E-02	5.03769990491E-02	-5.05478044897E-02	7.93802529848E-03	1.05461390654E-01
1.80869565217E+09	-6.72985072391E-02	-1.50244768543E-01	4.57076698715E-02	-5.46016907906E-02	4.63983549039E-02	-5.39431829852E-02	1.53433426852E-02	1.15255610781E-01
1.81036789298E+09	-7.21255329313E-02	-1.56228092877E-01	4.14814314149E-02	-5.75883671380E-02	4.22134530436E-02	-5.69910994271E-02	2.37482422476E-02	1.24157675253E-01
1.81204013378E+09	-7.77694831926E-02	-1.61395621095E-01	3.70615159671E-02	-6.02151532716E-02	3.78422914811E-02	-5.96865791816E-02	3.30672940483E-02	1.32011304478E-01
1.81371237458E+09	-8.41067161623E-02	-1.65671838404E-01	3.24986599748E-02	-6.24871571263E-02	3.33025976828E-02	-6.20228471648E-02	4.31336533974E-02	1.38789687499E-01
1.81538461538E+09	-9.09632809180E-02	-1.68992197040E-01	2.78281402911E-02	-6.43937019398E-02	2.86629303610E-02	-6.39986016771E-02	5.38659900507E-02	1.44379093236E-01
1.81705685619E+09	-9.82350526817E-02	-1.71292599292E-01	2.30648890847E-02	-6.59254147913E-02	2.39190689953E-02	-6.56034624671E-02	6.50837323303E-02	1.48734920376E-01
1.81872909699E+09	-1.05757601845E-01	-1.72552442257E-01	1.82644926993E-02	-6.71103588539E-02	1.91240196472E-02	-6.68553184510E-02	7.67054145849E-02	1.51835031541E-01
1.82040133779E+09	-1.13384878313E-01	-1.72774730651E-01	1.34295237424E-02	-6.79190839601E-02	1.43012329788E-02	-6.77312743201E-02	8.85571635134E-02	1.53621438509E-01
1.82207357860E+09	-1.21046534996E-01	-1.71963978805E-01	8.59948615548E-03	-6.83824559982E-02	9.46715241014E-03	-6.82627794127E-02	1.00493878870E-01	1.54132543441E-01
1.82374581940E+09	-1.28521723086E-01	-1.70112030700E-01	3.80528127299E-03	-6.84982066955E-02	4.66765984223E-03	-6.84434400341E-02	1.12389873303E-01	1.53323786925E-01
1.82541806020E+09	-1.35743168094E-01	-1.67271617909E-01	-9.18801460730E-04	-6.82988939988E-02	-7.47154422431E-05	-6.82980689152E-02	1.24121516025E-01	1.51252567900E-01
1.82709030100E+09	-1.42558862507E-01	-1.63447651930E-01	-5.58150290168E-03	-6.77722872840E-02	-4.75677230540E-03	-6.78195274206E-02	1.35518745562E-01	1.47897319265E-01
1.82876254181E+09	-1.48855773063E-01	-1.58719284680E-01	-1.01610548488E-02	-6.69342643689E-02	-9.33208983859E-03	-6.70385795689E-02	1.46475488808E-01	1.43364097643E-01
1.83043478261E+09	-1.54539165694E-01	-1.53127189873E-01	-1.45905140437E-02	-6.58190861375E-02	-1.37947064947E-02	-6.59760297441E-02	1.56868540302E-01	1.37711640246E-01
1.83210702341E+09	-1.59435238764E-01	-1.46796200507E-01	-1.89138331837E-02	-6.44322893294E-02	-1.81310502759E-02	-6.46422010361E-02	1.66571218331E-01	1.30988047917E-01
1.83377926421E+09	-1.63509165904E-01	-1.39766963056E-01	-2.30907725754E-02	-6.27870070334E-02	-2.23245311914E-02	-6.30439827311E-02	1.75465853200E-01	1.23264153159E-01
1.83545150502E+09	-1.66611583590E-01	-1.32189485129E-01	-2.71045893483E-02	-6.09133710649E-02	-2.63578749816E-02	-6.12147853262E-02	1.83494286053E-01	1.14678805515E-01
1.83712374582E+09	-1.68647915180E-01	-1.24150859323E-01	-3.09709306826E-02	-5.88272399617E-02	-3.02559415119E-02	-5.91644090933E-02	1.90536542106E-01	1.05274188817E-01
1.83879598662E+09	-1.69542546899E-01	-1.15812115569E-01	-3.46563239413E-02	-5.65433060637E-02	-3.39682185110E-02	-5.69173508570E-02	1.96518381521E-01	9.52326154721E-02
1.84046822742E+09	-1.69226239711E-01	-1.07326987353E-01	-3.81931269349E-02	-5.40607784880E-02	-3.75373038811E-02	-5.44854418507E-02	2.01374634005E-01	8.46357463134E-02
1.84214046823E+09	-1.67658782059E-01	-9.89342305747E-02	-4.15695684200E-02	-5.14062602563E-02	-4.09423083093E-02	-5.18667075328E-02	2.05093352985E-01	7.36202456442E-02
1.84381270903E+09	-1.64812638708E-01	-9.07795768834E-02	-4.47980516840E-02	-4.86044220795E-02	-4.41899666406E-02	-4.90941838390E-02	2.07592334906E-01	6.23200851892E-02
1.84548494983E+09	-1.60738115445E-01	-8.31113872928E-02	-4.78644332816E-02	-4.56243859569E-02	-4.72823931056E-02	-4.61490358301E-02	2.08859032740E-01	5.08599974303E-02
1.84715719064E+09	-1.55474395656E-01	-7.61244537635E-02	-5.07691798495E-02	-4.24837407454E-02	-5.02396693852E-02	-4.30429133393E-02	2.08918883999E-01	3.93793711039E-02
1.84882943144E+09	-1.49138456993E-01	-7.00431730148E-02	-5.35515275382E-02	-3.91642183061E-02	-5.30398191322E-02	-3.97582739011E-02	2.07728826563E-01	2.80310264505E-02
1.85050167224E+09	-1.41867248229E-01	-6.51019469995E-02	-5.61634904644E-02	-3.56893272929E-02	-5.56901596817E-02	-3.63066484079E-02	2.05353754402E-01	1.69120349379E-02
1.85217391304E+09	-1.33864666900E-01	-6.14491931331E-02	-5.86145179241E-02	-3.20110978592E-02	-5.81675169882E-02	-3.26740094452E-02	2.01814811372E-01	6.15391421533E-03
1.85384615385E+09	-1.25398082377E-01	-5.92282401253E-02	-6.08787213535E-02	-2.81347137626E-02	-6.04750181159E-02	-2.88297417564E-02	1.97184743971E-01	-4.10247741594E-03
1.85551839465E+09	-1.16708251486E-01	-5.85365841881E-02	-6.29401000016E-02	-2.40509087430E-02	-6.25700692988E-02	-2.47782097501E-02	1.91490685075E-01	-1.37193685307E-02
1.85719063545E+09	-1.08143386530E-01	-5.94096022310E-02	-6.47668124096E-02	-1.97576535260E-02	-6.44355105184E-02	-2.05251651566E-02	1.84825008247E-01	-2.26507018871E-02
1.85886287625E+09	-9.99741672974E-02	-6.17987171482E-02	-6.63029025356E-02	-1.52726725534E-02	-6.60321662129E-02	-1.60603075470E-02	1.77252473956E-01	-3.07675167502E-02
1.86053511706E+09	-9.24940544388E-02	-6.55900366191E-02	-6.75351065165E-02	-1.05899913733E-02	-6.73062885052E-02	-1.14143424564E-02	1.68881199496E-01	-3.79613123856E-02
1.86220735786E+09	-8.59747290017E-02	-7.06399462948E-02	-6.84144250548E-02	-5.76987500937E-03	-6.82522264253E-02	-6.60932506607E-03	1.59803453123E-01	-4.41941569640E-02
1.86387959866E+09	-8.06239931736E-02	-7.67060676547E-02	-6.89136445732E-02	-8.14180287346E-04	-6.88127671711E-02	-1.66510979481E-03	1.50127472387E-01	-4.93773310412E-02
1.86555183946E+09	-7.66313469102E-02	-8.35516321495E-02	-6.90123034714E-02	4.23626136169E-03	-6.89751426260E-02	3.35281305240E-03	1.39960367896E-01	-5.34535379441E-02
1.86722408027E+09	-7.41103826614E-02	-9.08669820051E-02	-6.87017868347E-02	9.30066533455E-03	-6.87247928420E-02	8.42115838224E-03	1.29421365302E-01	-5.63457911409E-02
1.86889632107E+09	-7.30701758570E-02	-9.83715023858E-02	-6.79493111470E-02	1.43613078727E-02	-6.80285142323E-02	1.34766167639E-02	1.18613056897E-01	-5.80511489686E-02
1.87056856187E+09	-7.35016168449E-02	-1.05764265843E-01	-6.67650136293E-02	1.93562307205E-02	-6.69349991832E-02	1.84748436898E-02	1.07722597100E-01	-5.85132895848E-02
1.87224080268E+09	-7.53328018098E-02	-1.12768604747E-01	-6.52021190292E-02	2.42391395847E-02	-6.54324976952E-02	2.33585444446E-02	9.68446801420E-02	-5.77464689039E-02
1.87391304348E+09	-7.84187956510E-02	-1.19207357584E-01	-6.32420948618E-02	2.89744828967E-02	-6.35256668852E-02	2.81231047901E-02	8.60946958322E-02	-5.57409525965E-02
1.87558528428E+09	-8.26541554320E-02	-1.24800479984E-01	-6.08838118348E-02	3.35430378681E-02	-6.12493887865E-02	3.26961242436E-02	7.56606073296E-02	-5.25292933141E-02
1.87725752508E+09	-8.77941779077E-02	-1.29425836907E-01	-5.81972972903E-02	3.78722150447E-02	-5.86252860886E-02	3.70634307462E-02	6.56484680661E-02	-4.81398286362E-02
1.87892976589E+09	-9.36686484965E-02	-1.32932318574E-01	-5.51689707350E-02	4.19787352991E-02	-5.56682716029E-02	4.11932012538E-02	5.61911601467E-02	-4.26064363412E-02
1.88060200669E+09	-1.00026284723E-01	-1.35273736561E-01	-5.18618326326E-02	4.57940434961E-02	-5.24124198733E-02	4.50612283936E-02	4.74245904790E-02	-3.60350505440E-02
1.88227424749E+09	-1.06674261238E-01	-1.36435546775E-01	-4.82863828366E-02	4.93433205271E-02	-4.88821955499E-02	4.86426430378E-02	3.94446273792E-02	-2.85255297693E-02
1.88394648829E+09	-1.13443900685E-01	-1.36380833005E-01	-4.44557194512E-02	5.25808176437E-02	-4.51152085903E-02	5.19270593112E-02	3.23858736622E-02	-2.01122853675E-02
1.88561872910E+09	-1.20122282807E-01	-1.35155975154E-01	-4.04347358949E-02	5.55009799598E-02	-4.11419153671E-02	5.48923067763E-02	2.62956821149E-02	-1.09596265887E-02
1.88729096990E+09	-1.26545932087E-01	-1.32806224221E-01	-3.62244043129E-02	5.80922924023E-02	-3.69689021189E-02	5.75376522160E-02	2.13131376601E-02	-1.18129875318E-03
1.88896321070E+09	-1.32564076704E-01	-1.29408568927E-01	-3.18611606970E-02	6.03367684871E-02	-3.26542175680E-02	5.98451324219E-02	1.74420546918E-02	9.12367704011E-03
1.89063545151E+09	-1.38015071001E-01	-1.25016672585E-01	-2.73776113075E-02	6.22442605469E-02	-2.82119753518E-02	6.18175006638E-02	1.47607856307E-02	1.97782550243E-02
1.89230769231E+09	-1.42775330123E-01	-1.19790568255E-01	-2.28031913810E-02	6.37973204702E-02	-2.36576440194E-02	6.34292442641E-02	1.32692840233E-02	3.06532283996E-02
1.89397993311E+09	-1.46746745152E-01	-1.13804777340E-01	-1.81622463476E-02	6.50071685891E-02	-1.90387480089E-02	6.47097382757E-02	1.30213829613E-02	4.16237433528E-02
1.89565217391E+09	-1.49841786174E-01	-1.07225745223E-01	-1.34961486539E-02	6.58587881734E-02	-1.43909857755E-02	6.56314165262E-02	1.39740523958E-02	5.25404686228E-02
