# Hz S RI R 50
! CMT, CMT808U, 21440046, 21.4.3/4
! Date: 12/13/2025 10:51:03 PM
! Data: Format (Calibration Info)
! Freq	S11:Re/Im(F2)	S41:Re/Im(F2)	S14:Re/Im(F2)	S44:Re/Im(F2)
1.70000000000E+09	-9.26157679100E-02	-1.31466587189E-01	-4.56684905667E-02	-5.44880109115E-02	-4.54002955117E-02	-5.43992086180E-02	-5.38714557447E-02	4.16075143306E-02
1.70100000000E+09	-9.46273010731E-02	-1.25801297669E-01	-4.78591063945E-02	-5.25561206538E-02	-4.76777828680E-02	-5.24993843593E-02	-5.40520020724E-02	4.84107818772E-02
1.70200000000E+09	-9.59988029177E-02	-1.19844343280E-01	-5.00849025665E-02	-5.06118783627E-02	-4.99179058924E-02	-5.05136937623E-02	-5.39497927685E-02	5.52200919825E-02
1.70300000000E+09	-9.69704615765E-02	-1.13641896494E-01	-5.21758327635E-02	-4.84941039113E-02	-5.20427258308E-02	-4.85800965470E-02	-5.32048784037E-02	6.19699835784E-02
1.70400000000E+09	-9.73296131616E-02	-1.07149229029E-01	-5.42891567114E-02	-4.63142193374E-02	-5.40609252055E-02	-4.63901629229E-02	-5.20397181387E-02	6.86389233723E-02
1.70500000000E+09	-9.70049866080E-02	-1.00535217963E-01	-5.62529998017E-02	-4.41315995997E-02	-5.60729658378E-02	-4.41375044321E-02	-5.03963202471E-02	7.52436259958E-02
1.70600000000E+09	-9.61155894332E-02	-9.39175139367E-02	-5.81398249801E-02	-4.18627124408E-02	-5.79413245145E-02	-4.18496909862E-02	-4.83783125533E-02	8.16479875432E-02
1.70700000000E+09	-9.46562481727E-02	-8.72142822768E-02	-5.99967349586E-02	-3.94416346579E-02	-5.98324258980E-02	-3.94237611122E-02	-4.58352885612E-02	8.80844287381E-02
1.70800000000E+09	-9.25620177127E-02	-8.05357986226E-02	-6.16927516502E-02	-3.69536639556E-02	-6.15118284396E-02	-3.69595137795E-02	-4.29628452652E-02	9.42602595901E-02
1.70900000000E+09	-8.99429034473E-02	-7.39292438186E-02	-6.33013996134E-02	-3.42894185377E-02	-6.31779244403E-02	-3.43678528640E-02	-3.96589214509E-02	1.00206827654E-01
1.71000000000E+09	-8.66844758990E-02	-6.75083623637E-02	-6.49689528627E-02	-3.16788534072E-02	-6.46999928090E-02	-3.17241835471E-02	-3.59441979987E-02	1.05914150586E-01
1.71100000000E+09	-8.29113522547E-02	-6.13274878267E-02	-6.63753226724E-02	-2.89257280962E-02	-6.61426871023E-02	-2.90023132217E-02	-3.18845484666E-02	1.11364676258E-01
1.71200000000E+09	-7.85986391637E-02	-5.53170978799E-02	-6.77161557450E-02	-2.60742540114E-02	-6.76056891509E-02	-2.62133681225E-02	-2.74051012054E-02	1.16626043762E-01
1.71300000000E+09	-7.37472847891E-02	-4.96916115367E-02	-6.88406406153E-02	-2.33150217320E-02	-6.87132701701E-02	-2.32802149969E-02	-2.26745586285E-02	1.21519507283E-01
1.71400000000E+09	-6.85298010056E-02	-4.43645832637E-02	-6.99808889030E-02	-2.02254984855E-02	-6.98436109019E-02	-2.03988691487E-02	-1.76888327748E-02	1.26091358583E-01
1.71500000000E+09	-6.27346299818E-02	-3.94328167147E-02	-7.09693281989E-02	-1.72241709878E-02	-7.07420537298E-02	-1.73041471360E-02	-1.22381968351E-02	1.30347712361E-01
1.71600000000E+09	-5.66500972486E-02	-3.48915794217E-02	-7.17877423080E-02	-1.41304437447E-02	-7.15838831057E-02	-1.42571242641E-02	-6.60681729839E-03	1.34214227106E-01
1.71700000000E+09	-5.01158033342E-02	-3.08556461070E-02	-7.24856638036E-02	-1.10147600082E-02	-7.22667858473E-02	-1.10894084570E-02	-6.68463651905E-04	1.37838137019E-01
1.71800000000E+09	-4.33282544131E-02	-2.71756616811E-02	-7.30150362816E-02	-7.87485406943E-03	-7.28039704013E-02	-7.95716664356E-03	5.32227672977E-03	1.40859960233E-01
1.71900000000E+09	-3.63466752503E-02	-2.41137296273E-02	-7.34198015835E-02	-4.63805583889E-03	-7.32176646570E-02	-4.71800982003E-03	1.16638957529E-02	1.43751716922E-01
1.72000000000E+09	-2.90553728806E-02	-2.15970092791E-02	-7.36868819584E-02	-1.46077449524E-03	-7.34482287726E-02	-1.55278661706E-03	1.80998282476E-02	1.46078333495E-01
1.72100000000E+09	-2.16596892518E-02	-1.94261063234E-02	-7.37127624214E-02	1.86803915193E-03	-7.35704618491E-02	1.78394411911E-03	2.48194775030E-02	1.47925468025E-01
1.72200000000E+09	-1.40870110211E-02	-1.79413587065E-02	-7.37090884558E-02	5.17447919221E-03	-7.34925893946E-02	4.94023932727E-03	3.14885343335E-02	1.49533194123E-01
1.72300000000E+09	-6.38763311900E-03	-1.69478535659E-02	-7.34762172377E-02	8.41936987524E-03	-7.33028007920E-02	8.25264504829E-03	3.82767489720E-02	1.50708702236E-01
1.72400000000E+09	1.21810587101E-03	-1.64943947285E-02	-7.31089342450E-02	1.16668338845E-02	-7.29219239087E-02	1.15006689310E-02	4.51901078070E-02	1.51344361866E-01
1.72500000000E+09	8.91209386003E-03	-1.66711841897E-02	-7.25709158588E-02	1.49127297288E-02	-7.24889988626E-02	1.47429498093E-02	5.20860691207E-02	1.51558497158E-01
1.72600000000E+09	1.64994283051E-02	-1.72849014931E-02	-7.19081746337E-02	1.82083389141E-02	-7.17285618061E-02	1.79699689777E-02	5.89463527309E-02	1.51291052691E-01
1.72700000000E+09	2.40745386588E-02	-1.84422300063E-02	-7.10342372493E-02	2.13931223641E-02	-7.08772966863E-02	2.11688746934E-02	6.59077576560E-02	1.50717578029E-01
1.72800000000E+09	3.14025900450E-02	-2.01975602694E-02	-7.00096686600E-02	2.45660469664E-02	-6.99053729996E-02	2.43520324231E-02	7.27244553533E-02	1.49648758895E-01
1.72900000000E+09	3.85134426550E-02	-2.23537516848E-02	-6.88619843124E-02	2.76644452540E-02	-6.88567156887E-02	2.74353616442E-02	7.95333143691E-02	1.48204282480E-01
1.73000000000E+09	4.54865090444E-02	-2.51191605445E-02	-6.76464841057E-02	3.07466801675E-02	-6.75259496143E-02	3.05421033308E-02	8.61581580666E-02	1.46319972140E-01
1.73100000000E+09	5.22132849830E-02	-2.82438553401E-02	-6.61797877318E-02	3.36568658753E-02	-6.60870968209E-02	3.34192874920E-02	9.27691704019E-02	1.43963268383E-01
1.73200000000E+09	5.85905100918E-02	-3.19146611808E-02	-6.45678185751E-02	3.65424129499E-02	-6.44504589175E-02	3.63863752901E-02	9.91740472639E-02	1.41253465565E-01
1.73300000000E+09	6.46324824243E-02	-3.58333662765E-02	-6.29165957872E-02	3.94259576019E-02	-6.27833692642E-02	3.91709133050E-02	1.05438571307E-01	1.38205978726E-01
1.73400000000E+09	7.03344542611E-02	-4.02881248793E-02	-6.09676881572E-02	4.21266167112E-02	-6.10196516363E-02	4.19927218379E-02	1.11511342783E-01	1.34719355299E-01
1.73500000000E+09	7.56068552355E-02	-4.50805393576E-02	-5.90619822775E-02	4.48437346933E-02	-5.90555066241E-02	4.45628628018E-02	1.17341477964E-01	1.30882796874E-01
1.73600000000E+09	8.04396397922E-02	-5.00859908754E-02	-5.69935599905E-02	4.73558612471E-02	-5.70114113007E-02	4.71114138018E-02	1.22852617479E-01	1.26528171443E-01
1.73700000000E+09	8.48946331631E-02	-5.54145887599E-02	-5.47650187018E-02	4.97670575370E-02	-5.47989965658E-02	4.94987803232E-02	1.28244730911E-01	1.22117643315E-01
1.73800000000E+09	8.88761076411E-02	-6.10440147722E-02	-5.24463792240E-02	5.20945656878E-02	-5.24789709813E-02	5.17874535289E-02	1.33196098925E-01	1.17230665901E-01
1.73900000000E+09	9.23793468886E-02	-6.68790423899E-02	-5.00236478420E-02	5.42650844139E-02	-5.01340886013E-02	5.39993597053E-02	1.38030390778E-01	1.12028974376E-01
1.74000000000E+09	9.53538530186E-02	-7.29182854908E-02	-4.76255518639E-02	5.63100585804E-02	-4.76017910593E-02	5.61887581985E-02	1.42444533772E-01	1.06497516080E-01
1.74100000000E+09	9.78179356772E-02	-7.89855690783E-02	-4.50110925374E-02	5.82748268829E-02	-4.51200626376E-02	5.80882656268E-02	1.46513038350E-01	1.00874171249E-01
1.74200000000E+09	9.98587309076E-02	-8.52228860895E-02	-4.23971566655E-02	6.01469289083E-02	-4.24420887009E-02	5.99215988642E-02	1.50209605299E-01	9.47649622440E-02
1.74300000000E+09	1.01223327898E-01	-9.14578821448E-02	-3.96507242084E-02	6.19204828383E-02	-3.96622661314E-02	6.16042475383E-02	1.53586300642E-01	8.85340016589E-02
1.74400000000E+09	1.02123001531E-01	-9.76873163619E-02	-3.68567624464E-02	6.34577212286E-02	-3.69507505103E-02	6.31694237509E-02	1.56585903454E-01	8.21182966698E-02
1.74500000000E+09	1.02448068857E-01	-1.03891395051E-01	-3.40046035678E-02	6.47857700484E-02	-3.40227722200E-02	6.46169369625E-02	1.59118554567E-01	7.54559734499E-02
1.74600000000E+09	1.02266625356E-01	-1.10019917185E-01	-3.11057134629E-02	6.60751342379E-02	-3.12130394309E-02	6.59032983663E-02	1.61228984075E-01	6.88029028675E-02
1.74700000000E+09	1.01535905194E-01	-1.16037924455E-01	-2.81837440733E-02	6.73136302145E-02	-2.83273003704E-02	6.70930906302E-02	1.62989597070E-01	6.17938379486E-02
1.74800000000E+09	1.00318861744E-01	-1.21763517477E-01	-2.52889516299E-02	6.82947798207E-02	-2.53564062954E-02	6.81299181017E-02	1.64299361500E-01	5.47893406088E-02
1.74900000000E+09	9.85728219131E-02	-1.27319811792E-01	-2.22340782754E-02	6.92580095038E-02	-2.23259047841E-02	6.89815941586E-02	1.65180660854E-01	4.78002531168E-02
1.75000000000E+09	9.63209877261E-02	-1.32629486858E-01	-1.93180062697E-02	6.99793055490E-02	-1.94419695292E-02	6.97552524987E-02	1.65595371932E-01	4.06501437932E-02
1.75100000000E+09	9.37758543187E-02	-1.37560828957E-01	-1.62190719153E-02	7.06349602469E-02	-1.63894828832E-02	7.03754746049E-02	1.65593986431E-01	3.34579936083E-02
1.75200000000E+09	9.06419581936E-02	-1.42204871689E-01	-1.32813929518E-02	7.10446690853E-02	-1.33157782991E-02	7.09120985314E-02	1.65077267074E-01	2.63396572003E-02
1.75300000000E+09	8.71998026086E-02	-1.46339864794E-01	-1.02250313712E-02	7.14896099063E-02	-1.03213657249E-02	7.12897348590E-02	1.64206519176E-01	1.91410778928E-02
1.75400000000E+09	8.32892230942E-02	-1.50124973807E-01	-7.20245411939E-03	7.16416040550E-02	-7.36119784935E-03	7.15324272563E-02	1.62753884813E-01	1.20427546144E-02
1.75500000000E+09	7.91707330437E-02	-1.53443364040E-01	-4.20463003074E-03	7.17795278359E-02	-4.31685955058E-03	7.16822256195E-02	1.60969513450E-01	5.01192462931E-03
1.75600000000E+09	7.46850381884E-02	-1.56192381586E-01	-1.18311314133E-03	7.17321220535E-02	-1.30208095893E-03	7.16175986646E-02	1.58633342726E-01	-1.72996250563E-03
1.75700000000E+09	7.00168851092E-02	-1.58463125947E-01	1.74549452350E-03	7.17012803519E-02	1.60893225963E-03	7.15138096061E-02	1.55899641042E-01	-8.54959021132E-03
1.75800000000E+09	6.52130834168E-02	-1.60143333831E-01	4.71753814838E-03	7.14203498058E-02	4.54087334625E-03	7.13347384391E-02	1.52741867231E-01	-1.50192592757E-02
1.75900000000E+09	6.01780626590E-02	-1.61238885091E-01	7.66018747682E-03	7.10393375677E-02	7.42643699992E-03	7.09036079432E-02	1.49188499352E-01	-2.13402523532E-02
1.76000000000E+09	5.51481114979E-02	-1.61706495446E-01	1.05455576864E-02	7.06423371237E-02	1.03391301309E-02	7.05217508322E-02	1.45232568885E-01	-2.74885488003E-02
1.76100000000E+09	5.01294073239E-02	-1.61578290445E-01	1.33591813898E-02	7.00456958696E-02	1.32506535536E-02	6.99069499133E-02	1.40794570463E-01	-3.33160871997E-02
1.76200000000E+09	4.51868606314E-02	-1.60915330469E-01	1.62380435408E-02	6.94123659374E-02	1.60714625478E-02	6.92250306837E-02	1.36060651196E-01	-3.88443339407E-02
1.76300000000E+09	4.03162195296E-02	-1.59535857722E-01	1.90523676914E-02	6.86009317199E-02	1.88172605142E-02	6.85323256192E-02	1.31057936610E-01	-4.41412218140E-02
1.76400000000E+09	3.56891484350E-02	-1.57541130511E-01	2.17847376864E-02	6.77150434602E-02	2.15790938824E-02	6.76221994360E-02	1.25650946764E-01	-4.90337602928E-02
1.76500000000E+09	3.13246492789E-02	-1.55035397108E-01	2.44915300067E-02	6.68141095207E-02	2.42681086153E-02	6.66574395228E-02	1.19843166906E-01	-5.36663464997E-02
1.76600000000E+09	2.72199523391E-02	-1.51960842563E-01	2.71087129961E-02	6.57258174220E-02	2.69425705433E-02	6.55886318996E-02	1.13861926943E-01	-5.78024474734E-02
1.76700000000E+09	2.35500501370E-02	-1.48295574461E-01	2.97891637318E-02	6.44949744276E-02	2.95090803484E-02	6.44641453520E-02	1.07519059395E-01	-6.16421376551E-02
1.76800000000E+09	2.03197022817E-02	-1.44290722839E-01	3.23359372657E-02	6.32537848395E-02	3.21948987370E-02	6.32592572775E-02	1.01006756523E-01	-6.49643157805E-02
1.76900000000E+09	1.75969676892E-02	-1.39690406282E-01	3.49199872548E-02	6.19197643886E-02	3.47228693187E-02	6.19084876756E-02	9.42877144460E-02	-6.79173208558E-02
1.77000000000E+09	1.53294801824E-02	-1.34753669323E-01	3.74055057052E-02	6.04809379788E-02	3.71364560231E-02	6.04357376805E-02	8.73652643128E-02	-7.04949540346E-02
1.77100000000E+09	1.37275295263E-02	-1.29682693521E-01	3.97304528731E-02	5.90322389443E-02	3.96333672566E-02	5.89054585230E-02	8.02338352431E-02	-7.25210854709E-02
1.77200000000E+09	1.28116451215E-02	-1.24169837582E-01	4.21785737836E-02	5.73733017839E-02	4.19926288916E-02	5.73193301907E-02	7.31453827973E-02	-7.41026108998E-02
1.77300000000E+09	1.24392112681E-02	-1.18569639093E-01	4.46005427601E-02	5.56287423644E-02	4.43887462052E-02	5.56012046751E-02	6.58216052749E-02	-7.52540197461E-02
1.77400000000E+09	1.28472077415E-02	-1.12792349357E-01	4.68494484904E-02	5.38710490145E-02	4.65949406124E-02	5.37968037348E-02	5.84257940740E-02	-7.59421140202E-02
1.77500000000E+09	1.39005620707E-02	-1.07026756206E-01	4.90778177166E-02	5.20180128837E-02	4.88347235943E-02	5.19321307908E-02	5.11411762872E-02	-7.61010845754E-02
1.77600000000E+09	1.56554639139E-02	-1.01366208155E-01	5.12876948854E-02	4.99675737331E-02	5.10476648129E-02	4.99868761727E-02	4.37178692421E-02	-7.58379808253E-02
1.77700000000E+09	1.80209219648E-02	-9.58616182694E-02	5.33797851921E-02	4.78645825097E-02	5.31062469626E-02	4.78829933674E-02	3.63731295138E-02	-7.49979313471E-02
1.77800000000E+09	2.10784167306E-02	-9.04536611389E-02	5.53569162540E-02	4.56734108309E-02	5.51539816874E-02	4.57673186663E-02	2.91154813950E-02	-7.38452627127E-02
1.77900000000E+09	2.47947898369E-02	-8.54082616472E-02	5.73434763040E-02	4.35284477546E-02	5.71711493958E-02	4.35291526544E-02	2.19956236948E-02	-7.21038108811E-02
1.78000000000E+09	2.90474939433E-02	-8.06633600756E-02	5.92048391074E-02	4.11695075238E-02	5.89718045805E-02	4.11913818075E-02	1.48950236453E-02	-6.98926724546E-02
1.78100000000E+09	3.38671578202E-02	-7.64016387260E-02	6.09987102509E-02	3.87005511805E-02	6.07470028968E-02	3.87101777924E-02	8.01409179918E-03	-6.74055751628E-02
1.78200000000E+09	3.92301400007E-02	-7.25496989452E-02	6.26549676936E-02	3.61175499456E-02	6.24322632439E-02	3.62068186602E-02	1.37195069125E-03	-6.43673763513E-02
1.78300000000E+09	4.49394004872E-02	-6.92136871669E-02	6.41776629880E-02	3.35850507969E-02	6.39231060849E-02	3.35762898244E-02	-5.15006064376E-03	-6.08946702123E-02
1.78400000000E+09	5.11144022559E-02	-6.65496692893E-02	6.57103422073E-02	3.08698850988E-02	6.55279456834E-02	3.09367627157E-02	-1.14371695350E-02	-5.71084876212E-02
1.78500000000E+09	5.75664148699E-02	-6.44723001619E-02	6.71363306191E-02	2.80988676074E-02	6.69841966308E-02	2.81921750827E-02	-1.74123587899E-02	-5.28423931612E-02
1.78600000000E+09	6.42247623406E-02	-6.29460163919E-02	6.83775517920E-02	2.52831126905E-02	6.81712038386E-02	2.53563622391E-02	-2.31546175841E-02	-4.83027953500E-02
1.78700000000E+09	7.09979629625E-02	-6.21277762439E-02	6.94452754909E-02	2.23034606605E-02	6.92937881882E-02	2.24821711180E-02	-2.85053519343E-02	-4.32565668126E-02
1.78800000000E+09	7.79405807351E-02	-6.19775460071E-02	7.05715413635E-02	1.93942049919E-02	7.03773297056E-02	1.94661223581E-02	-3.35189952331E-02	-3.79690381375E-02
1.78900000000E+09	8.48906416327E-02	-6.24822989590E-02	7.14287358745E-02	1.63346246637E-02	7.11985310794E-02	1.64513767156E-02	-3.83427033207E-02	-3.23871154668E-02
1.79000000000E+09	9.18313321833E-02	-6.37050561959E-02	7.21715323014E-02	1.31996421193E-02	7.20600444335E-02	1.33599038125E-02	-4.27514854484E-02	-2.65546418678E-02
1.79100000000E+09	9.85534057593E-02	-6.54397441067E-02	7.27791725340E-02	1.01840109129E-02	7.26266958523E-02	1.02635641642E-02	-4.66903757967E-02	-2.03931555621E-02
1.79200000000E+09	1.05165646470E-01	-6.78347351022E-02	7.32232317530E-02	6.88911301176E-03	7.31204836946E-02	7.13988472803E-03	-5.02266454336E-02	-1.41395418591E-02
1.79300000000E+09	1.11557653112E-01	-7.08356415952E-02	7.36390309533E-02	3.76702555551E-03	7.34740279294E-02	3.82141743764E-03	-5.33355901849E-02	-7.56818467799E-03
1.79400000000E+09	1.17660090101E-01	-7.43308205898E-02	7.38337360917E-02	5.34871822154E-04	7.36733256554E-02	6.72988927979E-04	-5.61629226835E-02	-9.48424298597E-04
1.79500000000E+09	1.23402873336E-01	-7.84018517842E-02	7.38084166820E-02	-2.70629514250E-03	7.36691861502E-02	-2.54401881988E-03	-5.84130585965E-02	5.97661555030E-03
1.79600000000E+09	1.28749076264E-01	-8.29398935415E-02	7.37237255117E-02	-5.93498114251E-03	7.35254973347E-02	-5.75494044201E-03	-6.02800669080E-02	1.30133958838E-02
1.79700000000E+09	1.33683233364E-01	-8.78256253753E-02	7.34317530391E-02	-9.19020435576E-03	7.32460586872E-02	-9.05419992445E-03	-6.17695604866E-02	2.00877563647E-02
1.79800000000E+09	1.38124712326E-01	-9.32277833576E-02	7.29581353649E-02	-1.24599297124E-02	7.28671522175E-02	-1.23038579765E-02	-6.26703719681E-02	2.72497287958E-02
1.79900000000E+09	1.42157811986E-01	-9.88444839262E-02	7.23594968047E-02	-1.56317074036E-02	7.22660938160E-02	-1.54722876630E-02	-6.31665307942E-02	3.45039315745E-02
1.80000000000E+09	1.45627094392E-01	-1.04878876288E-01	7.16616779397E-02	-1.88291760669E-02	7.15048298422E-02	-1.86234660629E-02	-6.32765908313E-02	4.16037003111E-02
1.80100000000E+09	1.48595783183E-01	-1.11051592825E-01	7.06906135009E-02	-2.20433343800E-02	7.06174823623E-02	-2.18509948270E-02	-6.28496261068E-02	4.88365827734E-02
1.80200000000E+09	1.51093141055E-01	-1.17438761361E-01	6.96777399533E-02	-2.50949886513E-02	6.96414472476E-02	-2.48863008773E-02	-6.20735611553E-02	5.60624979961E-02
1.80300000000E+09	1.52953791106E-01	-1.23928876379E-01	6.84600196023E-02	-2.81543340079E-02	6.84114922607E-02	-2.79220707504E-02	-6.07820837075E-02	6.31132015410E-02
1.80400000000E+09	1.54266727447E-01	-1.30567884366E-01	6.71523994182E-02	-3.11032737998E-02	6.70755528399E-02	-3.08697186917E-02	-5.89598877848E-02	7.00736408095E-02
1.80500000000E+09	1.55101047169E-01	-1.37163716716E-01	6.56489421541E-02	-3.40274056486E-02	6.55760859299E-02	-3.38522265099E-02	-5.68493851624E-02	7.68369556840E-02
1.80600000000E+09	1.55450036801E-01	-1.43820381717E-01	6.41244726687E-02	-3.68960694103E-02	6.39586484906E-02	-3.66161454909E-02	-5.42912843555E-02	8.35548499820E-02
1.80700000000E+09	1.55106659258E-01	-1.50327048370E-01	6.23364055440E-02	-3.96251801787E-02	6.22116902722E-02	-3.93624047282E-02	-5.12802869382E-02	8.99916819992E-02
1.80800000000E+09	1.54347882466E-01	-1.56875150004E-01	6.04859750006E-02	-4.22792693726E-02	6.03606286818E-02	-4.20259855249E-02	-4.77937373577E-02	9.63761023144E-02
1.80900000000E+09	1.53118048654E-01	-1.63109661973E-01	5.84404373580E-02	-4.47374919697E-02	5.84334656242E-02	-4.46311688564E-02	-4.40035343157E-02	1.02285981935E-01
1.81000000000E+09	1.51296572673E-01	-1.69293367705E-01	5.64361792405E-02	-4.73380961554E-02	5.63416109157E-02	-4.70200798085E-02	-3.99199739620E-02	1.08106515363E-01
1.81100000000E+09	1.49133367895E-01	-1.75298091793E-01	5.41552911013E-02	-4.96053640187E-02	5.42144305241E-02	-4.93369260061E-02	-3.53610669344E-02	1.13624824425E-01
1.81200000000E+09	1.46436848577E-01	-1.80923091322E-01	5.18795810890E-02	-5.18088576376E-02	5.18496419631E-02	-5.15802679774E-02	-3.04369943785E-02	1.18735700979E-01
1.81300000000E+09	1.43424128018E-01	-1.86373858910E-01	4.95424142516E-02	-5.39842394688E-02	4.94948633282E-02	-5.36914825039E-02	-2.52807429235E-02	1.23574221046E-01
1.81400000000E+09	1.40067190175E-01	-1.91457172440E-01	4.70379420972E-02	-5.59552297832E-02	4.70753678525E-02	-5.57369630033E-02	-1.99447364383E-02	1.28136287058E-01
1.81500000000E+09	1.36183993962E-01	-1.96254279983E-01	4.44570894000E-02	-5.78350369622E-02	4.45078233421E-02	-5.76241208692E-02	-1.41832552984E-02	1.32294924866E-01
1.81600000000E+09	1.32121503355E-01	-2.00663174570E-01	4.18401176606E-02	-5.96662721248E-02	4.19469093762E-02	-5.93561161358E-02	-8.17142617913E-03	1.36003111871E-01
1.81700000000E+09	1.27765531685E-01	-2.04773286552E-01	3.92254799465E-02	-6.12393174910E-02	3.92685604952E-02	-6.09254138644E-02	-2.05905294039E-03	1.39440721540E-01
