# Hz S RI R 50
! CMT, CMT808U, 21440046, 21.4.3/4
! Date: 12/11/2025 11:24:23 AM
! Data: Format (Calibration Info)
! Freq	S11:Re/Im(F2)	S41:Re/Im(F2)	S14:Re/Im(F2)	S44:Re/Im(F2)
1.70000000000E+09	-2.02021947626E-01	-1.09731651590E-01	-5.18454257043E-02	-4.79585774702E-02	-5.10186737678E-02	-4.86656717058E-02	-9.81210788980E-03	6.39595686528E-02
1.70167224080E+09	-2.02919467864E-01	-1.01511292425E-01	-5.50012687131E-02	-4.42064139563E-02	-5.42450518318E-02	-4.49684906653E-02	-7.56922728649E-03	7.18622098836E-02
1.70334448161E+09	-2.02341595518E-01	-9.30194257266E-02	-5.79044206454E-02	-4.02714028139E-02	-5.72043672415E-02	-4.10756081189E-02	-4.43921482989E-03	7.95427729248E-02
1.70501672241E+09	-2.00259115999E-01	-8.45085401146E-02	-6.05445086975E-02	-3.61504170959E-02	-5.99103641039E-02	-3.70031158416E-02	-4.79832240740E-04	8.68889415444E-02
1.70668896321E+09	-1.96740318451E-01	-7.62660655970E-02	-6.29086130661E-02	-3.18665667143E-02	-6.23393648151E-02	-3.27496643069E-02	4.25654698317E-03	9.38242913432E-02
1.70836120401E+09	-1.91875502807E-01	-6.84828515730E-02	-6.49966711438E-02	-2.74306763196E-02	-6.44811447880E-02	-2.83493109278E-02	9.77378934416E-03	1.00259607170E-01
1.71003344482E+09	-1.85784010032E-01	-6.14018945197E-02	-6.67651051851E-02	-2.28581789303E-02	-6.63346525401E-02	-2.38015141765E-02	1.59418459322E-02	1.06106878281E-01
1.71170568562E+09	-1.78601154931E-01	-5.51885158132E-02	-6.82460810143E-02	-1.81536191253E-02	-6.78738852560E-02	-1.91284195409E-02	2.27462340915E-02	1.11309129662E-01
1.71337792642E+09	-1.70496969522E-01	-4.99722049078E-02	-6.93931998285E-02	-1.33458863420E-02	-6.90882999452E-02	-1.43453934632E-02	3.00576625465E-02	1.15770686267E-01
1.71505016722E+09	-1.61681582482E-01	-4.59156990139E-02	-7.02203384599E-02	-8.47987510935E-03	-6.99807735299E-02	-9.48380594953E-03	3.78646490181E-02	1.19487080878E-01
1.71672240803E+09	-1.52302220332E-01	-4.30580579883E-02	-7.07037921857E-02	-3.53590622966E-03	-7.05249343143E-02	-4.55792487946E-03	4.60367059952E-02	1.22364760812E-01
1.71839464883E+09	-1.42584209185E-01	-4.14755609834E-02	-7.08366236603E-02	1.44530354811E-03	-7.07374024977E-02	4.01919512691E-04	5.44682637890E-02	1.24396760079E-01
1.72006688963E+09	-1.32733561393E-01	-4.11830364419E-02	-7.06175123713E-02	6.42571428183E-03	-7.05965887427E-02	5.38187019206E-03	6.31185759504E-02	1.25550618065E-01
1.72173913043E+09	-1.22924685291E-01	-4.21749479657E-02	-7.00608092676E-02	1.13929803679E-02	-7.01070355084E-02	1.03531756737E-02	7.18431059616E-02	1.25801620790E-01
1.72341137124E+09	-1.13349130970E-01	-4.44269941788E-02	-6.91465592534E-02	1.63123718981E-02	-6.92537710477E-02	1.52810891726E-02	8.05659358199E-02	1.25156024243E-01
1.72508361204E+09	-1.04182126791E-01	-4.78459551742E-02	-6.78746256674E-02	2.11739374626E-02	-6.80688730538E-02	2.01429800725E-02	8.91762100936E-02	1.23609571018E-01
1.72675585284E+09	-9.55811319636E-02	-5.23888832135E-02	-6.62706583957E-02	2.59391266371E-02	-6.65209984529E-02	2.49145950307E-02	9.75852211933E-02	1.21188992669E-01
1.72842809365E+09	-8.77147158706E-02	-5.79239606294E-02	-6.43125719029E-02	3.05814448652E-02	-6.46449569485E-02	2.95857741468E-02	1.05722628306E-01	1.17888936050E-01
1.73010033445E+09	-8.06759703242E-02	-6.43600586442E-02	-6.20381054023E-02	3.50849542952E-02	-6.24304615563E-02	3.41088679277E-02	1.13468594857E-01	1.13795869166E-01
1.73177257525E+09	-7.46063867603E-02	-7.15510392374E-02	-5.94422102338E-02	3.94172662595E-02	-5.99000851649E-02	3.84709894330E-02	1.20734523865E-01	1.08900629553E-01
1.73344481605E+09	-6.95761083058E-02	-7.93557801574E-02	-5.65412085379E-02	4.35654857515E-02	-5.70758443842E-02	4.26424934930E-02	1.27470856108E-01	1.03285672900E-01
1.73511705686E+09	-6.56644699871E-02	-8.76090580070E-02	-5.33518757749E-02	4.74981099372E-02	-5.39395901767E-02	4.66116443085E-02	1.33572804224E-01	9.70091591979E-02
1.73678929766E+09	-6.29006444727E-02	-9.61742872178E-02	-4.98703872388E-02	5.11923616931E-02	-5.05252865583E-02	5.03573394950E-02	1.39003942860E-01	9.01181588316E-02
1.73846153846E+09	-6.13307816278E-02	-1.04859979618E-01	-4.61389361120E-02	5.46452216341E-02	-4.68509168417E-02	5.38454452886E-02	1.43673761533E-01	8.27023613997E-02
1.74013377926E+09	-6.09314943672E-02	-1.13552238781E-01	-4.21685637844E-02	5.78188223483E-02	-4.29375385177E-02	5.70604429409E-02	1.47550537158E-01	7.48500358330E-02
1.74180602007E+09	-6.16914576427E-02	-1.22040069356E-01	-3.79627007719E-02	6.06945026936E-02	-3.87838486240E-02	6.00107697749E-02	1.50579806350E-01	6.66059816755E-02
1.74347826087E+09	-6.35848926114E-02	-1.30218043091E-01	-3.35640099036E-02	6.32792233011E-02	-3.44303603714E-02	6.26373620937E-02	1.52716336226E-01	5.80927054990E-02
1.74515050167E+09	-6.65449604042E-02	-1.37936014826E-01	-2.89855102326E-02	6.55339424992E-02	-2.98888846804E-02	6.49520431982E-02	1.53980723627E-01	4.93759669347E-02
1.74682274247E+09	-7.05264039727E-02	-1.45055104515E-01	-2.42528761744E-02	6.74447028211E-02	-2.51908339309E-02	6.69298915242E-02	1.54308949167E-01	4.05794221035E-02
1.74849498328E+09	-7.54445896229E-02	-1.51457200099E-01	-1.93717558932E-02	6.90178306049E-02	-2.03547856658E-02	6.85699169991E-02	1.53712505243E-01	3.17664840526E-02
1.75016722408E+09	-8.11985540110E-02	-1.56982350494E-01	-1.44108853404E-02	7.02349509062E-02	-1.54184612710E-02	6.98539167863E-02	1.52184896881E-01	2.30423220347E-02
1.75183946488E+09	-8.76914067732E-02	-1.61519921258E-01	-9.35640421336E-03	7.10725756109E-02	-1.03933748184E-02	7.07618825305E-02	1.49750705694E-01	1.44857008009E-02
1.75351170569E+09	-9.47796241979E-02	-1.64998269898E-01	-4.26121341061E-03	7.15444752188E-02	-5.32137859984E-03	7.13037350564E-02	1.46413818799E-01	6.19482336003E-03
1.75518394649E+09	-1.02337544938E-01	-1.67284732665E-01	8.39245272547E-04	7.16400264728E-02	-2.44553359812E-04	7.14706099113E-02	1.42208934659E-01	-1.71880381858E-03
1.75685618729E+09	-1.10152828731E-01	-1.68321284845E-01	5.93286478058E-03	7.13722873871E-02	4.85770477176E-03	7.12710762386E-02	1.37182233890E-01	-9.19929625535E-03
1.75852842809E+09	-1.18072557649E-01	-1.68004185519E-01	1.09914616317E-02	7.07222249282E-02	9.89950591423E-03	7.07029893055E-02	1.31365973154E-01	-1.61384391297E-02
1.76020066890E+09	-1.25895172198E-01	-1.66364359910E-01	1.59657124120E-02	6.97221164130E-02	1.48739872649E-02	6.97641681666E-02	1.24822821178E-01	-2.24993038565E-02
1.76187290970E+09	-1.33391408644E-01	-1.63381734125E-01	2.08478564218E-02	6.83562701983E-02	1.97514730982E-02	6.84887868963E-02	1.17605031619E-01	-2.81648118442E-02
1.76354515050E+09	-1.40348791763E-01	-1.59041633844E-01	2.56104186358E-02	6.66605205797E-02	2.45168485576E-02	6.68644274043E-02	1.09815392508E-01	-3.30758999519E-02
1.76521739130E+09	-1.46507622432E-01	-1.53488799422E-01	3.02172056626E-02	6.46430073823E-02	2.91393651129E-02	6.49090254951E-02	1.01472267969E-01	-3.71890002855E-02
1.76688963211E+09	-1.51631015909E-01	-1.46799839641E-01	3.46711268205E-02	6.23009644043E-02	3.35995531145E-02	6.26506117087E-02	9.27267416514E-02	-4.04238757612E-02
1.76856187291E+09	-1.55542316210E-01	-1.39177948455E-01	3.89286779783E-02	5.96680638130E-02	3.78744499221E-02	6.00977460175E-02	8.36280728989E-02	-4.27502027013E-02
1.77023411371E+09	-1.58050712575E-01	-1.30861321125E-01	4.29730311221E-02	5.67578906986E-02	4.19566570776E-02	5.72583109253E-02	7.42873673894E-02	-4.41532026449E-02
1.77190635452E+09	-1.59011079819E-01	-1.22109564025E-01	4.68081728550E-02	5.35801049392E-02	4.58207867799E-02	5.41511114895E-02	6.47904763252E-02	-4.45742926929E-02
1.77357859532E+09	-1.58342362310E-01	-1.13196217300E-01	5.04161818856E-02	5.01672901600E-02	4.94594978425E-02	5.08042397771E-02	5.52520457055E-02	-4.39905455661E-02
1.77525083612E+09	-1.56049755446E-01	-1.04455354779E-01	5.37735208698E-02	4.65140533713E-02	5.28613932028E-02	4.72205814720E-02	4.58071848454E-02	-4.24360342514E-02
1.77692307692E+09	-1.52157768662E-01	-9.61961565506E-02	5.68817730910E-02	4.26455298234E-02	5.60130016439E-02	4.34213119961E-02	3.65177768377E-02	-3.98812273915E-02
1.77859531773E+09	-1.46789801872E-01	-8.87524938940E-02	5.97252920986E-02	3.85753443156E-02	5.88993256338E-02	3.94139680018E-02	2.75354552365E-02	-3.63683818463E-02
1.78026755853E+09	-1.40124025784E-01	-8.23621623248E-02	6.22710527953E-02	3.43104881807E-02	6.15212808770E-02	3.52116394526E-02	1.89367410477E-02	-3.19338257556E-02
1.78193979933E+09	-1.32405177739E-01	-7.72882127674E-02	6.45303332520E-02	2.98789723711E-02	6.38368576645E-02	3.08472371714E-02	1.08416395768E-02	-2.66033364297E-02
1.78361204013E+09	-1.23872684004E-01	-7.36913763114E-02	6.64741702769E-02	2.53020404773E-02	6.58549290948E-02	2.63121929590E-02	3.35205388004E-03	-2.04705270748E-02
1.78528428094E+09	-1.14894036585E-01	-7.16984841688E-02	6.81091038294E-02	2.05833954690E-02	6.75659431622E-02	2.16398907823E-02	-3.46160456809E-03	-1.35678480543E-02
1.78695652174E+09	-1.05750452966E-01	-7.13428489936E-02	6.94056647820E-02	1.57648369980E-02	6.89413565212E-02	1.68615501156E-02	-9.49700442211E-03	-5.99012597505E-03
1.78862876254E+09	-9.67837840864E-02	-7.26082776437E-02	7.03673558476E-02	1.08488872982E-02	6.99773215660E-02	1.19881761710E-02	-1.47067491575E-02	2.14266362857E-03
1.79030100334E+09	-8.82632470262E-02	-7.54121329300E-02	7.09773107043E-02	5.87804048527E-03	7.06840479448E-02	7.05640873832E-03	-1.90171837633E-02	1.07838466875E-02
1.79197324415E+09	-8.04601052419E-02	-7.95904473429E-02	7.12300826680E-02	8.69377132352E-04	7.10332801980E-02	2.06196012862E-03	-2.23738360672E-02	1.97931895872E-02
1.79364548495E+09	-7.35816258299E-02	-8.50017208700E-02	7.11411388396E-02	-4.15866657678E-03	7.10294139471E-02	-2.93518098794E-03	-2.47253188802E-02	2.90853325018E-02
1.79531772575E+09	-6.78138339866E-02	-9.14012529898E-02	7.06735144155E-02	-9.15333112279E-03	7.06666690754E-02	-7.93841378059E-03	-2.61000673868E-02	3.85551172047E-02
1.79698996656E+09	-6.32779491493E-02	-9.85965552416E-02	6.98699448539E-02	-1.41259252075E-02	6.99402747442E-02	-1.29076862648E-02	-2.64483047650E-02	4.80789292310E-02
1.79866220736E+09	-6.00613519839E-02	-1.06329326704E-01	6.87063339637E-02	-1.90178058139E-02	6.88743016308E-02	-1.78104140861E-02	-2.57845760510E-02	5.75394206536E-02
1.80033444816E+09	-5.81813311462E-02	-1.14369323268E-01	6.71930826919E-02	-2.38225897019E-02	6.74598975202E-02	-2.26343523640E-02	-2.41157994771E-02	6.68472888424E-02
1.80200668896E+09	-5.76612250978E-02	-1.22518299390E-01	6.53463709607E-02	-2.85081010209E-02	6.57021761507E-02	-2.73366604710E-02	-2.14650086317E-02	7.58962355091E-02
1.80367892977E+09	-5.84386887301E-02	-1.30547526172E-01	6.31662454933E-02	-3.30418361828E-02	6.36137864886E-02	-3.19092604793E-02	-1.78859625585E-02	8.45587430830E-02
1.80535117057E+09	-6.04313552686E-02	-1.38262541781E-01	6.06804893302E-02	-3.74122721404E-02	6.12093479407E-02	-3.63178735153E-02	-1.33858095885E-02	9.27715090994E-02
1.80702341137E+09	-6.35898499561E-02	-1.45504202086E-01	5.78815598344E-02	-4.15979644155E-02	5.84904685086E-02	-4.05510325339E-02	-8.06435001082E-03	1.00437472405E-01
1.80869565217E+09	-6.77843603355E-02	-1.52119668819E-01	5.47886868865E-02	-4.55692529382E-02	5.54808159530E-02	-4.45869131768E-02	-1.96759557061E-03	1.07459812808E-01
1.81036789298E+09	-7.29035100157E-02	-1.58019161691E-01	5.14302486463E-02	-4.93169270881E-02	5.21829211662E-02	-4.83967531806E-02	4.85624975661E-03	1.13787243790E-01
1.81204013378E+09	-7.88234069027E-02	-1.63048050117E-01	4.78014865576E-02	-5.28304777185E-02	4.86301357864E-02	-5.19546204945E-02	1.22818655360E-02	1.19331845973E-01
1.81371237458E+09	-8.53983065186E-02	-1.67152222229E-01	4.39352187097E-02	-5.60539767008E-02	4.48321444200E-02	-5.52553159039E-02	2.02613434671E-02	1.24036531282E-01
1.81538461538E+09	-9.24778335174E-02	-1.70236942822E-01	3.98499005610E-02	-5.89964275277E-02	4.07961320144E-02	-5.82771891147E-02	2.87012442632E-02	1.27888203331E-01
1.81705685619E+09	-9.99124606924E-02	-1.72302502078E-01	3.55671448063E-02	-6.16441981463E-02	3.65536657722E-02	-6.10043446847E-02	3.75085296911E-02	1.30790673413E-01
1.81872909699E+09	-1.07578436922E-01	-1.73283900013E-01	3.11016546077E-02	-6.39814171835E-02	3.21239710334E-02	-6.34117820999E-02	4.65460155054E-02	1.32775169193E-01
1.82040133779E+09	-1.15288858793E-01	-1.73212770748E-01	2.64948432579E-02	-6.59795079636E-02	2.75507563766E-02	-6.54922188980E-02	5.57890072567E-02	1.33789333065E-01
1.82207357860E+09	-1.22975041035E-01	-1.72072508596E-01	2.17446077797E-02	-6.76439615597E-02	2.28242941718E-02	-6.72510450568E-02	6.50779111875E-02	1.33809344117E-01
1.82374581940E+09	-1.30416100227E-01	-1.69919895724E-01	1.69040540964E-02	-6.89599935816E-02	1.80101207262E-02	-6.86368791023E-02	7.43240072248E-02	1.32858152172E-01
1.82541806020E+09	-1.37579744578E-01	-1.66767840026E-01	1.19739250248E-02	-6.99260785281E-02	1.30975787619E-02	-6.96880122560E-02	8.34658478399E-02	1.30973387934E-01
1.82709030100E+09	-1.44260437435E-01	-1.62655992298E-01	7.00485001428E-03	-7.05252736800E-02	8.12707298339E-03	-7.03662465633E-02	9.23535138063E-02	1.28106386281E-01
1.82876254181E+09	-1.50386585531E-01	-1.57679410478E-01	2.01907001323E-03	-7.07752835110E-02	3.13389915596E-03	-7.06934725363E-02	1.00934941394E-01	1.24349159955E-01
1.83043478261E+09	-1.55860687508E-01	-1.51874749743E-01	-2.97209419340E-03	-7.06652520395E-02	-1.84886480077E-03	-7.06661947463E-02	1.09088918540E-01	1.19716661267E-01
1.83210702341E+09	-1.60513149236E-01	-1.45362607377E-01	-7.91977016132E-03	-7.02016049445E-02	-6.81593805202E-03	-7.02718869452E-02	1.16763358878E-01	1.14260873678E-01
1.83377926421E+09	-1.64327864057E-01	-1.38213536142E-01	-1.28019882532E-02	-6.93876076847E-02	-1.17137279997E-02	-6.95448153197E-02	1.23823144267E-01	1.08029031912E-01
1.83545150502E+09	-1.67141850603E-01	-1.30548490307E-01	-1.76075165509E-02	-6.82323904545E-02	-1.65421292967E-02	-6.84508964392E-02	1.30224819945E-01	1.01093513595E-01
1.83712374582E+09	-1.68915627866E-01	-1.22466992767E-01	-2.22938999080E-02	-6.67598972531E-02	-2.12540169222E-02	-6.70439546738E-02	1.35903279986E-01	9.35188764918E-02
1.83879598662E+09	-1.69543907023E-01	-1.14133286621E-01	-2.68609576290E-02	-6.49481133532E-02	-2.58430021482E-02	-6.53145006794E-02	1.40771650050E-01	8.54040782062E-02
1.84046822742E+09	-1.68965016223E-01	-1.05694050450E-01	-3.12819666462E-02	-6.28511652764E-02	-3.02885347297E-02	-6.32722697721E-02	1.44789475917E-01	7.68160977741E-02
1.84214046823E+09	-1.67131805958E-01	-9.73762984393E-02	-3.55226605199E-02	-6.04523146433E-02	-3.45687379011E-02	-6.09411036996E-02	1.47912268802E-01	6.78701550647E-02
1.84381270903E+09	-1.64057334987E-01	-8.93471346592E-02	-3.95914582225E-02	-5.77885260131E-02	-3.86626410824E-02	-5.83182107914E-02	1.50085664788E-01	5.86477330628E-02
1.84548494983E+09	-1.59784182127E-01	-8.18405078164E-02	-4.34455437759E-02	-5.48535888665E-02	-4.25488802429E-02	-5.54553520616E-02	1.51312293910E-01	4.92457051505E-02
1.84715719064E+09	-1.54338823574E-01	-7.50229790738E-02	-4.70781148480E-02	-5.16741971705E-02	-4.62370667304E-02	-5.23274433337E-02	1.51532758605E-01	3.98000709907E-02
1.84882943144E+09	-1.47848646926E-01	-6.91479228607E-02	-5.05051519946E-02	-4.82541520188E-02	-4.96901477068E-02	-4.89834205726E-02	1.50766642172E-01	3.03691197018E-02
1.85050167224E+09	-1.40460667262E-01	-6.44177046556E-02	-5.36721207556E-02	-4.46399214590E-02	-5.29034321221E-02	-4.53999341480E-02	1.49043266887E-01	2.11049835781E-02
1.85217391304E+09	-1.32380014763E-01	-6.09864759252E-02	-5.65882860810E-02	-4.08182675387E-02	-5.58774045767E-02	-4.16229064942E-02	1.46349448110E-01	1.20807030761E-02
1.85384615385E+09	-1.23848734738E-01	-5.90172863565E-02	-5.92445537888E-02	-3.68034433039E-02	-5.85819401982E-02	-3.76794060876E-02	1.42750771658E-01	3.42465719979E-03
1.85551839465E+09	-1.15146203912E-01	-5.85670212546E-02	-6.16323722151E-02	-3.26369853934E-02	-6.10211567498E-02	-3.35443744777E-02	1.38242949738E-01	-4.76658578059E-03
1.85719063545E+09	-1.06602248694E-01	-5.97039652624E-02	-6.37274320901E-02	-2.83096118233E-02	-6.31642927519E-02	-2.92620472740E-02	1.32907605681E-01	-1.24218412573E-02
1.85886287625E+09	-9.84762093264E-02	-6.23391274257E-02	-6.55130203885E-02	-2.38519788711E-02	-6.50314617430E-02	-2.48454662804E-02	1.26794123960E-01	-1.94381985856E-02
1.86053511706E+09	-9.10992729715E-02	-6.63837812659E-02	-6.70079040521E-02	-1.92801712141E-02	-6.65919526694E-02	-2.03168968261E-02	1.19993465986E-01	-2.57089154005E-02
1.86220735786E+09	-8.47308622842E-02	-7.16690587817E-02	-6.81962082205E-02	-1.46171549693E-02	-6.78379521979E-02	-1.56955915168E-02	1.12570032973E-01	-3.12221265103E-02
1.86387959866E+09	-7.95678605087E-02	-7.79621326434E-02	-6.90732984406E-02	-9.90044615185E-03	-6.87841471208E-02	-1.09997474573E-02	1.04611891565E-01	-3.58607302487E-02
1.86555183946E+09	-7.57898690978E-02	-8.49875953250E-02	-6.96218669000E-02	-5.12336861001E-03	-6.94093363708E-02	-6.24093873606E-03	9.62308341335E-02	-3.95917321221E-02
1.86722408027E+09	-7.35302436009E-02	-9.24672541379E-02	-6.98596660218E-02	-3.08728744998E-04	-6.97255652146E-02	-1.44667530026E-03	8.75121990658E-02	-4.23817363003E-02
1.86889632107E+09	-7.27831555123E-02	-1.00078729799E-01	-6.97661477822E-02	4.51810295143E-03	-6.97279025234E-02	3.36841625784E-03	7.85509785954E-02	-4.41807147575E-02
1.87056856187E+09	-7.35327523972E-02	-1.07507704610E-01	-6.93622370071E-02	9.34125623767E-03	-6.93940585559E-02	8.17980536219E-03	6.94757977631E-02	-4.49725853627E-02
1.87224080268E+09	-7.56967205271E-02	-1.14500106710E-01	-6.86397452639E-02	1.41423054270E-02	-6.87459261957E-02	1.29872601120E-02	6.03775572645E-02	-4.47829798333E-02
1.87391304348E+09	-7.90882935511E-02	-1.20844419329E-01	-6.75753580124E-02	1.89071594807E-02	-6.77687849630E-02	1.77444315585E-02	5.13401173699E-02	-4.35883000782E-02
1.87558528428E+09	-8.36072978065E-02	-1.26309652392E-01	-6.61835364169E-02	2.36110049122E-02	-6.64698134462E-02	2.24620287463E-02	4.25109880427E-02	-4.14107815349E-02
1.87725752508E+09	-8.89992232263E-02	-1.30742835931E-01	-6.44642172224E-02	2.82295439996E-02	-6.48310380964E-02	2.70916274070E-02	3.39623048309E-02	-3.82745717103E-02
1.87892976589E+09	-9.50712578468E-02	-1.34041527276E-01	-6.24108972698E-02	3.27393800005E-02	-6.28833597123E-02	3.16389503180E-02	2.58135569204E-02	-3.42073324314E-02
1.88060200669E+09	-1.01592134842E-01	-1.36120604085E-01	-6.00445678384E-02	3.71127302603E-02	-6.05893614277E-02	3.60494356730E-02	1.81342331200E-02	-2.92648741679E-02
1.88227424749E+09	-1.08373023913E-01	-1.36996470486E-01	-5.73524458227E-02	4.13330808633E-02	-5.79673045324E-02	4.02938048968E-02	1.10207771623E-02	-2.35319077320E-02
1.88394648829E+09	-1.15194071486E-01	-1.36688836403E-01	-5.43452085105E-02	4.53661031468E-02	-5.50373506635E-02	4.43822339126E-02	4.57607518469E-03	-1.70171341663E-02
1.88561872910E+09	-1.21874613882E-01	-1.35168139230E-01	-5.10303518643E-02	4.91849333491E-02	-5.18018831520E-02	4.82456312370E-02	-1.14419870013E-03	-9.86057248371E-03
1.88729096990E+09	-1.28266655971E-01	-1.32548963993E-01	-4.74252687637E-02	5.27604698569E-02	-4.82701347379E-02	5.18811065832E-02	-6.07372853390E-03	-2.11600688945E-03
1.88896321070E+09	-1.34193250279E-01	-1.28886784700E-01	-4.35615345865E-02	5.60714559821E-02	-4.44577954208E-02	5.52524165046E-02	-1.01514838848E-02	6.15085114475E-03
1.89063545151E+09	-1.39527041161E-01	-1.24282057706E-01	-3.94392452175E-02	5.91056468796E-02	-4.04032359324E-02	5.83368245414E-02	-1.33399394503E-02	1.48051353158E-02
1.89230769231E+09	-1.44130688529E-01	-1.18835897384E-01	-3.50896804750E-02	6.18015653691E-02	-3.61087088703E-02	6.11087099057E-02	-1.55634433168E-02	2.37509362633E-02
1.89397993311E+09	-1.47923749780E-01	-1.12679707389E-01	-3.05465394784E-02	6.41823660092E-02	-3.16095590220E-02	6.35638485381E-02	-1.68614032491E-02	3.28891461374E-02
1.89565217391E+09	-1.50806606581E-01	-1.05959041717E-01	-2.58329085343E-02	6.61971392335E-02	-2.69497961710E-02	6.56649223051E-02	-1.71748350067E-02	4.21182534697E-02
