# Hz S RI R 50
! CMT, CMT808U, 21440046, 21.4.3/4
! Date: 12/11/2025 6:05:22 PM
! Data: Format (Calibration Info)
! Freq	S11:Re/Im(F2)	S41:Re/Im(F2)	S14:Re/Im(F2)	S44:Re/Im(F2)
1.70000000000E+09	-1.52251885879E-01	-8.71242940976E-02	-5.95410993413E-02	-2.64752953554E-02	-5.91848201132E-02	-2.67931486924E-02	-1.14612434324E-01	6.73675316878E-02
1.70100000000E+09	-1.51299346720E-01	-8.20980488221E-02	-6.05738581689E-02	-2.39857988675E-02	-6.03186887705E-02	-2.43146597429E-02	-1.13103454544E-01	7.80093581708E-02
1.70200000000E+09	-1.49593968441E-01	-7.72191721871E-02	-6.16230348443E-02	-2.15325624801E-02	-6.13953855932E-02	-2.17986505726E-02	-1.11056913333E-01	8.85065669118E-02
1.70300000000E+09	-1.47433633989E-01	-7.24509940713E-02	-6.25057924987E-02	-1.89179885938E-02	-6.23370567518E-02	-1.93951694901E-02	-1.08145589488E-01	9.87400382618E-02
1.70400000000E+09	-1.44675597593E-01	-6.78056303230E-02	-6.34077373584E-02	-1.62851998243E-02	-6.31428335046E-02	-1.67547785666E-02	-1.04637736834E-01	1.08778106977E-01
1.70500000000E+09	-1.41291911873E-01	-6.34430312551E-02	-6.41123479148E-02	-1.37108167652E-02	-6.39231995646E-02	-1.40922249071E-02	-1.00448585585E-01	1.18548896663E-01
1.70600000000E+09	-1.37447985967E-01	-5.94600403161E-02	-6.47205534589E-02	-1.10593186731E-02	-6.45218996418E-02	-1.14458477368E-02	-9.57258441503E-02	1.27943510575E-01
1.70700000000E+09	-1.33177505363E-01	-5.57807148866E-02	-6.52740345177E-02	-8.32495535264E-03	-6.51336077047E-02	-8.70273125515E-03	-9.03255591664E-02	1.37176599532E-01
1.70800000000E+09	-1.28501087697E-01	-5.25103281818E-02	-6.56292256231E-02	-5.59238990863E-03	-6.55074877583E-02	-5.98004482621E-03	-8.44501085285E-02	1.45893028743E-01
1.70900000000E+09	-1.23534974344E-01	-4.96357511416E-02	-6.58910887756E-02	-2.70599693132E-03	-6.58195045606E-02	-3.17772084620E-03	-7.80026871711E-02	1.54211088137E-01
1.71000000000E+09	-1.18206247193E-01	-4.72627033832E-02	-6.61936853820E-02	6.69492621451E-05	-6.59898933509E-02	-3.78418390074E-04	-7.10426838169E-02	1.62085628213E-01
1.71100000000E+09	-1.12714831982E-01	-4.54000557220E-02	-6.62133104163E-02	2.91329539538E-03	-6.60734509864E-02	2.43465085679E-03	-6.36376691643E-02	1.69437847791E-01
1.71200000000E+09	-1.07018076020E-01	-4.39339438233E-02	-6.61399520614E-02	5.78339920149E-03	-6.61424688475E-02	5.24745520250E-03	-5.57747728985E-02	1.76398557166E-01
1.71300000000E+09	-1.01164682497E-01	-4.30609254676E-02	-6.58563538512E-02	8.50522425002E-03	-6.58455252658E-02	8.15764701391E-03	-4.75468616214E-02	1.82746220454E-01
1.71400000000E+09	-9.53418227872E-02	-4.26181039972E-02	-6.55751593842E-02	1.14894213979E-02	-6.55886820576E-02	1.09285281949E-02	-3.90370913162E-02	1.88565500503E-01
1.71500000000E+09	-8.93509397737E-02	-4.26598630227E-02	-6.51386116042E-02	1.42968646038E-02	-6.50522716083E-02	1.38475779194E-02	-3.00032640400E-02	1.93825394606E-01
1.71600000000E+09	-8.34725907427E-02	-4.31530214754E-02	-6.45242616162E-02	1.71489187901E-02	-6.44931799538E-02	1.66398535768E-02	-2.07606048148E-02	1.98459292701E-01
1.71700000000E+09	-7.75693789655E-02	-4.41590916812E-02	-6.38148090594E-02	1.99244489654E-02	-6.37723020659E-02	1.94926683331E-02	-1.12417641109E-02	2.02607400911E-01
1.71800000000E+09	-7.18295949146E-02	-4.54810441129E-02	-6.29274206131E-02	2.26722367690E-02	-6.29198523515E-02	2.22265364571E-02	-1.66542655208E-03	2.05939620216E-01
1.71900000000E+09	-6.62809533956E-02	-4.73479892667E-02	-6.19521403538E-02	2.54340514527E-02	-6.19698638271E-02	2.50149135662E-02	8.26992583397E-03	2.08948294375E-01
1.72000000000E+09	-6.08038877634E-02	-4.96272782805E-02	-6.08493050330E-02	2.80705270852E-02	-6.08452952285E-02	2.76570145172E-02	1.82291932672E-02	2.11112900409E-01
1.72100000000E+09	-5.56001881905E-02	-5.21091016631E-02	-5.95269123154E-02	3.07928000456E-02	-5.96247219651E-02	3.03801576364E-02	2.84670636689E-02	2.12610254331E-01
1.72200000000E+09	-5.05440250480E-02	-5.50756664778E-02	-5.82092963738E-02	3.34201602516E-02	-5.82779955474E-02	3.28829871453E-02	3.85533096773E-02	2.13682764692E-01
1.72300000000E+09	-4.56864121555E-02	-5.83103659014E-02	-5.67138839023E-02	3.59142249110E-02	-5.68257291179E-02	3.54528544553E-02	4.87003019789E-02	2.14076573838E-01
1.72400000000E+09	-4.12194486153E-02	-6.18104108678E-02	-5.51175839950E-02	3.83530746833E-02	-5.52261921508E-02	3.79016309349E-02	5.88976871857E-02	2.13731775436E-01
1.72500000000E+09	-3.69165835457E-02	-6.56859482398E-02	-5.33951273912E-02	4.07248144233E-02	-5.36152537465E-02	4.02806491906E-02	6.89649589841E-02	2.12755943990E-01
1.72600000000E+09	-3.29145524618E-02	-6.97081725252E-02	-5.15943542245E-02	4.30949930090E-02	-5.17463643967E-02	4.25979087915E-02	7.88729905327E-02	2.11147834302E-01
1.72700000000E+09	-2.91203623303E-02	-7.39433986281E-02	-4.96367220510E-02	4.52871221486E-02	-4.98184530972E-02	4.48143622081E-02	8.87938654255E-02	2.09022401951E-01
1.72800000000E+09	-2.57355394276E-02	-7.84847785529E-02	-4.75837643041E-02	4.74299539801E-02	-4.78099168224E-02	4.69851365176E-02	9.84354398386E-02	2.06225066942E-01
1.72900000000E+09	-2.26615112781E-02	-8.31244079107E-02	-4.54601637327E-02	4.94454137289E-02	-4.58055818795E-02	4.90149436666E-02	1.07946922349E-01	2.02916041503E-01
1.73000000000E+09	-1.98218490507E-02	-8.80024968083E-02	-4.33256365095E-02	5.14159738413E-02	-4.35629743952E-02	5.10259982651E-02	1.17110672075E-01	1.99023120877E-01
1.73100000000E+09	-1.72398631233E-02	-9.29781635426E-02	-4.09978897518E-02	5.31758834593E-02	-4.12912395244E-02	5.27650056894E-02	1.26098311835E-01	1.94485585473E-01
1.73200000000E+09	-1.50650698232E-02	-9.81478019881E-02	-3.85949146906E-02	5.48707627645E-02	-3.88663847334E-02	5.45422043897E-02	1.34722784811E-01	1.89454691566E-01
1.73300000000E+09	-1.32036865141E-02	-1.03313131130E-01	-3.62280132153E-02	5.65333089896E-02	-3.64645576881E-02	5.61477273067E-02	1.43034711483E-01	1.83972266578E-01
1.73400000000E+09	-1.16520976154E-02	-1.08699177664E-01	-3.36089418185E-02	5.79886940790E-02	-3.40308008189E-02	5.77296147907E-02	1.50984971681E-01	1.77955812086E-01
1.73500000000E+09	-1.04812661587E-02	-1.14153939204E-01	-3.10820944635E-02	5.94278164084E-02	-3.14745177103E-02	5.90460059052E-02	1.58486559531E-01	1.71473238485E-01
1.73600000000E+09	-9.67569890115E-03	-1.19552492034E-01	-2.84737453324E-02	6.06548633814E-02	-2.88690721966E-02	6.03235474451E-02	1.65476066612E-01	1.64368216144E-01
1.73700000000E+09	-9.14258937361E-03	-1.25055991470E-01	-2.57805095364E-02	6.17654894359E-02	-2.61921984413E-02	6.14255056576E-02	1.72200573647E-01	1.57185562514E-01
1.73800000000E+09	-9.01355537026E-03	-1.30625697505E-01	-2.30209198326E-02	6.27770459267E-02	-2.34454782024E-02	6.24259218252E-02	1.78249148365E-01	1.49433662756E-01
1.73900000000E+09	-9.19143711605E-03	-1.36210723975E-01	-2.02463695721E-02	6.36231557635E-02	-2.07539968297E-02	6.33209158051E-02	1.84004441297E-01	1.41312030159E-01
1.74000000000E+09	-9.82274227771E-03	-1.41743257435E-01	-1.75468594605E-02	6.43389997031E-02	-1.79183614499E-02	6.41903347587E-02	1.89111461683E-01	1.32812328533E-01
1.74100000000E+09	-1.08035401365E-02	-1.47163250232E-01	-1.47144669058E-02	6.49692570571E-02	-1.51864911866E-02	6.47773335072E-02	1.93694047620E-01	1.24203039756E-01
1.74200000000E+09	-1.20588229956E-02	-1.52597916017E-01	-1.19169605479E-02	6.55054322662E-02	-1.23628281860E-02	6.52876842266E-02	1.97698637943E-01	1.15109009216E-01
1.74300000000E+09	-1.38496690861E-02	-1.57851132373E-01	-9.03916234386E-03	6.59437552161E-02	-9.45715714348E-03	6.56552619481E-02	2.01170397494E-01	1.05858004569E-01
1.74400000000E+09	-1.58996974661E-02	-1.62998309415E-01	-6.21622162749E-03	6.61377481488E-02	-6.68730030487E-03	6.59044138002E-02	2.04046454759E-01	9.64662830567E-02
1.74500000000E+09	-1.84104800891E-02	-1.67965206922E-01	-3.36905605164E-03	6.61595281301E-02	-3.76126837223E-03	6.60310894459E-02	2.06261253299E-01	8.68482900303E-02
1.74600000000E+09	-2.12185142593E-02	-1.72812894651E-01	-5.17959362096E-04	6.61503363047E-02	-1.00552111491E-03	6.60472296413E-02	2.07865678826E-01	7.72885293863E-02
1.74700000000E+09	-2.44537614204E-02	-1.77420692475E-01	2.29542613665E-03	6.60986936356E-02	1.77596671454E-03	6.59426483165E-02	2.08919283619E-01	6.74101705283E-02
1.74800000000E+09	-2.79573224492E-02	-1.81687459235E-01	5.02594925763E-03	6.57883947561E-02	4.58245169720E-03	6.57134787925E-02	2.09328429132E-01	5.76094080232E-02
1.74900000000E+09	-3.18372584003E-02	-1.85703313484E-01	7.86787111517E-03	6.54831594446E-02	7.38593996656E-03	6.53187592223E-02	2.09132947084E-01	4.78883229350E-02
1.75000000000E+09	-3.60939368240E-02	-1.89466424531E-01	1.05103277535E-02	6.49621882562E-02	1.00211709276E-02	6.48501228540E-02	2.08263014082E-01	3.80896881725E-02
1.75100000000E+09	-4.04285663152E-02	-1.92808058553E-01	1.32989790115E-02	6.43718907914E-02	1.27586916397E-02	6.42667988483E-02	2.06827552707E-01	2.83421896276E-02
1.75200000000E+09	-4.52269766186E-02	-1.95843605343E-01	1.58628492839E-02	6.36009978035E-02	1.54702804605E-02	6.36032993922E-02	2.04671778444E-01	1.88248379138E-02
1.75300000000E+09	-5.01409231324E-02	-1.98364045530E-01	1.85124718643E-02	6.28464899632E-02	1.80837375773E-02	6.28045830320E-02	2.02016929438E-01	9.29797524942E-03
1.75400000000E+09	-5.53947821678E-02	-2.00523239505E-01	2.10689132589E-02	6.18282289107E-02	2.05895481357E-02	6.18996651305E-02	1.98609797606E-01	2.96140324233E-05
1.75500000000E+09	-6.07226621746E-02	-2.02207842089E-01	2.35791790465E-02	6.08383300641E-02	2.31359186979E-02	6.09276232542E-02	1.94739378626E-01	-9.02695588219E-03
1.75600000000E+09	-6.62436678298E-02	-2.03311268307E-01	2.60588116946E-02	5.96759387655E-02	2.56194754253E-02	5.97545985239E-02	1.90194604949E-01	-1.76541084059E-02
1.75700000000E+09	-7.17712629776E-02	-2.04052987706E-01	2.84149734482E-02	5.85560715605E-02	2.79455821620E-02	5.85849346906E-02	1.85110060106E-01	-2.61976441815E-02
1.75800000000E+09	-7.73342342747E-02	-2.04179648022E-01	3.07430451420E-02	5.72187583325E-02	3.02663198847E-02	5.73700314899E-02	1.79498417409E-01	-3.42306535190E-02
1.75900000000E+09	-8.30168488256E-02	-2.03813676337E-01	3.30358731785E-02	5.58164694675E-02	3.25046064674E-02	5.59227946807E-02	1.73376716127E-01	-4.19331447357E-02
1.76000000000E+09	-8.84994843559E-02	-2.02865946406E-01	3.52137525281E-02	5.44231069299E-02	3.47282570448E-02	5.45562201052E-02	1.66745168626E-01	-4.92797316271E-02
1.76100000000E+09	-9.38691388109E-02	-2.01345876647E-01	3.72955686609E-02	5.28785631105E-02	3.68988990350E-02	5.30037954878E-02	1.59560375866E-01	-5.61080690404E-02
1.76200000000E+09	-9.91051215215E-02	-1.99412249390E-01	3.94097969410E-02	5.13139545298E-02	3.89766732143E-02	5.13941823628E-02	1.52016384886E-01	-6.24591699216E-02
1.76300000000E+09	-1.04077053471E-01	-1.96824292072E-01	4.14258006020E-02	4.96299747485E-02	4.09349055410E-02	4.98276455088E-02	1.44136489502E-01	-6.83496068616E-02
1.76400000000E+09	-1.08708339572E-01	-1.93686100771E-01	4.33414267641E-02	4.78884201482E-02	4.28815081502E-02	4.80846390176E-02	1.35834543246E-01	-7.36705900116E-02
1.76500000000E+09	-1.12951512254E-01	-1.90147904460E-01	4.51986809747E-02	4.61727424805E-02	4.47422947431E-02	4.63287424772E-02	1.27083136511E-01	-7.85095795529E-02
1.76600000000E+09	-1.16800258586E-01	-1.86110798360E-01	4.69429056164E-02	4.43044354583E-02	4.65354778158E-02	4.44853427736E-02	1.18151475832E-01	-8.26366081576E-02
1.76700000000E+09	-1.20088885568E-01	-1.81605378781E-01	4.87223564358E-02	4.23350088418E-02	4.82190382013E-02	4.26350882454E-02	1.08832022163E-01	-8.62576107390E-02
1.76800000000E+09	-1.22902208089E-01	-1.76969072254E-01	5.03535641919E-02	4.04009853202E-02	4.99977729722E-02	4.07245684464E-02	9.93898244045E-02	-8.91457089305E-02
1.76900000000E+09	-1.25046714003E-01	-1.71838838521E-01	5.19901439886E-02	3.84039185140E-02	5.16046253282E-02	3.87335747059E-02	8.97676083479E-02	-9.14467047839E-02
1.77000000000E+09	-1.26629680916E-01	-1.66514790936E-01	5.35287111116E-02	3.63392891728E-02	5.30774423900E-02	3.66524803043E-02	7.99779809743E-02	-9.31901466541E-02
1.77100000000E+09	-1.27591016184E-01	-1.61306590814E-01	5.48988991210E-02	3.42868652593E-02	5.46220353954E-02	3.45304975798E-02	7.00288659956E-02	-9.41539001347E-02
1.77200000000E+09	-1.27729415583E-01	-1.55826235371E-01	5.63646590499E-02	3.20736371847E-02	5.60248407391E-02	3.23844757517E-02	6.02152774248E-02	-9.44871695145E-02
1.77300000000E+09	-1.27311757919E-01	-1.50458408746E-01	5.77854392577E-02	2.97934157437E-02	5.74373038337E-02	3.01436372429E-02	5.02434432989E-02	-9.41933450659E-02
1.77400000000E+09	-1.26086849261E-01	-1.45165244653E-01	5.90302028015E-02	2.75309477115E-02	5.86656485354E-02	2.78420952039E-02	4.02910689700E-02	-9.32307039994E-02
1.77500000000E+09	-1.24274164520E-01	-1.40159058662E-01	6.02465897925E-02	2.52073356446E-02	5.98944804877E-02	2.55093966037E-02	3.05877516579E-02	-9.15732657423E-02
1.77600000000E+09	-1.21798506007E-01	-1.35465615849E-01	6.14177921378E-02	2.26969294625E-02	6.10967784839E-02	2.31242138081E-02	2.08373378539E-02	-8.93037104416E-02
1.77700000000E+09	-1.18805630706E-01	-1.31197081215E-01	6.24632342403E-02	2.01927956522E-02	6.20961257107E-02	2.06190747806E-02	1.13323663836E-02	-8.62977093561E-02
1.77800000000E+09	-1.15242807538E-01	-1.27273313965E-01	6.33754529614E-02	1.76181183609E-02	6.31126054155E-02	1.80996224777E-02	2.08580563376E-03	-8.28292685691E-02
1.77900000000E+09	-1.11166610186E-01	-1.24011316079E-01	6.42883712161E-02	1.51066048962E-02	6.40646670664E-02	1.55159438086E-02	-6.88634396273E-03	-7.86095436792E-02
1.78000000000E+09	-1.06844494821E-01	-1.21236938018E-01	6.50396567641E-02	1.24011599728E-02	6.47877508162E-02	1.28402439926E-02	-1.56624456565E-02	-7.37868782531E-02
1.78100000000E+09	-1.02152524682E-01	-1.19152560268E-01	6.56874333577E-02	9.61732040973E-03	6.54416527250E-02	1.00610288584E-02	-2.40367025621E-02	-6.85671413062E-02
1.78200000000E+09	-9.72425850694E-02	-1.17702057972E-01	6.62101368717E-02	6.75354100160E-03	6.60055926053E-02	7.26466143982E-03	-3.19767156837E-02	-6.27082397797E-02
1.78300000000E+09	-9.23067463817E-02	-1.16873132464E-01	6.65690289753E-02	3.99268856521E-03	6.63257404287E-02	4.39653136249E-03	-3.96149033247E-02	-5.63015395904E-02
1.78400000000E+09	-8.72528665248E-02	-1.16773801833E-01	6.68707703788E-02	1.07564149566E-03	6.67415695859E-02	1.54435287108E-03	-4.68018002889E-02	-4.94865119353E-02
1.78500000000E+09	-8.22981167633E-02	-1.17295102630E-01	6.70631418188E-02	-1.86124057921E-03	6.69711913575E-02	-1.34409479545E-03	-5.34555249192E-02	-4.21223423310E-02
1.78600000000E+09	-7.75149730398E-02	-1.18367223247E-01	6.70475451947E-02	-4.79333121544E-03	6.69029645868E-02	-4.29862594650E-03	-5.96724370692E-02	-3.44655152326E-02
1.78700000000E+09	-7.29307927565E-02	-1.20071041895E-01	6.68113847307E-02	-7.82598298424E-03	6.67650652061E-02	-7.23540042114E-03	-6.52965331047E-02	-2.62247591365E-02
1.78800000000E+09	-6.86650888563E-02	-1.22348312766E-01	6.66281558419E-02	-1.07268173798E-02	6.65594783460E-02	-1.02523493745E-02	-7.03416377201E-02	-1.77401693282E-02
1.78900000000E+09	-6.46514187237E-02	-1.25085975731E-01	6.61542835695E-02	-1.37324013299E-02	6.60737697788E-02	-1.32159049031E-02	-7.49629656230E-02	-8.92065672832E-03
1.79000000000E+09	-6.10191089646E-02	-1.28348125846E-01	6.55353543708E-02	-1.67422789909E-02	6.55864978436E-02	-1.61837977613E-02	-7.89758351337E-02	1.05996531911E-04
1.79100000000E+09	-5.78599923138E-02	-1.31884076457E-01	6.47796524543E-02	-1.95696473864E-02	6.48188596252E-02	-1.90910768178E-02	-8.22675051769E-02	9.46222681653E-03
1.79200000000E+09	-5.51091262835E-02	-1.35731136262E-01	6.38516741712E-02	-2.25678331501E-02	6.39679888461E-02	-2.19584667366E-02	-8.49313270114E-02	1.88670257723E-02
1.79300000000E+09	-5.28165258666E-02	-1.39908685734E-01	6.29173336592E-02	-2.53487373519E-02	6.29546270798E-02	-2.49156431698E-02	-8.69523278686E-02	2.85430010622E-02
1.79400000000E+09	-5.09851734631E-02	-1.44226954259E-01	6.17352425983E-02	-2.81697626509E-02	6.18041523197E-02	-2.76505746672E-02	-8.84917633021E-02	3.81831896616E-02
1.79500000000E+09	-4.97042431783E-02	-1.48730962803E-01	6.03578365202E-02	-3.08959786484E-02	6.04752108929E-02	-3.03899678789E-02	-8.92379338848E-02	4.80693226021E-02
1.79600000000E+09	-4.88740188598E-02	-1.53303648471E-01	5.89272741750E-02	-3.35518959792E-02	5.89997117681E-02	-3.30093067690E-02	-8.93631664542E-02	5.79439158538E-02
1.79700000000E+09	-4.84929984295E-02	-1.57914694007E-01	5.73443736506E-02	-3.61445748001E-02	5.74461955036E-02	-3.56708043656E-02	-8.89272932001E-02	6.77578798558E-02
1.79800000000E+09	-4.86612010123E-02	-1.62585404000E-01	5.56083241571E-02	-3.86901152178E-02	5.57932362530E-02	-3.81926556432E-02	-8.77239117571E-02	7.75223051264E-02
1.79900000000E+09	-4.91786072929E-02	-1.67126776992E-01	5.37617792994E-02	-4.10618375950E-02	5.39877419546E-02	-4.05756339214E-02	-8.59515586463E-02	8.72594721958E-02
1.80000000000E+09	-5.02015309548E-02	-1.71652532703E-01	5.18678101494E-02	-4.33674562355E-02	5.20408084163E-02	-4.28583169436E-02	-8.35885707106E-02	9.66720088608E-02
1.80100000000E+09	-5.15817566860E-02	-1.75975754733E-01	4.97495423429E-02	-4.56260861683E-02	5.00393916485E-02	-4.51597925063E-02	-8.05362322104E-02	1.06052110629E-01
1.80200000000E+09	-5.32953853380E-02	-1.80165654830E-01	4.76420882075E-02	-4.76762799013E-02	4.79653038388E-02	-4.72030011385E-02	-7.70063577983E-02	1.15272778947E-01
1.80300000000E+09	-5.54471265929E-02	-1.84138477055E-01	4.53921017536E-02	-4.96531638201E-02	4.57355110158E-02	-4.91856574366E-02	-7.27935944786E-02	1.24102893034E-01
1.80400000000E+09	-5.79222019141E-02	-1.88009763414E-01	4.31295473036E-02	-5.15005308276E-02	4.34292146361E-02	-5.10381065901E-02	-6.79514072946E-02	1.32639930487E-01
1.80500000000E+09	-6.06295352372E-02	-1.91529930932E-01	4.07191230010E-02	-5.32645401858E-02	4.10428907317E-02	-5.28675016090E-02	-6.27269967144E-02	1.40819919193E-01
1.80600000000E+09	-6.35961593621E-02	-1.94956689254E-01	3.83532510092E-02	-5.49334810506E-02	3.85994418568E-02	-5.44364956054E-02	-5.69279047992E-02	1.48710557770E-01
1.80700000000E+09	-6.69306028327E-02	-1.98004474485E-01	3.57863339822E-02	-5.63971667157E-02	3.60891066956E-02	-5.59723194776E-02	-5.06261851071E-02	1.56145035296E-01
1.80800000000E+09	-7.04012383848E-02	-2.00882970699E-01	3.32547074022E-02	-5.77627498481E-02	3.35515269629E-02	-5.73684945073E-02	-4.37947789031E-02	1.63290352617E-01
1.80900000000E+09	-7.40215923954E-02	-2.03370094694E-01	3.05783574145E-02	-5.89129161547E-02	3.09962523835E-02	-5.86782117953E-02	-3.65920199650E-02	1.69720743767E-01
1.81000000000E+09	-7.79725376720E-02	-2.05721333326E-01	2.80167144577E-02	-6.01874864383E-02	2.83753482651E-02	-5.97718420999E-02	-2.90923408760E-02	1.75868017007E-01
1.81100000000E+09	-8.20066562119E-02	-2.07797653669E-01	2.52535503485E-02	-6.11080996058E-02	2.57483370029E-02	-6.07628123641E-02	-2.10840374336E-02	1.81487018059E-01
1.81200000000E+09	-8.62212842461E-02	-2.09411094782E-01	2.25533116585E-02	-6.19407372298E-02	2.29758638657E-02	-6.16442277178E-02	-1.27004248538E-02	1.86481091229E-01
1.81300000000E+09	-9.05165054503E-02	-2.10953148415E-01	1.98841963307E-02	-6.27462938165E-02	2.03110182495E-02	-6.24220374070E-02	-4.11205123707E-03	1.90949609628E-01
1.81400000000E+09	-9.48253542926E-02	-2.12104296756E-01	1.71281157773E-02	-6.33521307626E-02	1.76132742617E-02	-6.31160488580E-02	4.57478900786E-03	1.94989723277E-01
1.81500000000E+09	-9.94313955518E-02	-2.12940242836E-01	1.43486140535E-02	-6.38602648801E-02	1.48336736173E-02	-6.36445564361E-02	1.37084415977E-02	1.98406530117E-01
1.81600000000E+09	-1.03905358560E-01	-2.13560754919E-01	1.16157932738E-02	-6.43183859887E-02	1.21551134879E-02	-6.40460522428E-02	2.30400448173E-02	2.01142816045E-01
1.81700000000E+09	-1.08527240378E-01	-2.13879491786E-01	8.92837683691E-03	-6.45156257965E-02	9.41460387511E-03	-6.42926484153E-02	3.23752529506E-02	2.03413027633E-01
