# Hz S RI R 50
! CMT, CMT808U, 21440046, 21.4.3/4
! Date: 12/11/2025 6:23:13 PM
! Data: Format (Calibration Info)
! Freq	S11:Re/Im(F2)	S41:Re/Im(F2)	S14:Re/Im(F2)	S44:Re/Im(F2)
1.70000000000E+09	-1.53224121666E-01	-8.99175043075E-02	-6.06504321076E-02	-3.09618177977E-02	-6.02730418489E-02	-3.12652177351E-02	-9.83854593927E-02	7.06022714222E-02
1.70100000000E+09	-1.52534479054E-01	-8.57286268728E-02	-6.18474783355E-02	-2.83329204801E-02	-6.15522437161E-02	-2.86577271641E-02	-9.64295419723E-02	8.18476185014E-02
1.70200000000E+09	-1.51160653305E-01	-8.16241606473E-02	-6.30074665965E-02	-2.57369215771E-02	-6.27484247583E-02	-2.60148749585E-02	-9.39064158932E-02	9.29230854676E-02
1.70300000000E+09	-1.49446494555E-01	-7.75964907586E-02	-6.40036325115E-02	-2.30065242092E-02	-6.38035294919E-02	-2.34725101103E-02	-9.04660277690E-02	1.03716155744E-01
1.70400000000E+09	-1.47215091546E-01	-7.36133512880E-02	-6.49901589932E-02	-2.02446582657E-02	-6.46913017879E-02	-2.07051304802E-02	-8.64003507528E-02	1.14266314780E-01
1.70500000000E+09	-1.44441207792E-01	-6.98523935811E-02	-6.57647479131E-02	-1.75632299333E-02	-6.55487276366E-02	-1.79405494738E-02	-8.16098729761E-02	1.24541397152E-01
1.70600000000E+09	-1.41276052336E-01	-6.64126526789E-02	-6.64457511362E-02	-1.48081776984E-02	-6.62267028599E-02	-1.51829401090E-02	-7.62643327905E-02	1.34376410268E-01
1.70700000000E+09	-1.37730009758E-01	-6.31658525735E-02	-6.70425119371E-02	-1.19899350944E-02	-6.68868805378E-02	-1.23593461789E-02	-7.01837419519E-02	1.44005559429E-01
1.70800000000E+09	-1.33834956904E-01	-6.02600966331E-02	-6.74492520918E-02	-9.17074457341E-03	-6.73050247695E-02	-9.55457168202E-03	-6.36155190348E-02	1.53097888002E-01
1.70900000000E+09	-1.29701356567E-01	-5.76606146221E-02	-6.77638096851E-02	-6.22137775139E-03	-6.76632565813E-02	-6.68036488157E-03	-5.64530825841E-02	1.61733663135E-01
1.71000000000E+09	-1.25231165880E-01	-5.54722408943E-02	-6.80996071707E-02	-3.39323295449E-03	-6.78758051050E-02	-3.83572619515E-03	-4.87523877386E-02	1.69875900346E-01
1.71100000000E+09	-1.20615843579E-01	-5.37180023028E-02	-6.81730474546E-02	-5.10709541780E-04	-6.80108165738E-02	-9.78733133703E-04	-4.06020201808E-02	1.77471176599E-01
1.71200000000E+09	-1.15813733254E-01	-5.22498986517E-02	-6.81403523402E-02	2.39987643032E-03	-6.81218103471E-02	1.87322772117E-03	-3.19511768164E-02	1.84615768008E-01
1.71300000000E+09	-1.10842863564E-01	-5.12985211278E-02	-6.79074932740E-02	5.12721246635E-03	-6.78857243679E-02	4.78698767581E-03	-2.29535392117E-02	1.91064417507E-01
1.71400000000E+09	-1.05910842232E-01	-5.06566368016E-02	-6.76837320214E-02	8.12781191645E-03	-6.76644373732E-02	7.56719186050E-03	-1.36522526562E-02	1.96955211142E-01
1.71500000000E+09	-1.00780462420E-01	-5.04409166798E-02	-6.73244927074E-02	1.09316893368E-02	-6.72254438395E-02	1.04872536047E-02	-3.81832662453E-03	2.02242317838E-01
1.71600000000E+09	-9.57509209295E-02	-5.06036147080E-02	-6.67913120687E-02	1.37655642305E-02	-6.67304329918E-02	1.32802174156E-02	6.19567544379E-03	2.06843357260E-01
1.71700000000E+09	-9.06546615087E-02	-5.11897857964E-02	-6.61934875209E-02	1.65394960998E-02	-6.61105737535E-02	1.61070365753E-02	1.65068877469E-02	2.10919198683E-01
1.71800000000E+09	-8.56850190888E-02	-5.20125362072E-02	-6.53932997653E-02	1.92763599015E-02	-6.53604733634E-02	1.88374183793E-02	2.68679613779E-02	2.14120150691E-01
1.71900000000E+09	-8.08677389451E-02	-5.33045934836E-02	-6.45415019722E-02	2.20314099911E-02	-6.45194586636E-02	2.16173549116E-02	3.75642162857E-02	2.16946189361E-01
1.72000000000E+09	-7.60689939647E-02	-5.49588681050E-02	-6.35779365808E-02	2.46615191685E-02	-6.35390304011E-02	2.42321091962E-02	4.82679720653E-02	2.18873666490E-01
1.72100000000E+09	-7.14898637306E-02	-5.67731837781E-02	-6.24015283635E-02	2.73635542704E-02	-6.24840626086E-02	2.69647491014E-02	5.92342387542E-02	2.20094886741E-01
1.72200000000E+09	-6.70189326292E-02	-5.90161311801E-02	-6.12509480227E-02	3.00033470463E-02	-6.12826136337E-02	2.94522745308E-02	7.00315565129E-02	2.20840201799E-01
1.72300000000E+09	-6.26836172703E-02	-6.14720168430E-02	-5.99300301445E-02	3.25189078682E-02	-6.00073498311E-02	3.20381773992E-02	8.08593945577E-02	2.20861067059E-01
1.72400000000E+09	-5.86694658848E-02	-6.41511270360E-02	-5.85203981839E-02	3.49745054178E-02	-5.85917480319E-02	3.45177773168E-02	9.16902279604E-02	2.20119257715E-01
1.72500000000E+09	-5.47691631365E-02	-6.71845610561E-02	-5.70074017862E-02	3.73746258256E-02	-5.71893366279E-02	3.69273093993E-02	1.02367715202E-01	2.18713566329E-01
1.72600000000E+09	-5.11058922345E-02	-7.03178593418E-02	-5.54108349451E-02	3.98033920563E-02	-5.55188623262E-02	3.93022939704E-02	1.12859679632E-01	2.16620606806E-01
1.72700000000E+09	-4.75684706836E-02	-7.36522022607E-02	-5.36729098128E-02	4.20659485294E-02	-5.38198364049E-02	4.15864630781E-02	1.23330830035E-01	2.14000077251E-01
1.72800000000E+09	-4.43987713208E-02	-7.72525436750E-02	-5.18537874395E-02	4.42926588534E-02	-5.20291581954E-02	4.38329129281E-02	1.33455071978E-01	2.10658396702E-01
1.72900000000E+09	-4.14645150390E-02	-8.09647687108E-02	-4.99578562369E-02	4.64162236169E-02	-5.02694992300E-02	4.59767853381E-02	1.43435352101E-01	2.06788272591E-01
1.73000000000E+09	-3.86889155277E-02	-8.48793526450E-02	-4.80579072692E-02	4.85166086972E-02	-4.82483913745E-02	4.80964565644E-02	1.53021079275E-01	2.02290323124E-01
1.73100000000E+09	-3.61173497494E-02	-8.88993822293E-02	-4.59683651194E-02	5.04145652808E-02	-4.62205131608E-02	4.99881170641E-02	1.62399914070E-01	1.97173699103E-01
1.73200000000E+09	-3.38728619011E-02	-9.31089568445E-02	-4.37913908167E-02	5.22793253826E-02	-4.40146142582E-02	5.19410436877E-02	1.71351008249E-01	1.91513301840E-01
1.73300000000E+09	-3.18826919137E-02	-9.73074836308E-02	-4.16554934349E-02	5.41360012247E-02	-4.18579452180E-02	5.37251040330E-02	1.79958850073E-01	1.85394091592E-01
1.73400000000E+09	-3.01337812999E-02	-1.01750439953E-01	-3.92731314136E-02	5.58115406576E-02	-3.96538517489E-02	5.55270874907E-02	1.88155747926E-01	1.78736076576E-01
1.73500000000E+09	-2.87031431762E-02	-1.06289203222E-01	-3.69650502857E-02	5.74856197622E-02	-3.73170286129E-02	5.70771739228E-02	1.95858855773E-01	1.71613690020E-01
1.73600000000E+09	-2.75751655062E-02	-1.10753988746E-01	-3.45702523178E-02	5.89847868795E-02	-3.49245708371E-02	5.86154924474E-02	2.02995242570E-01	1.63872697431E-01
1.73700000000E+09	-2.66634472621E-02	-1.15371675396E-01	-3.20710054893E-02	6.03704277302E-02	-3.24351065557E-02	5.99981132781E-02	2.09834779026E-01	1.56033888433E-01
1.73800000000E+09	-2.60918529890E-02	-1.20058925881E-01	-2.94873289473E-02	6.16949364060E-02	-2.98816014386E-02	6.12962666269E-02	2.15935158180E-01	1.47656533406E-01
1.73900000000E+09	-2.57863554582E-02	-1.24810205509E-01	-2.68792074312E-02	6.28728875411E-02	-2.73425588494E-02	6.25366112830E-02	2.21728765165E-01	1.38892901438E-01
1.74000000000E+09	-2.58576607065E-02	-1.29522162532E-01	-2.43229269470E-02	6.39313759080E-02	-2.46552695914E-02	6.37374822651E-02	2.26804009311E-01	1.29789809288E-01
1.74100000000E+09	-2.62359472006E-02	-1.34162147377E-01	-2.15922211490E-02	6.49277639327E-02	-2.20491747095E-02	6.46812132804E-02	2.31342322157E-01	1.20569755748E-01
1.74200000000E+09	-2.68167739196E-02	-1.38873222677E-01	-1.89025270504E-02	6.58431614794E-02	-1.93162103389E-02	6.55836338560E-02	2.35238365196E-01	1.10892603263E-01
1.74300000000E+09	-2.78989039128E-02	-1.43428521305E-01	-1.60863770293E-02	6.66627324720E-02	-1.64772729366E-02	6.63376269612E-02	2.38591129408E-01	1.01050822645E-01
1.74400000000E+09	-2.91876050686E-02	-1.47922833441E-01	-1.33007768922E-02	6.72831781110E-02	-1.37533938026E-02	6.69920290983E-02	2.41317286615E-01	9.11262880470E-02
1.74500000000E+09	-3.08893259768E-02	-1.52297899457E-01	-1.04585546021E-02	6.77068568320E-02	-1.08377813222E-02	6.75364445285E-02	2.43324141944E-01	8.09653295629E-02
1.74600000000E+09	-3.28591206068E-02	-1.56602007024E-01	-7.58995997665E-03	6.81206721330E-02	-8.06625757989E-03	6.79683304604E-02	2.44703458233E-01	7.08988189483E-02
1.74700000000E+09	-3.51915829522E-02	-1.60712214897E-01	-4.72542351559E-03	6.84943660661E-02	-5.22759078286E-03	6.82885810058E-02	2.45509090571E-01	6.05242364219E-02
1.74800000000E+09	-3.77632722073E-02	-1.64558514842E-01	-1.91626304031E-03	6.86007839395E-02	-2.33895197388E-03	6.84722665342E-02	2.45625978052E-01	5.02690033674E-02
1.74900000000E+09	-4.06854075712E-02	-1.68238159670E-01	1.04932555013E-03	6.87215112579E-02	6.01112993652E-04	6.85078665975E-02	2.45134565897E-01	4.01298274674E-02
1.75000000000E+09	-4.39432808598E-02	-1.71714106487E-01	3.85862658388E-03	6.86178283375E-02	3.36766911865E-03	6.84519632418E-02	2.43937251129E-01	2.99320516725E-02
1.75100000000E+09	-4.72682399007E-02	-1.74860860685E-01	6.82706262211E-03	6.84421720922E-02	6.29100781742E-03	6.82749764968E-02	2.42155229428E-01	1.98334391767E-02
1.75200000000E+09	-5.10480147950E-02	-1.77760146870E-01	9.60915351898E-03	6.80362309642E-02	9.21906620251E-03	6.79955859361E-02	2.39638821601E-01	9.97657908172E-03
1.75300000000E+09	-5.49209435255E-02	-1.80227043712E-01	1.25062756862E-02	6.76767468605E-02	1.20657772870E-02	6.75838633787E-02	2.36599573895E-01	1.54960252891E-04
1.75400000000E+09	-5.91397469960E-02	-1.82406947978E-01	1.53477952371E-02	6.70136768252E-02	1.48505489391E-02	6.70300698253E-02	2.32809737392E-01	-9.38656166049E-03
1.75500000000E+09	-6.34405135742E-02	-1.84222090161E-01	1.81572021531E-02	6.63506189264E-02	1.76995419524E-02	6.63914756068E-02	2.28565693671E-01	-1.87052245373E-02
1.75600000000E+09	-6.79359456317E-02	-1.85525605871E-01	2.09571087728E-02	6.54942323440E-02	2.05110176699E-02	6.55322840259E-02	2.23580391713E-01	-2.75296130510E-02
1.75700000000E+09	-7.24610195882E-02	-1.86538237382E-01	2.36651771516E-02	6.46646071980E-02	2.31801506714E-02	6.46341027396E-02	2.18085167242E-01	-3.62557017640E-02
1.75800000000E+09	-7.70752603029E-02	-1.87047134116E-01	2.63878589833E-02	6.35790331156E-02	2.58722717110E-02	6.36740881464E-02	2.12057137769E-01	-4.44278175924E-02
1.75900000000E+09	-8.18039339246E-02	-1.87108624634E-01	2.90593114132E-02	6.23979492282E-02	2.84962312316E-02	6.24459603865E-02	2.05502529300E-01	-5.22448971760E-02
1.76000000000E+09	-8.63959587752E-02	-1.86693218343E-01	3.16377777381E-02	6.11988369458E-02	3.11198689993E-02	6.12807085960E-02	1.98466956307E-01	-5.96717473915E-02
1.76100000000E+09	-9.09227272975E-02	-1.85772615628E-01	3.41301629254E-02	5.98026039383E-02	3.36935930977E-02	5.98791612949E-02	1.90840535461E-01	-6.65607860702E-02
1.76200000000E+09	-9.53692293556E-02	-1.84519372303E-01	3.66606112499E-02	5.83684045856E-02	3.61933149923E-02	5.83982866548E-02	1.82891826291E-01	-7.29292992417E-02
1.76300000000E+09	-9.96329287587E-02	-1.82666595387E-01	3.90873913213E-02	5.67545340540E-02	3.85545374044E-02	5.69293638916E-02	1.74591850180E-01	-7.88089219002E-02
1.76400000000E+09	-1.03616235604E-01	-1.80333632881E-01	4.14133270982E-02	5.50745271966E-02	4.09114673127E-02	5.52459723973E-02	1.65866731461E-01	-8.41050542390E-02
1.76500000000E+09	-1.07303197499E-01	-1.77670107726E-01	4.36809222656E-02	5.33848858625E-02	4.31780048131E-02	5.35011888998E-02	1.56700907209E-01	-8.88598839124E-02
1.76600000000E+09	-1.10702284738E-01	-1.74549739335E-01	4.58169023638E-02	5.14946463037E-02	4.53779980192E-02	5.16459201896E-02	1.47371229695E-01	-9.29031371309E-02
1.76700000000E+09	-1.13639027308E-01	-1.71006357391E-01	4.79820896029E-02	4.94967388795E-02	4.74471060608E-02	4.97653054250E-02	1.37656742046E-01	-9.63931271963E-02
1.76800000000E+09	-1.16189040121E-01	-1.67338946638E-01	4.99789877898E-02	4.74971372619E-02	4.95942717404E-02	4.78048362033E-02	1.27827407916E-01	-9.91028828557E-02
1.76900000000E+09	-1.18200583360E-01	-1.63202681122E-01	5.19693894201E-02	4.54109469729E-02	5.15439310866E-02	4.57061094476E-02	1.17805319202E-01	-1.01214277016E-01
1.77000000000E+09	-1.19737915477E-01	-1.58880099999E-01	5.38308004601E-02	4.32288261243E-02	5.33417990755E-02	4.35146260248E-02	1.07653624074E-01	-1.02742266232E-01
1.77100000000E+09	-1.20762346876E-01	-1.54646646908E-01	5.55121437260E-02	4.10558930437E-02	5.52009304630E-02	4.12766210326E-02	9.73481526312E-02	-1.03476109003E-01
1.77200000000E+09	-1.21098750249E-01	-1.50162421804E-01	5.72671381652E-02	3.87034395906E-02	5.68867252933E-02	3.89974942366E-02	8.71781073022E-02	-1.03505727389E-01
1.77300000000E+09	-1.20981072165E-01	-1.45711493345E-01	5.89510224472E-02	3.62747854497E-02	5.85609638837E-02	3.65952393241E-02	7.68977655073E-02	-1.02888170717E-01
1.77400000000E+09	-1.20163496655E-01	-1.41302876247E-01	6.04272236634E-02	3.38503799754E-02	6.00293396003E-02	3.41593922120E-02	6.66408512117E-02	-1.01575769799E-01
1.77500000000E+09	-1.18868924517E-01	-1.37096802140E-01	6.18626470331E-02	3.13670966330E-02	6.14752324768E-02	3.16588636573E-02	5.66613000144E-02	-9.95313731431E-02
1.77600000000E+09	-1.16995744103E-01	-1.33149309744E-01	6.32428047851E-02	2.87081403443E-02	6.28762000529E-02	2.91134164145E-02	4.66723285465E-02	-9.68609783127E-02
1.77700000000E+09	-1.14673876598E-01	-1.29547962154E-01	6.44520692279E-02	2.60371230460E-02	6.40527722529E-02	2.64544575027E-02	3.69420814296E-02	-9.34181263725E-02
1.77800000000E+09	-1.11850511127E-01	-1.26185187426E-01	6.55194046048E-02	2.33183067962E-02	6.52342609387E-02	2.38000984324E-02	2.75052786834E-02	-8.94783220866E-02
1.77900000000E+09	-1.08601343671E-01	-1.23376215723E-01	6.65707943599E-02	2.06646561046E-02	6.63077633581E-02	2.10623128137E-02	1.83752063833E-02	-8.47407595836E-02
1.78000000000E+09	-1.05132314794E-01	-1.20956843784E-01	6.74617302684E-02	1.78331341521E-02	6.71651651935E-02	1.82536727590E-02	9.49688091881E-03	-7.94118887561E-02
1.78100000000E+09	-1.01354479888E-01	-1.19098559662E-01	6.82448368223E-02	1.49303382288E-02	6.79473012001E-02	1.53612198316E-02	1.05382023857E-03	-7.36408647442E-02
1.78200000000E+09	-9.73672679991E-02	-1.17749353538E-01	6.88765715914E-02	1.19487030806E-02	6.86269701772E-02	1.24608453426E-02	-6.91168020076E-03	-6.72120786615E-02
1.78300000000E+09	-9.33598159123E-02	-1.16906510479E-01	6.93493010333E-02	9.10513764436E-03	6.90512884931E-02	9.49822323749E-03	-1.45243417662E-02	-6.02307043558E-02
1.78400000000E+09	-8.92340487986E-02	-1.16667467725E-01	6.97646785429E-02	6.10063663540E-03	6.95914445582E-02	6.56849243135E-03	-2.16389192033E-02	-5.28348595246E-02
1.78500000000E+09	-8.51561480160E-02	-1.16936322542E-01	7.00667495934E-02	3.08577028827E-03	6.99383859796E-02	3.59507821611E-03	-2.81602253068E-02	-4.48776328807E-02
1.78600000000E+09	-8.12180899160E-02	-1.17621082369E-01	7.01714162005E-02	9.27999886546E-05	6.99986146463E-02	5.81005775974E-04	-3.41923011158E-02	-3.66072418006E-02
1.78700000000E+09	-7.74191001042E-02	-1.18861180940E-01	7.00732011072E-02	-3.00368712729E-03	6.99834995820E-02	-2.39764342098E-03	-3.95745756525E-02	-2.77638554829E-02
1.78800000000E+09	-7.38831942487E-02	-1.20544660712E-01	7.00295387746E-02	-5.95503370000E-03	6.99147895191E-02	-5.46905867916E-03	-4.43075488924E-02	-1.86827449585E-02
1.78900000000E+09	-7.05195613026E-02	-1.22621582178E-01	6.97167555283E-02	-8.99703792823E-03	6.95739979800E-02	-8.48072274724E-03	-4.85754342030E-02	-9.28717827728E-03
1.79000000000E+09	-6.74395905251E-02	-1.25129327996E-01	6.92557985477E-02	-1.20581812480E-02	6.92579351007E-02	-1.14944653634E-02	-5.21620273099E-02	3.14946212575E-04
1.79100000000E+09	-6.47517567221E-02	-1.27844779411E-01	6.86935409772E-02	-1.49394573880E-02	6.86719520362E-02	-1.44568017739E-02	-5.49807556876E-02	1.02059444570E-02
1.79200000000E+09	-6.23668491619E-02	-1.30821131593E-01	6.79553569888E-02	-1.80037646716E-02	6.80085447275E-02	-1.73697847579E-02	-5.71303200486E-02	2.01145503679E-02
1.79300000000E+09	-6.03390811050E-02	-1.34076528722E-01	6.72143264817E-02	-2.08505184179E-02	6.72124885679E-02	-2.03996404457E-02	-5.85693968183E-02	3.02526892577E-02
1.79400000000E+09	-5.86485076050E-02	-1.37439834922E-01	6.62536453802E-02	-2.37460910867E-02	6.62845717932E-02	-2.32106132129E-02	-5.94688790699E-02	4.03486568791E-02
1.79500000000E+09	-5.74125899671E-02	-1.40997124916E-01	6.51123696539E-02	-2.65750214239E-02	6.51857711801E-02	-2.60421488806E-02	-5.95304037937E-02	5.06328823093E-02
1.79600000000E+09	-5.65053777456E-02	-1.44603970091E-01	6.39325217057E-02	-2.93336543691E-02	6.39588377172E-02	-2.87781333172E-02	-5.89386923462E-02	6.08415042372E-02
1.79700000000E+09	-5.59361121107E-02	-1.48266022428E-01	6.25851162128E-02	-3.20657582917E-02	6.26455450407E-02	-3.15811313558E-02	-5.77454969523E-02	7.09431072587E-02
1.79800000000E+09	-5.58225304394E-02	-1.52018468797E-01	6.10956477027E-02	-3.47607759812E-02	6.12476257086E-02	-3.42488787397E-02	-5.57500212865E-02	8.09343004734E-02
1.79900000000E+09	-5.59758347293E-02	-1.55674831296E-01	5.95084169548E-02	-3.73147075066E-02	5.96877038613E-02	-3.68121507429E-02	-5.31410046094E-02	9.08459300886E-02
1.80000000000E+09	-5.65279109466E-02	-1.59342157611E-01	5.78626294065E-02	-3.98293617399E-02	5.79942612927E-02	-3.92957674674E-02	-4.99400268523E-02	1.00361302577E-01
1.80100000000E+09	-5.73714468226E-02	-1.62867571083E-01	5.59944799103E-02	-4.23086006578E-02	5.62268851214E-02	-4.18180443844E-02	-4.60126176016E-02	1.09789126512E-01
1.80200000000E+09	-5.84842338422E-02	-1.66320105315E-01	5.41279943271E-02	-4.46154591092E-02	5.44023777342E-02	-4.41102215696E-02	-4.15928827088E-02	1.18992509755E-01
1.80300000000E+09	-5.99365195618E-02	-1.69603849617E-01	5.21206666274E-02	-4.68778244101E-02	5.24128853914E-02	-4.63606140848E-02	-3.65144387667E-02	1.27729699926E-01
1.80400000000E+09	-6.16706305926E-02	-1.72828355862E-01	5.00460726213E-02	-4.90044454250E-02	5.03150042276E-02	-4.85138189358E-02	-3.07920462548E-02	1.36109477326E-01
1.80500000000E+09	-6.35721156507E-02	-1.75803853740E-01	4.78343103461E-02	-5.10883255728E-02	4.81265238070E-02	-5.06464171699E-02	-2.46734983169E-02	1.44039402265E-01
1.80600000000E+09	-6.56718997228E-02	-1.78747313686E-01	4.56613868323E-02	-5.30917358183E-02	4.58722636679E-02	-5.25611531269E-02	-1.80146909908E-02	1.51657171741E-01
1.80700000000E+09	-6.81252705143E-02	-1.81372833863E-01	4.32524272693E-02	-5.49211218416E-02	4.35174345730E-02	-5.44423212939E-02	-1.08740941446E-02	1.58720492902E-01
1.80800000000E+09	-7.06525852207E-02	-1.83940694598E-01	4.08597346965E-02	-5.66535332495E-02	4.11263200048E-02	-5.62221938518E-02	-3.18989556671E-03	1.65452799546E-01
1.80900000000E+09	-7.33246400708E-02	-1.86186756703E-01	3.82984007436E-02	-5.81815224883E-02	3.86840345859E-02	-5.79020496231E-02	4.79289536006E-03	1.71369911058E-01
1.81000000000E+09	-7.63183652249E-02	-1.88369051903E-01	3.58403005319E-02	-5.98616192606E-02	3.61573204278E-02	-5.93894583458E-02	1.30644892720E-02	1.76994528810E-01
1.81100000000E+09	-7.93803411457E-02	-1.90357530784E-01	3.31407146113E-02	-6.11935484496E-02	3.35950829926E-02	-6.07900419894E-02	2.18175739792E-02	1.82017310613E-01
1.81200000000E+09	-8.26317302284E-02	-1.91967928255E-01	3.04826429125E-02	-6.24512236036E-02	3.08761408052E-02	-6.20939521393E-02	3.08823697953E-02	1.86341155866E-01
1.81300000000E+09	-8.59749791941E-02	-1.93568619971E-01	2.78165016814E-02	-6.36680740778E-02	2.82195918786E-02	-6.32914808216E-02	4.01090464989E-02	1.90102651355E-01
1.81400000000E+09	-8.93264090168E-02	-1.94831400627E-01	2.50428354877E-02	-6.47074516535E-02	2.55103583284E-02	-6.44148661372E-02	4.94228250594E-02	1.93421208243E-01
1.81500000000E+09	-9.29867396391E-02	-1.95895841522E-01	2.22141704593E-02	-6.56293075514E-02	2.26860444052E-02	-6.53689620596E-02	5.91105655175E-02	1.96033071682E-01
1.81600000000E+09	-9.65530602299E-02	-1.96765232618E-01	1.94090463686E-02	-6.65204847624E-02	1.99286441400E-02	-6.61898666228E-02	6.89089185039E-02	1.97940395935E-01
1.81700000000E+09	-1.00274674671E-01	-1.97404886475E-01	1.66044529488E-02	-6.71463588956E-02	1.71020006237E-02	-6.68465746490E-02	7.86643555703E-02	1.99371454848E-01
