# Hz S RI R 50
! CMT, CMT808U, 21440046, 21.4.3/4
! Date: 12/11/2025 6:18:02 PM
! Data: Format (Calibration Info)
! Freq	S11:Re/Im(F2)	S41:Re/Im(F2)	S14:Re/Im(F2)	S44:Re/Im(F2)
1.70000000000E+09	-1.51940746771E-01	-8.64079909434E-02	-5.92534589269E-02	-2.95674798906E-02	-5.88767014470E-02	-2.98861985364E-02	-1.06221379154E-01	6.19482432633E-02
1.70100000000E+09	-1.50909692420E-01	-8.14466690680E-02	-6.04578077412E-02	-2.71056322230E-02	-6.01648802912E-02	-2.74157327025E-02	-1.05417650150E-01	7.28322289987E-02
1.70200000000E+09	-1.49115314219E-01	-7.66205953044E-02	-6.16480013597E-02	-2.46367048545E-02	-6.13890143730E-02	-2.49178628272E-02	-1.04072484957E-01	8.36223840027E-02
1.70300000000E+09	-1.46901477431E-01	-7.19363088205E-02	-6.26917574578E-02	-2.20453899204E-02	-6.24920557344E-02	-2.25066944512E-02	-1.01826903578E-01	9.42222483530E-02
1.70400000000E+09	-1.44077729952E-01	-6.73403399587E-02	-6.37425660569E-02	-1.93852498292E-02	-6.34488352836E-02	-1.98546644327E-02	-9.89520565623E-02	1.04637331433E-01
1.70500000000E+09	-1.40642259509E-01	-6.30620117360E-02	-6.45960784332E-02	-1.67837169208E-02	-6.43763721332E-02	-1.71668044758E-02	-9.53745610528E-02	1.14865630065E-01
1.70600000000E+09	-1.36754738750E-01	-5.91730615644E-02	-6.53676731246E-02	-1.41000577732E-02	-6.51524671979E-02	-1.44842692821E-02	-9.12298493626E-02	1.24751454959E-01
1.70700000000E+09	-1.32441882998E-01	-5.55749197906E-02	-6.60685007515E-02	-1.13244795371E-02	-6.59101328032E-02	-1.17061706411E-02	-8.63644155603E-02	1.34478335800E-01
1.70800000000E+09	-1.27729309598E-01	-5.24019102153E-02	-6.65855950618E-02	-8.52128824862E-03	-6.64252716563E-02	-8.93071665338E-03	-8.09688280810E-02	1.43768211905E-01
1.70900000000E+09	-1.22743666595E-01	-4.96211419129E-02	-6.69724875840E-02	-5.57599418324E-03	-6.68949829406E-02	-6.04671659288E-03	-7.50001580135E-02	1.52691455779E-01
1.71000000000E+09	-1.17408525018E-01	-4.73459298853E-02	-6.74227022571E-02	-2.72666511636E-03	-6.71904137412E-02	-3.18880961921E-03	-6.84734669249E-02	1.61189951257E-01
1.71100000000E+09	-1.11924090203E-01	-4.55779354968E-02	-6.75723598532E-02	2.09720938491E-04	-6.74120594224E-02	-2.75667061509E-04	-6.14426194593E-02	1.69193204443E-01
1.71200000000E+09	-1.06232863086E-01	-4.42117847101E-02	-6.76203407995E-02	3.17763711881E-03	-6.76026208978E-02	2.63621987336E-03	-5.39032556382E-02	1.76840463177E-01
1.71300000000E+09	-1.00395536599E-01	-4.34248042656E-02	-6.74431939234E-02	6.00054239137E-03	-6.74226414603E-02	5.63511339921E-03	-4.59669342171E-02	1.83891338221E-01
1.71400000000E+09	-9.46009172745E-02	-4.30685085263E-02	-6.72653381753E-02	9.09492795977E-03	-6.72505847452E-02	8.51443843996E-03	-3.76991628793E-02	1.90427398600E-01
1.71500000000E+09	-8.86416219014E-02	-4.31945683152E-02	-6.69184803401E-02	1.20146754377E-02	-6.68243201005E-02	1.15494573402E-02	-2.88390974440E-02	1.96456097832E-01
1.71600000000E+09	-8.28122804053E-02	-4.37782336250E-02	-6.63924633076E-02	1.49700668404E-02	-6.63411846531E-02	1.44701273091E-02	-1.97529149540E-02	2.01851154232E-01
1.71700000000E+09	-7.69578599719E-02	-4.48581207713E-02	-6.57556865294E-02	1.78839969840E-02	-6.56910646051E-02	1.74264612549E-02	-1.03059516563E-02	2.06775815836E-01
1.71800000000E+09	-7.12709111448E-02	-4.62478981878E-02	-6.49218594668E-02	2.07505784976E-02	-6.49005680679E-02	2.02855621074E-02	-7.57804336689E-04	2.10912802757E-01
1.71900000000E+09	-6.57787680515E-02	-4.81712600733E-02	-6.39977037622E-02	2.36282053378E-02	-6.39838491095E-02	2.31875580060E-02	9.17579074034E-03	2.14698529002E-01
1.72000000000E+09	-6.03729919525E-02	-5.05142612511E-02	-6.29366914249E-02	2.63806190142E-02	-6.29256682581E-02	2.59374246978E-02	1.92123735644E-02	2.17658722923E-01
1.72100000000E+09	-5.52286699355E-02	-5.30420505581E-02	-6.16538436442E-02	2.92152661466E-02	-6.17489820275E-02	2.87801614788E-02	2.95785063415E-02	2.19957874131E-01
1.72200000000E+09	-5.02415449977E-02	-5.60626275290E-02	-6.03642702888E-02	3.19572507056E-02	-6.04114926599E-02	3.13914673593E-02	3.98494872487E-02	2.21834727380E-01
1.72300000000E+09	-4.54613564162E-02	-5.93346362230E-02	-5.88780797727E-02	3.45670536101E-02	-5.89836282177E-02	3.40743793575E-02	5.02183370844E-02	2.23010057276E-01
1.72400000000E+09	-4.10541576639E-02	-6.28539337204E-02	-5.72999824158E-02	3.71139999756E-02	-5.74040886557E-02	3.66331139003E-02	6.06842346022E-02	2.23447397048E-01
1.72500000000E+09	-3.68178723486E-02	-6.67704982349E-02	-5.55847519711E-02	3.95640784560E-02	-5.58019315372E-02	3.91176477074E-02	7.11043847948E-02	2.23242105792E-01
1.72600000000E+09	-3.28842271936E-02	-7.08067683111E-02	-5.37761113238E-02	4.20275270148E-02	-5.39253317785E-02	4.15329960079E-02	8.14032950222E-02	2.22371081141E-01
1.72700000000E+09	-2.91635804111E-02	-7.50739732638E-02	-5.18167505259E-02	4.43230227276E-02	-5.20030555001E-02	4.38376865588E-02	9.17571018601E-02	2.21002809836E-01
1.72800000000E+09	-2.58598569611E-02	-7.96116205231E-02	-4.97672947358E-02	4.65508299231E-02	-4.99931861307E-02	4.60931552721E-02	1.01890708580E-01	2.18892415989E-01
1.72900000000E+09	-2.28607866339E-02	-8.42821273208E-02	-4.76225809212E-02	4.86413743139E-02	-4.79750392503E-02	4.82030101495E-02	1.11945204599E-01	2.16291903062E-01
1.73000000000E+09	-2.00792024808E-02	-8.91554546110E-02	-4.54804234573E-02	5.06822452783E-02	-4.57283395759E-02	5.02726832680E-02	1.21697187767E-01	2.13035978007E-01
1.73100000000E+09	-1.75793776657E-02	-9.41230240332E-02	-4.31537878067E-02	5.25114929852E-02	-4.34380805695E-02	5.20826857385E-02	1.31316353943E-01	2.09133320069E-01
1.73200000000E+09	-1.54798920527E-02	-9.92965756341E-02	-4.07399470441E-02	5.42661077988E-02	-4.10034380913E-02	5.39436551720E-02	1.40645355482E-01	2.04686326631E-01
1.73300000000E+09	-1.36740276527E-02	-1.04443740188E-01	-3.83542018757E-02	5.59922261855E-02	-3.85985851557E-02	5.55903402910E-02	1.49676493298E-01	1.99761912385E-01
1.73400000000E+09	-1.21921377791E-02	-1.09829307797E-01	-3.57374698871E-02	5.74984429625E-02	-3.61607407679E-02	5.72305765145E-02	1.58404595092E-01	1.94234171303E-01
1.73500000000E+09	-1.10776460560E-02	-1.15271816801E-01	-3.32015330132E-02	5.89964432067E-02	-3.35863117357E-02	5.86026919203E-02	1.66703598593E-01	1.88226660353E-01
1.73600000000E+09	-1.03530438202E-02	-1.20647954782E-01	-3.05922597763E-02	6.02785466685E-02	-3.09886903349E-02	5.99335630732E-02	1.74543743421E-01	1.81538742347E-01
1.73700000000E+09	-9.88344283649E-03	-1.26120904248E-01	-2.78893042967E-02	6.14344260595E-02	-2.83019570787E-02	6.10839934045E-02	1.82139916386E-01	1.74754161196E-01
1.73800000000E+09	-9.82490146672E-03	-1.31662318142E-01	-2.51414303898E-02	6.24987992682E-02	-2.55608328612E-02	6.21250575754E-02	1.89070947650E-01	1.67303900570E-01
1.73900000000E+09	-1.00674436564E-02	-1.37231145346E-01	-2.23551020148E-02	6.33975802056E-02	-2.28722931829E-02	6.30807036478E-02	1.95776058424E-01	1.59453409046E-01
1.74000000000E+09	-1.07749841306E-02	-1.42722999630E-01	-1.96811060875E-02	6.41537255156E-02	-2.00460296252E-02	6.39930901268E-02	2.01844835893E-01	1.51169051550E-01
1.74100000000E+09	-1.18138770955E-02	-1.48101527505E-01	-1.68361539702E-02	6.48334294620E-02	-1.73184423409E-02	6.46187002090E-02	2.07412340729E-01	1.42714616784E-01
1.74200000000E+09	-1.31292853672E-02	-1.53497132838E-01	-1.40604629401E-02	6.54189199602E-02	-1.44926936109E-02	6.51951277419E-02	2.12391123747E-01	1.33717394686E-01
1.74300000000E+09	-1.49757916980E-02	-1.58697857643E-01	-1.11883197282E-02	6.59041982303E-02	-1.15998986228E-02	6.56083778267E-02	2.16910399294E-01	1.24505559651E-01
1.74400000000E+09	-1.70853157041E-02	-1.63784637820E-01	-8.38560609272E-03	6.61583618130E-02	-8.85463654078E-03	6.59093109984E-02	2.20822415510E-01	1.15082808837E-01
1.74500000000E+09	-1.96490769865E-02	-1.68687212676E-01	-5.54498340306E-03	6.62301400703E-02	-5.94321964626E-03	6.60952578858E-02	2.24048700737E-01	1.05357199509E-01
1.74600000000E+09	-2.25140064634E-02	-1.73466028841E-01	-2.71136170703E-03	6.62879949800E-02	-3.19006545385E-03	6.61708631223E-02	2.26698123040E-01	9.56337838097E-02
1.74700000000E+09	-2.57893448455E-02	-1.77990763902E-01	9.30434545854E-05	6.62826075988E-02	-4.24496382887E-04	6.61232511185E-02	2.28797529925E-01	8.55216726798E-02
1.74800000000E+09	-2.93270961578E-02	-1.82187580672E-01	2.80044951446E-03	6.60392397504E-02	2.36388749279E-03	6.59501363358E-02	2.30228079651E-01	7.54198905789E-02
1.74900000000E+09	-3.32419020558E-02	-1.86122212889E-01	5.63640798787E-03	6.58097616834E-02	5.17090885059E-03	6.56288271042E-02	2.31055945485E-01	6.53687788452E-02
1.75000000000E+09	-3.75147166929E-02	-1.89807352866E-01	8.27381332703E-03	6.53522925098E-02	7.78939479947E-03	6.52222446886E-02	2.31195762406E-01	5.51251229897E-02
1.75100000000E+09	-4.18790466318E-02	-1.93059657679E-01	1.10407302479E-02	6.48505271048E-02	1.05070256173E-02	6.47162813257E-02	2.30755841790E-01	4.48994807056E-02
1.75200000000E+09	-4.66817598872E-02	-1.95997094155E-01	1.35901500228E-02	6.41394551157E-02	1.32139879236E-02	6.41144368039E-02	2.29555889456E-01	3.48341466363E-02
1.75300000000E+09	-5.16021152131E-02	-1.98412341201E-01	1.62371286493E-02	6.34678509482E-02	1.58037038025E-02	6.34161934097E-02	2.27845953883E-01	2.46841274281E-02
1.75400000000E+09	-5.68427549052E-02	-2.00484261549E-01	1.87966683019E-02	6.25367950379E-02	1.83125996472E-02	6.25937497340E-02	2.25346759269E-01	1.47321855235E-02
1.75500000000E+09	-6.21699156801E-02	-2.02074163398E-01	2.13009182528E-02	6.16279794898E-02	2.08514003483E-02	6.16946975735E-02	2.22360822604E-01	4.92112763643E-03
1.75600000000E+09	-6.76432313393E-02	-2.03081997176E-01	2.37649703456E-02	6.05638047550E-02	2.33374593774E-02	6.06182122543E-02	2.18626709858E-01	-4.50482425873E-03
1.75700000000E+09	-7.31337679656E-02	-2.03710822288E-01	2.61350062981E-02	5.95385391017E-02	2.56716680575E-02	5.95372394383E-02	2.14337049922E-01	-1.39314292983E-02
1.75800000000E+09	-7.86754144467E-02	-2.03763355544E-01	2.84758888459E-02	5.82960379993E-02	2.79902644889E-02	5.84224194445E-02	2.09459435235E-01	-2.28590131979E-02
1.75900000000E+09	-8.42895514025E-02	-2.03293940678E-01	3.07634934504E-02	5.69904704234E-02	3.02388289021E-02	5.70698640446E-02	2.04017190550E-01	-3.15304035751E-02
1.76000000000E+09	-8.97060666365E-02	-2.02242609851E-01	3.29734405696E-02	5.57043540444E-02	3.24758771830E-02	5.58243664651E-02	1.98010104216E-01	-3.98944311150E-02
1.76100000000E+09	-9.50018733996E-02	-2.00648317171E-01	3.50788129918E-02	5.42722928336E-02	3.46700363603E-02	5.43686038972E-02	1.91385653733E-01	-4.77961057181E-02
1.76200000000E+09	-1.00146251132E-01	-1.98645045798E-01	3.72262146243E-02	5.28228898181E-02	3.67839967790E-02	5.28731947841E-02	1.84356130952E-01	-5.52433234915E-02
1.76300000000E+09	-1.05018252704E-01	-1.95971389443E-01	3.92638026451E-02	5.12335767081E-02	3.87652334199E-02	5.14146444872E-02	1.76895294529E-01	-6.22895857915E-02
1.76400000000E+09	-1.09538391011E-01	-1.92779719572E-01	4.12229503538E-02	4.96117897227E-02	4.07614672020E-02	4.97848550904E-02	1.68976344711E-01	-6.87858518503E-02
1.76500000000E+09	-1.13659355516E-01	-1.89196934971E-01	4.31236601950E-02	4.80002521425E-02	4.26601981871E-02	4.81388228543E-02	1.60501894521E-01	-7.48168109824E-02
1.76600000000E+09	-1.17390502196E-01	-1.85139497857E-01	4.49378143686E-02	4.62469353970E-02	4.45172617727E-02	4.64115994217E-02	1.51791899891E-01	-8.01814095922E-02
1.76700000000E+09	-1.20559464372E-01	-1.80610866787E-01	4.67706355978E-02	4.43998313618E-02	4.62696404321E-02	4.46871793370E-02	1.42617869389E-01	-8.50577065643E-02
1.76800000000E+09	-1.23216572697E-01	-1.75964303071E-01	4.84835178330E-02	4.25890848287E-02	4.81191084701E-02	4.28924376210E-02	1.33215605703E-01	-8.91902478724E-02
1.76900000000E+09	-1.25238777060E-01	-1.70853007793E-01	5.02010020839E-02	4.06871076581E-02	4.98026256847E-02	4.10078443243E-02	1.23557439379E-01	-9.27687253365E-02
1.77000000000E+09	-1.26682909985E-01	-1.65553189843E-01	5.18290131729E-02	3.87312492361E-02	5.13566646068E-02	3.90275357765E-02	1.13677948863E-01	-9.57869108356E-02
1.77100000000E+09	-1.27501681643E-01	-1.60392271944E-01	5.33028708178E-02	3.67908103782E-02	5.30074892624E-02	3.70228676733E-02	1.03548801161E-01	-9.80438756031E-02
1.77200000000E+09	-1.27514415658E-01	-1.54982499812E-01	5.48740122158E-02	3.46731464037E-02	5.45132866691E-02	3.49735370054E-02	9.34693358234E-02	-9.96251351261E-02
1.77300000000E+09	-1.26977314398E-01	-1.49704940088E-01	5.64222744264E-02	3.25017396565E-02	5.60414365925E-02	3.28320881044E-02	8.31475364796E-02	-1.00569891606E-01
1.77400000000E+09	-1.25629476268E-01	-1.44518289568E-01	5.77836009703E-02	3.03330342714E-02	5.73978460329E-02	3.06354739185E-02	7.27654487141E-02	-1.00839547309E-01
1.77500000000E+09	-1.23721639197E-01	-1.39626190090E-01	5.91267694580E-02	2.80900760132E-02	5.87594960243E-02	2.83851276983E-02	6.25332534575E-02	-1.00382854732E-01
1.77600000000E+09	-1.21174510034E-01	-1.35065603709E-01	6.04572800646E-02	2.56620341840E-02	6.01099730153E-02	2.60759961819E-02	5.22135689692E-02	-9.93060325169E-02
1.77700000000E+09	-1.18101956677E-01	-1.30948345739E-01	6.16471903410E-02	2.32230557550E-02	6.12628437209E-02	2.36460138483E-02	4.20378238695E-02	-9.74393758041E-02
1.77800000000E+09	-1.14482361306E-01	-1.27182489910E-01	6.27123033713E-02	2.07070975391E-02	6.24329527919E-02	2.11846306681E-02	3.20262839216E-02	-9.50641414127E-02
1.77900000000E+09	-1.10386726867E-01	-1.24070687802E-01	6.37930920068E-02	1.82409650174E-02	6.35396282596E-02	1.86459121285E-02	2.22437506810E-02	-9.18909033388E-02
1.78000000000E+09	-1.06050879531E-01	-1.21457809348E-01	6.47135908522E-02	1.55742883104E-02	6.44319276874E-02	1.60109565678E-02	1.25813472119E-02	-8.80827144860E-02
1.78100000000E+09	-1.01381420397E-01	-1.19541255831E-01	6.55506434558E-02	1.28211720613E-02	6.52647807178E-02	1.32465698852E-02	3.24890344944E-03	-8.38073084012E-02
1.78200000000E+09	-9.65167709723E-02	-1.18234652246E-01	6.62323737460E-02	9.95559402488E-03	6.60029796599E-02	1.04745391900E-02	-5.71008772110E-03	-7.88165349864E-02
1.78300000000E+09	-9.16234817976E-02	-1.17552211443E-01	6.67620369747E-02	7.19049835885E-03	6.64900915408E-02	7.60958929413E-03	-1.44232645570E-02	-7.32221132962E-02
1.78400000000E+09	-8.66543732477E-02	-1.17603724462E-01	6.72471757661E-02	4.26255668932E-03	6.70849792422E-02	4.73294065494E-03	-2.27382189143E-02	-6.71682233100E-02
1.78500000000E+09	-8.17794502727E-02	-1.18260781149E-01	6.75979914942E-02	1.29255562790E-03	6.74866451686E-02	1.80925826626E-03	-3.05933820258E-02	-6.04748520141E-02
1.78600000000E+09	-7.71055873993E-02	-1.19427200880E-01	6.77572932355E-02	-1.68823630389E-03	6.75949932516E-02	-1.18641265066E-03	-3.80249483088E-02	-5.34028850529E-02
1.78700000000E+09	-7.26308609528E-02	-1.21251889058E-01	6.76847534702E-02	-4.77493002067E-03	6.76056332808E-02	-4.16900775474E-03	-4.49119182438E-02	-4.56779016258E-02
1.78800000000E+09	-6.84909238455E-02	-1.23609440986E-01	6.76549209112E-02	-7.74101337237E-03	6.75721427314E-02	-7.24831315118E-03	-5.12402940615E-02	-3.76092730602E-02
1.78900000000E+09	-6.46220949638E-02	-1.26423506272E-01	6.73295809214E-02	-1.08184979183E-02	6.72241633359E-02	-1.02919802537E-02	-5.71982152691E-02	-2.91171805094E-02
1.79000000000E+09	-6.11198072317E-02	-1.29739815950E-01	6.68577694297E-02	-1.39203989218E-02	6.68751448345E-02	-1.33432886782E-02	-6.25341997321E-02	-2.03441096415E-02
1.79100000000E+09	-5.80975496411E-02	-1.33304125429E-01	6.62392199961E-02	-1.68365214988E-02	6.62411583053E-02	-1.63452827889E-02	-6.71880810277E-02	-1.11443934666E-02
1.79200000000E+09	-5.54931635626E-02	-1.37180819094E-01	6.54225707796E-02	-1.99377252136E-02	6.55094499363E-02	-1.92958848071E-02	-7.12233843445E-02	-1.79896125222E-03
1.79300000000E+09	-5.33498877704E-02	-1.41372135096E-01	6.45912683550E-02	-2.28149202215E-02	6.46187007845E-02	-2.23724116246E-02	-7.45976218068E-02	7.88714864085E-03
1.79400000000E+09	-5.16526086373E-02	-1.45675307521E-01	6.35158109663E-02	-2.57301391294E-02	6.35757896204E-02	-2.52097775795E-02	-7.74905077886E-02	1.76410073569E-02
1.79500000000E+09	-5.05208742593E-02	-1.50155090553E-01	6.22302330258E-02	-2.85889525362E-02	6.23403241920E-02	-2.80500064242E-02	-7.95653444049E-02	2.77344517085E-02
1.79600000000E+09	-4.98152558048E-02	-1.54695890149E-01	6.08899072855E-02	-3.13396607058E-02	6.09532737648E-02	-3.07947879172E-02	-8.10082712759E-02	3.79095392243E-02
1.79700000000E+09	-4.95452582889E-02	-1.59248263930E-01	5.93839200616E-02	-3.40528103696E-02	5.94757475568E-02	-3.35572572096E-02	-8.18735969813E-02	4.80815315268E-02
1.79800000000E+09	-4.98336340647E-02	-1.63850078433E-01	5.77128945458E-02	-3.67045281671E-02	5.78844148788E-02	-3.61887746470E-02	-8.19277612221E-02	5.83058083050E-02
1.79900000000E+09	-5.04548460805E-02	-1.68324744082E-01	5.59333566657E-02	-3.91926810374E-02	5.61285129063E-02	-3.87040550821E-02	-8.13627981367E-02	6.85642205042E-02
1.80000000000E+09	-5.15601203496E-02	-1.72766347939E-01	5.40817632142E-02	-4.16145848355E-02	5.42379386208E-02	-4.10970801718E-02	-8.01691998128E-02	7.86017853319E-02
1.80100000000E+09	-5.30180124458E-02	-1.77010537652E-01	5.20139035298E-02	-4.39845921846E-02	5.22881080665E-02	-4.35034316867E-02	-7.82658758266E-02	8.86500950751E-02
1.80200000000E+09	-5.48067986196E-02	-1.81115888609E-01	4.99479902241E-02	-4.61454966514E-02	5.02598945079E-02	-4.56535780541E-02	-7.58107897898E-02	9.85955359557E-02
1.80300000000E+09	-5.70164659765E-02	-1.85006383693E-01	4.77394162980E-02	-4.82367197839E-02	4.80631197778E-02	-4.77472322616E-02	-7.26288972353E-02	1.08250643861E-01
1.80400000000E+09	-5.95352017656E-02	-1.88775463898E-01	4.54948806861E-02	-5.01719040835E-02	4.57817931475E-02	-4.96994589695E-02	-6.87589751548E-02	1.17651713700E-01
1.80500000000E+09	-6.22927398578E-02	-1.92220875487E-01	4.31192982700E-02	-5.20443859969E-02	4.34214375930E-02	-5.16253307554E-02	-6.44405832064E-02	1.26738411107E-01
1.80600000000E+09	-6.52815342088E-02	-1.95556531525E-01	4.07701812308E-02	-5.38095914361E-02	4.10082208134E-02	-5.33060225566E-02	-5.94876520042E-02	1.35588125113E-01
1.80700000000E+09	-6.86449059182E-02	-1.98510537234E-01	3.82183676932E-02	-5.53800588152E-02	3.85168950251E-02	-5.49323292458E-02	-5.39797248194E-02	1.44023688219E-01
1.80800000000E+09	-7.21452483526E-02	-2.01301037851E-01	3.57095714501E-02	-5.68411852964E-02	3.59915582046E-02	-5.64296347839E-02	-4.78640471845E-02	1.52204812591E-01
1.80900000000E+09	-7.57778061889E-02	-2.03700336276E-01	3.30476334753E-02	-5.80768533089E-02	3.34568015065E-02	-5.78242550665E-02	-4.13148310579E-02	1.59706595534E-01
1.81000000000E+09	-7.97393126889E-02	-2.05965603633E-01	3.04922154974E-02	-5.94501143348E-02	3.08366563600E-02	-5.90193418676E-02	-3.43978347969E-02	1.66955722164E-01
1.81100000000E+09	-8.37622780087E-02	-2.07974530487E-01	2.77474134053E-02	-6.04514339302E-02	2.82230719795E-02	-6.00930961023E-02	-2.69051054529E-02	1.73719903179E-01
1.81200000000E+09	-8.79820880190E-02	-2.09496280955E-01	2.50511538421E-02	-6.13860930448E-02	2.54716643147E-02	-6.10648229729E-02	-1.89842329728E-02	1.79844266104E-01
1.81300000000E+09	-9.22745378116E-02	-2.10970045193E-01	2.23927874931E-02	-6.22782243704E-02	2.28060388344E-02	-6.19220020061E-02	-1.07673887522E-02	1.85479887101E-01
1.81400000000E+09	-9.65692406998E-02	-2.12035083420E-01	1.96301418892E-02	-6.29655857746E-02	2.01138622601E-02	-6.27119381872E-02	-2.37262372709E-03	1.90699394568E-01
1.81500000000E+09	-1.01155086676E-01	-2.12813210175E-01	1.68710407141E-02	-6.35607112362E-02	1.73415606199E-02	-6.33242201276E-02	6.50736294201E-03	1.95290558644E-01
1.81600000000E+09	-1.05628995969E-01	-2.13346207722E-01	1.41231981988E-02	-6.40956963043E-02	1.46678146304E-02	-6.37982112212E-02	1.56295342057E-02	1.99212416342E-01
1.81700000000E+09	-1.10226095680E-01	-2.13591378725E-01	1.14360394228E-02	-6.43675571151E-02	1.19330576084E-02	-6.41318852549E-02	2.48508709915E-02	2.02695850261E-01
