# Hz S RI R 50
! CMT, CMT808U, 21440046, 21.4.3/4
! Date: 12/13/2025 10:49:33 PM
! Data: Format (Calibration Info)
! Freq	S11:Re/Im(F2)	S41:Re/Im(F2)	S14:Re/Im(F2)	S44:Re/Im(F2)
1.70000000000E+09	-8.78789745378E-02	-1.24702610871E-01	-4.71209978841E-02	-4.87348666433E-02	-4.68574872482E-02	-4.86742014124E-02	-4.87248232573E-02	6.87610082167E-02
1.70100000000E+09	-8.92783301385E-02	-1.19463385854E-01	-4.91106410524E-02	-4.67801334078E-02	-4.89158809538E-02	-4.67266441786E-02	-4.76552061319E-02	7.58908739356E-02
1.70200000000E+09	-9.00508900899E-02	-1.14003469146E-01	-5.11112844208E-02	-4.48153685703E-02	-5.09448553670E-02	-4.47308814303E-02	-4.62702582961E-02	8.29012610798E-02
1.70300000000E+09	-9.04635970488E-02	-1.08341055347E-01	-5.30006483284E-02	-4.26892443373E-02	-5.28688764877E-02	-4.27689915720E-02	-4.42606733423E-02	8.97436124849E-02
1.70400000000E+09	-9.03200081733E-02	-1.02444308183E-01	-5.49066775116E-02	-4.04735816718E-02	-5.46879542520E-02	-4.05573435844E-02	-4.18554722689E-02	9.64439660321E-02
1.70500000000E+09	-8.95391249188E-02	-9.64858178149E-02	-5.66585304830E-02	-3.82863151311E-02	-5.64955068684E-02	-3.82876716645E-02	-3.89541248919E-02	1.02958757847E-01
1.70600000000E+09	-8.82469608719E-02	-9.05561278657E-02	-5.83578336668E-02	-3.59918132005E-02	-5.81596950457E-02	-3.59913268494E-02	-3.57348773794E-02	1.09198868534E-01
1.70700000000E+09	-8.64470446564E-02	-8.45785611083E-02	-6.00024434497E-02	-3.35622362248E-02	-5.98450236038E-02	-3.35666345407E-02	-3.20108806548E-02	1.15378664204E-01
1.70800000000E+09	-8.40855276074E-02	-7.86908797412E-02	-6.14915068637E-02	-3.10781784999E-02	-6.13217419410E-02	-3.10857270052E-02	-2.79951704518E-02	1.21210971599E-01
1.70900000000E+09	-8.12676610295E-02	-7.29032323364E-02	-6.28905343666E-02	-2.84052545343E-02	-6.27753928617E-02	-2.84790975695E-02	-2.35929337296E-02	1.26727427745E-01
1.71000000000E+09	-7.78877838664E-02	-6.73219677783E-02	-6.43554672399E-02	-2.57798569235E-02	-6.40904233665E-02	-2.58448679077E-02	-1.88147825313E-02	1.31948121252E-01
1.71100000000E+09	-7.40907771204E-02	-6.19880575551E-02	-6.55482158900E-02	-2.30234510590E-02	-6.53357332636E-02	-2.31174652706E-02	-1.37516030791E-02	1.36809636447E-01
1.71200000000E+09	-6.98313177924E-02	-5.68575136669E-02	-6.66632609075E-02	-2.01927380906E-02	-6.65720961231E-02	-2.03338631846E-02	-8.35827133273E-03	1.41436474373E-01
1.71300000000E+09	-6.50987511083E-02	-5.21015456188E-02	-6.75759637265E-02	-1.74336868496E-02	-6.74574570590E-02	-1.74111026278E-02	-2.78930186843E-03	1.45618583012E-01
1.71400000000E+09	-6.01240782304E-02	-4.76436262554E-02	-6.84888926946E-02	-1.43667114225E-02	-6.83693542653E-02	-1.45510276756E-02	2.99734485717E-03	1.49430824908E-01
1.71500000000E+09	-5.46526185663E-02	-4.35480441232E-02	-6.92510483265E-02	-1.14033678557E-02	-6.90385346749E-02	-1.14869461018E-02	9.16952739353E-03	1.52873222133E-01
1.71600000000E+09	-4.89616206530E-02	-3.98304723813E-02	-6.98408283694E-02	-8.34525758718E-03	-6.96450612422E-02	-8.47556902773E-03	1.54476028284E-02	1.55891386620E-01
1.71700000000E+09	-4.29460388631E-02	-3.65644027488E-02	-7.03095629352E-02	-5.26899585624E-03	-7.00992183273E-02	-5.35707138904E-03	2.19208823121E-02	1.58621073878E-01
1.71800000000E+09	-3.67410383887E-02	-3.36091144371E-02	-7.05865617678E-02	-2.19362322256E-03	-7.03890823271E-02	-2.28099030852E-03	2.83900921207E-02	1.60727526357E-01
1.71900000000E+09	-3.04314447272E-02	-3.12124589538E-02	-7.07573801736E-02	9.82195830291E-04	-7.05618137815E-02	8.93443585483E-04	3.51231150262E-02	1.62674633236E-01
1.72000000000E+09	-2.38791818626E-02	-2.92975848983E-02	-7.07734771432E-02	4.08560598416E-03	-7.05617901475E-02	3.98634572211E-03	4.18900872189E-02	1.64023387056E-01
1.72100000000E+09	-1.72960570154E-02	-2.76427227891E-02	-7.05658367062E-02	7.32265446368E-03	-7.04351019084E-02	7.23257103043E-03	4.88155969555E-02	1.64887313888E-01
1.72200000000E+09	-1.05805639359E-02	-2.65901583984E-02	-7.03077511536E-02	1.05176457041E-02	-7.01155796928E-02	1.02958446304E-02	5.56345226312E-02	1.65540788572E-01
1.72300000000E+09	-3.79423289807E-03	-2.59343136406E-02	-6.98371192990E-02	1.36604540207E-02	-6.96833502108E-02	1.34869694202E-02	6.24570641475E-02	1.65731235685E-01
1.72400000000E+09	2.84177899417E-03	-2.57024825323E-02	-6.92332572400E-02	1.67732342121E-02	-6.90621180857E-02	1.66130836019E-02	6.93617649994E-02	1.65409190762E-01
1.72500000000E+09	9.57187474993E-03	-2.60011011084E-02	-6.84575329373E-02	1.98721358216E-02	-6.83902555962E-02	1.97059644671E-02	7.61305830680E-02	1.64663322295E-01
1.72600000000E+09	1.61669477923E-02	-2.66374032507E-02	-6.75647279789E-02	2.30135019768E-02	-6.73989508030E-02	2.27880099103E-02	8.27837504849E-02	1.63481146925E-01
1.72700000000E+09	2.27566564574E-02	-2.76919355971E-02	-6.64623495329E-02	2.60308761704E-02	-6.63330334550E-02	2.58079745148E-02	8.94876839914E-02	1.62009849205E-01
1.72800000000E+09	2.91209186107E-02	-2.92474949061E-02	-6.52230858255E-02	2.90297653632E-02	-6.51283596514E-02	2.88085933102E-02	9.59338539920E-02	1.60062980073E-01
1.72900000000E+09	3.53020790221E-02	-3.11000428923E-02	-6.38704243130E-02	3.19333968603E-02	-6.38763110732E-02	3.17079140223E-02	1.02344491479E-01	1.57800523704E-01
1.73000000000E+09	4.13783402625E-02	-3.34428614164E-02	-6.24418714286E-02	3.48168332900E-02	-6.23378399443E-02	3.46173166487E-02	1.08461451270E-01	1.55119714820E-01
1.73100000000E+09	4.72719467378E-02	-3.60637233304E-02	-6.07878756238E-02	3.75007567022E-02	-6.07151745778E-02	3.72799852777E-02	1.14505965473E-01	1.52015010176E-01
1.73200000000E+09	5.28803389944E-02	-3.91364888837E-02	-5.89911638343E-02	4.01620043667E-02	-5.88915893888E-02	4.00285938262E-02	1.20284978047E-01	1.48619380840E-01
1.73300000000E+09	5.82221750957E-02	-4.23910747332E-02	-5.71707599693E-02	4.28057950523E-02	-5.70487828406E-02	4.25584093594E-02	1.25861407916E-01	1.44921754455E-01
1.73400000000E+09	6.33158194950E-02	-4.61117831482E-02	-5.50521799037E-02	4.52684654337E-02	-5.51180195806E-02	4.51366950930E-02	1.31200049962E-01	1.40862062906E-01
1.73500000000E+09	6.80573971891E-02	-5.01075448366E-02	-5.29825042637E-02	4.77142347742E-02	-5.30016139866E-02	4.74476882389E-02	1.36239177200E-01	1.36528583005E-01
1.73600000000E+09	7.24669805661E-02	-5.42797777957E-02	-5.07798238404E-02	4.99703005851E-02	-5.08018928708E-02	4.97408971384E-02	1.40899008662E-01	1.31737877444E-01
1.73700000000E+09	7.65808307541E-02	-5.87629527697E-02	-4.84293824513E-02	5.21089304961E-02	-4.84722094680E-02	5.18513713537E-02	1.45416869839E-01	1.26963456742E-01
1.73800000000E+09	8.03206617358E-02	-6.34810233736E-02	-4.59849287187E-02	5.41570861127E-02	-4.60285319521E-02	5.38575058934E-02	1.49470938605E-01	1.21783499328E-01
1.73900000000E+09	8.36828932215E-02	-6.84306141306E-02	-4.34652640023E-02	5.60299547708E-02	-4.35868811682E-02	5.57847358733E-02	1.53341708521E-01	1.16351822627E-01
1.74000000000E+09	8.66112962716E-02	-7.35654139674E-02	-4.09837159048E-02	5.77776556376E-02	-4.09715855778E-02	5.76675755978E-02	1.56770293738E-01	1.10684116965E-01
1.74100000000E+09	8.91252420084E-02	-7.87504838029E-02	-3.82942408553E-02	5.94466976661E-02	-3.84134591866E-02	5.92581608739E-02	1.59861366847E-01	1.04999636123E-01
1.74200000000E+09	9.12973122571E-02	-8.41382050766E-02	-3.56294446804E-02	6.10085028139E-02	-3.56915207917E-02	6.07964517774E-02	1.62552016852E-01	9.89212781905E-02
1.74300000000E+09	9.28636596430E-02	-8.95379429021E-02	-3.28378772592E-02	6.24627509819E-02	-3.28702746819E-02	6.21730145123E-02	1.64920580065E-01	9.27804327720E-02
1.74400000000E+09	9.40781356591E-02	-9.49698975786E-02	-3.00407281647E-02	6.36934356514E-02	-3.01347207054E-02	6.34264141431E-02	1.66891630460E-01	8.65738746111E-02
1.74500000000E+09	9.47595914338E-02	-1.00440310421E-01	-2.71754324116E-02	6.47147925774E-02	-2.72136968254E-02	6.45602600358E-02	1.68404221369E-01	8.01794460452E-02
1.74600000000E+09	9.50080184771E-02	-1.05865448215E-01	-2.42892405341E-02	6.56977256467E-02	-2.44074970965E-02	6.55456397050E-02	1.69507835561E-01	7.38825741226E-02
1.74700000000E+09	9.47652220448E-02	-1.11248775803E-01	-2.13979496868E-02	6.66268914506E-02	-2.15539614762E-02	6.64123376565E-02	1.70276821824E-01	6.73177664318E-02
1.74800000000E+09	9.40723291333E-02	-1.16412273786E-01	-1.85457884712E-02	6.72964611147E-02	-1.86270231088E-02	6.71386866313E-02	1.70596709356E-01	6.08417289793E-02
1.74900000000E+09	9.29094659886E-02	-1.21436039931E-01	-1.55622481962E-02	6.79644776172E-02	-1.56664235326E-02	6.76922521707E-02	1.70542302820E-01	5.44532735514E-02
1.75000000000E+09	9.12620324082E-02	-1.26285656395E-01	-1.27298716479E-02	6.83840206737E-02	-1.28572713687E-02	6.81711447376E-02	1.70041280982E-01	4.80034379857E-02
1.75100000000E+09	8.93549267025E-02	-1.30836638998E-01	-9.71477253044E-03	6.87487086509E-02	-9.89620007622E-03	6.85053922374E-02	1.69181471050E-01	4.15772315981E-02
1.75200000000E+09	8.68648694327E-02	-1.35150739436E-01	-6.89747985293E-03	6.88734856159E-02	-6.93868368839E-03	6.87486744818E-02	1.67803693955E-01	3.53375569339E-02
1.75300000000E+09	8.40938817866E-02	-1.39019913435E-01	-3.95668693362E-03	6.90392469117E-02	-4.05628043721E-03	6.88611641240E-02	1.66141896744E-01	2.90546422690E-02
1.75400000000E+09	8.08704064521E-02	-1.42585591951E-01	-1.08786063594E-03	6.89147358636E-02	-1.23929167290E-03	6.88251125068E-02	1.63955994569E-01	2.29590682475E-02
1.75500000000E+09	7.74284703571E-02	-1.45771860628E-01	1.77386869895E-03	6.88016060914E-02	1.65229795880E-03	6.87211885085E-02	1.61492909330E-01	1.69979122192E-02
1.75600000000E+09	7.36325667200E-02	-1.48412251207E-01	4.62859021801E-03	6.85119232151E-02	4.50641662477E-03	6.84126730634E-02	1.58567836614E-01	1.13903811621E-02
1.75700000000E+09	6.96576096310E-02	-1.50656882404E-01	7.39023952939E-03	6.82380607370E-02	7.23773050436E-03	6.80775874865E-02	1.55309112359E-01	5.77698633472E-03
1.75800000000E+09	6.55310893620E-02	-1.52346551234E-01	1.01597005438E-02	6.77406944956E-02	9.98177481346E-03	6.76609708592E-02	1.51685992630E-01	5.77967959349E-04
1.75900000000E+09	6.11673363433E-02	-1.53516004352E-01	1.29039366697E-02	6.71511095063E-02	1.26804348373E-02	6.70268593450E-02	1.47771059479E-01	-4.44501062002E-03
1.76000000000E+09	5.67934411871E-02	-1.54118809371E-01	1.55887467783E-02	6.65614539433E-02	1.53857008264E-02	6.64566696580E-02	1.43507938710E-01	-9.22513625894E-03
1.76100000000E+09	5.24056542975E-02	-1.54158664826E-01	1.81898229357E-02	6.57866091248E-02	1.80719461316E-02	6.56590760521E-02	1.38885771307E-01	-1.36482690567E-02
1.76200000000E+09	4.80890278392E-02	-1.53713695722E-01	2.08526612258E-02	6.49845865138E-02	2.06857914332E-02	6.48140372794E-02	1.34037696438E-01	-1.77428337744E-02
1.76300000000E+09	4.38208591230E-02	-1.52585988592E-01	2.34378663420E-02	6.40308596415E-02	2.32112287087E-02	6.39692113556E-02	1.29011568540E-01	-2.15707365242E-02
1.76400000000E+09	3.97797721857E-02	-1.50903891255E-01	2.59498904129E-02	6.30060965932E-02	2.57434256312E-02	6.29294153423E-02	1.23708567616E-01	-2.49564859066E-02
1.76500000000E+09	3.59793286508E-02	-1.48755311695E-01	2.84463769283E-02	6.19969954664E-02	2.82237394562E-02	6.18483312452E-02	1.18097567035E-01	-2.80731038932E-02
1.76600000000E+09	3.24125446246E-02	-1.46076883176E-01	3.08413724393E-02	6.08037939640E-02	3.06827590367E-02	6.06743696590E-02	1.12420891978E-01	-3.06943149763E-02
1.76700000000E+09	2.92485916362E-02	-1.42847011465E-01	3.33065424474E-02	5.94808039534E-02	3.30260802994E-02	5.94660044056E-02	1.06485035407E-01	-3.30098812166E-02
1.76800000000E+09	2.64932752441E-02	-1.39331215860E-01	3.56344911122E-02	5.81688026529E-02	3.54908402902E-02	5.81935389164E-02	1.00483461250E-01	-3.47995358574E-02
1.76900000000E+09	2.42141783920E-02	-1.35256586066E-01	3.79949170945E-02	5.67758780809E-02	3.78137318985E-02	5.67690889447E-02	9.43937537783E-02	-3.62537722596E-02
1.77000000000E+09	2.23656114308E-02	-1.30888313656E-01	4.02915427258E-02	5.52792109955E-02	4.00256848115E-02	5.52576872926E-02	8.82093239279E-02	-3.73520743057E-02
1.77100000000E+09	2.11210794805E-02	-1.26419699876E-01	4.24242122733E-02	5.37887842377E-02	4.23406432210E-02	5.36841287294E-02	8.19296274531E-02	-3.79148066956E-02
1.77200000000E+09	2.05102332718E-02	-1.21557348399E-01	4.46928345149E-02	5.21006189266E-02	4.45116305408E-02	5.20589733741E-02	7.57855356909E-02	-3.80845521044E-02
1.77300000000E+09	2.04101471789E-02	-1.16639572495E-01	4.69363941184E-02	5.03274938663E-02	4.67406214427E-02	5.03100998213E-02	6.95233194121E-02	-3.78607636532E-02
1.77400000000E+09	2.10171976733E-02	-1.11567579482E-01	4.90238973757E-02	4.85221437636E-02	4.87903660544E-02	4.84692786502E-02	6.32949102692E-02	-3.72337104557E-02
1.77500000000E+09	2.22097532287E-02	-1.06549468040E-01	5.10870573579E-02	4.66484750756E-02	5.08671960110E-02	4.65760830500E-02	5.72771188742E-02	-3.61523974908E-02
1.77600000000E+09	2.40390903017E-02	-1.01656470420E-01	5.31578948048E-02	4.45619160032E-02	5.29364814928E-02	4.45972502477E-02	5.11984974722E-02	-3.47100817334E-02
1.77700000000E+09	2.64000045081E-02	-9.69128084996E-02	5.51193022360E-02	4.24396050603E-02	5.48302602549E-02	4.24805153104E-02	4.53322319328E-02	-3.27742977447E-02
1.77800000000E+09	2.93875587034E-02	-9.22913937637E-02	5.69628495407E-02	4.02256707501E-02	5.67700186040E-02	4.03099459418E-02	3.96132740841E-02	-3.06190671967E-02
1.77900000000E+09	3.29774849683E-02	-8.80399434728E-02	5.88228602004E-02	3.80253448879E-02	5.86635706981E-02	3.80441478319E-02	3.41020792182E-02	-2.79579414568E-02
1.78000000000E+09	3.69986089691E-02	-8.40797742693E-02	6.05635521738E-02	3.56161083222E-02	6.03420769093E-02	3.56429929522E-02	2.86955367513E-02	-2.49291665604E-02
1.78100000000E+09	4.15118177511E-02	-8.05937024989E-02	6.22180773428E-02	3.30835940975E-02	6.19876464102E-02	3.31114835709E-02	2.35838352398E-02	-2.17227047323E-02
1.78200000000E+09	4.64950655676E-02	-7.75102580706E-02	6.37664553466E-02	3.04208464905E-02	6.35635621656E-02	3.05348770675E-02	1.87467235908E-02	-1.80819060284E-02
1.78300000000E+09	5.17309319598E-02	-7.48873774802E-02	6.51578182082E-02	2.78199213202E-02	6.49078079201E-02	2.78043273091E-02	1.40591996712E-02	-1.41350531335E-02
1.78400000000E+09	5.73659488827E-02	-7.28943179484E-02	6.65547904478E-02	2.50117174008E-02	6.63804400130E-02	2.50833358248E-02	9.68404395931E-03	-9.98423134440E-03
1.78500000000E+09	6.32058046351E-02	-7.14401810479E-02	6.78350100843E-02	2.21447042032E-02	6.76932638410E-02	2.22309380408E-02	5.66310643322E-03	-5.45927515540E-03
1.78600000000E+09	6.91713475617E-02	-7.04909350780E-02	6.89066362021E-02	1.91999614494E-02	6.87160932022E-02	1.92839165876E-02	1.84853267996E-03	-8.19717560538E-04
1.78700000000E+09	7.51959095517E-02	-7.01602763368E-02	6.97990036342E-02	1.61129931151E-02	6.96595959468E-02	1.63046586126E-02	-1.52936254198E-03	4.22725350953E-03
1.78800000000E+09	8.13140175841E-02	-7.04491501582E-02	7.07236687322E-02	1.30983099131E-02	7.05460283240E-02	1.31735900361E-02	-4.57015029054E-03	9.37860559801E-03
1.78900000000E+09	8.74058495447E-02	-7.12805968398E-02	7.13754636944E-02	9.92237389175E-03	7.11463470526E-02	1.00447717436E-02	-7.40691365293E-03	1.47134791809E-02
1.79000000000E+09	9.34605413796E-02	-7.27420805826E-02	7.18663839929E-02	6.67581300856E-03	7.17708380224E-02	6.83788974151E-03	-9.87140646262E-03	2.01607784315E-02
1.79100000000E+09	9.92585136645E-02	-7.46377832888E-02	7.22112937222E-02	3.53971839701E-03	7.20864443070E-02	3.64174501598E-03	-1.18766832720E-02	2.58179435165E-02
1.79200000000E+09	1.04934322934E-01	-7.70810222879E-02	7.23739436089E-02	1.74424988671E-04	7.22962108372E-02	4.29825130629E-04	-1.35212900017E-02	3.14397207450E-02
1.79300000000E+09	1.10365287283E-01	-8.00395316505E-02	7.25039296476E-02	-3.01769005043E-03	7.23539925007E-02	-2.96923169833E-03	-1.47737917113E-02	3.72547358643E-02
1.79400000000E+09	1.15545515011E-01	-8.33910306921E-02	7.23841557961E-02	-6.31847273026E-03	7.22423732048E-02	-6.16685065133E-03	-1.57821091577E-02	4.30265528484E-02
1.79500000000E+09	1.20349663050E-01	-8.72227295514E-02	7.20215428747E-02	-9.59713002815E-03	7.19003995023E-02	-9.42184441823E-03	-1.62584772846E-02	4.89851942996E-02
1.79600000000E+09	1.24795290010E-01	-9.13987930829E-02	7.15840589543E-02	-1.28431258635E-02	7.14067092708E-02	-1.26495881632E-02	-1.64217349959E-02	5.48963067267E-02
1.79700000000E+09	1.28884425633E-01	-9.58575712830E-02	7.09449081885E-02	-1.60847194056E-02	7.07867177315E-02	-1.59410377802E-02	-1.62675387698E-02	6.07813148781E-02
1.79800000000E+09	1.32518823892E-01	-1.00722320153E-01	7.01025946834E-02	-1.93212925911E-02	7.00195036804E-02	-1.91656338317E-02	-1.56109534000E-02	6.66514403805E-02
1.79900000000E+09	1.35795449916E-01	-1.05734970185E-01	6.91341425401E-02	-2.24294107224E-02	6.90455857157E-02	-2.22633695245E-02	-1.46425373994E-02	7.25291782702E-02
1.80000000000E+09	1.38584687185E-01	-1.11074914218E-01	6.80524893168E-02	-2.55293388166E-02	6.79214300897E-02	-2.53200402312E-02	-1.33434426253E-02	7.81454085812E-02
1.80100000000E+09	1.40953494322E-01	-1.16489558297E-01	6.67341253630E-02	-2.86210987804E-02	6.66641890080E-02	-2.84365128480E-02	-1.16118538442E-02	8.38181467840E-02
1.80200000000E+09	1.42901437536E-01	-1.22054011722E-01	6.53360646263E-02	-3.15269073852E-02	6.53134133568E-02	-3.13218251397E-02	-9.64439636877E-03	8.94028897489E-02
1.80300000000E+09	1.44338788099E-01	-1.27667001932E-01	6.37619250254E-02	-3.44029240764E-02	6.37428494127E-02	-3.41733756978E-02	-7.25607497397E-03	9.47386857751E-02
1.80400000000E+09	1.45323880838E-01	-1.33400907800E-01	6.21190971273E-02	-3.71529325752E-02	6.20420015379E-02	-3.69149664485E-02	-4.44647503845E-03	9.98846169657E-02
1.80500000000E+09	1.45921134427E-01	-1.39046486444E-01	6.02654980156E-02	-3.98590494600E-02	6.02100871982E-02	-3.96739860379E-02	-1.45123472008E-03	1.04810914629E-01
1.80600000000E+09	1.46128158385E-01	-1.44743077589E-01	5.84232707872E-02	-4.24774663001E-02	5.82828683459E-02	-4.21815526172E-02	1.87478839131E-03	1.09622909539E-01
1.80700000000E+09	1.45760763802E-01	-1.50272271879E-01	5.63226597748E-02	-4.49121526262E-02	5.62166441815E-02	-4.46554332965E-02	5.53505192727E-03	1.14126185949E-01
1.80800000000E+09	1.45073436246E-01	-1.55844670170E-01	5.41949547522E-02	-4.72575970741E-02	5.40817654380E-02	-4.70152994785E-02	9.52217105676E-03	1.18524974375E-01
1.80900000000E+09	1.44018088453E-01	-1.61154561632E-01	5.18734726542E-02	-4.94049697255E-02	5.18959799014E-02	-4.93121920527E-02	1.36899864881E-02	1.22381619905E-01
1.81000000000E+09	1.42467152580E-01	-1.66424605197E-01	4.96221794893E-02	-5.16880489315E-02	4.95612400698E-02	-5.13651952921E-02	1.80304132905E-02	1.26198521678E-01
1.81100000000E+09	1.40682424865E-01	-1.71533210612E-01	4.71187994647E-02	-5.35968629325E-02	4.71942843209E-02	-5.33439741541E-02	2.27157717656E-02	1.29653330198E-01
1.81200000000E+09	1.38432664821E-01	-1.76333310470E-01	4.46470773975E-02	-5.54416247947E-02	4.46438197674E-02	-5.52112815259E-02	2.76279947018E-02	1.32703875296E-01
1.81300000000E+09	1.35960838444E-01	-1.81023152921E-01	4.21415995652E-02	-5.72450560338E-02	4.21251213061E-02	-5.69650395296E-02	3.26279116328E-02	1.35459924672E-01
1.81400000000E+09	1.33182444320E-01	-1.85408467615E-01	3.94953998031E-02	-5.88415015238E-02	3.95431878942E-02	-5.86347249137E-02	3.76755463384E-02	1.38036153624E-01
1.81500000000E+09	1.29974120737E-01	-1.89574217930E-01	3.68024912246E-02	-6.03238249293E-02	3.68577925394E-02	-6.01378934753E-02	4.30369908930E-02	1.40166529585E-01
1.81600000000E+09	1.26641081207E-01	-1.93440219996E-01	3.40894445239E-02	-6.17748002586E-02	3.41987596848E-02	-6.14752132852E-02	4.85023627270E-02	1.41896965997E-01
1.81700000000E+09	1.23035293393E-01	-1.97049457114E-01	3.13925140954E-02	-6.29442781713E-02	3.14581451669E-02	-6.26667067190E-02	5.39268620348E-02	1.43397484935E-01
1.81800000000E+09	1.19107022855E-01	-2.00283254287E-01	2.86469027280E-02	-6.40234258767E-02	2.86377463919E-02	-6.38024316883E-02	5.95952383006E-02	1.44454885221E-01
