# Hz S RI R 50
! CMT, CMT808U, 21440046, 21.4.3/4
! Date: 12/13/2025 10:44:04 PM
! Data: Format (Calibration Info)
! Freq	S11:Re/Im(F2)	S41:Re/Im(F2)	S14:Re/Im(F2)	S44:Re/Im(F2)
1.70000000000E+09	-8.53744219811E-02	-1.25701442599E-01	-6.27652133097E-02	-3.90870114231E-02	-6.24920643092E-02	-3.90925197949E-02	-5.93132113826E-04	9.07698089643E-02
1.70100000000E+09	-8.68990851297E-02	-1.20666930362E-01	-6.44325086517E-02	-3.63678944297E-02	-6.42184863336E-02	-3.63790243929E-02	2.34903809975E-03	9.65217292417E-02
1.70200000000E+09	-8.78202656304E-02	-1.15386453873E-01	-6.60532845745E-02	-3.36297150905E-02	-6.58767205903E-02	-3.35965795608E-02	5.48300708850E-03	1.02072210080E-01
1.70300000000E+09	-8.84040791129E-02	-1.09913590764E-01	-6.74938146931E-02	-3.07355099463E-02	-6.73575687127E-02	-3.08855193852E-02	9.14729382417E-03	1.07348498268E-01
1.70400000000E+09	-8.84381097007E-02	-1.04173209862E-01	-6.89241886737E-02	-2.77656382163E-02	-6.86861525926E-02	-2.79131289108E-02	1.31273287342E-02	1.12394950297E-01
1.70500000000E+09	-8.78573820454E-02	-9.83553949987E-02	-7.01376533829E-02	-2.48458179020E-02	-6.99626200538E-02	-2.49031484046E-02	1.74862259255E-02	1.17183231074E-01
1.70600000000E+09	-8.67899243978E-02	-9.25444142275E-02	-7.12258425763E-02	-2.18346422193E-02	-7.10356220181E-02	-2.18848430058E-02	2.20433304107E-02	1.21613172329E-01
1.70700000000E+09	-8.52174902916E-02	-8.66609738733E-02	-7.22165999059E-02	-1.87174916161E-02	-7.20685607588E-02	-1.87687620746E-02	2.70084379569E-02	1.25898099273E-01
1.70800000000E+09	-8.30805255424E-02	-8.08330071653E-02	-7.30064480234E-02	-1.55782129124E-02	-7.28447714097E-02	-1.56428453917E-02	3.21317039968E-02	1.29808309259E-01
1.70900000000E+09	-8.04940232309E-02	-7.50864924511E-02	-7.36602508509E-02	-1.22709546847E-02	-7.35669325531E-02	-1.24235786952E-02	3.75487005962E-02	1.33338799118E-01
1.71000000000E+09	-7.73641728910E-02	-6.95204430073E-02	-7.43317193278E-02	-9.07830741229E-03	-7.40762847642E-02	-9.19209207155E-03	4.32150916148E-02	1.36521286572E-01
1.71100000000E+09	-7.38057130496E-02	-6.41810426629E-02	-7.46845547674E-02	-5.80725535854E-03	-7.44863766083E-02	-5.94464948962E-03	4.90521417749E-02	1.39342639407E-01
1.71200000000E+09	-6.97740597008E-02	-5.90114363412E-02	-7.49243380977E-02	-2.49036073904E-03	-7.48528496116E-02	-2.68977344880E-03	5.51313162474E-02	1.41871307406E-01
1.71300000000E+09	-6.52891969108E-02	-5.41978017343E-02	-7.49315251056E-02	6.77660934321E-04	-7.48341813951E-02	6.44903758078E-04	6.12516065390E-02	1.43952537752E-01
1.71400000000E+09	-6.05290475336E-02	-4.96530196383E-02	-7.49069240639E-02	4.11962608243E-03	-7.48115111850E-02	3.87896798460E-03	6.74685303114E-02	1.45627384079E-01
1.71500000000E+09	-5.52672694020E-02	-4.54567756407E-02	-7.47154026900E-02	7.38080039185E-03	-7.45174512430E-02	7.25545154699E-03	7.39607063483E-02	1.46939353046E-01
1.71600000000E+09	-4.97843605102E-02	-4.15976518796E-02	-7.43151392085E-02	1.06764933749E-02	-7.41550589439E-02	1.04922228597E-02	8.04154713812E-02	1.47786631461E-01
1.71700000000E+09	-4.39380850713E-02	-3.81927990848E-02	-7.38011534028E-02	1.39084575380E-02	-7.36123272927E-02	1.37929246075E-02	8.69792508398E-02	1.48374969689E-01
1.71800000000E+09	-3.78955616438E-02	-3.50759425885E-02	-7.30887285406E-02	1.71201931103E-02	-7.29203671814E-02	1.69751117661E-02	9.34134483059E-02	1.48359322119E-01
1.71900000000E+09	-3.17324071587E-02	-3.25052411850E-02	-7.22592965212E-02	2.03323901615E-02	-7.20932119382E-02	2.02049109027E-02	1.00035561167E-01	1.48165990705E-01
1.72000000000E+09	-2.53111488578E-02	-3.03928106386E-02	-7.12950913617E-02	2.34242871958E-02	-7.10949630522E-02	2.32708011725E-02	1.06521917728E-01	1.47421278438E-01
1.72100000000E+09	-1.88324696565E-02	-2.85467066624E-02	-7.00823718480E-02	2.65759750032E-02	-6.99933248535E-02	2.64472871180E-02	1.13132973877E-01	1.46169251230E-01
1.72200000000E+09	-1.21910072040E-02	-2.72852658277E-02	-6.88725012419E-02	2.96588104274E-02	-6.87116688759E-02	2.93832469763E-02	1.19506397585E-01	1.44758423787E-01
1.72300000000E+09	-5.47085490879E-03	-2.64156646965E-02	-6.74507170980E-02	3.26058439472E-02	-6.73392443916E-02	3.23796590188E-02	1.25759169810E-01	1.42917891186E-01
1.72400000000E+09	1.12637270678E-03	-2.59724113212E-02	-6.59255017827E-02	3.54732097885E-02	-6.57911217191E-02	3.52743255816E-02	1.31994596409E-01	1.40612376857E-01
1.72500000000E+09	7.84628661430E-03	-2.60606916863E-02	-6.42472722812E-02	3.82684791613E-02	-6.42173546650E-02	3.80614896310E-02	1.38009058486E-01	1.37937739367E-01
1.72600000000E+09	1.44560908480E-02	-2.64809671520E-02	-6.24826615715E-02	4.10573534594E-02	-6.23709663713E-02	4.07939221478E-02	1.43813760532E-01	1.34856529585E-01
1.72700000000E+09	2.10594136931E-02	-2.73426378968E-02	-6.05473139837E-02	4.36876992285E-02	-6.04617947608E-02	4.34295460838E-02	1.49553235041E-01	1.31517223457E-01
1.72800000000E+09	2.74695192293E-02	-2.86900846995E-02	-5.85078363988E-02	4.62394709118E-02	-5.84538292327E-02	4.59956239343E-02	1.54949287040E-01	1.27773079929E-01
1.72900000000E+09	3.37040909353E-02	-3.03453608919E-02	-5.63789932488E-02	4.86566473840E-02	-5.64425591496E-02	4.84246924070E-02	1.60237808469E-01	1.23768437368E-01
1.73000000000E+09	3.98584545093E-02	-3.25100905658E-02	-5.42342424673E-02	5.10410646740E-02	-5.41756920586E-02	5.08165968141E-02	1.65140351243E-01	1.19406364531E-01
1.73100000000E+09	4.58459467230E-02	-3.49639315919E-02	-5.18922601677E-02	5.32044766370E-02	-5.18789170456E-02	5.29497697946E-02	1.69922484287E-01	1.14720572986E-01
1.73200000000E+09	5.15635169495E-02	-3.78736373694E-02	-4.94620207355E-02	5.52864784512E-02	-4.94052223839E-02	5.51359046222E-02	1.74300490049E-01	1.09761636880E-01
1.73300000000E+09	5.70240575298E-02	-4.09751070502E-02	-4.70439214148E-02	5.73481772922E-02	-4.69744216603E-02	5.70919865768E-02	1.78443478271E-01	1.04638940283E-01
1.73400000000E+09	6.22561349479E-02	-4.45710168453E-02	-4.43764516993E-02	5.92017794512E-02	-4.44913952978E-02	5.90601825513E-02	1.82245122124E-01	9.92129227426E-02
1.73500000000E+09	6.71291560799E-02	-4.84462307162E-02	-4.17979618186E-02	6.10252506438E-02	-4.18668011136E-02	6.07465871760E-02	1.85688646451E-01	9.35834638498E-02
1.73600000000E+09	7.16831324974E-02	-5.25122437224E-02	-3.91179823733E-02	6.26344853158E-02	-3.92021485278E-02	6.23991801425E-02	1.88670810186E-01	8.76027014461E-02
1.73700000000E+09	7.59554113421E-02	-5.68838945112E-02	-3.63474102537E-02	6.41385497620E-02	-3.64357868131E-02	6.38719136595E-02	1.91511253451E-01	8.17060505125E-02
1.73800000000E+09	7.98447019905E-02	-6.15416177021E-02	-3.35216630801E-02	6.55306539173E-02	-3.36231226116E-02	6.52392565412E-02	1.93787940693E-01	7.55421398148E-02
1.73900000000E+09	8.33689845061E-02	-6.64217339278E-02	-3.06455521200E-02	6.67636512330E-02	-3.08288311554E-02	6.65204767322E-02	1.95861197628E-01	6.91818525830E-02
1.74000000000E+09	8.64627452334E-02	-7.15050825431E-02	-2.78597167341E-02	6.78638573769E-02	-2.79027356429E-02	6.77509872716E-02	1.97423687727E-01	6.27129904389E-02
1.74100000000E+09	8.91352246783E-02	-7.66390643898E-02	-2.49062186390E-02	6.88706617584E-02	-2.50668623602E-02	6.87048961505E-02	1.98640908295E-01	5.63191721404E-02
1.74200000000E+09	9.14776686324E-02	-8.20116185734E-02	-2.19982451852E-02	6.98066160005E-02	-2.21035011277E-02	6.95929559380E-02	1.99392319926E-01	4.96720218661E-02
1.74300000000E+09	9.32078710995E-02	-8.74065546451E-02	-1.90011623419E-02	7.06284284479E-02	-1.90892754144E-02	7.03391678966E-02	1.99808612297E-01	4.30142314698E-02
1.74400000000E+09	9.45654142514E-02	-9.28555640486E-02	-1.60399475986E-02	7.12278547175E-02	-1.61789424697E-02	7.09740150370E-02	1.99826833095E-01	3.64235318940E-02
1.74500000000E+09	9.54235333818E-02	-9.83261581226E-02	-1.30218659336E-02	7.16276802978E-02	-1.30974163003E-02	7.14802812282E-02	1.99348899084E-01	2.97808557185E-02
1.74600000000E+09	9.58182081497E-02	-1.03780996185E-01	-1.00225133494E-02	7.20095137184E-02	-1.01791535472E-02	7.18746876777E-02	1.98482354533E-01	2.33233061846E-02
1.74700000000E+09	9.57331590393E-02	-1.09191963703E-01	-7.02696856792E-03	7.23497060090E-02	-7.21656713138E-03	7.21657662908E-02	1.97272757304E-01	1.67258131957E-02
1.74800000000E+09	9.51846806034E-02	-1.14400924024E-01	-4.09938670668E-03	7.24435995420E-02	-4.21475066894E-03	7.23093762560E-02	1.95628746987E-01	1.03271381940E-02
1.74900000000E+09	9.41790905910E-02	-1.19479932415E-01	-1.04451186486E-03	7.25484207549E-02	-1.20861396894E-03	7.22989739121E-02	1.93627276514E-01	4.12080831225E-03
1.75000000000E+09	9.26724627310E-02	-1.24403711023E-01	1.83753405507E-03	7.24173512844E-02	1.65559901768E-03	7.22240793568E-02	1.91175260818E-01	-2.02323261412E-03
1.75100000000E+09	9.08929554707E-02	-1.29018514974E-01	4.86064553965E-03	7.22415327104E-02	4.64635882019E-03	7.20283930994E-02	1.88406254170E-01	-8.03751341636E-03
1.75200000000E+09	8.85371951144E-02	-1.33430596294E-01	7.69639788123E-03	7.18569071565E-02	7.62338337988E-03	7.17529193446E-02	1.85167196661E-01	-1.37468055086E-02
1.75300000000E+09	8.58908792160E-02	-1.37383756709E-01	1.06444880314E-02	7.15011258425E-02	1.05130061752E-02	7.13517076069E-02	1.81683150544E-01	-1.93905084824E-02
1.75400000000E+09	8.27893850328E-02	-1.41065313161E-01	1.35306032762E-02	7.08884096363E-02	1.33307388874E-02	7.08282299995E-02	1.77721749346E-01	-2.47397976873E-02
1.75500000000E+09	7.94769750116E-02	-1.44346958712E-01	1.63755204678E-02	7.02791522762E-02	1.62187135614E-02	7.02308449902E-02	1.73559540660E-01	-2.98642196997E-02
1.75600000000E+09	7.57731470782E-02	-1.47122623506E-01	1.92260624639E-02	6.95122817680E-02	1.90615382126E-02	6.94324654093E-02	1.68969109304E-01	-3.45248455754E-02
1.75700000000E+09	7.19057475321E-02	-1.49503372180E-01	2.19792249008E-02	6.87533074679E-02	2.17846885038E-02	6.86156563503E-02	1.64120013266E-01	-3.91115923504E-02
1.75800000000E+09	6.78799631031E-02	-1.51329357986E-01	2.47421437607E-02	6.77862203336E-02	2.45259469997E-02	6.77477912147E-02	1.59008293269E-01	-4.31850096889E-02
1.75900000000E+09	6.35932884734E-02	-1.52659444755E-01	2.74717603824E-02	6.67200324223E-02	2.72120248554E-02	6.66379974912E-02	1.53675682036E-01	-4.69968405762E-02
1.76000000000E+09	5.92990316310E-02	-1.53422422724E-01	3.01338160204E-02	6.56538863705E-02	2.99106075097E-02	6.55903250714E-02	1.48074321192E-01	-5.04990032391E-02
1.76100000000E+09	5.49623998299E-02	-1.53635248628E-01	3.27277997040E-02	6.44240960853E-02	3.25785171400E-02	6.43224487456E-02	1.42219870056E-01	-5.35611415436E-02
1.76200000000E+09	5.07106857191E-02	-1.53378983724E-01	3.53782948111E-02	6.31379723515E-02	3.51940597393E-02	6.29933168881E-02	1.36233040901E-01	-5.62253690287E-02
1.76300000000E+09	4.64697294166E-02	-1.52454942036E-01	3.79488389895E-02	6.16840800052E-02	3.76867911570E-02	6.16695963589E-02	1.30178645178E-01	-5.85812480593E-02
1.76400000000E+09	4.24475368336E-02	-1.50969584914E-01	4.04399100434E-02	6.01661178887E-02	4.02061386817E-02	6.01322713028E-02	1.23927856873E-01	-6.04432143153E-02
1.76500000000E+09	3.86382207145E-02	-1.49025070288E-01	4.29073769703E-02	5.86436802818E-02	4.26704036425E-02	5.85456982978E-02	1.17484306469E-01	-6.19935285192E-02
1.76600000000E+09	3.50416734371E-02	-1.46559820262E-01	4.52719789678E-02	5.69163206380E-02	4.50834895719E-02	5.68409125972E-02	1.11094804963E-01	-6.29933924008E-02
1.76700000000E+09	3.18357346241E-02	-1.43566307922E-01	4.76896429075E-02	5.50666634428E-02	4.73875816510E-02	5.50898140641E-02	1.04532604190E-01	-6.36657872161E-02
1.76800000000E+09	2.90213500817E-02	-1.40268712931E-01	4.99615861237E-02	5.31829868266E-02	4.98093052199E-02	5.32403551502E-02	9.80438545862E-02	-6.38051498759E-02
1.76900000000E+09	2.66251519466E-02	-1.36410132690E-01	5.22682528185E-02	5.12130835697E-02	5.20480480652E-02	5.12420383809E-02	9.15593925427E-02	-6.35680326382E-02
1.77000000000E+09	2.46416508812E-02	-1.32251275946E-01	5.44413946367E-02	4.91026393586E-02	5.41608645890E-02	4.91277954687E-02	8.50874401791E-02	-6.29855613342E-02
1.77100000000E+09	2.32482816505E-02	-1.27983164724E-01	5.64682787559E-02	4.69950674099E-02	5.63562830357E-02	4.69364477936E-02	7.86383981628E-02	-6.18688722130E-02
1.77200000000E+09	2.24515091977E-02	-1.23287892154E-01	5.85717185491E-02	4.46737850297E-02	5.83792845118E-02	4.46745885392E-02	7.24442938306E-02	-6.03454386333E-02
1.77300000000E+09	2.21404928795E-02	-1.18550337531E-01	6.06324609014E-02	4.22381161815E-02	6.03947063896E-02	4.22663702729E-02	6.62344916756E-02	-5.84597453530E-02
1.77400000000E+09	2.25117644653E-02	-1.13611509181E-01	6.24728212546E-02	3.97657084144E-02	6.22238214022E-02	3.97577290389E-02	6.01497660123E-02	-5.61885963850E-02
1.77500000000E+09	2.34642828842E-02	-1.08707168661E-01	6.42678218058E-02	3.72253787894E-02	6.40279296171E-02	3.71924886898E-02	5.43852786823E-02	-5.34614410717E-02
1.77600000000E+09	2.50380451299E-02	-1.03891224568E-01	6.60206649661E-02	3.44525521459E-02	6.57830594407E-02	3.45410296335E-02	4.86754870982E-02	-5.04183441207E-02
1.77700000000E+09	2.71237473317E-02	-9.92113894793E-02	6.75969961977E-02	3.16503316073E-02	6.73121028082E-02	3.17268676971E-02	4.32454457076E-02	-4.69217310755E-02
1.77800000000E+09	2.98272124611E-02	-9.46134378018E-02	6.90132751790E-02	2.87449535347E-02	6.88240341610E-02	2.88879844538E-02	3.80731448717E-02	-4.32348210341E-02
1.77900000000E+09	3.31236543336E-02	-9.03417906606E-02	7.03862833135E-02	2.58939751069E-02	7.02211899481E-02	2.59515238099E-02	3.32027916815E-02	-3.90851751705E-02
1.78000000000E+09	3.68620670940E-02	-8.63397794017E-02	7.16095560250E-02	2.28387889262E-02	7.13851922381E-02	2.29252089714E-02	2.85466625268E-02	-3.46155295647E-02
1.78100000000E+09	4.10988366754E-02	-8.27648055595E-02	7.26729731788E-02	1.96897842635E-02	7.24429125411E-02	1.97682020241E-02	2.42491975071E-02	-3.00191706146E-02
1.78200000000E+09	4.58093523940E-02	-7.95484856504E-02	7.35882658498E-02	1.64340684516E-02	7.33767824113E-02	1.65924867639E-02	2.03282206021E-02	-2.50494473703E-02
1.78300000000E+09	5.07905394039E-02	-7.67772884552E-02	7.42925948620E-02	1.32884044419E-02	7.40379943457E-02	1.33249032758E-02	1.66268412001E-02	-1.98085043738E-02
1.78400000000E+09	5.61855468300E-02	-7.45969765657E-02	7.49502839514E-02	9.95930237971E-03	7.47859681140E-02	1.00976654958E-02	1.33487669767E-02	-1.44491382429E-02
1.78500000000E+09	6.18240274371E-02	-7.29299451036E-02	7.54476656706E-02	6.63095753731E-03	7.53179660297E-02	6.78088004063E-03	1.04765781829E-02	-8.79910217109E-03
1.78600000000E+09	6.76197740691E-02	-7.17385947814E-02	7.57256845894E-02	3.30832247637E-03	7.55313889943E-02	3.43263064224E-03	7.90093279700E-03	-3.07962379275E-03
1.78700000000E+09	7.35023663806E-02	-7.11501646599E-02	7.57715387938E-02	-1.39063485262E-04	7.56486006919E-02	1.02323753987E-04	5.81865101333E-03	2.96160943648E-03
1.78800000000E+09	7.95224777846E-02	-7.11706257166E-02	7.58488586317E-02	-3.44441002612E-03	7.56829830113E-02	-3.30500944340E-03	4.14442680163E-03	9.01527466035E-03
1.78900000000E+09	8.55377725593E-02	-7.17268994297E-02	7.56064202956E-02	-6.85196467521E-03	7.54153423429E-02	-6.68514669262E-03	2.74610773965E-03	1.51806431416E-02
1.79000000000E+09	9.15510548294E-02	-7.29106877222E-02	7.52221353189E-02	-1.02688785889E-02	7.51436364947E-02	-1.00528669414E-02	1.78606580685E-03	2.13649048663E-02
1.79100000000E+09	9.73458524654E-02	-7.45229457643E-02	7.46856166621E-02	-1.34924517440E-02	7.45756233913E-02	-1.33548464811E-02	1.34941499425E-03	2.76613834883E-02
1.79200000000E+09	1.03044787903E-01	-7.66934251063E-02	7.39416728058E-02	-1.69036093934E-02	7.39002566640E-02	-1.66216907805E-02	1.31675827676E-03	3.38097087357E-02
1.79300000000E+09	1.08542306619E-01	-7.93872483783E-02	7.32009089140E-02	-2.00936705123E-02	7.30589877286E-02	-1.99917934460E-02	1.72218632821E-03	4.00742717228E-02
1.79400000000E+09	1.13799629837E-01	-8.24961414360E-02	7.21870760765E-02	-2.33218844959E-02	7.20772226366E-02	-2.31370345472E-02	2.40961726356E-03	4.61593354530E-02
1.79500000000E+09	1.18712133348E-01	-8.60893529872E-02	7.09608102172E-02	-2.64724697061E-02	7.08924459588E-02	-2.62600378524E-02	3.65471606270E-03	5.23315336770E-02
1.79600000000E+09	1.23309530851E-01	-9.00538509208E-02	6.97154531734E-02	-2.95414851409E-02	6.95563931007E-02	-2.93134581246E-02	5.25403899012E-03	5.83349075021E-02
1.79700000000E+09	1.27544496773E-01	-9.43216409139E-02	6.82598528453E-02	-3.25587612267E-02	6.81270632589E-02	-3.23728683519E-02	7.19063614153E-03	6.41880183001E-02
1.79800000000E+09	1.31355298634E-01	-9.90179899826E-02	6.66403339884E-02	-3.55208225892E-02	6.65907648305E-02	-3.53263688280E-02	9.63101741689E-03	6.99212552309E-02
1.79900000000E+09	1.34814220175E-01	-1.03889696283E-01	6.49171823153E-02	-3.83212236814E-02	6.48823036931E-02	-3.81171385700E-02	1.23992104603E-02	7.55302191125E-02
1.80000000000E+09	1.37793352903E-01	-1.09100164170E-01	6.31179572091E-02	-4.10591783063E-02	6.30252835633E-02	-4.08328202816E-02	1.54857634675E-02	8.07635204157E-02
1.80100000000E+09	1.40354225512E-01	-1.14417123279E-01	6.10971775467E-02	-4.37697175347E-02	6.10950558806E-02	-4.35633963947E-02	1.89935109516E-02	8.59350505163E-02
1.80200000000E+09	1.42499805138E-01	-1.19895650645E-01	5.90595492142E-02	-4.62669732998E-02	5.90916256326E-02	-4.60383067012E-02	2.27217721808E-02	9.08762493827E-02
1.80300000000E+09	1.44145019365E-01	-1.25461337347E-01	5.68717291117E-02	-4.87049922251E-02	5.69004215412E-02	-4.84619118812E-02	2.68408999529E-02	9.54567753100E-02
1.80400000000E+09	1.45320465094E-01	-1.31139825600E-01	5.46473594076E-02	-5.10029958195E-02	5.46338801802E-02	-5.07467096980E-02	3.13477809599E-02	9.97350217755E-02
1.80500000000E+09	1.46127196675E-01	-1.36772654695E-01	5.22624535834E-02	-5.32307905547E-02	5.22445521960E-02	-5.30217287935E-02	3.59565623579E-02	1.03659928438E-01
1.80600000000E+09	1.46513402231E-01	-1.42476099213E-01	4.99064016189E-02	-5.53565167793E-02	4.98186017361E-02	-5.50379065002E-02	4.08831196592E-02	1.07362266783E-01
1.80700000000E+09	1.46335787654E-01	-1.48026638341E-01	4.73378238991E-02	-5.72926617511E-02	4.72901668004E-02	-5.70225296576E-02	4.60726638927E-02	1.10637945428E-01
1.80800000000E+09	1.45840547393E-01	-1.53636500869E-01	4.47734825516E-02	-5.91224290214E-02	4.47152407754E-02	-5.88743781430E-02	5.15490086517E-02	1.13722086449E-01
1.80900000000E+09	1.44946375086E-01	-1.58984491438E-01	4.20628449737E-02	-6.07433436926E-02	4.21129995345E-02	-6.06337175502E-02	5.70843983214E-02	1.16148920525E-01
1.81000000000E+09	1.43551102164E-01	-1.64318980997E-01	3.94422144904E-02	-6.24876941276E-02	3.94213115515E-02	-6.21689435380E-02	6.27184116742E-02	1.18431262747E-01
1.81100000000E+09	1.41916685772E-01	-1.69493533694E-01	3.66019009583E-02	-6.38658089582E-02	3.67261580786E-02	-6.36169286705E-02	6.86287656298E-02	1.20287300985E-01
1.81200000000E+09	1.39816111924E-01	-1.74362611902E-01	3.38103960508E-02	-6.51786790016E-02	3.38597036831E-02	-6.49440965870E-02	7.46642802195E-02	1.21622637591E-01
1.81300000000E+09	1.37479644685E-01	-1.79134624659E-01	3.10288960618E-02	-6.64508880272E-02	3.10680826007E-02	-6.61612015350E-02	8.06606845135E-02	1.22588893769E-01
1.81400000000E+09	1.34825018078E-01	-1.83610416676E-01	2.81242368639E-02	-6.75179699487E-02	2.82355228216E-02	-6.73080493873E-02	8.66562197628E-02	1.23317039468E-01
1.81500000000E+09	1.31741061246E-01	-1.87896416044E-01	2.51948837308E-02	-6.84947070198E-02	2.53107079737E-02	-6.82991795771E-02	9.28424191660E-02	1.23519179458E-01
1.81600000000E+09	1.28523465058E-01	-1.91854968114E-01	2.23009298954E-02	-6.94095919342E-02	2.24572800483E-02	-6.91133388518E-02	9.90076674704E-02	1.23258264946E-01
1.81700000000E+09	1.25019294351E-01	-1.95574763551E-01	1.94145083080E-02	-7.00612634401E-02	1.95245620813E-02	-6.97930074522E-02	1.05031177883E-01	1.22738251147E-01
1.81800000000E+09	1.21177162373E-01	-1.98924539140E-01	1.65158351011E-02	-7.06315941607E-02	1.65390469042E-02	-7.04186368893E-02	1.11150579258E-01	1.21707910847E-01
