# Hz S RI R 50
! CMT, CMT808U, 21440046, 21.4.3/4
! Date: 12/11/2025 5:59:41 PM
! Data: Format (Calibration Info)
! Freq	S11:Re/Im(F2)	S41:Re/Im(F2)	S14:Re/Im(F2)	S44:Re/Im(F2)
1.70000000000E+09	-1.58576055122E-01	-8.64139915479E-02	-5.93047693423E-02	-3.47421139270E-02	-5.89053286328E-02	-3.50260823521E-02	-1.03438073846E-01	2.55992482976E-02
1.70100000000E+09	-1.57641035317E-01	-8.18297131744E-02	-6.06667445757E-02	-3.22347320601E-02	-6.03505772544E-02	-3.25392932141E-02	-1.04483118975E-01	3.57432594184E-02
1.70200000000E+09	-1.56007823530E-01	-7.73556620849E-02	-6.20249459523E-02	-2.97471999600E-02	-6.17431596128E-02	-3.00131295523E-02	-1.05012825408E-01	4.59419093389E-02
1.70300000000E+09	-1.54007460565E-01	-7.30071815280E-02	-6.32276149732E-02	-2.71225865058E-02	-6.30078032856E-02	-2.75777899581E-02	-1.04648112259E-01	5.60926764379E-02
1.70400000000E+09	-1.51490092390E-01	-6.87310629653E-02	-6.44332178667E-02	-2.44285188121E-02	-6.41206734016E-02	-2.48849272431E-02	-1.03664701795E-01	6.61849266215E-02
1.70500000000E+09	-1.48415099190E-01	-6.47096242252E-02	-6.54591940269E-02	-2.18013343243E-02	-6.52097527590E-02	-2.21670156509E-02	-1.01977380356E-01	7.62356539382E-02
1.70600000000E+09	-1.44943243481E-01	-6.10231823230E-02	-6.63672046840E-02	-1.91013259476E-02	-6.61181584994E-02	-1.94671331341E-02	-9.96996366321E-02	8.60527601106E-02
1.70700000000E+09	-1.41086772171E-01	-5.75712228750E-02	-6.72204021149E-02	-1.62955747287E-02	-6.70362025630E-02	-1.66614138540E-02	-9.66779542453E-02	9.58758986285E-02
1.70800000000E+09	-1.36888089961E-01	-5.44659362712E-02	-6.78840600724E-02	-1.34663075939E-02	-6.77024167437E-02	-1.38521465801E-02	-9.30761838190E-02	1.05363917166E-01
1.70900000000E+09	-1.32437670929E-01	-5.16849633544E-02	-6.84516610088E-02	-1.04926531569E-02	-6.83238370456E-02	-1.09494156092E-02	-8.88614005547E-02	1.14606106929E-01
1.71000000000E+09	-1.27638420988E-01	-4.93280315049E-02	-6.90443459130E-02	-7.61995545313E-03	-6.87774030333E-02	-8.05811367315E-03	-8.40263839963E-02	1.23533194115E-01
1.71100000000E+09	-1.22716313507E-01	-4.74022251943E-02	-6.93581862783E-02	-4.66021617211E-03	-6.91626409412E-02	-5.12628709896E-03	-7.86305836420E-02	1.32102833768E-01
1.71200000000E+09	-1.17570361337E-01	-4.57954993458E-02	-6.95701349602E-02	-1.65988328827E-03	-6.95186891820E-02	-2.19323509007E-03	-7.26560263473E-02	1.40380759267E-01
1.71300000000E+09	-1.12266572094E-01	-4.47092766319E-02	-6.95667422357E-02	1.19512807944E-03	-6.95089910573E-02	8.41022660995E-04	-6.61886418597E-02	1.48184086622E-01
1.71400000000E+09	-1.06985046168E-01	-4.39657786548E-02	-6.95702306822E-02	4.33480939062E-03	-6.95174545525E-02	3.75986244873E-03	-5.93430621786E-02	1.55574208197E-01
1.71500000000E+09	-1.01490104888E-01	-4.36429226589E-02	-6.94048286229E-02	7.29829621771E-03	-6.92672289025E-02	6.83698645797E-03	-5.18308225101E-02	1.62499803194E-01
1.71600000000E+09	-9.60828286672E-02	-4.37068244245E-02	-6.90576982183E-02	1.03116537763E-02	-6.89621419876E-02	9.80430462466E-03	-4.39550798994E-02	1.68904599728E-01
1.71700000000E+09	-9.05951320431E-02	-4.42310593468E-02	-6.86181790270E-02	1.32709842705E-02	-6.85075810596E-02	1.28237267846E-02	-3.56383790816E-02	1.74898746048E-01
1.71800000000E+09	-8.52135521396E-02	-4.50008640234E-02	-6.79700730207E-02	1.62117975006E-02	-6.79151727471E-02	1.57486043580E-02	-2.71182909158E-02	1.80144405552E-01
1.71900000000E+09	-7.99687069530E-02	-4.62866805470E-02	-6.72338542881E-02	1.91748716311E-02	-6.71857423298E-02	1.87232016123E-02	-1.81123884627E-02	1.85083508101E-01
1.72000000000E+09	-7.47502258072E-02	-4.79640577505E-02	-6.63825764667E-02	2.20071839637E-02	-6.63152017283E-02	2.15669415533E-02	-8.87561131415E-03	1.89271205182E-01
1.72100000000E+09	-6.97076861555E-02	-4.98093700172E-02	-6.52922166858E-02	2.49430920703E-02	-6.53387686027E-02	2.45169258434E-02	7.28830398825E-04	1.92820193241E-01
1.72200000000E+09	-6.47845981368E-02	-5.21534222331E-02	-6.41925387247E-02	2.77993327527E-02	-6.41932555054E-02	2.72212875225E-02	1.03873456754E-02	1.95941234728E-01
1.72300000000E+09	-5.99775999656E-02	-5.47491958290E-02	-6.29000884106E-02	3.05250845051E-02	-6.29546132931E-02	3.00235706500E-02	2.02614967141E-02	1.98417093547E-01
1.72400000000E+09	-5.55148521719E-02	-5.76295831718E-02	-6.15203359359E-02	3.31957952141E-02	-6.15727912009E-02	3.27155010341E-02	3.03244431494E-02	2.00162923627E-01
1.72500000000E+09	-5.11655414481E-02	-6.08812327086E-02	-5.99898051769E-02	3.58047855089E-02	-6.01506584819E-02	3.53359312359E-02	4.04590658014E-02	2.01246999130E-01
1.72600000000E+09	-4.70722553970E-02	-6.43037496180E-02	-5.83617168042E-02	3.84225897149E-02	-5.84608114998E-02	3.79057151453E-02	5.05778249939E-02	2.01665794487E-01
1.72700000000E+09	-4.31577277325E-02	-6.79748059128E-02	-5.65801118751E-02	4.08838614590E-02	-5.67172382645E-02	4.03747998898E-02	6.08328905311E-02	2.01560820334E-01
1.72800000000E+09	-3.96194397225E-02	-7.19496506023E-02	-5.46919183362E-02	4.32794290885E-02	-5.48757005141E-02	4.28039342493E-02	7.09838090803E-02	2.00739953621E-01
1.72900000000E+09	-3.63725709842E-02	-7.60778709996E-02	-5.27321185006E-02	4.55658425005E-02	-5.30221801647E-02	4.50988263158E-02	8.11354262073E-02	1.99347423183E-01
1.73000000000E+09	-3.33108364686E-02	-8.04528589948E-02	-5.07345961561E-02	4.78143499879E-02	-5.09382510923E-02	4.73721211083E-02	9.10894731919E-02	1.97285181796E-01
1.73100000000E+09	-3.05346252917E-02	-8.49436798851E-02	-4.85587893102E-02	4.98355370788E-02	-4.88012873685E-02	4.93901641210E-02	1.00998852478E-01	1.94543525376E-01
1.73200000000E+09	-2.81308595912E-02	-8.96520207455E-02	-4.62827965172E-02	5.18086614705E-02	-4.65125517709E-02	5.14549043875E-02	1.10676229533E-01	1.91219077950E-01
1.73300000000E+09	-2.60373331448E-02	-9.43534571485E-02	-4.40301101183E-02	5.37668678523E-02	-4.42389244207E-02	5.33264614721E-02	1.20186064111E-01	1.87344848526E-01
1.73400000000E+09	-2.42496245112E-02	-9.93032516278E-02	-4.15306615489E-02	5.55105434366E-02	-4.19175350152E-02	5.52034794195E-02	1.29423207640E-01	1.82832260914E-01
1.73500000000E+09	-2.28202831120E-02	-1.04344454877E-01	-3.91022576480E-02	5.72429690343E-02	-3.94643362129E-02	5.68182129116E-02	1.38344245914E-01	1.77764660020E-01
1.73600000000E+09	-2.17695547105E-02	-1.09296584398E-01	-3.65953946534E-02	5.87818365093E-02	-3.69528111254E-02	5.83926538991E-02	1.46857979903E-01	1.71976586626E-01
1.73700000000E+09	-2.09649654338E-02	-1.14368974061E-01	-3.39767453873E-02	6.01948073711E-02	-3.43524578523E-02	5.98091918698E-02	1.55156937515E-01	1.65970061528E-01
1.73800000000E+09	-2.05616183385E-02	-1.19500121899E-01	-3.13013225319E-02	6.15189929106E-02	-3.16894945373E-02	6.11164410766E-02	1.62909472217E-01	1.59271156744E-01
1.73900000000E+09	-2.04464579955E-02	-1.24676193461E-01	-2.85820545238E-02	6.26830202558E-02	-2.90594244930E-02	6.23277855464E-02	1.70422489218E-01	1.52086331959E-01
1.74000000000E+09	-2.07487535668E-02	-1.29773219140E-01	-2.59343816441E-02	6.37095302763E-02	-2.62802101152E-02	6.35134535651E-02	1.77368788887E-01	1.44391858404E-01
1.74100000000E+09	-2.13858249610E-02	-1.34754062108E-01	-2.31351509231E-02	6.46625626999E-02	-2.36008652945E-02	6.44117843377E-02	1.83846976028E-01	1.36463619687E-01
1.74200000000E+09	-2.22731406217E-02	-1.39785910523E-01	-2.03685783529E-02	6.55308976749E-02	-2.07848434449E-02	6.52507075785E-02	1.89785562137E-01	1.27884499505E-01
1.74300000000E+09	-2.36559658876E-02	-1.44617846235E-01	-1.75071114176E-02	6.62971188489E-02	-1.79015422949E-02	6.59411155009E-02	1.95262123154E-01	1.19021737696E-01
1.74400000000E+09	-2.52886349669E-02	-1.49366749842E-01	-1.46817503363E-02	6.68258957611E-02	-1.51375543328E-02	6.65230083586E-02	2.00168378007E-01	1.09862917156E-01
1.74500000000E+09	-2.73439278314E-02	-1.53950151565E-01	-1.18182662934E-02	6.71686154198E-02	-1.21994622871E-02	6.69880466320E-02	2.04410114980E-01	1.00302306498E-01
1.74600000000E+09	-2.96768413140E-02	-1.58421549236E-01	-8.95033360565E-03	6.75013747243E-02	-9.41714122561E-03	6.73367476368E-02	2.08069289486E-01	9.06902357915E-02
1.74700000000E+09	-3.23971257164E-02	-1.62669412484E-01	-6.09608129008E-03	6.77777087271E-02	-6.60118248122E-03	6.75618892239E-02	2.11185045060E-01	8.05939989114E-02
1.74800000000E+09	-3.53467274109E-02	-1.66622340204E-01	-3.31029596242E-03	6.78024734725E-02	-3.74735918988E-03	6.76631955444E-02	2.13646529857E-01	7.04241619780E-02
1.74900000000E+09	-3.86726602245E-02	-1.70337438003E-01	-3.97520242889E-04	6.78233036661E-02	-8.72339265603E-04	6.76037192112E-02	2.15478991382E-01	6.01940290996E-02
1.75000000000E+09	-4.23274850553E-02	-1.73854072767E-01	2.32231490778E-03	6.76373264334E-02	1.84428887026E-03	6.74685718481E-02	2.16612385220E-01	4.97382634745E-02
1.75100000000E+09	-4.60386851982E-02	-1.76959065778E-01	5.21747273057E-03	6.73869263999E-02	4.66987977765E-03	6.72183109964E-02	2.17146930401E-01	3.91978182510E-02
1.75200000000E+09	-5.02054221874E-02	-1.79803131211E-01	7.88887121734E-03	6.69194520535E-02	7.49085665375E-03	6.68758193556E-02	2.16899587516E-01	2.87195548317E-02
1.75300000000E+09	-5.44763620488E-02	-1.82172833669E-01	1.06672880779E-02	6.64980684736E-02	1.02260551326E-02	6.64096446866E-02	2.16113303741E-01	1.81125949057E-02
1.75400000000E+09	-5.90573738310E-02	-1.84226569064E-01	1.33621290478E-02	6.58001161137E-02	1.28650041932E-02	6.58118974380E-02	2.14507792847E-01	7.60725126621E-03
1.75500000000E+09	-6.37326863548E-02	-1.85884439282E-01	1.60311900583E-02	6.51131106006E-02	1.55722026165E-02	6.51515455322E-02	2.12360048083E-01	-2.82079498691E-03
1.75600000000E+09	-6.85564298955E-02	-1.86955381555E-01	1.86703838553E-02	6.42539860282E-02	1.82285519979E-02	6.42747640115E-02	2.09439460619E-01	-1.29324575991E-02
1.75700000000E+09	-7.34105094010E-02	-1.87726191938E-01	2.12098797216E-02	6.34293769096E-02	2.07318469321E-02	6.34054066697E-02	2.05912574826E-01	-2.31031306425E-02
1.75800000000E+09	-7.83161474957E-02	-1.87948559264E-01	2.37488643173E-02	6.23785293888E-02	2.32493319680E-02	6.24792167833E-02	2.01742041081E-01	-3.28561853068E-02
1.75900000000E+09	-8.33344705856E-02	-1.87686815833E-01	2.62393574921E-02	6.12529051839E-02	2.56999940437E-02	6.13054747298E-02	1.96950978195E-01	-4.24083577838E-02
1.76000000000E+09	-8.81762804216E-02	-1.86925115652E-01	2.86412776621E-02	6.01292555560E-02	2.81304270289E-02	6.02206968581E-02	1.91546987302E-01	-5.17158288350E-02
1.76100000000E+09	-9.29254777005E-02	-1.85621958313E-01	3.09477459897E-02	5.88453755625E-02	3.05385209356E-02	5.89060253905E-02	1.85458358074E-01	-6.05981740899E-02
1.76200000000E+09	-9.75489637462E-02	-1.83961471465E-01	3.33127490120E-02	5.75245305839E-02	3.28596131209E-02	5.75441789532E-02	1.78887178418E-01	-6.90699103083E-02
1.76300000000E+09	-1.01950506743E-01	-1.81672051862E-01	3.55717624225E-02	5.60468890290E-02	3.50560412590E-02	5.62024659568E-02	1.71815062114E-01	-7.71947204757E-02
1.76400000000E+09	-1.06028848138E-01	-1.78899296545E-01	3.77328688767E-02	5.45272613254E-02	3.72558221328E-02	5.46763998182E-02	1.64195301384E-01	-8.48103465385E-02
1.76500000000E+09	-1.09762042394E-01	-1.75744790786E-01	3.98554679573E-02	5.30150248178E-02	3.93771087222E-02	5.31159925237E-02	1.55970601713E-01	-9.19948259571E-02
1.76600000000E+09	-1.13157183963E-01	-1.72152724753E-01	4.18546776513E-02	5.13359908568E-02	4.14367297792E-02	5.14607911993E-02	1.47416506710E-01	-9.85423367499E-02
1.76700000000E+09	-1.16036034537E-01	-1.68102277858E-01	4.39096539162E-02	4.95511404696E-02	4.33816687622E-02	4.97921828534E-02	1.38317422493E-01	-1.04615657478E-01
1.76800000000E+09	-1.18473882808E-01	-1.63926354435E-01	4.58045346992E-02	4.77710797948E-02	4.54290373992E-02	4.80534262934E-02	1.28914729796E-01	-1.09989519160E-01
1.76900000000E+09	-1.20311099420E-01	-1.59311034437E-01	4.77136194878E-02	4.59277004063E-02	4.72981866819E-02	4.62033394726E-02	1.19164751235E-01	-1.14794397470E-01
1.77000000000E+09	-1.21639053303E-01	-1.54489444326E-01	4.95136896107E-02	4.40016100957E-02	4.90386303388E-02	4.42716757559E-02	1.09093040971E-01	-1.19060076137E-01
1.77100000000E+09	-1.22384478267E-01	-1.49808721799E-01	5.11516181531E-02	4.20949628072E-02	5.08515586117E-02	4.22842672588E-02	9.86874118415E-02	-1.22553856555E-01
1.77200000000E+09	-1.22388457677E-01	-1.44848539878E-01	5.28841824881E-02	4.00073291490E-02	5.25125693492E-02	4.02667304683E-02	8.82555056648E-02	-1.25385310403E-01
1.77300000000E+09	-1.21873096492E-01	-1.40009775516E-01	5.45769582586E-02	3.78612106633E-02	5.41819777515E-02	3.81459016245E-02	7.74747434562E-02	-1.27569390339E-01
1.77400000000E+09	-1.20613567042E-01	-1.35221965407E-01	5.60794419905E-02	3.57215736397E-02	5.56802160364E-02	3.59726131194E-02	6.65628336183E-02	-1.29036524928E-01
1.77500000000E+09	-1.18842684626E-01	-1.30684296284E-01	5.75640622402E-02	3.35216948367E-02	5.71655355621E-02	3.37623173694E-02	5.57069724945E-02	-1.29769067101E-01
1.77600000000E+09	-1.16444092459E-01	-1.26448605061E-01	5.90098260185E-02	3.11298999511E-02	5.86248538075E-02	3.15026018970E-02	4.46660988866E-02	-1.29833832183E-01
1.77700000000E+09	-1.13584472101E-01	-1.22610111145E-01	6.03152664889E-02	2.87319861769E-02	5.98905204841E-02	2.91151105528E-02	3.36917405929E-02	-1.29085749114E-01
1.77800000000E+09	-1.10185904886E-01	-1.19069248174E-01	6.15005673681E-02	2.62717991929E-02	6.11883473177E-02	2.67120611367E-02	2.28084588099E-02	-1.27773919645E-01
1.77900000000E+09	-1.06329763419E-01	-1.16120930761E-01	6.26931999953E-02	2.38785153784E-02	6.24068039795E-02	2.42524417839E-02	1.20602280780E-02	-1.25616699347E-01
1.78000000000E+09	-1.02253738717E-01	-1.13633232885E-01	6.37372260267E-02	2.13030181824E-02	6.34230926111E-02	2.16981116339E-02	1.36613781785E-03	-1.22762693267E-01
1.78100000000E+09	-9.78305586026E-02	-1.11769782324E-01	6.46957631561E-02	1.86330950735E-02	6.43829587885E-02	1.90243050581E-02	-9.06471893397E-03	-1.19397806726E-01
1.78200000000E+09	-9.32084168766E-02	-1.10477276508E-01	6.55313845786E-02	1.58774837117E-02	6.52502041041E-02	1.63498276736E-02	-1.92001499531E-02	-1.15259978692E-01
1.78300000000E+09	-8.85547922646E-02	-1.09748921892E-01	6.62093637085E-02	1.32207981944E-02	6.58936981552E-02	1.35998851359E-02	-2.91293329109E-02	-1.10396898527E-01
1.78400000000E+09	-8.38030058528E-02	-1.09704187922E-01	6.68586998649E-02	1.04012538244E-02	6.66557446405E-02	1.08394684121E-02	-3.87439126231E-02	-1.05046966636E-01
1.78500000000E+09	-7.91154232114E-02	-1.10205595865E-01	6.74101380638E-02	7.54716364934E-03	6.72465848943E-02	8.03211687503E-03	-4.79387166016E-02	-9.89446554697E-02
1.78600000000E+09	-7.46005074522E-02	-1.11201855156E-01	6.77626870659E-02	4.69767647360E-03	6.75533317790E-02	5.16148007999E-03	-5.67702210003E-02	-9.23776116646E-02
1.78700000000E+09	-7.02480277593E-02	-1.12781534482E-01	6.79227316795E-02	1.72934103438E-03	6.77939026048E-02	2.28368801419E-03	-6.50717604475E-02	-8.50907715023E-02
1.78800000000E+09	-6.61943792080E-02	-1.14880497471E-01	6.81491812948E-02	-1.14388321494E-03	6.79870929205E-02	-6.73803886584E-04	-7.28679275023E-02	-7.73663597728E-02
1.78900000000E+09	-6.23415138353E-02	-1.17411780328E-01	6.80981268722E-02	-4.12785875773E-03	6.79272637654E-02	-3.61551059694E-03	-8.03040068060E-02	-6.91399566761E-02
1.79000000000E+09	-5.88272942055E-02	-1.20413281688E-01	6.79068269622E-02	-7.12564905262E-03	6.78621728906E-02	-6.58293107537E-03	-8.71636935842E-02	-6.05115358277E-02
1.79100000000E+09	-5.57323421842E-02	-1.23662078258E-01	6.75916475693E-02	-9.97929204302E-03	6.75278291978E-02	-9.49945890172E-03	-9.33426488041E-02	-5.13827136991E-02
1.79200000000E+09	-5.30028312173E-02	-1.27213517717E-01	6.70944932053E-02	-1.30374186085E-02	6.71185276786E-02	-1.24147869412E-02	-9.88998511450E-02	-4.19955721743E-02
1.79300000000E+09	-5.06753955468E-02	-1.31073711786E-01	6.65965672781E-02	-1.58830824846E-02	6.65552397751E-02	-1.54414657719E-02	-1.03804973589E-01	-3.21568042857E-02
1.79400000000E+09	-4.87311569042E-02	-1.35060194732E-01	6.58701114589E-02	-1.88005431497E-02	6.58607184246E-02	-1.82761474546E-02	-1.08229996126E-01	-2.21880720702E-02
1.79500000000E+09	-4.73163104239E-02	-1.39244859564E-01	6.49464416792E-02	-2.16622777291E-02	6.49816550298E-02	-2.11234119862E-02	-1.11823043918E-01	-1.17779507809E-02
1.79600000000E+09	-4.62727113786E-02	-1.43512485246E-01	6.39700096604E-02	-2.44688140905E-02	6.39610355590E-02	-2.39170612446E-02	-1.14777262483E-01	-1.14784126394E-03
1.79700000000E+09	-4.56194526298E-02	-1.47853803800E-01	6.28223016993E-02	-2.72428717419E-02	6.28367086371E-02	-2.67439635175E-02	-1.17124776247E-01	9.54437133951E-03
1.79800000000E+09	-4.54770902431E-02	-1.52266606096E-01	6.15071964922E-02	-2.99983902789E-02	6.16202556945E-02	-2.94751995563E-02	-1.18607541568E-01	2.04062308686E-02
1.79900000000E+09	-4.56646209227E-02	-1.56582160606E-01	6.00919525415E-02	-3.26047791948E-02	6.02321010756E-02	-3.20876799821E-02	-1.19462291954E-01	3.13656083325E-02
1.80000000000E+09	-4.62977077897E-02	-1.60944189695E-01	5.85991823013E-02	-3.51729648849E-02	5.86970927609E-02	-3.46314409450E-02	-1.19636497852E-01	4.21993557914E-02
1.80100000000E+09	-4.72732914042E-02	-1.65129736028E-01	5.68842511103E-02	-3.77240262531E-02	5.70936756180E-02	-3.72132645895E-02	-1.19021134321E-01	5.31561921373E-02
1.80200000000E+09	-4.85960448675E-02	-1.69248732826E-01	5.51664112526E-02	-4.00769698016E-02	5.54151993950E-02	-3.95656075997E-02	-1.17819628689E-01	6.40910724131E-02
1.80300000000E+09	-5.03079923260E-02	-1.73183918686E-01	5.32757371785E-02	-4.23913469769E-02	5.35476553701E-02	-4.18663036438E-02	-1.15824582669E-01	7.48065583100E-02
1.80400000000E+09	-5.23860741430E-02	-1.77033294630E-01	5.13662660764E-02	-4.45788557830E-02	5.15892047221E-02	-4.40643293712E-02	-1.13061061944E-01	8.53573117408E-02
1.80500000000E+09	-5.46732188433E-02	-1.80602419013E-01	4.92710702022E-02	-4.67083088108E-02	4.95293641617E-02	-4.62441829558E-02	-1.09769685555E-01	9.56550661613E-02
1.80600000000E+09	-5.72278330412E-02	-1.84098417811E-01	4.72208532643E-02	-4.87453402347E-02	4.74094320971E-02	-4.82095442415E-02	-1.05765919919E-01	1.05793208850E-01
1.80700000000E+09	-6.01711467370E-02	-1.87239634072E-01	4.49359837092E-02	-5.06155134858E-02	4.51834720431E-02	-5.01260154669E-02	-1.01133398599E-01	1.15550501715E-01
1.80800000000E+09	-6.32708366010E-02	-1.90245456755E-01	4.26798572036E-02	-5.23866567810E-02	4.29159711000E-02	-5.19326974773E-02	-9.57700747523E-02	1.25116163152E-01
1.80900000000E+09	-6.65426028147E-02	-1.92888053297E-01	4.02507506747E-02	-5.39616090594E-02	4.06183261727E-02	-5.36525403324E-02	-8.98972935094E-02	1.34078644317E-01
1.81000000000E+09	-7.01556796654E-02	-1.95400216327E-01	3.79134223888E-02	-5.56681964555E-02	3.82196121593E-02	-5.51813747859E-02	-8.35413838162E-02	1.42796614842E-01
1.81100000000E+09	-7.38809647483E-02	-1.97652310360E-01	3.53577359160E-02	-5.70310050792E-02	3.57948519550E-02	-5.66135052708E-02	-7.65155236768E-02	1.51054385918E-01
1.81200000000E+09	-7.78042782426E-02	-1.99435816132E-01	3.28450794815E-02	-5.83245670280E-02	3.32193840883E-02	-5.79600072676E-02	-6.89523272688E-02	1.58723109670E-01
1.81300000000E+09	-8.18243694588E-02	-2.01173668776E-01	3.03391559160E-02	-5.95887993164E-02	3.07031604226E-02	-5.91925865764E-02	-6.09836660819E-02	1.65932750362E-01
1.81400000000E+09	-8.58624908088E-02	-2.02502055992E-01	2.77000743056E-02	-6.06685166520E-02	2.81524605608E-02	-6.03569447235E-02	-5.27505509626E-02	1.72689438620E-01
1.81500000000E+09	-9.02262666468E-02	-2.03541814301E-01	2.50402957538E-02	-6.16459296838E-02	2.54872259082E-02	-6.13514776101E-02	-4.39162767500E-02	1.78832997139E-01
1.81600000000E+09	-9.44707144207E-02	-2.04326440616E-01	2.23911699253E-02	-6.25757728750E-02	2.29044232631E-02	-6.22148317748E-02	-3.47105457295E-02	1.84299068428E-01
1.81700000000E+09	-9.88448594551E-02	-2.04808412937E-01	1.97675354574E-02	-6.32493138241E-02	2.02373397153E-02	-6.29458477760E-02	-2.53128809051E-02	1.89310932446E-01
