# Hz S RI R 50
! CMT, CMT808U, 21440046, 21.4.3/4
! Date: 12/13/2025 11:19:27 PM
! Data: Format (Calibration Info)
! Freq	S11:Re/Im(F2)	S41:Re/Im(F2)	S14:Re/Im(F2)	S44:Re/Im(F2)
1.70000000000E+09	-8.84954509287E-02	-1.26109939592E-01	-4.85078012256E-02	-4.61020760392E-02	-4.82458771825E-02	-4.60723941299E-02	-4.59790847776E-02	4.94755402388E-02
1.70100000000E+09	-9.00036501986E-02	-1.20980584634E-01	-5.03768673728E-02	-4.40830821258E-02	-5.01879049193E-02	-4.40631504903E-02	-4.55876455158E-02	5.67843293503E-02
1.70200000000E+09	-9.09134162434E-02	-1.15614775526E-01	-5.22644274487E-02	-4.20586760190E-02	-5.21021969935E-02	-4.19862500696E-02	-4.48507457058E-02	6.40430481108E-02
1.70300000000E+09	-9.14572679597E-02	-1.10051642737E-01	-5.40257102401E-02	-3.98752949790E-02	-5.38838441266E-02	-3.99820330674E-02	-4.34564482945E-02	7.11698492493E-02
1.70400000000E+09	-9.14468368946E-02	-1.04227667520E-01	-5.58157148490E-02	-3.76047192424E-02	-5.55704935637E-02	-3.77194122233E-02	-4.16319622589E-02	7.81948957794E-02
1.70500000000E+09	-9.08104832283E-02	-9.83335858552E-02	-5.74289443016E-02	-3.53776534443E-02	-5.72568452098E-02	-3.54092495472E-02	-3.92910948356E-02	8.50783275535E-02
1.70600000000E+09	-8.96826699980E-02	-9.24462891539E-02	-5.89664358482E-02	-3.30491395202E-02	-5.87894201077E-02	-3.30683659668E-02	-3.65843786414E-02	9.17274915736E-02
1.70700000000E+09	-8.80316002339E-02	-8.65031711146E-02	-6.04719997842E-02	-3.05947577920E-02	-6.03303536366E-02	-3.06059809600E-02	-3.33250827901E-02	9.83025699065E-02
1.70800000000E+09	-8.58322716304E-02	-8.06285989859E-02	-6.18232254172E-02	-2.80853408104E-02	-6.16523581600E-02	-2.81161668982E-02	-2.97393566686E-02	1.04587752184E-01
1.70900000000E+09	-8.31550095881E-02	-7.48224726736E-02	-6.30728976364E-02	-2.53972842167E-02	-6.29584972265E-02	-2.54937697602E-02	-2.57120720912E-02	1.10585901007E-01
1.71000000000E+09	-7.99467406830E-02	-6.92182525663E-02	-6.43948243356E-02	-2.27717187037E-02	-6.41235900952E-02	-2.28612026286E-02	-2.12839021953E-02	1.16298732246E-01
1.71100000000E+09	-7.62855551968E-02	-6.38481751184E-02	-6.54275920224E-02	-2.00297325419E-02	-6.52284095128E-02	-2.01206492792E-02	-1.65242773747E-02	1.21676255084E-01
1.71200000000E+09	-7.21663538956E-02	-5.86621868364E-02	-6.63957757656E-02	-1.72070555966E-02	-6.63046982761E-02	-1.73694765805E-02	-1.13579708733E-02	1.26818774349E-01
1.71300000000E+09	-6.75636057182E-02	-5.38490562714E-02	-6.71531951387E-02	-1.44723884541E-02	-6.70360684913E-02	-1.44728410912E-02	-5.95302070578E-03	1.31528940404E-01
1.71400000000E+09	-6.27082629735E-02	-4.93088719989E-02	-6.79200861296E-02	-1.14338401990E-02	-6.77957097215E-02	-1.16425888977E-02	-3.31239508649E-04	1.35873866691E-01
1.71500000000E+09	-5.73423305143E-02	-4.51283737217E-02	-6.85298805190E-02	-8.51875247377E-03	-6.83158639521E-02	-8.62099169806E-03	5.76645300879E-03	1.39856092978E-01
1.71600000000E+09	-5.17750473574E-02	-4.13146806882E-02	-6.89733437889E-02	-5.51047301858E-03	-6.87935746825E-02	-5.67292054111E-03	1.19974062603E-02	1.43403183342E-01
1.71700000000E+09	-4.58411493552E-02	-3.79367521823E-02	-6.93058401775E-02	-2.51277070542E-03	-6.90974419603E-02	-2.61350133392E-03	1.84809605932E-02	1.46636136283E-01
1.71800000000E+09	-3.97158640211E-02	-3.48663797180E-02	-6.94380371277E-02	4.87938286457E-04	-6.92552648180E-02	3.78530894630E-04	2.50054464436E-02	1.49227079664E-01
1.71900000000E+09	-3.34791136459E-02	-3.23579398878E-02	-6.94914032046E-02	3.58260723917E-03	-6.92950446644E-02	3.47405362660E-03	3.18379525740E-02	1.51664028851E-01
1.72000000000E+09	-2.69745377687E-02	-3.02973614401E-02	-6.93869110147E-02	6.60310221997E-03	-6.91816269879E-02	6.48231316157E-03	3.87231752779E-02	1.53484779283E-01
1.72100000000E+09	-2.04273418779E-02	-2.85171990396E-02	-6.90610580801E-02	9.74066824256E-03	-6.89426251522E-02	9.63419693281E-03	4.58423642038E-02	1.54783911729E-01
1.72200000000E+09	-1.37423015962E-02	-2.73288282158E-02	-6.87059334652E-02	1.28443496909E-02	-6.85176820120E-02	1.25931999122E-02	5.28795103868E-02	1.55835891751E-01
1.72300000000E+09	-6.96962039713E-03	-2.65408592054E-02	-6.81359124351E-02	1.58696629111E-02	-6.79961340397E-02	1.56820810754E-02	5.99635380976E-02	1.56418333321E-01
1.72400000000E+09	-3.16231934387E-04	-2.61830981710E-02	-6.74448911464E-02	1.88809788253E-02	-6.72838644559E-02	1.86944002020E-02	6.71323838235E-02	1.56438414952E-01
1.72500000000E+09	6.41822923936E-03	-2.63526341454E-02	-6.65934893382E-02	2.18664205645E-02	-6.65452989910E-02	2.16844146900E-02	7.42385716843E-02	1.56009453871E-01
1.72600000000E+09	1.30515567270E-02	-2.68613928729E-02	-6.56218317595E-02	2.48956752206E-02	-6.54826302204E-02	2.46486250861E-02	8.12139718878E-02	1.55089638161E-01
1.72700000000E+09	1.96736480231E-02	-2.78062697488E-02	-6.44587929190E-02	2.78002853574E-02	-6.43524246716E-02	2.75595628258E-02	8.82936141250E-02	1.53860052604E-01
1.72800000000E+09	2.60893148709E-02	-2.92434301940E-02	-6.31729254359E-02	3.06760576614E-02	-6.30845192271E-02	3.04469930942E-02	9.51422999035E-02	1.52107041233E-01
1.72900000000E+09	3.23225672544E-02	-3.09879089143E-02	-6.17633472036E-02	3.34575749174E-02	-6.17915204389E-02	3.32291826576E-02	1.01922006642E-01	1.49986220074E-01
1.73000000000E+09	3.84689535885E-02	-3.32260469981E-02	-6.03043658670E-02	3.62361873901E-02	-6.02134689620E-02	3.60114319657E-02	1.08460091673E-01	1.47438761595E-01
1.73100000000E+09	4.44419599435E-02	-3.57632577394E-02	-5.86046834903E-02	3.88123953166E-02	-5.85506979965E-02	3.85698658374E-02	1.14949527543E-01	1.44415797170E-01
1.73200000000E+09	5.01343747898E-02	-3.87608233052E-02	-5.67796114779E-02	4.13672787365E-02	-5.67112308830E-02	4.12026042474E-02	1.21148095080E-01	1.41066720321E-01
1.73300000000E+09	5.55726146413E-02	-4.19296840703E-02	-5.49405930019E-02	4.39000562850E-02	-5.48460924080E-02	4.36501266497E-02	1.27177821470E-01	1.37357406706E-01
1.73400000000E+09	6.07592058558E-02	-4.55976549458E-02	-5.28064144244E-02	4.62547836404E-02	-5.29049931666E-02	4.61127901034E-02	1.32961155340E-01	1.33259866957E-01
1.73500000000E+09	6.55923350567E-02	-4.95473037130E-02	-5.07373197253E-02	4.86013006115E-02	-5.07713058966E-02	4.83220296534E-02	1.38416609191E-01	1.28827419893E-01
1.73600000000E+09	7.01042126526E-02	-5.36720130237E-02	-4.85205017465E-02	5.07580346047E-02	-4.85714185055E-02	5.05069335767E-02	1.43505698663E-01	1.23922133514E-01
1.73700000000E+09	7.43172521940E-02	-5.81062167838E-02	-4.61734618106E-02	5.27918326546E-02	-4.62262733823E-02	5.25268231772E-02	1.48450904939E-01	1.18971685661E-01
1.73800000000E+09	7.81550906631E-02	-6.28141693230E-02	-4.37293100914E-02	5.47525554241E-02	-4.37912222935E-02	5.44373520423E-02	1.52910174080E-01	1.13589267339E-01
1.73900000000E+09	8.16222236581E-02	-6.77448264244E-02	-4.12054188929E-02	5.65365671889E-02	-4.13482580440E-02	5.62666424515E-02	1.57201237869E-01	1.07924103767E-01
1.74000000000E+09	8.46507455867E-02	-7.28684728594E-02	-3.87202344259E-02	5.81881164770E-02	-3.87314881302E-02	5.80696225545E-02	1.61033097313E-01	1.01977034717E-01
1.74100000000E+09	8.72619122911E-02	-7.80390310796E-02	-3.60514570688E-02	5.97586358662E-02	-3.61898397489E-02	5.95740171939E-02	1.64506267139E-01	9.59834438430E-02
1.74200000000E+09	8.95360813895E-02	-8.34325795836E-02	-3.33863036936E-02	6.12535516262E-02	-3.34550794544E-02	6.10305526178E-02	1.67559163463E-01	8.95527742053E-02
1.74300000000E+09	9.12022439158E-02	-8.88496922081E-02	-3.06026902664E-02	6.26253455468E-02	-3.06437561417E-02	6.23157105768E-02	1.70264733322E-01	8.30346677273E-02
1.74400000000E+09	9.25055757574E-02	-9.43203707843E-02	-2.78067178021E-02	6.37672390038E-02	-2.79319296612E-02	6.34858566835E-02	1.72567480833E-01	7.64143033417E-02
1.74500000000E+09	9.32925229045E-02	-9.98040908107E-02	-2.49583276230E-02	6.47018921538E-02	-2.50150166134E-02	6.45345777518E-02	1.74367076717E-01	6.95711140460E-02
1.74600000000E+09	9.36363093746E-02	-1.05263387227E-01	-2.20822039217E-02	6.55928581461E-02	-2.22223069697E-02	6.54430322160E-02	1.75743087454E-01	6.28059048584E-02
1.74700000000E+09	9.34904762197E-02	-1.10686279471E-01	-1.92065867423E-02	6.64485321822E-02	-1.93871233004E-02	6.62308509431E-02	1.76768766447E-01	5.57445664787E-02
1.74800000000E+09	9.28809931147E-02	-1.15887368421E-01	-1.63792157949E-02	6.70317736493E-02	-1.64757656626E-02	6.68828618336E-02	1.77313729693E-01	4.87400860303E-02
1.74900000000E+09	9.18057589873E-02	-1.20979506051E-01	-1.34048559686E-02	6.76181048960E-02	-1.35235965032E-02	6.73601256776E-02	1.77448698051E-01	4.17988391427E-02
1.75000000000E+09	9.02496119722E-02	-1.25899229725E-01	-1.05897924626E-02	6.79487554610E-02	-1.07353300772E-02	6.77515868376E-02	1.77107924533E-01	3.47576650745E-02
1.75100000000E+09	8.84137481680E-02	-1.30501244114E-01	-7.60501378496E-03	6.82330476854E-02	-7.80357181017E-03	6.80030409582E-02	1.76367545507E-01	2.77377594309E-02
1.75200000000E+09	8.60055025175E-02	-1.34896633524E-01	-4.80316577231E-03	6.82835273273E-02	-4.86859559027E-03	6.81612733482E-02	1.75094633194E-01	2.08623574128E-02
1.75300000000E+09	8.33034144494E-02	-1.38849428493E-01	-1.88937239561E-03	6.83617030711E-02	-2.00958445612E-03	6.81965407808E-02	1.73484338270E-01	1.39376682584E-02
1.75400000000E+09	8.01357345273E-02	-1.42506761614E-01	9.52442328667E-04	6.81680350808E-02	7.82228479248E-04	6.80809343960E-02	1.71308918476E-01	7.18772024189E-03
1.75500000000E+09	7.67509916605E-02	-1.45773450914E-01	3.77432784417E-03	6.79654143766E-02	3.63422740422E-03	6.78871915901E-02	1.68833651166E-01	5.41871428839E-04
1.75600000000E+09	7.30176779650E-02	-1.48535586992E-01	6.58785387959E-03	6.75970331605E-02	6.45146563691E-03	6.74977083101E-02	1.65832260639E-01	-5.74451803053E-03
1.75700000000E+09	6.90781883581E-02	-1.50880585180E-01	9.30367333929E-03	6.72383041772E-02	9.14077283619E-03	6.70792642997E-02	1.62466664945E-01	-1.20680812447E-02
1.75800000000E+09	6.49821510956E-02	-1.52689473719E-01	1.20357252256E-02	6.66617708515E-02	1.18436827900E-02	6.66003469014E-02	1.58702576013E-01	-1.79917261930E-02
1.75900000000E+09	6.06468694860E-02	-1.53978226385E-01	1.47377035110E-02	6.59865514633E-02	1.44915082557E-02	6.58864228269E-02	1.54592256474E-01	-2.37282079233E-02
1.76000000000E+09	5.62990298301E-02	-1.54690062731E-01	1.73630637358E-02	6.53327683089E-02	1.71445553388E-02	6.52313575540E-02	1.50087630561E-01	-2.92187522875E-02
1.76100000000E+09	5.19025498489E-02	-1.54862665105E-01	1.99189944426E-02	6.44692614342E-02	1.97850519344E-02	6.43688692865E-02	1.45173598595E-01	-3.43815826359E-02
1.76200000000E+09	4.75855079084E-02	-1.54547265360E-01	2.25195801612E-02	6.36070473020E-02	2.23358619804E-02	6.34387984028E-02	1.39993183487E-01	-3.91835905714E-02
1.76300000000E+09	4.32858202661E-02	-1.53565721231E-01	2.50586822752E-02	6.25748108069E-02	2.47924163155E-02	6.25303786835E-02	1.34588724019E-01	-4.37294665407E-02
1.76400000000E+09	3.92051101471E-02	-1.52009547061E-01	2.74886878375E-02	6.14785893561E-02	2.72683730085E-02	6.14283509990E-02	1.28845051201E-01	-4.78305433782E-02
1.76500000000E+09	3.53577575595E-02	-1.49985819658E-01	2.99177884953E-02	6.03907670570E-02	2.96801159765E-02	6.02795368051E-02	1.22751762961E-01	-5.16537076225E-02
1.76600000000E+09	3.17098584411E-02	-1.47427571213E-01	3.22301699028E-02	5.91316763625E-02	3.20616156269E-02	5.90271264950E-02	1.16529144602E-01	-5.49430001700E-02
1.76700000000E+09	2.84746008551E-02	-1.44332330707E-01	3.46228900181E-02	5.77599805957E-02	3.43355603052E-02	5.77593807009E-02	1.10008489402E-01	-5.79181875462E-02
1.76800000000E+09	2.56241918440E-02	-1.40926354337E-01	3.68707075298E-02	5.63891959672E-02	3.67315155831E-02	5.64261216709E-02	1.03379511321E-01	-6.03478121284E-02
1.76900000000E+09	2.32224562789E-02	-1.36962761058E-01	3.91676905060E-02	5.49317063099E-02	3.89751442018E-02	5.49431034831E-02	9.66089377482E-02	-6.24005399761E-02
1.77000000000E+09	2.12583840152E-02	-1.32677817297E-01	4.13688850106E-02	5.33816797940E-02	4.11002090006E-02	5.33793090375E-02	8.96934250575E-02	-6.40765666813E-02
1.77100000000E+09	1.98688176216E-02	-1.28294131634E-01	4.34195945747E-02	5.18386695253E-02	4.33147970707E-02	5.17488749646E-02	8.26315394640E-02	-6.52069996249E-02
1.77200000000E+09	1.91187233451E-02	-1.23483533965E-01	4.55814553255E-02	5.01070348046E-02	4.53957871160E-02	5.00849944424E-02	7.56883004989E-02	-6.58664610019E-02
1.77300000000E+09	1.88616689292E-02	-1.18623197157E-01	4.77214537873E-02	4.82823256157E-02	4.75108876935E-02	4.82845092248E-02	6.85721193348E-02	-6.61163392764E-02
1.77400000000E+09	1.93022985795E-02	-1.13574012452E-01	4.97123380694E-02	4.64528132759E-02	4.94682366216E-02	4.64192798926E-02	6.14430759988E-02	-6.58987250991E-02
1.77500000000E+09	2.03447168153E-02	-1.08566300477E-01	5.16745350763E-02	4.45472521051E-02	5.14402479246E-02	4.44926005780E-02	5.44859498715E-02	-6.51703023326E-02
1.77600000000E+09	2.20057458933E-02	-1.03656874053E-01	5.36388507782E-02	4.24298117461E-02	5.34002811873E-02	4.24931207391E-02	4.74600522769E-02	-6.40465499338E-02
1.77700000000E+09	2.42246053828E-02	-9.88900053947E-02	5.54734042010E-02	4.02796457750E-02	5.51930136576E-02	4.03426625411E-02	4.05976951105E-02	-6.23770027681E-02
1.77800000000E+09	2.70641776681E-02	-9.42257318763E-02	5.72035676084E-02	3.80576222776E-02	5.70120090734E-02	3.81712705174E-02	3.38616367476E-02	-6.04176280251E-02
1.77900000000E+09	3.04867238259E-02	-8.99084542239E-02	5.89474515596E-02	3.58491930936E-02	5.87810007841E-02	3.58911753224E-02	2.73292438384E-02	-5.79018069253E-02
1.78000000000E+09	3.43765019634E-02	-8.58710100051E-02	6.05721425390E-02	3.34550598375E-02	6.03526067909E-02	3.35044781407E-02	2.08863787818E-02	-5.49383310263E-02
1.78100000000E+09	3.87649499608E-02	-8.23050499451E-02	6.21068848484E-02	3.09323801765E-02	6.18766905466E-02	3.09799888735E-02	1.47000569512E-02	-5.17565148080E-02
1.78200000000E+09	4.36240864187E-02	-7.90983002189E-02	6.35371417090E-02	2.82875080213E-02	6.33339242684E-02	2.84148047174E-02	8.81790592160E-03	-4.80749736256E-02
1.78300000000E+09	4.87514262873E-02	-7.63585674393E-02	6.48152775368E-02	2.57162360995E-02	6.45563169125E-02	2.57343435012E-02	3.07262006373E-03	-4.40118553077E-02
1.78400000000E+09	5.42933893407E-02	-7.42407358430E-02	6.60901771987E-02	2.29478807687E-02	6.59243412626E-02	2.30451293441E-02	-2.35422105802E-03	-3.96900063156E-02
1.78500000000E+09	6.00532809332E-02	-7.26357495435E-02	6.72478409945E-02	2.01228263111E-02	6.71134801409E-02	2.02503085729E-02	-7.43395095257E-03	-3.49573258091E-02
1.78600000000E+09	6.59682024985E-02	-7.15404846087E-02	6.82422652671E-02	1.72493377098E-02	6.80389526791E-02	1.73630526471E-02	-1.22535759017E-02	-3.00032719830E-02
1.78700000000E+09	7.19589583648E-02	-7.10644005271E-02	6.90143977314E-02	1.42297376643E-02	6.88751683547E-02	1.44327259356E-02	-1.66629534968E-02	-2.45966283789E-02
1.78800000000E+09	7.80591935411E-02	-7.11908650800E-02	6.98592542601E-02	1.12808111774E-02	6.96785159660E-02	1.13829906907E-02	-2.06943599494E-02	-1.90233718796E-02
1.78900000000E+09	8.41577321907E-02	-7.18664667766E-02	7.04174001385E-02	8.17555588335E-03	7.02090551144E-02	8.33012323040E-03	-2.45025152848E-02	-1.32129991808E-02
1.79000000000E+09	9.02219642405E-02	-7.31762622042E-02	7.08379149586E-02	5.01397128019E-03	7.07442602454E-02	5.21789100490E-03	-2.78965822371E-02	-7.24192323139E-03
1.79100000000E+09	9.60506984320E-02	-7.49308154137E-02	7.11230648493E-02	1.98578229269E-03	7.09918046142E-02	2.09282696833E-03	-3.07968017388E-02	-1.00847616847E-03
1.79200000000E+09	1.01769649037E-01	-7.72327124829E-02	7.12201212782E-02	-1.30389926486E-03	7.11469396805E-02	-1.02426836975E-03	-3.32918281857E-02	5.25045304071E-03
1.79300000000E+09	1.07281879199E-01	-8.00652448913E-02	7.13037622368E-02	-4.40518906422E-03	7.11546744376E-02	-4.32887950818E-03	-3.53610076506E-02	1.17492871382E-02
1.79400000000E+09	1.12527128521E-01	-8.33026466991E-02	7.11302290173E-02	-7.60779823844E-03	7.09949688106E-02	-7.44076281305E-03	-3.71526364186E-02	1.82294898866E-02
1.79500000000E+09	1.17412480448E-01	-8.70188498920E-02	7.07352831297E-02	-1.07980356582E-02	7.06276562905E-02	-1.06076250515E-02	-3.83587376444E-02	2.49520971355E-02
1.79600000000E+09	1.21957357142E-01	-9.11018743038E-02	7.02814031207E-02	-1.39531870788E-02	7.01126868551E-02	-1.37460306555E-02	-3.91938946716E-02	3.16813863775E-02
1.79700000000E+09	1.26139445674E-01	-9.54783646713E-02	6.96165422690E-02	-1.71030949021E-02	6.94773960808E-02	-1.69506890252E-02	-3.96760572200E-02	3.83918750798E-02
1.79800000000E+09	1.29884522200E-01	-1.00267079920E-01	6.87748486773E-02	-2.02530819778E-02	6.87052389347E-02	-2.00761259006E-02	-3.96062307562E-02	4.51289307370E-02
1.79900000000E+09	1.33284448510E-01	-1.05221860829E-01	6.78147285959E-02	-2.32982204622E-02	6.77359330439E-02	-2.31012892992E-02	-3.91456247168E-02	5.18817927067E-02
1.80000000000E+09	1.36193502963E-01	-1.10503249702E-01	6.67310704825E-02	-2.63256252465E-02	6.66130905748E-02	-2.60928011812E-02	-3.83260420908E-02	5.84129286162E-02
1.80100000000E+09	1.38665016415E-01	-1.15895627824E-01	6.53960048352E-02	-2.93344039449E-02	6.53601941909E-02	-2.91360457500E-02	-3.70209071491E-02	6.50035481725E-02
1.80200000000E+09	1.40739823140E-01	-1.21433597942E-01	6.40205063929E-02	-3.21832133207E-02	6.40175817238E-02	-3.19614671166E-02	-3.54059348789E-02	7.15388594366E-02
1.80300000000E+09	1.42299519873E-01	-1.27043278584E-01	6.24642457128E-02	-3.50001249305E-02	6.24559954001E-02	-3.47541570266E-02	-3.33349737359E-02	7.78373349797E-02
1.80400000000E+09	1.43399930696E-01	-1.32777432105E-01	6.08186293447E-02	-3.76939626669E-02	6.07801455928E-02	-3.74406362380E-02	-3.07516876099E-02	8.39633307568E-02
1.80500000000E+09	1.44125306038E-01	-1.38425892316E-01	5.89919483328E-02	-4.03565811288E-02	5.89544303250E-02	-4.01511619567E-02	-2.79594007541E-02	8.98603093086E-02
1.80600000000E+09	1.44435950322E-01	-1.44156709796E-01	5.71577743344E-02	-4.29298760357E-02	5.70439792884E-02	-4.26146495311E-02	-2.47603956827E-02	9.56506184386E-02
1.80700000000E+09	1.44170899972E-01	-1.49721719547E-01	5.50715714065E-02	-4.53185734610E-02	5.49888828512E-02	-4.50517258191E-02	-2.11925468943E-02	1.01118287551E-01
1.80800000000E+09	1.43604156970E-01	-1.55337188574E-01	5.29681321905E-02	-4.76322747382E-02	5.28681179926E-02	-4.73797940971E-02	-1.71943779486E-02	1.06509763298E-01
1.80900000000E+09	1.42638080784E-01	-1.60706751898E-01	5.06551252598E-02	-4.97551889528E-02	5.06952656771E-02	-4.96356641877E-02	-1.30015915849E-02	1.11336009888E-01
1.81000000000E+09	1.41168330999E-01	-1.66043169014E-01	4.84115389474E-02	-5.19868549741E-02	4.83629630631E-02	-5.16602875118E-02	-8.55463396932E-03	1.16086086865E-01
1.81100000000E+09	1.39471345570E-01	-1.71227758701E-01	4.59232888294E-02	-5.38736881829E-02	4.60142006480E-02	-5.36006703808E-02	-3.71280728894E-03	1.20512521075E-01
1.81200000000E+09	1.37297692582E-01	-1.76107448159E-01	4.34504469846E-02	-5.56915027928E-02	4.34620664357E-02	-5.54502425272E-02	1.41451898120E-03	1.24492072692E-01
1.81300000000E+09	1.34884567694E-01	-1.80877333853E-01	4.09485763716E-02	-5.74589107419E-02	4.09487754625E-02	-5.71789653972E-02	6.68774850064E-03	1.28168789937E-01
1.81400000000E+09	1.32170075675E-01	-1.85352549496E-01	3.83014882367E-02	-5.90436933231E-02	3.83670684165E-02	-5.88175282610E-02	1.20579773378E-02	1.31589458898E-01
1.81500000000E+09	1.29013494573E-01	-1.89619474269E-01	3.55990237420E-02	-6.04940669732E-02	3.56808923194E-02	-6.03032685810E-02	1.77897869760E-02	1.34590361569E-01
1.81600000000E+09	1.25715882588E-01	-1.93560528155E-01	3.28858438906E-02	-6.19076214754E-02	3.30230321351E-02	-6.15975553663E-02	2.36692573439E-02	1.37133798012E-01
1.81700000000E+09	1.22130552983E-01	-1.97287190077E-01	3.01984062244E-02	-6.30587185672E-02	3.02786441316E-02	-6.27725182186E-02	2.95970861802E-02	1.39435789772E-01
