# Hz S RI R 50
! CMT, CMT808U, 21440046, 21.4.3/4
! Date: 12/11/2025 6:10:48 PM
! Data: Format (Calibration Info)
! Freq	S11:Re/Im(F2)	S41:Re/Im(F2)	S14:Re/Im(F2)	S44:Re/Im(F2)
1.70000000000E+09	-1.52291780503E-01	-8.50025032786E-02	-5.93274510656E-02	-3.39673751607E-02	-5.89238954637E-02	-3.42717137092E-02	-8.90721247116E-02	4.38959433887E-02
1.70100000000E+09	-1.51149582905E-01	-8.00318693855E-02	-6.07159321727E-02	-3.14951359155E-02	-6.04090650685E-02	-3.18024165611E-02	-8.87938431570E-02	5.40475925116E-02
1.70200000000E+09	-1.49236739601E-01	-7.52250321372E-02	-6.21086923005E-02	-2.90226579627E-02	-6.18243076995E-02	-2.92917956579E-02	-8.80085065074E-02	6.41583093771E-02
1.70300000000E+09	-1.46888275931E-01	-7.05468175346E-02	-6.33562663491E-02	-2.64033923621E-02	-6.31300255764E-02	-2.68647587150E-02	-8.63503762086E-02	7.40906396249E-02
1.70400000000E+09	-1.43954976793E-01	-6.60025469516E-02	-6.46025432498E-02	-2.37096566568E-02	-6.42917850263E-02	-2.41741253357E-02	-8.40817220516E-02	8.38906725350E-02
1.70500000000E+09	-1.40415645610E-01	-6.17650590099E-02	-6.56650836759E-02	-2.10644866311E-02	-6.54292651805E-02	-2.14482327776E-02	-8.11459507365E-02	9.35125211867E-02
1.70600000000E+09	-1.36426593640E-01	-5.79342322309E-02	-6.66211287048E-02	-1.83342970695E-02	-6.63732399855E-02	-1.87204794209E-02	-7.76616143138E-02	1.02819103937E-01
1.70700000000E+09	-1.32030797968E-01	-5.44004781684E-02	-6.75229049121E-02	-1.54918113314E-02	-6.73250233820E-02	-1.58782037069E-02	-7.34769562898E-02	1.12024639965E-01
1.70800000000E+09	-1.27250500835E-01	-5.13038627550E-02	-6.82148660868E-02	-1.26226518182E-02	-6.80371456788E-02	-1.30243947540E-02	-6.87762841531E-02	1.20833592555E-01
1.70900000000E+09	-1.22205573814E-01	-4.85924660495E-02	-6.87983693016E-02	-9.59121691127E-03	-6.86874984330E-02	-1.00675942090E-02	-6.35217159753E-02	1.29287124962E-01
1.71000000000E+09	-1.16808096362E-01	-4.64009259131E-02	-6.94226079780E-02	-6.65538745549E-03	-6.91705936294E-02	-7.10457987333E-03	-5.76938632831E-02	1.37365974618E-01
1.71100000000E+09	-1.11284157919E-01	-4.47191634342E-02	-6.97417152223E-02	-3.62429245576E-03	-6.95671723636E-02	-4.10613477171E-03	-5.14134482667E-02	1.44980958403E-01
1.71200000000E+09	-1.05567087545E-01	-4.34169511565E-02	-6.99545235345E-02	-5.49891831742E-04	-6.99196919863E-02	-1.08460393664E-03	-4.45926067405E-02	1.52275822923E-01
1.71300000000E+09	-9.97154161151E-02	-4.27203430234E-02	-6.99536077934E-02	2.38704538128E-03	-6.99063801654E-02	2.02154137326E-03	-3.74295602925E-02	1.58999459261E-01
1.71400000000E+09	-9.39219798692E-02	-4.24290378116E-02	-6.99417869196E-02	5.60458474597E-03	-6.99016092581E-02	5.02696403207E-03	-2.98959993032E-02	1.65254687790E-01
1.71500000000E+09	-8.79417375640E-02	-4.26360850288E-02	-6.97390584306E-02	8.65856067007E-03	-6.96156152853E-02	8.18582094697E-03	-2.18204087740E-02	1.71016506247E-01
1.71600000000E+09	-8.21207835253E-02	-4.32718991953E-02	-6.93514617127E-02	1.17556414811E-02	-6.92861423708E-02	1.12356615430E-02	-1.34909044691E-02	1.76190529961E-01
1.71700000000E+09	-7.62656547594E-02	-4.44267174635E-02	-6.88611372505E-02	1.48088339886E-02	-6.87747890833E-02	1.43420622222E-02	-4.81787860946E-03	1.80937673931E-01
1.71800000000E+09	-7.05900482413E-02	-4.58722361712E-02	-6.81534821729E-02	1.78198981073E-02	-6.80986645924E-02	1.73458558923E-02	3.96077951613E-03	1.84905453701E-01
1.71900000000E+09	-6.51165336320E-02	-4.78492303447E-02	-6.73475204941E-02	2.08486348440E-02	-6.73151164432E-02	2.04021924725E-02	1.31304616773E-02	1.88558550544E-01
1.72000000000E+09	-5.97280098908E-02	-5.02410197452E-02	-6.64034295714E-02	2.37646444265E-02	-6.63619352529E-02	2.33047416037E-02	2.24181382383E-02	1.91436099636E-01
1.72100000000E+09	-5.46037271790E-02	-5.28225336046E-02	-6.52207823071E-02	2.67563154527E-02	-6.53006327953E-02	2.63281260955E-02	3.19942974281E-02	1.93663482518E-01
1.72200000000E+09	-4.96566367789E-02	-5.58770763308E-02	-6.40251847279E-02	2.96647649681E-02	-6.40505932432E-02	2.90932602256E-02	4.15140765168E-02	1.95488540173E-01
1.72300000000E+09	-4.48989915822E-02	-5.91944618417E-02	-6.26382554452E-02	3.24486045801E-02	-6.27081231546E-02	3.19555094415E-02	5.11392056045E-02	1.96645094480E-01
1.72400000000E+09	-4.05348731698E-02	-6.27640550368E-02	-6.11334607452E-02	3.51657330998E-02	-6.11959631873E-02	3.46757357358E-02	6.08625211802E-02	1.97108571813E-01
1.72500000000E+09	-3.63324169893E-02	-6.66995747461E-02	-5.94853496048E-02	3.78082806629E-02	-5.96773749360E-02	3.73298881971E-02	7.05282685183E-02	1.96977187063E-01
1.72600000000E+09	-3.24459301986E-02	-7.07618454369E-02	-5.77398320915E-02	4.04394718303E-02	-5.78653529870E-02	3.99239846610E-02	8.01089196018E-02	1.96160940223E-01
1.72700000000E+09	-2.87539098313E-02	-7.50419151670E-02	-5.58331302490E-02	4.28948374220E-02	-5.60005201233E-02	4.24096339441E-02	8.97363568698E-02	1.94886926896E-01
1.72800000000E+09	-2.54917112655E-02	-7.95999998498E-02	-5.38268984970E-02	4.53119952011E-02	-5.40236705690E-02	4.48288025055E-02	9.91527408504E-02	1.92924342106E-01
1.72900000000E+09	-2.25305988815E-02	-8.42743632496E-02	-5.17304329178E-02	4.75939684239E-02	-5.20458102890E-02	4.71067004799E-02	1.08482362649E-01	1.90451253153E-01
1.73000000000E+09	-1.97828196670E-02	-8.91522480202E-02	-4.96125307456E-02	4.98158997638E-02	-4.98246724961E-02	4.93775980162E-02	1.17540633186E-01	1.87372609196E-01
1.73100000000E+09	-1.73179618071E-02	-9.41290152919E-02	-4.73006358634E-02	5.18178110198E-02	-4.75605004767E-02	5.13655740359E-02	1.26481961293E-01	1.83682284568E-01
1.73200000000E+09	-1.52427115682E-02	-9.92991094839E-02	-4.49013824903E-02	5.37401115673E-02	-4.51398517082E-02	5.33932259214E-02	1.35109805934E-01	1.79454794679E-01
1.73300000000E+09	-1.34872190373E-02	-1.04437818872E-01	-4.25117400681E-02	5.56472095747E-02	-4.27430952558E-02	5.52227986944E-02	1.43495068186E-01	1.74778392699E-01
1.73400000000E+09	-1.20408522336E-02	-1.09816247152E-01	-3.98914355658E-02	5.73365381034E-02	-4.02978717614E-02	5.70356256602E-02	1.51567816601E-01	1.69537959941E-01
1.73500000000E+09	-1.09511310016E-02	-1.15266135781E-01	-3.73464395933E-02	5.90024724650E-02	-3.77123216793E-02	5.85807413616E-02	1.59238887135E-01	1.63816326254E-01
1.73600000000E+09	-1.02519955747E-02	-1.20621751203E-01	-3.47133721150E-02	6.04509583789E-02	-3.50993892835E-02	6.00786291306E-02	1.66444126549E-01	1.57464299474E-01
1.73700000000E+09	-9.81686996713E-03	-1.26082216847E-01	-3.19801770051E-02	6.17839771950E-02	-3.23884746220E-02	6.14050022323E-02	1.73436526021E-01	1.50984420898E-01
1.73800000000E+09	-9.78722048405E-03	-1.31611820251E-01	-2.92052822887E-02	6.30109685938E-02	-2.96324322500E-02	6.26182571465E-02	1.79795158822E-01	1.43920466211E-01
1.73900000000E+09	-1.00565765736E-02	-1.37158925145E-01	-2.63938772422E-02	6.40760055142E-02	-2.69055716475E-02	6.37360534042E-02	1.85912033705E-01	1.36449582970E-01
1.74000000000E+09	-1.07798456112E-02	-1.42628807023E-01	-2.36756983843E-02	6.49946473764E-02	-2.40187573644E-02	6.48048335494E-02	1.91417359707E-01	1.28563152707E-01
1.74100000000E+09	-1.18528948549E-02	-1.47989235137E-01	-2.07818915376E-02	6.58305163798E-02	-2.12633740118E-02	6.55988912254E-02	1.96451746060E-01	1.20541789863E-01
1.74200000000E+09	-1.31947462959E-02	-1.53352280238E-01	-1.79458515195E-02	6.65663535043E-02	-1.83845055001E-02	6.63183156461E-02	2.00918932213E-01	1.11989706398E-01
1.74300000000E+09	-1.50632764295E-02	-1.58525784838E-01	-1.50235057676E-02	6.72106177076E-02	-1.54203881376E-02	6.68814635790E-02	2.04921325652E-01	1.03244378014E-01
1.74400000000E+09	-1.71836147626E-02	-1.63582733014E-01	-1.21435818410E-02	6.76183711458E-02	-1.26129989561E-02	6.73371906772E-02	2.08343064751E-01	9.43172156301E-02
1.74500000000E+09	-1.97605320121E-02	-1.68460035025E-01	-9.23278440717E-03	6.78250556024E-02	-9.63832077249E-03	6.76711636708E-02	2.11136030381E-01	8.51000811141E-02
1.74600000000E+09	-2.26409660143E-02	-1.73204890530E-01	-6.33262088385E-03	6.80303885479E-02	-6.80870723698E-03	6.78765827364E-02	2.13348664030E-01	7.59020812443E-02
1.74700000000E+09	-2.59251212586E-02	-1.77694599702E-01	-3.44996341866E-03	6.81656771886E-02	-3.96320708225E-03	6.79755975380E-02	2.15041477173E-01	6.63386538818E-02
1.74800000000E+09	-2.94709403916E-02	-1.81841179610E-01	-6.51729993041E-04	6.80639217109E-02	-1.09498575675E-03	6.79455588583E-02	2.16091077789E-01	5.67873818172E-02
1.74900000000E+09	-3.33892505257E-02	-1.85754910050E-01	2.26175678157E-03	6.79493438356E-02	1.79703139714E-03	6.77493807211E-02	2.16561748767E-01	4.72956968642E-02
1.75000000000E+09	-3.76673374855E-02	-1.89394909874E-01	4.99766872792E-03	6.76300377411E-02	4.50651344284E-03	6.74850334429E-02	2.16380374514E-01	3.76522914302E-02
1.75100000000E+09	-4.19975683844E-02	-1.92615200004E-01	7.86041798832E-03	6.72451985225E-02	7.32653197842E-03	6.70965628994E-02	2.15627073272E-01	2.80210393478E-02
1.75200000000E+09	-4.68076350816E-02	-1.95505147593E-01	1.05188942578E-02	6.66626271318E-02	1.01361250978E-02	6.66197498656E-02	2.14175212229E-01	1.85525197864E-02
1.75300000000E+09	-5.17029421128E-02	-1.97884142597E-01	1.32650937844E-02	6.60998183569E-02	1.28189855927E-02	6.60337568845E-02	2.12217764856E-01	9.04637537986E-03
1.75400000000E+09	-5.69399818409E-02	-1.99909931259E-01	1.59253426668E-02	6.52875070629E-02	1.54308397613E-02	6.53193282802E-02	2.09517417812E-01	-2.88036157202E-04
1.75500000000E+09	-6.22398494924E-02	-2.01482903411E-01	1.85492462543E-02	6.44919979930E-02	1.80942892527E-02	6.45397052044E-02	2.06355836383E-01	-9.45988781063E-03
1.75600000000E+09	-6.77105621517E-02	-2.02460820016E-01	2.11424311013E-02	6.35260934838E-02	2.06951503768E-02	6.35650783973E-02	2.02483474385E-01	-1.82452804348E-02
1.75700000000E+09	-7.31599429364E-02	-2.03042331335E-01	2.36248728903E-02	6.26010271106E-02	2.31477708795E-02	6.25905366007E-02	1.98095265137E-01	-2.70056806879E-02
1.75800000000E+09	-7.86764866750E-02	-2.03071234522E-01	2.60857550970E-02	6.14638399705E-02	2.55999654712E-02	6.15663359834E-02	1.93133408234E-01	-3.53004493804E-02
1.75900000000E+09	-8.42682215315E-02	-2.02559656779E-01	2.85148456963E-02	6.02387369216E-02	2.79759338325E-02	6.03045631113E-02	1.87660564759E-01	-4.33207104707E-02
1.76000000000E+09	-8.96491587873E-02	-2.01495136666E-01	3.08515968870E-02	5.90406272368E-02	3.03424353768E-02	5.91362272980E-02	1.81664245985E-01	-5.10285792443E-02
1.76100000000E+09	-9.49132612043E-02	-1.99871376815E-01	3.30904013399E-02	5.76905799635E-02	3.26720986219E-02	5.77641328185E-02	1.75089120734E-01	-5.82989273981E-02
1.76200000000E+09	-1.00019539455E-01	-1.97838494253E-01	3.53759445463E-02	5.63013861980E-02	3.49229243507E-02	5.63416387236E-02	1.68129368140E-01	-6.51040529289E-02
1.76300000000E+09	-1.04852629609E-01	-1.95136909897E-01	3.75636048698E-02	5.47866788448E-02	3.70494644423E-02	5.49561089339E-02	1.60782776383E-01	-7.15164832379E-02
1.76400000000E+09	-1.09328246520E-01	-1.91918585988E-01	3.96575674901E-02	5.32241532316E-02	3.91760201709E-02	5.33925455278E-02	1.52990200680E-01	-7.73981758317E-02
1.76500000000E+09	-1.13392376880E-01	-1.88338475822E-01	4.17144702278E-02	5.16808930005E-02	4.12350055532E-02	5.17949266397E-02	1.44710581500E-01	-8.28273269564E-02
1.76600000000E+09	-1.17075266473E-01	-1.84258102573E-01	4.36552379824E-02	4.99736823095E-02	4.32356769367E-02	5.01194060175E-02	1.36221952560E-01	-8.76075986415E-02
1.76700000000E+09	-1.20201842859E-01	-1.79728364787E-01	4.56553612905E-02	4.81642963793E-02	4.51325104842E-02	4.84403855081E-02	1.27308661809E-01	-9.19086235684E-02
1.76800000000E+09	-1.22812823024E-01	-1.75080589883E-01	4.75095759686E-02	4.63899301390E-02	4.71285490640E-02	4.66827820573E-02	1.18198598103E-01	-9.55038793495E-02
1.76900000000E+09	-1.24780024373E-01	-1.69971856271E-01	4.93863661876E-02	4.45331058112E-02	4.89602281291E-02	4.48138924874E-02	1.08859673972E-01	-9.85495277212E-02
1.77000000000E+09	-1.26162961650E-01	-1.64658239092E-01	5.11640794259E-02	4.25928727980E-02	5.06749428806E-02	4.28772643585E-02	9.93180258755E-02	-1.01083542451E-01
1.77100000000E+09	-1.26926656556E-01	-1.59501985444E-01	5.27767690955E-02	4.06680111994E-02	5.24680849387E-02	4.08929432851E-02	8.95528981752E-02	-1.02862213622E-01
1.77200000000E+09	-1.26886478660E-01	-1.54121643783E-01	5.45004223333E-02	3.85767567030E-02	5.41228976709E-02	3.88568385612E-02	7.98769312295E-02	-1.04015154318E-01
1.77300000000E+09	-1.26296209902E-01	-1.48857834732E-01	5.61902518036E-02	3.64077830651E-02	5.57928543126E-02	3.67275733968E-02	6.99898210541E-02	-1.04559526745E-01
1.77400000000E+09	-1.24882701208E-01	-1.43685980773E-01	5.76990214138E-02	3.42470682834E-02	5.72897058850E-02	3.45247172210E-02	6.00567038826E-02	-1.04444564104E-01
1.77500000000E+09	-1.22937655047E-01	-1.38823411888E-01	5.91963914857E-02	3.20092663676E-02	5.88044014417E-02	3.22786903576E-02	5.02949622167E-02	-1.03655823095E-01
1.77600000000E+09	-1.20340446929E-01	-1.34296404495E-01	6.06663759682E-02	2.95737035433E-02	6.02868923109E-02	2.99753782669E-02	4.04543162300E-02	-1.02266406331E-01
1.77700000000E+09	-1.17208010841E-01	-1.30210947245E-01	6.20121570934E-02	2.71281628844E-02	6.15905596036E-02	2.75341985122E-02	3.07884730165E-02	-1.00130251219E-01
1.77800000000E+09	-1.13549834343E-01	-1.26483296563E-01	6.32087214911E-02	2.46024511198E-02	6.29085799100E-02	2.50753208228E-02	2.12968714883E-02	-9.75433420048E-02
1.77900000000E+09	-1.09398008125E-01	-1.23417417438E-01	6.44366073454E-02	2.21209416167E-02	6.41672967779E-02	2.25150961418E-02	1.20268356327E-02	-9.41787329965E-02
1.78000000000E+09	-1.05028331735E-01	-1.20862523932E-01	6.55091813337E-02	1.94407205533E-02	6.51930031455E-02	1.98667882527E-02	2.90859146490E-03	-9.02216973206E-02
1.78100000000E+09	-1.00324502756E-01	-1.19001763609E-01	6.64786968948E-02	1.66707775309E-02	6.61807882156E-02	1.70787835804E-02	-5.88869362565E-03	-8.58424302634E-02
1.78200000000E+09	-9.54146959588E-02	-1.17776739362E-01	6.73213409573E-02	1.37756107003E-02	6.70612563153E-02	1.42822938656E-02	-1.43133509489E-02	-8.07950388494E-02
1.78300000000E+09	-9.05161308549E-02	-1.17154540758E-01	6.79985175612E-02	1.09780564581E-02	6.76980901222E-02	1.13847667247E-02	-2.24838314944E-02	-7.51675555401E-02
1.78400000000E+09	-8.55307838600E-02	-1.17290633071E-01	6.86378092765E-02	8.00784856065E-03	6.84562982209E-02	8.48403100295E-03	-3.02732831820E-02	-6.91228315154E-02
1.78500000000E+09	-8.06575379202E-02	-1.18002481603E-01	6.91519661232E-02	4.99512807224E-03	6.90073827939E-02	5.50485993330E-03	-3.75915997432E-02	-6.24963252875E-02
1.78600000000E+09	-7.59996733569E-02	-1.19269246755E-01	6.94502345917E-02	1.98049501616E-03	6.92747530964E-02	2.47245602739E-03	-4.45146109016E-02	-5.54997023799E-02
1.78700000000E+09	-7.15356531316E-02	-1.21154112339E-01	6.95324893275E-02	-1.16736642375E-03	6.94343505096E-02	-5.73237853838E-04	-5.09062521056E-02	-4.78965015085E-02
1.78800000000E+09	-6.74244660331E-02	-1.23574101118E-01	6.96564697672E-02	-4.20364708927E-03	6.95281592676E-02	-3.70556279997E-03	-5.67468005712E-02	-3.99925839207E-02
1.78900000000E+09	-6.35867397825E-02	-1.26444448157E-01	6.94928168867E-02	-7.34569173885E-03	6.93478009417E-02	-6.81633648420E-03	-6.22354643631E-02	-3.17216536512E-02
1.79000000000E+09	-6.01267382037E-02	-1.29810149626E-01	6.91606906465E-02	-1.05272134804E-02	6.91459015104E-02	-9.93862853821E-03	-6.71330589256E-02	-2.31727242089E-02
1.79100000000E+09	-5.71500642673E-02	-1.33426744638E-01	6.86840046734E-02	-1.35172419305E-02	6.86607658801E-02	-1.30277878974E-02	-7.13536955180E-02	-1.42461154083E-02
1.79200000000E+09	-5.45836070185E-02	-1.37338303330E-01	6.80182276547E-02	-1.67108128196E-02	6.80765738182E-02	-1.60748614768E-02	-7.49814244877E-02	-5.19818200422E-03
1.79300000000E+09	-5.24975369282E-02	-1.41552162803E-01	6.73316766055E-02	-1.96831948541E-02	6.73224269390E-02	-1.92257958425E-02	-7.79787689640E-02	4.18955243421E-03
1.79400000000E+09	-5.08510624421E-02	-1.45874673425E-01	6.63965371890E-02	-2.27227423428E-02	6.64274152897E-02	-2.21773042402E-02	-8.05172013124E-02	1.35842858772E-02
1.79500000000E+09	-4.97592253108E-02	-1.50381771629E-01	6.52419712208E-02	-2.56884013238E-02	6.53212459248E-02	-2.51314748211E-02	-8.22793151292E-02	2.33050279996E-02
1.79600000000E+09	-4.90992997719E-02	-1.54929267132E-01	6.40527160453E-02	-2.85525710978E-02	6.40740278208E-02	-2.79924976690E-02	-8.34395047506E-02	3.30797644099E-02
1.79700000000E+09	-4.88808560939E-02	-1.59499256247E-01	6.26560718805E-02	-3.13856849454E-02	6.27133815609E-02	-3.08841570887E-02	-8.40515809803E-02	4.28544343151E-02
1.79800000000E+09	-4.92011896357E-02	-1.64106421183E-01	6.11099393791E-02	-3.41804074779E-02	6.12567957510E-02	-3.36627170300E-02	-8.38668247954E-02	5.26591790613E-02
1.79900000000E+09	-4.98718534607E-02	-1.68568663038E-01	5.94442074165E-02	-3.68021517080E-02	5.96221133857E-02	-3.63024809705E-02	-8.31237899063E-02	6.24691837070E-02
1.80000000000E+09	-5.10151629421E-02	-1.73020258815E-01	5.77090656631E-02	-3.93693701427E-02	5.78395910247E-02	-3.88293228578E-02	-8.17714356537E-02	7.20577934665E-02
1.80100000000E+09	-5.25304147391E-02	-1.77247639363E-01	5.57438658205E-02	-4.19079317396E-02	5.59863709508E-02	-4.13966284782E-02	-7.97280079054E-02	8.16520433387E-02
1.80200000000E+09	-5.43652631564E-02	-1.81337349666E-01	5.37719879752E-02	-4.42293328532E-02	5.40568893789E-02	-4.37087517551E-02	-7.71751105185E-02	9.11441593300E-02
1.80300000000E+09	-5.66010710415E-02	-1.85209266391E-01	5.16457047720E-02	-4.64825224030E-02	5.19565956668E-02	-4.59660497874E-02	-7.39391214524E-02	1.00318919158E-01
1.80400000000E+09	-5.91581214102E-02	-1.88955537903E-01	4.94845905118E-02	-4.85789795861E-02	4.97631858510E-02	-4.80920385700E-02	-7.00437125568E-02	1.09256104600E-01
1.80500000000E+09	-6.19415181355E-02	-1.92362241245E-01	4.71818995361E-02	-5.06278891565E-02	4.74733242677E-02	-5.01805274401E-02	-6.57157205893E-02	1.17868904118E-01
1.80600000000E+09	-6.49546685273E-02	-1.95672756959E-01	4.49065630212E-02	-5.25718895458E-02	4.51300078711E-02	-5.20414449269E-02	-6.07983254037E-02	1.26270091537E-01
1.80700000000E+09	-6.83363406844E-02	-1.98589876598E-01	4.24076687126E-02	-5.43150153254E-02	4.26943670154E-02	-5.38386859852E-02	-5.53574071540E-02	1.34229095367E-01
1.80800000000E+09	-7.18407646288E-02	-2.01350762877E-01	3.99520224523E-02	-5.59552613219E-02	4.02224984280E-02	-5.55229407106E-02	-4.93116764854E-02	1.41957757296E-01
1.80900000000E+09	-7.54935702606E-02	-2.03732188623E-01	3.73222426115E-02	-5.73929165286E-02	3.77274317104E-02	-5.71019545876E-02	-4.28858475266E-02	1.49012803127E-01
1.81000000000E+09	-7.94448495321E-02	-2.05970423449E-01	3.48094707230E-02	-5.89460833096E-02	3.51439643637E-02	-5.84754447935E-02	-3.61101710056E-02	1.55817801476E-01
1.81100000000E+09	-8.34749889997E-02	-2.07925382881E-01	3.20764395901E-02	-6.01261207590E-02	3.25487487538E-02	-5.97457382516E-02	-2.87873745445E-02	1.62131173549E-01
1.81200000000E+09	-8.76969684635E-02	-2.09436793221E-01	2.93981880511E-02	-6.12497786235E-02	2.98077068117E-02	-6.09099832459E-02	-2.10608830092E-02	1.67847746053E-01
1.81300000000E+09	-9.19817111523E-02	-2.10878651908E-01	2.67440342949E-02	-6.23329222633E-02	2.71481089994E-02	-6.19573747563E-02	-1.30730994436E-02	1.73073616652E-01
1.81400000000E+09	-9.62692949667E-02	-2.11929497704E-01	2.39868876471E-02	-6.32163417435E-02	2.44483432324E-02	-6.29322607515E-02	-4.90887431044E-03	1.77895501894E-01
1.81500000000E+09	-1.00857154743E-01	-2.12690535924E-01	2.11901657143E-02	-6.39967017017E-02	2.16747185099E-02	-6.37334393658E-02	3.71675164991E-03	1.82099964049E-01
1.81600000000E+09	-1.05324940346E-01	-2.13202503506E-01	1.84439945165E-02	-6.47235513502E-02	1.89734298945E-02	-6.43936653836E-02	1.25592481769E-02	1.85661170982E-01
1.81700000000E+09	-1.09916228476E-01	-2.13420789752E-01	1.57288368152E-02	-6.51982656702E-02	1.62054163825E-02	-6.49118563443E-02	2.14886854718E-02	1.88774542261E-01
