# Hz S RI R 50
! CMT, CMT808U, 21440046, 21.4.3/4
! Date: 12/13/2025 10:51:47 PM
! Data: Format (Calibration Info)
! Freq	S11:Re/Im(F2)	S41:Re/Im(F2)	S14:Re/Im(F2)	S44:Re/Im(F2)
1.70000000000E+09	-8.69232636849E-02	-1.25227290406E-01	-4.78132735106E-02	-5.04181849025E-02	-4.75550417088E-02	-5.03564750323E-02	-2.35121757490E-02	5.72524619941E-02
1.70100000000E+09	-8.83719787766E-02	-1.20104117848E-01	-4.98751603324E-02	-4.82678554018E-02	-4.96869915428E-02	-4.82199431525E-02	-2.26168399405E-02	6.36874384356E-02
1.70200000000E+09	-8.92284265677E-02	-1.14766650784E-01	-5.19419884768E-02	-4.60851363377E-02	-5.17730453020E-02	-4.60056634382E-02	-2.14415625578E-02	7.00420236755E-02
1.70300000000E+09	-8.97261508413E-02	-1.09226061956E-01	-5.38363438269E-02	-4.37454457971E-02	-5.37015109463E-02	-4.38397731592E-02	-1.96792859515E-02	7.62521735986E-02
1.70400000000E+09	-8.96757352421E-02	-1.03419425517E-01	-5.57333784723E-02	-4.13340888243E-02	-5.55033201864E-02	-4.14217520082E-02	-1.75147542161E-02	8.23190774529E-02
1.70500000000E+09	-8.90101645643E-02	-9.75476798073E-02	-5.74396253060E-02	-3.89500717640E-02	-5.72786254243E-02	-3.89713385157E-02	-1.49382195447E-02	8.82267961666E-02
1.70600000000E+09	-8.78386230834E-02	-9.16923719031E-02	-5.90679614180E-02	-3.64876757744E-02	-5.88636973948E-02	-3.64847413533E-02	-1.20268631762E-02	9.38878108757E-02
1.70700000000E+09	-8.61752765373E-02	-8.57710564597E-02	-6.06061650806E-02	-3.39013099967E-02	-6.04604777809E-02	-3.39067423603E-02	-8.64601951003E-03	9.94803117286E-02
1.70800000000E+09	-8.39417864305E-02	-7.99213593770E-02	-6.19846095367E-02	-3.12776076169E-02	-6.18337548067E-02	-3.12992555747E-02	-4.99942088296E-03	1.04773613363E-01
1.70900000000E+09	-8.12646215530E-02	-7.41407792300E-02	-6.32460291568E-02	-2.84923589809E-02	-6.31412717664E-02	-2.85731070314E-02	-9.71790570543E-04	1.09761698836E-01
1.71000000000E+09	-7.80241590284E-02	-6.85676493473E-02	-6.45571244698E-02	-2.57808724024E-02	-6.43010147550E-02	-2.58528153291E-02	3.39359555828E-03	1.14472177318E-01
1.71100000000E+09	-7.43629115551E-02	-6.32130477418E-02	-6.55874518711E-02	-2.29628000682E-02	-6.53763163898E-02	-2.30560563483E-02	8.04033351401E-03	1.18868110346E-01
1.71200000000E+09	-7.02327540725E-02	-5.80516777665E-02	-6.65222640458E-02	-2.01060637875E-02	-6.64429900430E-02	-2.02544043255E-02	1.30224165050E-02	1.23024634051E-01
1.71300000000E+09	-6.56306593833E-02	-5.32515017540E-02	-6.72599921847E-02	-1.73493788430E-02	-6.71510327000E-02	-1.73235970206E-02	1.81854793344E-02	1.26777869925E-01
1.71400000000E+09	-6.07687466381E-02	-4.87322476403E-02	-6.80018336108E-02	-1.43062798659E-02	-6.78764185066E-02	-1.45058432663E-02	2.34955404710E-02	1.30153624917E-01
1.71500000000E+09	-5.54011130559E-02	-4.45554654537E-02	-6.85932427955E-02	-1.13984921507E-02	-6.83895296911E-02	-1.14955315429E-02	2.92389778018E-02	1.33204766625E-01
1.71600000000E+09	-4.98255878309E-02	-4.07578388405E-02	-6.90034499943E-02	-8.43301395281E-03	-6.88284644718E-02	-8.56721828808E-03	3.50447222255E-02	1.35825649708E-01
1.71700000000E+09	-4.38817938087E-02	-3.73915413691E-02	-6.93196638439E-02	-5.48298148489E-03	-6.91286080917E-02	-5.56391515665E-03	4.10438406367E-02	1.38185469812E-01
1.71800000000E+09	-3.77575139767E-02	-3.43466285498E-02	-6.94759713487E-02	-2.54287551308E-03	-6.92918392955E-02	-2.63388133833E-03	4.70524930735E-02	1.39936538041E-01
1.71900000000E+09	-3.15024194439E-02	-3.18397839249E-02	-6.95342101994E-02	4.52773401472E-04	-6.93367932050E-02	3.71823099749E-04	5.33193195742E-02	1.41537914901E-01
1.72000000000E+09	-2.50003117899E-02	-2.97944097780E-02	-6.94683699544E-02	3.37498084165E-03	-6.92595281684E-02	3.27423876050E-03	5.95738421364E-02	1.42570284729E-01
1.72100000000E+09	-1.84460179277E-02	-2.80273171963E-02	-6.91880172263E-02	6.38840827767E-03	-6.90599671266E-02	6.30535098237E-03	6.60187895750E-02	1.43113875690E-01
1.72200000000E+09	-1.17443132078E-02	-2.68521945877E-02	-6.89078001406E-02	9.37346044307E-03	-6.87184725170E-02	9.13860548462E-03	7.23328738468E-02	1.43445771923E-01
1.72300000000E+09	-4.95654082798E-03	-2.60774118372E-02	-6.84350917573E-02	1.22740668543E-02	-6.82870651186E-02	1.21156886279E-02	7.86624730736E-02	1.43347412017E-01
1.72400000000E+09	1.69880004890E-03	-2.57402946368E-02	-6.78681057262E-02	1.51650459420E-02	-6.77023377675E-02	1.49989611721E-02	8.50343987456E-02	1.42746990948E-01
1.72500000000E+09	8.46454257009E-03	-2.59398064834E-02	-6.71746927698E-02	1.80123732929E-02	-6.71037219738E-02	1.78514259737E-02	9.12754379649E-02	1.41745705689E-01
1.72600000000E+09	1.51074167721E-02	-2.64726283347E-02	-6.63821863949E-02	2.09221625284E-02	-6.62179746410E-02	2.06880521982E-02	9.73825652029E-02	1.40284783469E-01
1.72700000000E+09	2.17273241712E-02	-2.74558061488E-02	-6.54175164438E-02	2.37059716324E-02	-6.52957255136E-02	2.34916615747E-02	1.03525445524E-01	1.38566122890E-01
1.72800000000E+09	2.81531413965E-02	-2.89187620490E-02	-6.43506243378E-02	2.64883018285E-02	-6.42751970221E-02	2.62865393882E-02	1.09415965489E-01	1.36382086063E-01
1.72900000000E+09	3.43926595890E-02	-3.07065137190E-02	-6.32078503446E-02	2.92000388448E-02	-6.32207552203E-02	2.89853456150E-02	1.15247516113E-01	1.33889961414E-01
1.73000000000E+09	4.05375958857E-02	-3.29910346765E-02	-6.20253076138E-02	3.19139708599E-02	-6.19124302998E-02	3.17193906512E-02	1.20757456468E-01	1.31002254787E-01
1.73100000000E+09	4.65042121870E-02	-3.55677704019E-02	-6.06149700599E-02	3.44723966225E-02	-6.05456446188E-02	3.42502428191E-02	1.26205728091E-01	1.27714353799E-01
1.73200000000E+09	5.21701661890E-02	-3.85997806282E-02	-5.91122854386E-02	3.70111483301E-02	-5.90057933391E-02	3.68703839884E-02	1.31333226611E-01	1.24159731894E-01
1.73300000000E+09	5.75823552734E-02	-4.18267808723E-02	-5.75825720038E-02	3.95695380315E-02	-5.74729412287E-02	3.93493535936E-02	1.36273181533E-01	1.20325525150E-01
1.73400000000E+09	6.27431832324E-02	-4.55248804817E-02	-5.57939689459E-02	4.20054278823E-02	-5.58562620414E-02	4.18700876998E-02	1.40951986260E-01	1.16152170254E-01
1.73500000000E+09	6.75399461880E-02	-4.95134875912E-02	-5.40485394464E-02	4.44440161780E-02	-5.40574582290E-02	4.41762198357E-02	1.45301425816E-01	1.11725941670E-01
1.73600000000E+09	7.20143511493E-02	-5.36685271944E-02	-5.21713014641E-02	4.67341889280E-02	-5.21945824891E-02	4.65022918096E-02	1.49261590080E-01	1.06887605988E-01
1.73700000000E+09	7.61842455407E-02	-5.81412384001E-02	-5.01514220753E-02	4.89469345529E-02	-5.01832414679E-02	4.86952583903E-02	1.53080350147E-01	1.02070956125E-01
1.73800000000E+09	7.99700637755E-02	-6.28812773430E-02	-4.80280817091E-02	5.11162775637E-02	-4.80591579876E-02	5.08158153967E-02	1.56415127157E-01	9.69214987066E-02
1.73900000000E+09	8.33822518298E-02	-6.78249774081E-02	-4.58064739797E-02	5.31435834918E-02	-4.59199556761E-02	5.28889713443E-02	1.59574940498E-01	9.15320257623E-02
1.74000000000E+09	8.63390689239E-02	-7.29542855210E-02	-4.36123859738E-02	5.50789826895E-02	-4.35952673543E-02	5.49701744026E-02	1.62283868074E-01	8.59530610464E-02
1.74100000000E+09	8.88889298969E-02	-7.81387846734E-02	-4.11930553823E-02	5.69628138009E-02	-4.13120258400E-02	5.67828787082E-02	1.64655007200E-01	8.03918901420E-02
1.74200000000E+09	9.11020804328E-02	-8.35220910741E-02	-3.87754543316E-02	5.87886227937E-02	-3.88189953204E-02	5.85728757555E-02	1.66615517951E-01	7.44850177047E-02
1.74300000000E+09	9.27100009251E-02	-8.89232116279E-02	-3.61995302358E-02	6.05226694398E-02	-3.62192792394E-02	6.02132042275E-02	1.68252805842E-01	6.85436839622E-02
1.74400000000E+09	9.39381102616E-02	-9.43739557090E-02	-3.35721002280E-02	6.20648198940E-02	-3.36774824217E-02	6.17827285517E-02	1.69519678142E-01	6.25796171094E-02
1.74500000000E+09	9.46643237344E-02	-9.98269009537E-02	-3.08649640567E-02	6.33962134299E-02	-3.08991158270E-02	6.32346211865E-02	1.70336975800E-01	5.64857648672E-02
1.74600000000E+09	9.49391326892E-02	-1.05233514336E-01	-2.80890411114E-02	6.47266592170E-02	-2.81997619851E-02	6.45555276846E-02	1.70757757087E-01	5.05214075484E-02
1.74700000000E+09	9.47339645126E-02	-1.10607451140E-01	-2.52670524509E-02	6.59915925497E-02	-2.54230378244E-02	6.57832101413E-02	1.70865284216E-01	4.43353556892E-02
1.74800000000E+09	9.40806571368E-02	-1.15747943445E-01	-2.24637705851E-02	6.70245148721E-02	-2.25378589015E-02	6.68580213859E-02	1.70546329859E-01	3.82761640588E-02
1.74900000000E+09	9.29701348423E-02	-1.20766250408E-01	-1.94665615369E-02	6.80355373846E-02	-1.95641706003E-02	6.77700614759E-02	1.69869606931E-01	3.23467821220E-02
1.75000000000E+09	9.13742163251E-02	-1.25607610988E-01	-1.65818165283E-02	6.88177706879E-02	-1.67134238469E-02	6.86066890411E-02	1.68783344279E-01	2.63825645785E-02
1.75100000000E+09	8.95299396198E-02	-1.30138728442E-01	-1.35002380327E-02	6.95337468516E-02	-1.36768042057E-02	6.92921616547E-02	1.67363676415E-01	2.04671846971E-02
1.75200000000E+09	8.71308033719E-02	-1.34448055996E-01	-1.05575041150E-02	6.99996413212E-02	-1.05980317049E-02	6.98633214370E-02	1.65488066684E-01	1.47892848013E-02
1.75300000000E+09	8.44285835501E-02	-1.38318161976E-01	-7.46286194989E-03	7.04806814222E-02	-7.56261312113E-03	7.02977218510E-02	1.63357831530E-01	9.09570437906E-03
1.75400000000E+09	8.12953930641E-02	-1.41904600791E-01	-4.39706817896E-03	7.06681243505E-02	-4.55275305206E-03	7.05590564085E-02	1.60712612552E-01	3.60371590600E-03
1.75500000000E+09	7.79441603862E-02	-1.45109057679E-01	-1.32046407299E-03	7.08203003297E-02	-1.44695876513E-03	7.07350531285E-02	1.57870065946E-01	-1.73814565658E-03
1.75600000000E+09	7.42454752830E-02	-1.47803713320E-01	1.77598065822E-03	7.07732461065E-02	1.66321168506E-03	7.06631236095E-02	1.54578549204E-01	-6.68617188734E-03
1.75700000000E+09	7.03546219497E-02	-1.50081972119E-01	4.81739909919E-03	7.07194991580E-02	4.66919632860E-03	7.05296896124E-02	1.50999535700E-01	-1.16493701163E-02
1.75800000000E+09	6.63260777557E-02	-1.51837945000E-01	7.88677984531E-03	7.03944873819E-02	7.70019132712E-03	7.03185585480E-02	1.47117073120E-01	-1.61774665750E-02
1.75900000000E+09	6.20637270916E-02	-1.53083058114E-01	1.09472155909E-02	6.99470894044E-02	1.07129242204E-02	6.98260544270E-02	1.42973461506E-01	-2.05272484908E-02
1.76000000000E+09	5.77694772933E-02	-1.53786528774E-01	1.39549476557E-02	6.94602215574E-02	1.37429175637E-02	6.93515565062E-02	1.38527947724E-01	-2.46042949405E-02
1.76100000000E+09	5.34531096319E-02	-1.53942840141E-01	1.68904401899E-02	6.87644445850E-02	1.67679348706E-02	6.86229810233E-02	1.33777350379E-01	-2.83625641726E-02
1.76200000000E+09	4.91999078735E-02	-1.53634593995E-01	1.98799924725E-02	6.79777689919E-02	1.97247207415E-02	6.78128266624E-02	1.28841330841E-01	-3.17646049485E-02
1.76300000000E+09	4.49691547419E-02	-1.52647821901E-01	2.28057220904E-02	6.70142950395E-02	2.25696263076E-02	6.69536499802E-02	1.23779358818E-01	-3.49059440526E-02
1.76400000000E+09	4.09563728054E-02	-1.51115247082E-01	2.56371364744E-02	6.59321185941E-02	2.54320094741E-02	6.58629775906E-02	1.18463452854E-01	-3.76400429643E-02
1.76500000000E+09	3.71617069394E-02	-1.49116481575E-01	2.84535361973E-02	6.48159406463E-02	2.82228749709E-02	6.46782972809E-02	1.12895868778E-01	-4.01069041377E-02
1.76600000000E+09	3.35758852666E-02	-1.46597029639E-01	3.11347064484E-02	6.34941836958E-02	3.09589348294E-02	6.33694924016E-02	1.07289294116E-01	-4.20742462588E-02
1.76700000000E+09	3.03729923844E-02	-1.43545245387E-01	3.38709278712E-02	6.20128318322E-02	3.35920065990E-02	6.19911228951E-02	1.01452764270E-01	-4.37644910418E-02
1.76800000000E+09	2.75708935093E-02	-1.40198005658E-01	3.64518938446E-02	6.04878627595E-02	3.63014421462E-02	6.05138450435E-02	9.56073757065E-02	-4.49451116564E-02
1.76900000000E+09	2.52055948697E-02	-1.36276271467E-01	3.90325495735E-02	5.88640063343E-02	3.88273434403E-02	5.88640878807E-02	8.96802471083E-02	-4.57898164812E-02
1.77000000000E+09	2.32359904452E-02	-1.32049406539E-01	4.14939490990E-02	5.71186697785E-02	4.12319775367E-02	5.70919247591E-02	8.37005530685E-02	-4.63272812830E-02
1.77100000000E+09	2.18689003017E-02	-1.27729680066E-01	4.37843608791E-02	5.53588082753E-02	4.36715747230E-02	5.52519435939E-02	7.76334119389E-02	-4.63509500085E-02
1.77200000000E+09	2.11090071247E-02	-1.22970000936E-01	4.61378127476E-02	5.33673833625E-02	4.59453091710E-02	5.33392067825E-02	7.17521445897E-02	-4.59765234053E-02
1.77300000000E+09	2.08400893900E-02	-1.18173367071E-01	4.84476114513E-02	5.12978566121E-02	4.82213122779E-02	5.12833290485E-02	6.57758976237E-02	-4.52415771872E-02
1.77400000000E+09	2.12472229838E-02	-1.13171402514E-01	5.05295669550E-02	4.92082533942E-02	5.02904083218E-02	4.91636312907E-02	5.98535289432E-02	-4.41283360694E-02
1.77500000000E+09	2.22532700253E-02	-1.08212722009E-01	5.25701279477E-02	4.70324289377E-02	5.23432371430E-02	4.69607210546E-02	5.41571748757E-02	-4.25771442693E-02
1.77600000000E+09	2.38662643483E-02	-1.03334609175E-01	5.45537746311E-02	4.46598384234E-02	5.43239589735E-02	4.47095005902E-02	4.84193039673E-02	-4.06829482516E-02
1.77700000000E+09	2.60257680145E-02	-9.85860080068E-02	5.63941047548E-02	4.22655502739E-02	5.61168659669E-02	4.23062199313E-02	4.29115748200E-02	-3.83223235098E-02
1.77800000000E+09	2.88101501998E-02	-9.39352923508E-02	5.80720743755E-02	3.97977404730E-02	5.78819220115E-02	3.99045721434E-02	3.75693732911E-02	-3.57471319582E-02
1.77900000000E+09	3.21786937750E-02	-8.96055501121E-02	5.97396207435E-02	3.73867961096E-02	5.95774570967E-02	3.74105094043E-02	3.24659586505E-02	-3.27151544102E-02
1.78000000000E+09	3.60240439651E-02	-8.55595595321E-02	6.12546049071E-02	3.47953912509E-02	6.10314388854E-02	3.48368454085E-02	2.74863738510E-02	-2.93053391732E-02
1.78100000000E+09	4.03604585921E-02	-8.19545032806E-02	6.26631360341E-02	3.21120377668E-02	6.24239785072E-02	3.21502466663E-02	2.27975537919E-02	-2.57680488975E-02
1.78200000000E+09	4.51822421928E-02	-7.87088275945E-02	6.39224441643E-02	2.93504718663E-02	6.37301217105E-02	2.94549978906E-02	1.84257899646E-02	-2.17964292174E-02
1.78300000000E+09	5.02939173616E-02	-7.59253850844E-02	6.50348630416E-02	2.66815024520E-02	6.47711675739E-02	2.66923304340E-02	1.42264015871E-02	-1.75433642645E-02
1.78400000000E+09	5.58137651910E-02	-7.37521599491E-02	6.61218336157E-02	2.38589715161E-02	6.59594528880E-02	2.39387704182E-02	1.03600735198E-02	-1.31170712210E-02
1.78500000000E+09	6.15941925471E-02	-7.21132937233E-02	6.71000648758E-02	2.10230357810E-02	6.69608696234E-02	2.11314599322E-02	6.85107591381E-03	-8.36096183403E-03
1.78600000000E+09	6.75024175325E-02	-7.09613779819E-02	6.78876819700E-02	1.81643004956E-02	6.76917924045E-02	1.82558041690E-02	3.59249162808E-03	-3.48818590722E-03
1.78700000000E+09	7.35260745060E-02	-7.04374942235E-02	6.84891758632E-02	1.52032886427E-02	6.83498152132E-02	1.53976055636E-02	7.80738386789E-04	1.74124653615E-03
1.78800000000E+09	7.96531912536E-02	-7.05337871016E-02	6.91603006942E-02	1.23636006689E-02	6.89794737105E-02	1.24360447042E-02	-1.68770306139E-03	7.05666821874E-03
1.78900000000E+09	8.57819992006E-02	-7.11762599876E-02	6.95657642290E-02	9.39584249183E-03	6.93525166166E-02	9.51312121055E-03	-3.92570586014E-03	1.25115047718E-02
1.79000000000E+09	9.18971589173E-02	-7.24754990909E-02	6.98519811711E-02	6.39242130684E-03	6.97551346353E-02	6.57248943720E-03	-5.76176828731E-03	1.80459026188E-02
1.79100000000E+09	9.77570971101E-02	-7.42076206650E-02	7.00250355329E-02	3.55567170695E-03	6.98979827726E-02	3.63845061155E-03	-7.12970619726E-03	2.37427896399E-02
1.79200000000E+09	1.03534524922E-01	-7.65053737262E-02	7.00530001706E-02	4.88462872918E-04	6.99811676378E-02	7.28991474176E-04	-8.12549951867E-03	2.93574701024E-02
1.79300000000E+09	1.09083417731E-01	-7.93411894948E-02	7.00922924295E-02	-2.38425127911E-03	6.99558169006E-02	-2.33347011263E-03	-8.71964614046E-03	3.51239179765E-02
1.79400000000E+09	1.14374086648E-01	-8.25916362094E-02	6.99242388635E-02	-5.34422953746E-03	6.97776740654E-02	-5.19872872466E-03	-9.05635227827E-03	4.07932816068E-02
1.79500000000E+09	1.19300255120E-01	-8.63419068595E-02	6.95610777779E-02	-8.26781491244E-03	6.94392850342E-02	-8.11243583943E-03	-8.86485323987E-03	4.66117167552E-02
1.79600000000E+09	1.23884054733E-01	-9.04564738114E-02	6.91780616987E-02	-1.11730535824E-02	6.90084483040E-02	-1.09793196278E-02	-8.34579785447E-03	5.23231345812E-02
1.79700000000E+09	1.28098038855E-01	-9.48648911131E-02	6.86451911913E-02	-1.40586738301E-02	6.84756811936E-02	-1.39138699439E-02	-7.53512027484E-03	5.79614243125E-02
1.79800000000E+09	1.31864279483E-01	-9.97026047049E-02	6.79438164202E-02	-1.69601336801E-02	6.78593138391E-02	-1.67862544600E-02	-6.23369176433E-03	6.35224711016E-02
1.79900000000E+09	1.35266392639E-01	-1.04696039445E-01	6.71676572319E-02	-1.97483606556E-02	6.70833463325E-02	-1.95964101590E-02	-4.59773693224E-03	6.90332615725E-02
1.80000000000E+09	1.38180665609E-01	-1.10024508700E-01	6.63149687742E-02	-2.25497936548E-02	6.61870522101E-02	-2.23431634991E-02	-2.68472821841E-03	7.42212721376E-02
1.80100000000E+09	1.40659524150E-01	-1.15465107826E-01	6.52500668851E-02	-2.53650124512E-02	6.51966146055E-02	-2.51841093918E-02	-3.53954802232E-04	7.94164173091E-02
1.80200000000E+09	1.42728092866E-01	-1.21055422619E-01	6.41736930955E-02	-2.80340856733E-02	6.41570854298E-02	-2.78426314341E-02	2.18897524470E-03	8.44820685164E-02
1.80300000000E+09	1.44255757981E-01	-1.26704162547E-01	6.29342594766E-02	-3.07225131992E-02	6.29165774214E-02	-3.04869854993E-02	5.10213229876E-03	8.92351744981E-02
1.80400000000E+09	1.45335755416E-01	-1.32478686083E-01	6.16483877279E-02	-3.33040303866E-02	6.15819073966E-02	-3.30665887566E-02	8.42049284964E-03	9.37619884135E-02
1.80500000000E+09	1.46023619019E-01	-1.38192843840E-01	6.01954481365E-02	-3.58945176608E-02	6.01346655753E-02	-3.56999414307E-02	1.18579574082E-02	9.80150979416E-02
1.80600000000E+09	1.46286320552E-01	-1.43939431070E-01	5.87510387771E-02	-3.84326492227E-02	5.86041642804E-02	-3.81432172860E-02	1.55994377432E-02	1.02115968293E-01
1.80700000000E+09	1.45983008863E-01	-1.49531783713E-01	5.70648611919E-02	-4.08487846281E-02	5.69542192683E-02	-4.05876185453E-02	1.95905460790E-02	1.05878960054E-01
1.80800000000E+09	1.45345396495E-01	-1.55165255155E-01	5.53570116833E-02	-4.32203622422E-02	5.52368491333E-02	-4.29811850739E-02	2.39118008215E-02	1.09496572851E-01
1.80900000000E+09	1.44322364706E-01	-1.60532378099E-01	5.34501580133E-02	-4.54565122452E-02	5.34532405277E-02	-4.53385907704E-02	2.83139087742E-02	1.12547096118E-01
1.81000000000E+09	1.42796726109E-01	-1.65860758314E-01	5.16013454663E-02	-4.78376878059E-02	5.15235595160E-02	-4.75321051146E-02	3.28484500398E-02	1.15523954461E-01
1.81100000000E+09	1.41036400526E-01	-1.71031102384E-01	4.94919788621E-02	-4.99265074680E-02	4.95610915604E-02	-4.96702669835E-02	3.76506777476E-02	1.18145708666E-01
1.81200000000E+09	1.38810881085E-01	-1.75876798210E-01	4.73868912124E-02	-5.19909125856E-02	4.73680121269E-02	-5.17631742743E-02	4.26327783100E-02	1.20332389662E-01
1.81300000000E+09	1.36344411592E-01	-1.80611642353E-01	4.52127921447E-02	-5.40519956865E-02	4.51967519281E-02	-5.37709555329E-02	4.76222788309E-02	1.22231331757E-01
1.81400000000E+09	1.33585720636E-01	-1.85040182932E-01	4.28751557332E-02	-5.59427260782E-02	4.29204798220E-02	-5.57337991993E-02	5.26346901862E-02	1.23913667234E-01
1.81500000000E+09	1.30384289599E-01	-1.89239232120E-01	4.04362820991E-02	-5.77612637548E-02	4.05079048568E-02	-5.75750968415E-02	5.78809899912E-02	1.25190807533E-01
1.81600000000E+09	1.27078869431E-01	-1.93137265235E-01	3.79750097295E-02	-5.95722420729E-02	3.80784447834E-02	-5.92676140768E-02	6.31702287082E-02	1.26032323831E-01
1.81700000000E+09	1.23470208256E-01	-1.96788537029E-01	3.54777425835E-02	-6.11237411088E-02	3.55291320836E-02	-6.08302281485E-02	6.83768205237E-02	1.26690712576E-01
1.81800000000E+09	1.19560361616E-01	-2.00068966818E-01	3.28642116521E-02	-6.26139258022E-02	3.28542535007E-02	-6.23788622440E-02	7.37515797988E-02	1.26904079421E-01
