# Hz S RI R 50
! CMT, CMT808U, 21440046, 21.4.3/4
! Date: 12/11/2025 11:23:24 AM
! Data: Format (Calibration Info)
! Freq	S11:Re/Im(F2)	S41:Re/Im(F2)	S14:Re/Im(F2)	S44:Re/Im(F2)
1.70000000000E+09	-2.02121058656E-01	-1.10446395044E-01	-4.50192076700E-02	-4.45867596781E-02	-4.42517738711E-02	-4.51736430474E-02	-8.62223216054E-02	-2.10576791400E-02
1.70167224080E+09	-2.03121062305E-01	-1.02217373521E-01	-4.79792756500E-02	-4.13011019513E-02	-4.72616056253E-02	-4.19443291053E-02	-9.33027652139E-02	-5.75449189523E-03
1.70334448161E+09	-2.02629561258E-01	-9.37265359950E-02	-5.07088792122E-02	-3.78408507250E-02	-5.00398631265E-02	-3.85441632850E-02	-9.86406634271E-02	1.02709820407E-02
1.70501672241E+09	-2.00660437174E-01	-8.51882848041E-02	-5.31912548142E-02	-3.42219207410E-02	-5.25762174359E-02	-3.49683755424E-02	-1.02155542217E-01	2.67940860871E-02
1.70668896321E+09	-1.97257184645E-01	-7.69048720410E-02	-5.54336812792E-02	-3.04493644738E-02	-5.48748430366E-02	-3.12191065970E-02	-1.03835713917E-01	4.36458275138E-02
1.70836120401E+09	-1.92499398051E-01	-6.90365977791E-02	-5.74213660630E-02	-2.65105643961E-02	-5.69213378608E-02	-2.73361864586E-02	-1.03638049663E-01	6.05714806901E-02
1.71003344482E+09	-1.86519234884E-01	-6.18573461194E-02	-5.91373449242E-02	-2.24716274042E-02	-5.87023653014E-02	-2.33185870245E-02	-1.01607430899E-01	7.74005434560E-02
1.71170568562E+09	-1.79428588712E-01	-5.55173678667E-02	-6.05869845330E-02	-1.83111848337E-02	-6.02034503402E-02	-1.91805947914E-02	-9.77271431529E-02	9.38915886015E-02
1.71337792642E+09	-1.71397437339E-01	-5.01702487002E-02	-6.17458807686E-02	-1.40530942540E-02	-6.14422635464E-02	-1.49519524574E-02	-9.21206093448E-02	1.09877504463E-01
1.71505016722E+09	-1.62622699250E-01	-4.59502217796E-02	-6.26246126191E-02	-9.71753205582E-03	-6.23701877846E-02	-1.06267364027E-02	-8.47959588540E-02	1.25148328291E-01
1.71672240803E+09	-1.53240311481E-01	-4.29198614763E-02	-6.31919206951E-02	-5.32947551334E-03	-6.30119582745E-02	-6.25001951746E-03	-7.58949368274E-02	1.39526482905E-01
1.71839464883E+09	-1.43520295424E-01	-4.11602138425E-02	-6.34563029656E-02	-8.94232707974E-04	-6.33548902136E-02	-1.83222253243E-03	-6.55593070304E-02	1.52864318412E-01
1.72006688963E+09	-1.33608402933E-01	-4.06986046220E-02	-6.34242266474E-02	3.55213302873E-03	-6.33718408216E-02	2.60862148384E-03	-5.38290114575E-02	1.65016185913E-01
1.72173913043E+09	-1.23712476238E-01	-4.15281491187E-02	-6.30725232153E-02	8.00907484450E-03	-6.30892099150E-02	7.06388618678E-03	-4.09426014077E-02	1.75807202113E-01
1.72341137124E+09	-1.14016216593E-01	-4.36323379938E-02	-6.24043201714E-02	1.24206823568E-02	-6.24944349369E-02	1.14817226843E-02	-2.70005410086E-02	1.85177211953E-01
1.72508361204E+09	-1.04701947699E-01	-4.69296932579E-02	-6.14410905291E-02	1.67967797541E-02	-6.15899559462E-02	1.58658022632E-02	-1.21993815093E-02	1.92996027880E-01
1.72675585284E+09	-9.59396404378E-02	-5.13747259098E-02	-6.01669913011E-02	2.10974239593E-02	-6.03711910006E-02	2.01644016690E-02	3.27668069860E-03	1.99224756105E-01
1.72842809365E+09	-8.78875307866E-02	-5.68488658538E-02	-5.85724708399E-02	2.53052558966E-02	-5.88635522697E-02	2.44032594981E-02	1.93000555802E-02	2.03772660261E-01
1.73010033445E+09	-8.06654426436E-02	-6.32794849649E-02	-5.67067099436E-02	2.94012991117E-02	-5.70435596149E-02	2.85080949015E-02	3.56313471882E-02	2.06632697765E-01
1.73177257525E+09	-7.43973173099E-02	-7.04722011266E-02	-5.45334062799E-02	3.33601713236E-02	-5.49392078695E-02	3.24958432823E-02	5.21361729749E-02	2.07738006396E-01
1.73344481605E+09	-6.91810508917E-02	-7.83139456422E-02	-5.20861148272E-02	3.71599707348E-02	-5.25456978752E-02	3.63325066517E-02	6.86004508869E-02	2.07143099121E-01
1.73511705686E+09	-6.50957193406E-02	-8.66396825340E-02	-4.93708470308E-02	4.07837650222E-02	-4.98898918030E-02	3.99872930208E-02	8.48219245465E-02	2.04850962781E-01
1.73678929766E+09	-6.21634519766E-02	-9.53028911847E-02	-4.63894770734E-02	4.42085650357E-02	-4.69699045971E-02	4.34670930029E-02	1.00719805090E-01	2.00866144853E-01
1.73846153846E+09	-6.04460012517E-02	-1.04142492381E-01	-4.31689531810E-02	4.74203353822E-02	-4.38017281989E-02	4.67197124868E-02	1.16010629416E-01	1.95286407653E-01
1.74013377926E+09	-5.99253880270E-02	-1.12975519497E-01	-3.97293424140E-02	5.04021361431E-02	-4.03987568129E-02	4.97418960305E-02	1.30589791221E-01	1.88146429201E-01
1.74180602007E+09	-6.05872943056E-02	-1.21656063695E-01	-3.60652992437E-02	5.31228359255E-02	-3.67887228510E-02	5.25042413818E-02	1.44317582250E-01	1.79532001558E-01
1.74347826087E+09	-6.24290530317E-02	-1.30026826783E-01	-3.22070854178E-02	5.55828280744E-02	-3.29738748274E-02	5.50158571741E-02	1.57011168063E-01	1.69573060641E-01
1.74515050167E+09	-6.53561210178E-02	-1.37942986484E-01	-2.81979128664E-02	5.77439817492E-02	-2.89833878409E-02	5.72289399070E-02	1.68573255329E-01	1.58351932740E-01
1.74682274247E+09	-6.93488030940E-02	-1.45274168882E-01	-2.40221070455E-02	5.96251355369E-02	-2.48432658061E-02	5.91635352273E-02	1.78863200277E-01	1.45982681906E-01
1.74849498328E+09	-7.43294590743E-02	-1.51857451944E-01	-1.97222854152E-02	6.11850290865E-02	-2.05722025588E-02	6.07864445755E-02	1.87764883601E-01	1.32646175105E-01
1.75016722408E+09	-8.01709143669E-02	-1.57575343836E-01	-1.53284052522E-02	6.24264802399E-02	-1.61949506457E-02	6.20822851147E-02	1.95173052786E-01	1.18434245266E-01
1.75183946488E+09	-8.67865520504E-02	-1.62285166865E-01	-1.08527246452E-02	6.33393113734E-02	-1.17416528882E-02	6.30558393602E-02	2.01050097488E-01	1.03532704406E-01
1.75351170569E+09	-9.40320615379E-02	-1.65914182576E-01	-6.33393628628E-03	6.39325531369E-02	-7.24249315378E-03	6.37059549097E-02	2.05254488531E-01	8.80554289254E-02
1.75518394649E+09	-1.01754596687E-01	-1.68304141760E-01	-1.78920698470E-03	6.41836789333E-02	-2.70435265572E-03	6.40252545510E-02	2.07803824595E-01	7.22375565361E-02
1.75685618729E+09	-1.09778879156E-01	-1.69403422403E-01	2.75371793577E-03	6.41223733778E-02	1.82262176290E-03	6.40098715843E-02	2.08628542588E-01	5.62294311640E-02
1.75852842809E+09	-1.17917357045E-01	-1.69139687673E-01	7.26398881143E-03	6.37214564833E-02	6.32913873430E-03	6.36757395937E-02	2.07711207727E-01	4.01955999224E-02
1.76020066890E+09	-1.25950168545E-01	-1.67487383407E-01	1.17060733456E-02	6.30116228256E-02	1.07659284024E-02	6.30202585685E-02	2.05034018685E-01	2.43113858452E-02
1.76187290970E+09	-1.33637620797E-01	-1.64436895569E-01	1.60897740221E-02	6.19900393331E-02	1.51444186045E-02	6.20686249978E-02	2.00658038852E-01	8.77678156240E-03
1.76354515050E+09	-1.40776152507E-01	-1.60026111864E-01	2.03647572785E-02	6.06857378317E-02	1.94235513919E-02	6.08167695250E-02	1.94600026583E-01	-6.17816501834E-03
1.76521739130E+09	-1.47095507040E-01	-1.54330909582E-01	2.45209927924E-02	5.90794501074E-02	2.35904372261E-02	5.92797708231E-02	1.86900557733E-01	-2.04683714051E-02
1.76688963211E+09	-1.52345391631E-01	-1.47506189351E-01	2.85586287658E-02	5.72133808628E-02	2.76340260579E-02	5.74669833246E-02	1.77653734696E-01	-3.38776092923E-02
1.76856187291E+09	-1.56335413146E-01	-1.39718826809E-01	3.24555268554E-02	5.50821094868E-02	3.15350027449E-02	5.54042170425E-02	1.66943891450E-01	-4.62198883227E-02
1.77023411371E+09	-1.58901970825E-01	-1.31241236756E-01	3.61925891733E-02	5.27062739349E-02	3.52898913369E-02	5.30881931689E-02	1.54925606055E-01	-5.73597649577E-02
1.77190635452E+09	-1.59871948365E-01	-1.22324661686E-01	3.97561327795E-02	5.00838050007E-02	3.88731851223E-02	5.05313215430E-02	1.41682958052E-01	-6.71244969543E-02
1.77357859532E+09	-1.59183377303E-01	-1.13263905686E-01	4.31414450624E-02	4.72390819952E-02	4.22858737779E-02	4.77514053927E-02	1.27380509358E-01	-7.54023453028E-02
1.77525083612E+09	-1.56857676168E-01	-1.04388281263E-01	4.63404386961E-02	4.41689481772E-02	4.55113004251E-02	4.47481259697E-02	1.12228350574E-01	-8.20592634395E-02
1.77692307692E+09	-1.52912489837E-01	-9.60305587388E-02	4.93423890682E-02	4.08930708757E-02	4.85512149284E-02	4.15153632766E-02	9.63742728568E-02	-8.70100633206E-02
1.77859531773E+09	-1.47482781812E-01	-8.84794129976E-02	5.21024708274E-02	3.74032765741E-02	5.13527166125E-02	3.80932044175E-02	7.99970975721E-02	-9.01779474422E-02
1.78026755853E+09	-1.40752126248E-01	-8.20293186943E-02	5.46470445968E-02	3.37219411406E-02	5.39525549840E-02	3.44819356511E-02	6.33518165721E-02	-9.15307121805E-02
1.78193979933E+09	-1.32976964846E-01	-7.68806595104E-02	5.69472440563E-02	2.98786479780E-02	5.62933499277E-02	3.06767905383E-02	4.66172211129E-02	-9.10168273644E-02
1.78361204013E+09	-1.24393966376E-01	-7.32345662694E-02	5.89886229737E-02	2.58578310960E-02	5.83753655937E-02	2.67082796473E-02	3.00091547769E-02	-8.86293135798E-02
1.78528428094E+09	-1.15348368344E-01	-7.11789449399E-02	6.07320997534E-02	2.16862721263E-02	6.01932390525E-02	2.25847700328E-02	1.37347468476E-02	-8.44070079582E-02
1.78695652174E+09	-1.06148966284E-01	-7.07656288316E-02	6.22055709652E-02	1.73809206162E-02	6.17155549693E-02	1.83367475897E-02	-1.96998946917E-03	-7.83894117827E-02
1.78862876254E+09	-9.71032438308E-02	-7.19706567219E-02	6.33516594343E-02	1.29658552528E-02	6.29523493119E-02	1.39643492342E-02	-1.69126545498E-02	-7.06692184356E-02
1.79030100334E+09	-8.85073000240E-02	-7.47242968337E-02	6.41944673264E-02	8.47991751241E-03	6.38622013903E-02	9.50575838090E-03	-3.09272808337E-02	-6.13156244058E-02
1.79197324415E+09	-8.06029319790E-02	-7.88434344096E-02	6.47197093179E-02	3.91172594322E-03	6.44582129305E-02	4.96944670681E-03	-4.37989991146E-02	-5.04651162200E-02
1.79364548495E+09	-7.36137545770E-02	-8.42278572781E-02	6.49015587161E-02	-6.92170917875E-04	6.47382048144E-02	3.88059597850E-04	-5.53703354775E-02	-3.82519757362E-02
1.79531772575E+09	-6.77410019391E-02	-9.06098412955E-02	6.47665633228E-02	-5.30731202532E-03	6.46857646742E-02	-4.21758504683E-03	-6.55020535177E-02	-2.48191628586E-02
1.79698996656E+09	-6.30850100892E-02	-9.77962937355E-02	6.42783341330E-02	-9.92231326639E-03	6.42852065469E-02	-8.81130287586E-03	-7.40588002222E-02	-1.03407583863E-02
1.79866220736E+09	-5.97276430829E-02	-1.05559944432E-01	6.34524228994E-02	-1.44835558214E-02	6.35576614758E-02	-1.33785735288E-02	-8.09350953924E-02	4.94669231291E-03
1.80033444816E+09	-5.77382693052E-02	-1.13655698582E-01	6.23088945792E-02	-1.89954147680E-02	6.24975257678E-02	-1.79075483330E-02	-8.60628813080E-02	2.09020130930E-02
1.80200668896E+09	-5.70770120699E-02	-1.21870094414E-01	6.08328939129E-02	-2.33983675883E-02	6.11045406887E-02	-2.23296240100E-02	-8.93595743371E-02	3.73201000196E-02
1.80367892977E+09	-5.77452104257E-02	-1.29981907902E-01	5.90319687289E-02	-2.77117370085E-02	5.93921901123E-02	-2.66617291196E-02	-9.08326083375E-02	5.39591243706E-02
1.80535117057E+09	-5.96669927795E-02	-1.37800659100E-01	5.69092381070E-02	-3.18851761757E-02	5.73534605507E-02	-3.08499082339E-02	-9.03940713351E-02	7.06367288187E-02
1.80702341137E+09	-6.27202054748E-02	-1.45171752924E-01	5.44852441726E-02	-3.58759581347E-02	5.50041456570E-02	-3.48941823612E-02	-8.81507212630E-02	8.71343942053E-02
1.80869565217E+09	-6.68626731457E-02	-1.51933270739E-01	5.17694555941E-02	-3.96895335680E-02	5.23792327416E-02	-3.87551782039E-02	-8.40739525761E-02	1.03269914065E-01
1.81036789298E+09	-7.19502776946E-02	-1.57986739634E-01	4.87865363218E-02	-4.32871784396E-02	4.94606577445E-02	-4.24049992626E-02	-7.82466986061E-02	1.18834492319E-01
1.81204013378E+09	-7.78585705560E-02	-1.63185626316E-01	4.55294749362E-02	-4.66616000153E-02	4.62757874714E-02	-4.58421134329E-02	-7.07306288631E-02	1.33643052095E-01
1.81371237458E+09	-8.44587770748E-02	-1.67448929078E-01	4.20453028076E-02	-4.97671895919E-02	4.28568199964E-02	-4.90153473213E-02	-6.16654007395E-02	1.47519825859E-01
1.81538461538E+09	-9.15893992089E-02	-1.70693663424E-01	3.83460500409E-02	-5.26064566586E-02	3.91968870568E-02	-5.19241085431E-02	-5.11147954125E-02	1.60319445577E-01
1.81705685619E+09	-9.91138974586E-02	-1.72899833341E-01	3.44524485470E-02	-5.51630780097E-02	3.53456759038E-02	-5.45690855751E-02	-3.92222001715E-02	1.71887606359E-01
1.81872909699E+09	-1.06872107168E-01	-1.74014803145E-01	3.03858095475E-02	-5.74155188062E-02	3.13132825694E-02	-5.68871920164E-02	-2.61637473082E-02	1.82079609883E-01
1.82040133779E+09	-1.14717556912E-01	-1.74059501557E-01	2.61799414939E-02	-5.93468055552E-02	2.71422414062E-02	-5.89061950437E-02	-1.20620966647E-02	1.90818100795E-01
1.82207357860E+09	-1.22544360823E-01	-1.73016827250E-01	2.18525867559E-02	-6.09622001237E-02	2.28331667816E-02	-6.06009534695E-02	2.90006401074E-03	1.97965217376E-01
1.82374581940E+09	-1.30163099883E-01	-1.70924653470E-01	1.74244771957E-02	-6.22637276788E-02	1.84270570491E-02	-6.19651967329E-02	1.85668015540E-02	2.03480173839E-01
1.82541806020E+09	-1.37488203457E-01	-1.67802412677E-01	1.29559316681E-02	-6.32171526903E-02	1.39522796839E-02	-6.29964761387E-02	3.47400963626E-02	2.07321440578E-01
1.82709030100E+09	-1.44375510181E-01	-1.63696625711E-01	8.43195364480E-03	-6.38395260669E-02	9.43743760704E-03	-6.36929284340E-02	5.12555901863E-02	2.09382299855E-01
1.82876254181E+09	-1.50688251830E-01	-1.58674209686E-01	3.91948730711E-03	-6.41358893878E-02	4.92164899430E-03	-6.40718846916E-02	6.79277633754E-02	2.09729677578E-01
1.83043478261E+09	-1.56338705874E-01	-1.52807577853E-01	-5.85995165374E-04	-6.41067056091E-02	4.07226427172E-04	-6.41051639255E-02	8.45613901325E-02	2.08295884937E-01
1.83210702341E+09	-1.61152838331E-01	-1.46187748329E-01	-5.04266674133E-03	-6.37584965518E-02	-4.06958759024E-03	-6.38201123282E-02	1.00991222259E-01	2.05153529847E-01
1.83377926421E+09	-1.65101942100E-01	-1.38900251306E-01	-9.43337450794E-03	-6.31042463222E-02	-8.47655937127E-03	-6.32390988339E-02	1.17017368453E-01	2.00288201408E-01
1.83545150502E+09	-1.68029552733E-01	-1.31062165716E-01	-1.37490759865E-02	-6.21696732846E-02	-1.28021585094E-02	-6.23446984117E-02	1.32488633041E-01	1.93781334102E-01
1.83712374582E+09	-1.69868589513E-01	-1.22795337384E-01	-1.79492759888E-02	-6.09409681263E-02	-1.70317166637E-02	-6.11761270677E-02	1.47218510643E-01	1.85683241037E-01
1.83879598662E+09	-1.70518468580E-01	-1.14274596783E-01	-2.20391271423E-02	-5.94411296757E-02	-2.11338344643E-02	-5.97394812565E-02	1.61079076035E-01	1.76130454754E-01
1.84046822742E+09	-1.69940349708E-01	-1.05648764410E-01	-2.59962880246E-02	-5.76876305727E-02	-2.51173123215E-02	-5.80367551919E-02	1.73905888241E-01	1.65141708900E-01
1.84214046823E+09	-1.68053583822E-01	-9.71476405272E-02	-2.98011718196E-02	-5.56964658568E-02	-2.89574914080E-02	-5.61020407568E-02	1.85548871814E-01	1.52893261584E-01
1.84381270903E+09	-1.64900530482E-01	-8.89567909085E-02	-3.34528607868E-02	-5.34767203413E-02	-3.26416636049E-02	-5.39278640056E-02	1.95903660319E-01	1.39499266197E-01
1.84548494983E+09	-1.60518624923E-01	-8.12994692231E-02	-3.69625649371E-02	-5.10446162053E-02	-3.61707009275E-02	-5.15419707936E-02	2.04820679923E-01	1.25110784345E-01
1.84715719064E+09	-1.54931529145E-01	-7.43696244237E-02	-4.02838056694E-02	-4.83889760088E-02	-3.95431530259E-02	-4.89473484586E-02	2.12228152903E-01	1.09864409396E-01
1.84882943144E+09	-1.48284534626E-01	-6.84195692017E-02	-4.34330061116E-02	-4.55442505890E-02	-4.27187862440E-02	-4.61402834807E-02	2.18055358697E-01	9.39080951896E-02
1.85050167224E+09	-1.40749540572E-01	-6.36400458001E-02	-4.64038791587E-02	-4.25143846136E-02	-4.57165271406E-02	-4.31479990641E-02	2.22222453247E-01	7.74499567088E-02
1.85217391304E+09	-1.32521366281E-01	-6.02020627238E-02	-4.91690789667E-02	-3.93030191377E-02	-4.85151247311E-02	-3.99710644955E-02	2.24659843104E-01	6.05967567209E-02
1.85384615385E+09	-1.23846651676E-01	-5.82542019669E-02	-5.17349116588E-02	-3.59130026365E-02	-5.11197267526E-02	-3.66361403661E-02	2.25372454197E-01	4.36140452210E-02
1.85551839465E+09	-1.15013456744E-01	-5.78494172698E-02	-5.40781576389E-02	-3.23649411481E-02	-5.35106695181E-02	-3.31254050571E-02	2.24308017370E-01	2.66217094392E-02
1.85719063545E+09	-1.06373374121E-01	-5.90384569721E-02	-5.62016169044E-02	-2.86649145151E-02	-5.56811080338E-02	-2.94644849728E-02	2.21502266785E-01	9.84212801907E-03
1.85886287625E+09	-9.81665463475E-02	-6.17381524481E-02	-5.80800236859E-02	-2.48331387805E-02	-5.76128292004E-02	-2.56740400200E-02	2.16954779810E-01	-6.58389582364E-03
1.86053511706E+09	-9.07208898417E-02	-6.58520544036E-02	-5.97204847494E-02	-2.08508955343E-02	-5.93012371614E-02	-2.17417595558E-02	2.10692281562E-01	-2.24271988292E-02
1.86220735786E+09	-8.42988957275E-02	-7.12037691865E-02	-6.11068818650E-02	-1.67728642554E-02	-6.07404599779E-02	-1.76901082096E-02	2.02822646454E-01	-3.75668084065E-02
1.86387959866E+09	-7.90894469068E-02	-7.75526245426E-02	-6.22375932876E-02	-1.25957501894E-02	-6.19227816109E-02	-1.35419126334E-02	1.93390006102E-01	-5.17688203911E-02
1.86555183946E+09	-7.52778742409E-02	-8.46380748738E-02	-6.30754452535E-02	-8.34330205322E-03	-6.28330123646E-02	-9.31486033726E-03	1.82484488636E-01	-6.49354668802E-02
1.86722408027E+09	-7.29704840503E-02	-9.21792923292E-02	-6.36496037516E-02	-4.01232609007E-03	-6.34787525234E-02	-5.00855265593E-03	1.70253450257E-01	-7.68453965176E-02
1.86889632107E+09	-7.21907093546E-02	-9.98542086978E-02	-6.39420428172E-02	3.72013767479E-04	-6.38312951866E-02	-6.44593487158E-04	1.56780972390E-01	-8.73977332149E-02
1.87056856187E+09	-7.29025528890E-02	-1.07348295973E-01	-6.39411083686E-02	4.80205431052E-03	-6.39103249428E-02	3.75730910195E-03	1.42255364803E-01	-9.64440301031E-02
1.87224080268E+09	-7.50084122609E-02	-1.14423439697E-01	-6.36375838909E-02	9.24175642620E-03	-6.36871112178E-02	8.20601074281E-03	1.26817608118E-01	-1.03880213775E-01
1.87391304348E+09	-7.83819736023E-02	-1.20867948932E-01	-6.30362123860E-02	1.36856540541E-02	-6.31440541353E-02	1.26566170767E-02	1.10616876160E-01	-1.09606156376E-01
1.87558528428E+09	-8.28703951824E-02	-1.26424301220E-01	-6.21268728623E-02	1.81268397225E-02	-6.23112620459E-02	1.70947437249E-02	9.38866069846E-02	-1.13555476209E-01
1.87725752508E+09	-8.82661014559E-02	-1.30970943732E-01	-6.08799484202E-02	2.25315753488E-02	-6.11513525637E-02	2.15078938322E-02	7.67733086729E-02	-1.15639867719E-01
1.87892976589E+09	-9.43591757550E-02	-1.34383679121E-01	-5.93152864893E-02	2.68720842941E-02	-5.96524602198E-02	2.58684839510E-02	5.95066109614E-02	-1.15846767620E-01
1.88060200669E+09	-1.00919649997E-01	-1.36587520824E-01	-5.74269958634E-02	3.11343709283E-02	-5.78385761723E-02	3.01413255721E-02	4.22851706334E-02	-1.14150513421E-01
1.88227424749E+09	-1.07751158398E-01	-1.37588284510E-01	-5.52038739280E-02	3.52833371368E-02	-5.56932553079E-02	3.43119347179E-02	2.52860290013E-02	-1.10589413124E-01
1.88394648829E+09	-1.14653763133E-01	-1.37386010801E-01	-5.26539975364E-02	3.92770713598E-02	-5.32155443884E-02	3.83410981744E-02	8.77527913348E-03	-1.05140968203E-01
1.88561872910E+09	-1.21451662287E-01	-1.35987310920E-01	-4.97949618771E-02	4.30894499734E-02	-5.04129490943E-02	4.21936119000E-02	-7.10309168552E-03	-9.79086324108E-02
1.88729096990E+09	-1.27964234130E-01	-1.33448204416E-01	-4.66169625667E-02	4.66923875334E-02	-4.73170432825E-02	4.58330658484E-02	-2.21034200300E-02	-8.89613182829E-02
1.88896321070E+09	-1.34075431754E-01	-1.29847630176E-01	-4.31533745910E-02	5.00532737093E-02	-4.39187983314E-02	4.92440901429E-02	-3.60805263916E-02	-7.83750629558E-02
1.89063545151E+09	-1.39571175796E-01	-1.25275691538E-01	-3.94276551071E-02	5.31469624998E-02	-4.02389188442E-02	5.23967576813E-02	-4.88237971898E-02	-6.63187962964E-02
1.89230769231E+09	-1.44349423668E-01	-1.19817352735E-01	-3.54391193828E-02	5.59332481893E-02	-3.63327353859E-02	5.52518613701E-02	-6.02005634016E-02	-5.28950536066E-02
1.89397993311E+09	-1.48308648256E-01	-1.13611994001E-01	-3.12484362625E-02	5.84138119211E-02	-3.21854973861E-02	5.77768947097E-02	-7.00577199257E-02	-3.83198294903E-02
