# Hz S RI R 50
! CMT, CMT808U, 21440046, 21.4.3/4
! Date: 12/11/2025 11:07:33 AM
! Data: Format (Calibration Info)
! Freq	S11:Re/Im(F2)	S41:Re/Im(F2)	S14:Re/Im(F2)	S44:Re/Im(F2)
1.70000000000E+09	-2.00522179984E-01	-1.11302162065E-01	6.02827836679E-02	3.02778679086E-02	5.99178484298E-02	3.08685040840E-02	-6.33914127038E-02	5.70840568360E-02
1.70167224080E+09	-2.01685443285E-01	-1.03291837752E-01	6.23345433786E-02	2.60127188725E-02	6.20179643653E-02	2.66212737499E-02	-6.17119973605E-02	7.54781774257E-02
1.70334448161E+09	-2.01397696347E-01	-9.49809862474E-02	6.41007329665E-02	2.15925154851E-02	6.38328172419E-02	2.22162266995E-02	-5.79492347758E-02	9.35775170775E-02
1.70501672241E+09	-1.99649851996E-01	-8.65679293666E-02	6.55606773843E-02	1.70428464292E-02	6.53402944662E-02	1.76820189463E-02	-5.21827357092E-02	1.11152913716E-01
1.70668896321E+09	-1.96472904134E-01	-7.83575124388E-02	6.66976794069E-02	1.23759661464E-02	6.65303759841E-02	1.30294636429E-02	-4.45253078970E-02	1.27980817747E-01
1.70836120401E+09	-1.91953147259E-01	-7.05359043604E-02	6.75081823894E-02	7.62417744188E-03	6.73849456437E-02	8.28111277560E-03	-3.50207145147E-02	1.43873697902E-01
1.71003344482E+09	-1.86182226357E-01	-6.33693276060E-02	6.79771163873E-02	2.80386015125E-03	6.79131442375E-02	3.46406616910E-03	-2.38387319277E-02	1.58632929304E-01
1.71170568562E+09	-1.79300814084E-01	-5.70076405506E-02	6.80931060710E-02	-2.06166772406E-03	6.80774558398E-02	-1.39054681478E-03	-1.11440514632E-02	1.72081048074E-01
1.71337792642E+09	-1.71481585156E-01	-5.15958902021E-02	6.78618455367E-02	-6.93138122752E-03	6.78844157143E-02	-6.26345127795E-03	2.92712476916E-03	1.84051293646E-01
1.71505016722E+09	-1.62870656974E-01	-4.73020903708E-02	6.72651429806E-02	-1.17838265747E-02	6.73296903477E-02	-1.11366366946E-02	1.81999237065E-02	1.94477054255E-01
1.71672240803E+09	-1.53663908808E-01	-4.41825555191E-02	6.63143321902E-02	-1.65957747552E-02	6.64331853635E-02	-1.59514911438E-02	3.44849123586E-02	2.03171878484E-01
1.71839464883E+09	-1.44086897496E-01	-4.23074383449E-02	6.49981582005E-02	-2.13444928788E-02	6.51561331745E-02	-2.07116869144E-02	5.15674351075E-02	2.10099014495E-01
1.72006688963E+09	-1.34306001263E-01	-4.17112234541E-02	6.33304469282E-02	-2.59812102017E-02	6.35377386913E-02	-2.53624941246E-02	6.92973092669E-02	2.15196281024E-01
1.72173913043E+09	-1.24521636036E-01	-4.23891412923E-02	6.13201458344E-02	-3.04903940167E-02	6.15806775922E-02	-2.98943946270E-02	8.74224885102E-02	2.18381567361E-01
1.72341137124E+09	-1.14908709331E-01	-4.43312419721E-02	5.89734570568E-02	-3.48291382521E-02	5.92641840649E-02	-3.42583588801E-02	1.05747972099E-01	2.19670803831E-01
1.72508361204E+09	-1.05667978969E-01	-4.74782875754E-02	5.63187844219E-02	-3.89946108900E-02	5.66458947581E-02	-3.84390783915E-02	1.24112401626E-01	2.19040028324E-01
1.72675585284E+09	-9.69637644358E-02	-5.17360642606E-02	5.33451947198E-02	-4.29515073298E-02	5.37146534347E-02	-4.24180492192E-02	1.42271756543E-01	2.16531893990E-01
1.72842809365E+09	-8.89453192386E-02	-5.70292732170E-02	5.01070606829E-02	-4.66619948199E-02	5.05035732830E-02	-4.61580278232E-02	1.60071531333E-01	2.12146908879E-01
1.73010033445E+09	-8.17131310482E-02	-6.32461671659E-02	4.65913560877E-02	-5.01047124850E-02	4.70296859793E-02	-4.96505884298E-02	1.77288934632E-01	2.05965102628E-01
1.73177257525E+09	-7.54289435657E-02	-7.02476084154E-02	4.28316666205E-02	-5.32944895488E-02	4.32945213959E-02	-5.28520571352E-02	1.93780545168E-01	1.98038859457E-01
1.73344481605E+09	-7.01650006933E-02	-7.79018325854E-02	3.88639571822E-02	-5.61872747218E-02	3.93503319435E-02	-5.57754480235E-02	2.09348087388E-01	1.88484115039E-01
1.73511705686E+09	-6.59740264749E-02	-8.60347866421E-02	3.46891335726E-02	-5.87596389463E-02	3.52055278219E-02	-5.83876615678E-02	2.23844649484E-01	1.77387887438E-01
1.73678929766E+09	-6.29380380338E-02	-9.45288908334E-02	3.03706431395E-02	-6.10079291911E-02	3.08965928520E-02	-6.06778402832E-02	2.37125251625E-01	1.64852233628E-01
1.73846153846E+09	-6.10849663391E-02	-1.03202364653E-01	2.59006678330E-02	-6.29245605135E-02	2.64415214972E-02	-6.26278893078E-02	2.49039720804E-01	1.51021728761E-01
1.74013377926E+09	-6.03958113258E-02	-1.11900647852E-01	2.13112995358E-02	-6.45010132303E-02	2.18829727604E-02	-6.42473898611E-02	2.59473290711E-01	1.36053683671E-01
1.74180602007E+09	-6.08737972689E-02	-1.20477153471E-01	1.66678107222E-02	-6.57458893094E-02	1.72523931786E-02	-6.55185709775E-02	2.68158142465E-01	1.19934080285E-01
1.74347826087E+09	-6.25140541769E-02	-1.28765601398E-01	1.19609847768E-02	-6.66270918311E-02	1.25602065317E-02	-6.64395227707E-02	2.75309546178E-01	1.03116785400E-01
1.74515050167E+09	-6.52491067766E-02	-1.36628343061E-01	7.20248361739E-03	-6.71540331735E-02	7.82017146203E-03	-6.70137695571E-02	2.80716620803E-01	8.56137684186E-02
1.74682274247E+09	-6.90350094378E-02	-1.43951114062E-01	2.47014480182E-03	-6.73452834046E-02	3.09622274431E-03	-6.72454689957E-02	2.84259163788E-01	6.76413923937E-02
1.74849498328E+09	-7.38183697954E-02	-1.50539328295E-01	-2.24424918911E-03	-6.71900428440E-02	-1.59754317585E-03	-6.71420452706E-02	2.85936225084E-01	4.93615088201E-02
1.75016722408E+09	-7.94696181695E-02	-1.56299516069E-01	-6.88008832525E-03	-6.67264690829E-02	-6.24397206965E-03	-6.67151716646E-02	2.85674165224E-01	3.09598246414E-02
1.75183946488E+09	-8.59042810188E-02	-1.61079494553E-01	-1.14504506708E-02	-6.59366005508E-02	-1.08146877341E-02	-6.59685980665E-02	2.83522786992E-01	1.26337386495E-02
1.75351170569E+09	-9.29720681424E-02	-1.64781175858E-01	-1.59116463602E-02	-6.48563091778E-02	-1.52903312120E-02	-6.49196381479E-02	2.79416236325E-01	-5.40570346198E-03
1.75518394649E+09	-1.00527033053E-01	-1.67268307886E-01	-2.02756378616E-02	-6.34839616365E-02	-1.96394487792E-02	-6.35780914444E-02	2.73444801578E-01	-2.29328120392E-02
1.75685618729E+09	-1.08403446698E-01	-1.68498694181E-01	-2.44831679420E-02	-6.18482660752E-02	-2.38554811566E-02	-6.19820396716E-02	2.65621820999E-01	-3.97823089439E-02
1.75852842809E+09	-1.16399751876E-01	-1.68381225777E-01	-2.85564900444E-02	-5.99664790966E-02	-2.79388123532E-02	-6.01438845264E-02	2.56033133927E-01	-5.57589462574E-02
1.76020066890E+09	-1.24317886329E-01	-1.66895610311E-01	-3.24682476311E-02	-5.78570688550E-02	-3.18589532748E-02	-5.80570496399E-02	2.44749770270E-01	-7.06812326411E-02
1.76187290970E+09	-1.31917573533E-01	-1.64022162977E-01	-3.62331151561E-02	-5.55184975336E-02	-3.56202431097E-02	-5.57587082436E-02	2.31903995192E-01	-8.43566428715E-02
1.76354515050E+09	-1.38993518516E-01	-1.59814797568E-01	-3.98341136595E-02	-5.29931311192E-02	-3.92317083966E-02	-5.32715862571E-02	2.17628653571E-01	-9.65847057436E-02
1.76521739130E+09	-1.45261767412E-01	-1.54339133902E-01	-4.32794882015E-02	-5.02500930036E-02	-4.26946735633E-02	-5.05797798724E-02	2.02074893357E-01	-1.07248088670E-01
1.76688963211E+09	-1.50491953989E-01	-1.47746713872E-01	-4.65731862476E-02	-4.73490862637E-02	-4.59959976255E-02	-4.77065806637E-02	1.85415781970E-01	-1.16184886988E-01
1.76856187291E+09	-1.54514085146E-01	-1.40209125452E-01	-4.97153143931E-02	-4.42423042813E-02	-4.91602030939E-02	-4.46397055208E-02	1.67846156935E-01	-1.23232600862E-01
1.77023411371E+09	-1.57142336981E-01	-1.31974655009E-01	-5.26957384488E-02	-4.09427565813E-02	-5.21588944547E-02	-4.13805696270E-02	1.49582567492E-01	-1.28364606754E-01
1.77190635452E+09	-1.58226140851E-01	-1.23323935460E-01	-5.55184995026E-02	-3.74611719904E-02	-5.50057635907E-02	-3.79341970316E-02	1.30804648845E-01	-1.31528478903E-01
1.77357859532E+09	-1.57721687491E-01	-1.14499076617E-01	-5.81601756146E-02	-3.37571875803E-02	-5.76683734728E-02	-3.42815995669E-02	1.11778670469E-01	-1.32615444498E-01
1.77525083612E+09	-1.55600159238E-01	-1.05846802959E-01	-6.06100042860E-02	-2.98474090171E-02	-6.01501008310E-02	-3.03995173158E-02	9.27235619806E-02	-1.31622958666E-01
1.77692307692E+09	-1.51914865809E-01	-9.76486468300E-02	-6.28264625078E-02	-2.57206119296E-02	-6.24032842369E-02	-2.62973948948E-02	7.38826182889E-02	-1.28523246895E-01
1.77859531773E+09	-1.46813748868E-01	-9.02349360357E-02	-6.48112121653E-02	-2.13640341023E-02	-6.44239005848E-02	-2.20014714545E-02	5.54871480385E-02	-1.23390705287E-01
1.78026755853E+09	-1.40430307615E-01	-8.38446196054E-02	-6.64970099786E-02	-1.68092385421E-02	-6.61509261171E-02	-1.74816569269E-02	3.77632038636E-02	-1.16272238082E-01
1.78193979933E+09	-1.33017761928E-01	-7.86871963008E-02	-6.78621589258E-02	-1.20545165055E-02	-6.75718975900E-02	-1.27608502500E-02	2.09490062542E-02	-1.07233729043E-01
1.78361204013E+09	-1.24785549255E-01	-7.49446687820E-02	-6.88801644685E-02	-7.13343900114E-03	-6.86319533371E-02	-7.87958075331E-03	5.23743897817E-03	-9.64128175807E-02
1.78528428094E+09	-1.16079881354E-01	-7.27307635135E-02	-6.95024581058E-02	-2.08256624898E-03	-6.93170461125E-02	-2.86249195163E-03	-9.16181564223E-03	-8.39158750687E-02
1.78695652174E+09	-1.07157286007E-01	-7.20979909422E-02	-6.97234579982E-02	3.05400823514E-03	-6.95913587395E-02	2.25980727885E-03	-2.20722943987E-02	-6.99193783533E-02
1.78862876254E+09	-9.83464942086E-02	-7.30431175344E-02	-6.95103721965E-02	8.24519944752E-03	-6.94489398514E-02	7.43322337736E-03	-3.33253450771E-02	-5.46343292332E-02
1.79030100334E+09	-8.99216485386E-02	-7.54986045526E-02	-6.88630740103E-02	1.34382440325E-02	-6.88763379161E-02	1.26174001504E-02	-4.28018263039E-02	-3.81869618146E-02
1.79197324415E+09	-8.21415184045E-02	-7.93152209407E-02	-6.77710359784E-02	1.85777283929E-02	-6.78596859466E-02	1.77525094787E-02	-5.03418021051E-02	-2.08319879485E-02
1.79364548495E+09	-7.51991606911E-02	-8.43798145146E-02	-6.62480303020E-02	2.36292476129E-02	-6.64121514408E-02	2.28108336906E-02	-5.58693365625E-02	-2.78694248891E-03
1.79531772575E+09	-6.93310874034E-02	-9.04391831396E-02	-6.42972812198E-02	2.85306524072E-02	-6.45380986687E-02	2.77329583131E-02	-5.93327352350E-02	1.57347682034E-02
1.79698996656E+09	-6.46236292592E-02	-9.73190560519E-02	-6.19598479376E-02	3.32686811337E-02	-6.22633122853E-02	3.24813872421E-02	-6.06636702303E-02	3.44800304399E-02
1.79866220736E+09	-6.11809904179E-02	-1.04809707649E-01	-5.92346226000E-02	3.77601868797E-02	-5.96102615253E-02	3.70120584161E-02	-5.98839921728E-02	5.31830016183E-02
1.80033444816E+09	-5.90351290789E-02	-1.12648332192E-01	-5.61612411496E-02	4.20129964269E-02	-5.66058408994E-02	4.13097244790E-02	-5.70012290936E-02	7.16655534606E-02
1.80200668896E+09	-5.82061777425E-02	-1.20642912764E-01	-5.27708847090E-02	4.59664764482E-02	-5.32639848126E-02	4.53003635384E-02	-5.20527009197E-02	8.96355533220E-02
1.80367892977E+09	-5.86878001831E-02	-1.28570556586E-01	-4.90888146285E-02	4.96120715305E-02	-4.96369669566E-02	4.90101131646E-02	-4.51129867169E-02	1.06886269696E-01
1.80535117057E+09	-6.03507659143E-02	-1.36257484330E-01	-4.51621431090E-02	5.29370655587E-02	-4.57546599192E-02	5.23801598997E-02	-3.62848566754E-02	1.23199098762E-01
1.80702341137E+09	-6.32189471895E-02	-1.43533443421E-01	-4.10066863123E-02	5.59132024635E-02	-4.16406422549E-02	5.54127268277E-02	-2.57050820025E-02	1.38369291770E-01
1.80869565217E+09	-6.71134506224E-02	-1.50231655899E-01	-3.66747915341E-02	5.85168575655E-02	-3.73437471355E-02	5.80743607501E-02	-1.35132422206E-02	1.52218260429E-01
1.81036789298E+09	-7.19600462704E-02	-1.56260888402E-01	-3.22051475856E-02	6.07587928417E-02	-3.28986245044E-02	6.03889947812E-02	1.45924739174E-04	1.64587368544E-01
1.81204013378E+09	-7.76407739505E-02	-1.61480394820E-01	-2.76148724767E-02	6.26439846388E-02	-2.83271297102E-02	6.23383450355E-02	1.50539302994E-02	1.75323664390E-01
1.81371237458E+09	-8.40181572434E-02	-1.65786639789E-01	-2.29545380949E-02	6.41477574457E-02	-2.36906409629E-02	6.39051627704E-02	3.10590203182E-02	1.84301080657E-01
1.81538461538E+09	-9.09497651326E-02	-1.69127149645E-01	-1.82374512763E-02	6.52985578433E-02	-1.89902274183E-02	6.51200238137E-02	4.79425071108E-02	1.91444995438E-01
1.81705685619E+09	-9.82660928137E-02	-1.71449585659E-01	-1.35231054707E-02	6.60819977858E-02	-1.42680339408E-02	6.59665548209E-02	6.54752855649E-02	1.96643027075E-01
1.81872909699E+09	-1.05875624977E-01	-1.72710712197E-01	-8.83009288144E-03	6.65217747455E-02	-9.56780571435E-03	6.64615854668E-02	8.34550818315E-02	1.99884845884E-01
1.82040133779E+09	-1.13577720792E-01	-1.72906397735E-01	-4.17325683248E-03	6.66415505287E-02	-4.90431444809E-03	6.66359631892E-02	1.01692424514E-01	2.01144127438E-01
1.82207357860E+09	-1.21301569819E-01	-1.72043303851E-01	4.26780446215E-04	6.64315599963E-02	-2.91750620020E-04	6.64762231182E-02	1.19909420979E-01	2.00386169615E-01
1.82374581940E+09	-1.28845065085E-01	-1.70144237950E-01	4.93121472588E-03	6.59259028002E-02	4.23809580886E-03	6.60106901932E-02	1.37989938898E-01	1.97638953828E-01
1.82541806020E+09	-1.36115472227E-01	-1.67216091824E-01	9.33887875072E-03	6.51229837917E-02	8.66991882253E-03	6.52557697191E-02	1.55651321611E-01	1.92996892411E-01
1.82709030100E+09	-1.42970259387E-01	-1.63295370819E-01	1.36291188186E-02	6.40487769517E-02	1.29835127831E-02	6.42159657728E-02	1.72714981034E-01	1.86429455733E-01
1.82876254181E+09	-1.49278521775E-01	-1.58461820882E-01	1.77822158153E-02	6.27324192534E-02	1.71648036721E-02	6.29331426658E-02	1.89008523618E-01	1.78119327304E-01
1.83043478261E+09	-1.54948807698E-01	-1.52756220688E-01	2.17996094596E-02	6.11724781557E-02	2.11949888827E-02	6.14050930592E-02	2.04320073784E-01	1.68103624337E-01
1.83210702341E+09	-1.59806202427E-01	-1.46313635468E-01	2.56692104618E-02	5.93940791858E-02	2.50987352278E-02	5.96606376464E-02	2.18528509489E-01	1.56530413327E-01
1.83377926421E+09	-1.63806754401E-01	-1.39195592644E-01	2.93886108464E-02	5.74181252365E-02	2.88445851089E-02	5.77188104992E-02	2.31438124963E-01	1.43492549893E-01
1.83545150502E+09	-1.66805432943E-01	-1.31534132591E-01	3.29698275528E-02	5.52705947523E-02	3.24277612785E-02	5.55834270192E-02	2.42940000428E-01	1.29173838791E-01
1.83712374582E+09	-1.68722069228E-01	-1.23413695215E-01	3.63925059887E-02	5.29375304348E-02	3.58785855853E-02	5.32897588190E-02	2.52869610779E-01	1.13683949095E-01
1.83879598662E+09	-1.69458651952E-01	-1.15033322686E-01	3.96633641865E-02	5.04403583646E-02	3.91766795273E-02	5.08148697646E-02	2.61165161656E-01	9.72288370915E-02
1.84046822742E+09	-1.68984541195E-01	-1.06547297821E-01	4.27920119271E-02	4.77916099543E-02	4.23228136081E-02	4.81875921869E-02	2.67747391625E-01	7.99798362962E-02
1.84214046823E+09	-1.67224846461E-01	-9.82019636510E-02	4.57954292961E-02	4.49812958993E-02	4.53444191129E-02	4.54012004136E-02	2.72509799962E-01	6.21217429648E-02
1.84381270903E+09	-1.64202495886E-01	-9.01455435319E-02	4.86495904737E-02	4.20176767444E-02	4.82219884912E-02	4.24549817292E-02	2.75409195102E-01	4.38393818732E-02
1.84548494983E+09	-1.59982480092E-01	-8.26328778164E-02	5.13704224067E-02	3.88949390695E-02	5.09659487606E-02	3.93621759316E-02	2.76417036929E-01	2.53211411514E-02
1.84715719064E+09	-1.54607356583E-01	-7.58292579734E-02	5.39483457965E-02	3.55851656648E-02	5.35700412235E-02	3.60696249288E-02	2.75531882856E-01	6.77278402358E-03
1.84882943144E+09	-1.48204470723E-01	-6.99818526927E-02	5.63822930922E-02	3.21017282761E-02	5.60258130176E-02	3.26155078413E-02	2.72732909754E-01	-1.16396923098E-02
1.85050167224E+09	-1.40929117875E-01	-6.52684906272E-02	5.86427027309E-02	2.84202446448E-02	5.83095473653E-02	2.89660487796E-02	2.68097230118E-01	-2.96779212527E-02
1.85217391304E+09	-1.32988596253E-01	-6.18595192026E-02	6.07045667586E-02	2.45405956865E-02	6.04063504916E-02	2.51127232118E-02	2.61585370524E-01	-4.72081837336E-02
1.85384615385E+09	-1.24643549409E-01	-5.98871734879E-02	6.25584468276E-02	2.04659776002E-02	6.22766926532E-02	2.10533832825E-02	2.53333948098E-01	-6.40142774338E-02
1.85551839465E+09	-1.16144946757E-01	-5.93794377930E-02	6.41411235046E-02	1.61879314659E-02	6.39007916739E-02	1.68026919534E-02	2.43340002895E-01	-7.99126133398E-02
1.85719063545E+09	-1.07825076128E-01	-6.03850181741E-02	6.54463251365E-02	1.17236855352E-02	6.52422158376E-02	1.23754114948E-02	2.31769560595E-01	-9.47330750180E-02
1.85886287625E+09	-9.99326513697E-02	-6.28175148728E-02	6.64204301333E-02	7.11127620364E-03	6.62744838295E-02	7.76749965185E-03	2.18701815754E-01	-1.08361449046E-01
1.86053511706E+09	-9.27030200063E-02	-6.65814931204E-02	6.70552738304E-02	2.36078155577E-03	6.69393723578E-02	3.04878524139E-03	2.04244824929E-01	-1.20559010767E-01
1.86220735786E+09	-8.64215135114E-02	-7.15338185016E-02	6.73004785612E-02	-2.47615104228E-03	6.72299699190E-02	-1.77395295613E-03	1.88545383719E-01	-1.31248842122E-01
1.86387959866E+09	-8.12465007164E-02	-7.74554160418E-02	6.71653082704E-02	-7.35853582711E-03	6.71429951543E-02	-6.65012837787E-03	1.71801101793E-01	-1.40268536441E-01
1.86555183946E+09	-7.73735901782E-02	-8.41143115605E-02	6.66272410800E-02	-1.22587541677E-02	6.66523792822E-02	-1.15479150737E-02	1.54148461070E-01	-1.47521940623E-01
1.86722408027E+09	-7.48924423051E-02	-9.12473687315E-02	6.56754221873E-02	-1.71355488275E-02	6.57701476557E-02	-1.64024389927E-02	1.35767022325E-01	-1.52876213416E-01
1.86889632107E+09	-7.38473030934E-02	-9.85845826716E-02	6.43374662970E-02	-2.19226753606E-02	6.44783657152E-02	-2.11935393389E-02	1.16878861111E-01	-1.56296628730E-01
1.87056856187E+09	-7.42498469752E-02	-1.05825039634E-01	6.26079258972E-02	-2.65891003336E-02	6.28066889791E-02	-2.58665886108E-02	9.76992336914E-02	-1.57692839560E-01
1.87224080268E+09	-7.60247303007E-02	-1.12710022354E-01	6.05045659596E-02	-3.11001100119E-02	6.07660160770E-02	-3.03850542980E-02	7.84323090780E-02	-1.57051152836E-01
1.87391304348E+09	-7.90169096342E-02	-1.19056184238E-01	5.80623292906E-02	-3.54288536815E-02	5.83734678608E-02	-3.47274522402E-02	5.92843379210E-02	-1.54378223866E-01
1.87558528428E+09	-8.31519243591E-02	-1.24608150539E-01	5.52885633930E-02	-3.95246949759E-02	5.56564683158E-02	-3.88575743764E-02	4.05024195435E-02	-1.49681054546E-01
1.87725752508E+09	-8.82012172625E-02	-1.29215198197E-01	5.22108133252E-02	-4.33888623825E-02	5.26333050687E-02	-4.27432963517E-02	2.23113149346E-02	-1.43005125996E-01
1.87892976589E+09	-9.40136087147E-02	-1.32749911320E-01	4.88615903266E-02	-4.69876372356E-02	4.93307184836E-02	-4.63799115769E-02	4.89779839299E-03	-1.34414047357E-01
1.88060200669E+09	-1.00327775137E-01	-1.35112430650E-01	4.52663157763E-02	-5.03006870200E-02	4.57738616384E-02	-4.97166401282E-02	-1.14931670989E-02	-1.24005162358E-01
1.88227424749E+09	-1.06965120573E-01	-1.36283836460E-01	4.14403285375E-02	-5.33113914562E-02	4.20032491450E-02	-5.27677328259E-02	-2.67104288462E-02	-1.11942006409E-01
1.88394648829E+09	-1.13710249436E-01	-1.36255112778E-01	3.74300308696E-02	-5.60166213556E-02	3.80253119983E-02	-5.55128835423E-02	-4.05182665045E-02	-9.83102383214E-02
1.88561872910E+09	-1.20380414962E-01	-1.35028311218E-01	3.32561088401E-02	-5.83921370007E-02	3.38858030798E-02	-5.79240710574E-02	-5.28172847788E-02	-8.33403448151E-02
1.88729096990E+09	-1.26826293529E-01	-1.32677985095E-01	2.89446540435E-02	-6.04444655049E-02	2.96090962161E-02	-6.00229089093E-02	-6.34539509848E-02	-6.71819043705E-02
1.88896321070E+09	-1.32852014498E-01	-1.29269872607E-01	2.45216362922E-02	-6.21445356906E-02	2.52212126876E-02	-6.17854335014E-02	-7.23240444880E-02	-5.00218795957E-02
1.89063545151E+09	-1.38297536486E-01	-1.24851944272E-01	2.00355948816E-02	-6.35140857977E-02	2.07545382733E-02	-6.32042501956E-02	-7.92997168034E-02	-3.21150385136E-02
1.89230769231E+09	-1.43062828018E-01	-1.19574137577E-01	1.54843621844E-02	-6.45499906076E-02	1.62410946687E-02	-6.43061774018E-02	-8.43388156940E-02	-1.36131313729E-02
1.89397993311E+09	-1.47020139200E-01	-1.13534751743E-01	1.09256752099E-02	-6.52538196922E-02	1.16914909553E-02	-6.50645212295E-02	-8.74018703352E-02	5.22313900108E-03
1.89565217391E+09	-1.50086306874E-01	-1.06901606351E-01	6.36017038204E-03	-6.56251435639E-02	7.14358379854E-03	-6.55102444054E-02	-8.84835886033E-02	2.42015283347E-02
