# Hz S RI R 50
! CMT, CMT808U, 21440046, 21.4.3/4
! Date: 12/11/2025 11:22:34 AM
! Data: Format (Calibration Info)
! Freq	S11:Re/Im(F2)	S41:Re/Im(F2)	S14:Re/Im(F2)	S44:Re/Im(F2)
1.70000000000E+09	-2.00911915139E-01	-1.11524792540E-01	-5.53352930934E-02	-4.18251760002E-02	-5.46155970055E-02	-4.25859681757E-02	-7.47232465438E-02	5.82353665147E-02
1.70167224080E+09	-2.02159664468E-01	-1.03439404125E-01	-5.80387146067E-02	-3.78215790411E-02	-5.73823142759E-02	-3.86324776492E-02	-7.25207605946E-02	7.07668859000E-02
1.70334448161E+09	-2.01917239860E-01	-9.50227736762E-02	-6.04552756470E-02	-3.36648096527E-02	-5.98635162692E-02	-3.45153683662E-02	-6.89488341639E-02	8.30191733817E-02
1.70501672241E+09	-2.00213638157E-01	-8.65175166194E-02	-6.26028474214E-02	-2.93695430884E-02	-6.20719665621E-02	-3.02531675136E-02	-6.40816748847E-02	9.48193254761E-02
1.70668896321E+09	-1.97029021634E-01	-7.82233247335E-02	-6.44413424436E-02	-2.49486369670E-02	-6.39762768668E-02	-2.58628712081E-02	-5.79864362905E-02	1.06075383727E-01
1.70836120401E+09	-1.92494651844E-01	-7.03197443603E-02	-6.59934324647E-02	-2.04202359854E-02	-6.56042140951E-02	-2.13573708168E-02	-5.06991478218E-02	1.16615867143E-01
1.71003344482E+09	-1.86674039502E-01	-6.30796162255E-02	-6.72314812559E-02	-1.58014680010E-02	-6.69180431647E-02	-1.67575323983E-02	-4.23396065134E-02	1.26366213730E-01
1.71170568562E+09	-1.79750900722E-01	-5.66557993028E-02	-6.81779763446E-02	-1.11112565060E-02	-6.79213609417E-02	-1.20814464928E-02	-3.29952546451E-02	1.35177051893E-01
1.71337792642E+09	-1.71856214398E-01	-5.12222466058E-02	-6.88004539704E-02	-6.35423543369E-03	-6.86092842196E-02	-7.33722152734E-03	-2.27969580996E-02	1.42960404517E-01
1.71505016722E+09	-1.63191585032E-01	-4.69134985510E-02	-6.90980101067E-02	-1.56557022531E-03	-6.89844662221E-02	-2.55906246930E-03	-1.18123132177E-02	1.49636949262E-01
1.71672240803E+09	-1.53927828269E-01	-4.37792983266E-02	-6.90694817397E-02	3.23910557952E-03	-6.90256641478E-02	2.24518802671E-03	-2.15272924793E-04	1.55150444823E-01
1.71839464883E+09	-1.44292511287E-01	-4.19026199104E-02	-6.87237472719E-02	8.04720899238E-03	-6.87357519056E-02	7.04637741984E-03	1.18663719926E-02	1.59420967682E-01
1.72006688963E+09	-1.34466469436E-01	-4.13386600931E-02	-6.80323553387E-02	1.28181211515E-02	-6.81180697355E-02	1.18235064018E-02	2.43318671665E-02	1.62440519765E-01
1.72173913043E+09	-1.24635239850E-01	-4.20451328055E-02	-6.70226820521E-02	1.75473685782E-02	-6.71806553056E-02	1.65559567281E-02	3.70171885637E-02	1.64131713720E-01
1.72341137124E+09	-1.14995800533E-01	-4.40244680227E-02	-6.56914023851E-02	2.21938004459E-02	-6.59121940803E-02	2.12200637746E-02	4.97830289697E-02	1.64520988920E-01
1.72508361204E+09	-1.05742228388E-01	-4.71980341889E-02	-6.40384864695E-02	2.67547209616E-02	-6.43127374854E-02	2.57898178800E-02	6.24942491863E-02	1.63580230463E-01
1.72675585284E+09	-9.70103372979E-02	-5.15151539033E-02	-6.20658046708E-02	3.12004118133E-02	-6.24104279798E-02	3.02534255826E-02	7.49913214833E-02	1.61380910826E-01
1.72842809365E+09	-8.89833940914E-02	-5.68500603653E-02	-5.97808699213E-02	3.54947934271E-02	-6.01905475478E-02	3.45769837507E-02	8.71874436787E-02	1.57885574491E-01
1.73010033445E+09	-8.17710323984E-02	-6.31201282523E-02	-5.72025877047E-02	3.96298183332E-02	-5.76794072738E-02	3.87370204720E-02	9.89089171888E-02	1.53184972436E-01
1.73177257525E+09	-7.55084718232E-02	-7.01630347939E-02	-5.43407521871E-02	4.35893337562E-02	-5.48630197680E-02	4.27382606858E-02	1.10064713914E-01	1.47328883248E-01
1.73344481605E+09	-7.02723933185E-02	-7.78497059349E-02	-5.11865233907E-02	4.73474864295E-02	-5.17823863718E-02	4.65307456862E-02	1.20496712722E-01	1.40356436539E-01
1.73511705686E+09	-6.61254410185E-02	-8.60181988360E-02	-4.77879711738E-02	5.08864727465E-02	-4.84300494448E-02	5.01100479713E-02	1.30143533222E-01	1.32375793202E-01
1.73678929766E+09	-6.31284090789E-02	-9.45307297546E-02	-4.41365333618E-02	5.41729472442E-02	-4.48363597120E-02	5.34472229779E-02	1.38873943493E-01	1.23462922845E-01
1.73846153846E+09	-6.13233983957E-02	-1.03201198758E-01	-4.02391893479E-02	5.72140774539E-02	-4.09859096387E-02	5.65442359670E-02	1.46609722813E-01	1.13735198316E-01
1.74013377926E+09	-6.06859971511E-02	-1.11887685114E-01	-3.61439834566E-02	5.99708068950E-02	-3.69239439221E-02	5.93419882736E-02	1.53257936760E-01	1.03266561464E-01
1.74180602007E+09	-6.12156490400E-02	-1.20434664070E-01	-3.18400826627E-02	6.24458455084E-02	-3.26676499292E-02	6.18675606993E-02	1.58757434326E-01	9.21755178882E-02
1.74347826087E+09	-6.28866763428E-02	-1.28680033626E-01	-2.73591984693E-02	6.46093062503E-02	-2.82334288749E-02	6.40772465008E-02	1.63070108664E-01	8.06234750188E-02
1.74515050167E+09	-6.56187459240E-02	-1.36499726493E-01	-2.27336435719E-02	6.64432015668E-02	-2.36408502502E-02	6.59826187858E-02	1.66118364210E-01	6.87081168167E-02
1.74682274247E+09	-6.94023053244E-02	-1.43748959668E-01	-1.79674910547E-02	6.79410749179E-02	-1.89031991510E-02	6.75359489026E-02	1.67906524364E-01	5.65530528872E-02
1.74849498328E+09	-7.41326281973E-02	-1.50291950281E-01	-1.30857420634E-02	6.90971895915E-02	-1.40537057705E-02	6.87638025107E-02	1.68386553812E-01	4.43056577807E-02
1.75016722408E+09	-7.97233329035E-02	-1.56010034894E-01	-8.15283995505E-03	6.98926761553E-02	-9.13096808774E-03	6.96271734815E-02	1.67580167464E-01	3.20687406377E-02
1.75183946488E+09	-8.60667592292E-02	-1.60755067658E-01	-3.15248718089E-03	7.03274910984E-02	-4.15054936711E-03	7.01285198588E-02	1.65479138547E-01	2.00216637182E-02
1.75351170569E+09	-9.30397453148E-02	-1.64470744331E-01	1.88274956079E-03	7.03976789566E-02	8.66972175545E-04	7.02617039051E-02	1.62094882591E-01	8.24105153489E-03
1.75518394649E+09	-1.00504516488E-01	-1.67030344494E-01	6.89746498138E-03	7.00977251311E-02	5.86550807778E-03	7.00278665002E-02	1.57493874547E-01	-3.09226898229E-03
1.75685618729E+09	-1.08270659945E-01	-1.68329301279E-01	1.18820091338E-02	6.94224510556E-02	1.08370857801E-02	6.94195458443E-02	1.51701637169E-01	-1.38603513556E-02
1.75852842809E+09	-1.16200436735E-01	-1.68328398296E-01	1.67857144933E-02	6.83897229277E-02	1.57454563036E-02	6.84510565076E-02	1.44790936514E-01	-2.39520835028E-02
1.76020066890E+09	-1.24078404132E-01	-1.66986520043E-01	2.15974204509E-02	6.70032253387E-02	2.05592459181E-02	6.71340849414E-02	1.36825871443E-01	-3.32841097348E-02
1.76187290970E+09	-1.31683765682E-01	-1.64286283184E-01	2.62942348582E-02	6.52686110621E-02	2.52595742560E-02	6.54732665110E-02	1.27920665595E-01	-4.17211035413E-02
1.76354515050E+09	-1.38811432883E-01	-1.60232401920E-01	3.08414081329E-02	6.32047109930E-02	2.98158867541E-02	6.34833115540E-02	1.18145305313E-01	-4.91344174924E-02
1.76521739130E+09	-1.45165747065E-01	-1.54935744617E-01	3.52097661589E-02	6.08283497697E-02	3.41997205542E-02	6.11727348196E-02	1.07614523656E-01	-5.54937683151E-02
1.76688963211E+09	-1.50562379495E-01	-1.48463588299E-01	3.93774907376E-02	5.81404481619E-02	3.84007172604E-02	5.85646927137E-02	9.64543098096E-02	-6.06996123152E-02
1.76856187291E+09	-1.54770898618E-01	-1.41011930803E-01	4.33553550100E-02	5.51986834085E-02	4.23876527215E-02	5.56872797255E-02	8.47996429731E-02	-6.46561632552E-02
1.77023411371E+09	-1.57627978922E-01	-1.32807325007E-01	4.70894319532E-02	5.19847982642E-02	4.61720914315E-02	5.25424763089E-02	7.27757630935E-02	-6.73821470335E-02
1.77190635452E+09	-1.58944369400E-01	-1.24098048490E-01	5.05958112789E-02	4.85281644199E-02	4.96929673870E-02	4.91586582773E-02	6.05155753157E-02	-6.87830109836E-02
1.77357859532E+09	-1.58642953379E-01	-1.15158572083E-01	5.38357852598E-02	4.48554715452E-02	5.29775115720E-02	4.55431209570E-02	4.81702687220E-02	-6.88625200965E-02
1.77525083612E+09	-1.56699006438E-01	-1.06309623691E-01	5.68269320411E-02	4.09725849621E-02	5.60102605820E-02	4.17120399815E-02	3.59115285951E-02	-6.76108862359E-02
1.77692307692E+09	-1.53119336273E-01	-9.78835869126E-02	5.95451019098E-02	3.68872361735E-02	5.87727623640E-02	3.77032924343E-02	2.38540633602E-02	-6.50431488521E-02
1.77859531773E+09	-1.48030224343E-01	-9.02189078262E-02	6.19579613710E-02	3.26393355797E-02	6.12531851461E-02	3.35142527905E-02	1.21559961494E-02	-6.12034890799E-02
1.78026755853E+09	-1.41591323325E-01	-8.35841471248E-02	6.40896749713E-02	2.82265695104E-02	6.34493942743E-02	2.91543584901E-02	9.78537768131E-04	-5.61569169048E-02
1.78193979933E+09	-1.34040053801E-01	-7.82007877447E-02	6.59195235106E-02	2.36761060285E-02	6.53344886977E-02	2.46571703954E-02	-9.58369218916E-03	-4.99232395371E-02
1.78361204013E+09	-1.25637725397E-01	-7.42961071769E-02	6.74298690053E-02	1.90179827409E-02	6.69151294976E-02	2.00409804903E-02	-1.93644308787E-02	-4.26284996166E-02
1.78528428094E+09	-1.16710456091E-01	-7.19894046247E-02	6.85992435375E-02	1.42488502546E-02	6.81613022026E-02	1.53113934977E-02	-2.82806158771E-02	-3.43264946144E-02
1.78695652174E+09	-1.07565941658E-01	-7.13170928378E-02	6.94489586560E-02	9.41170174514E-03	6.90967064023E-02	1.05142128783E-02	-3.61978597918E-02	-2.51474006120E-02
1.78862876254E+09	-9.85428643329E-02	-7.22702204462E-02	6.99458574738E-02	4.51368888845E-03	6.96901534197E-02	5.64351742060E-03	-4.30571377413E-02	-1.52469866611E-02
1.79030100334E+09	-8.99225494729E-02	-7.47925582659E-02	7.01069956038E-02	-4.10160169443E-04	6.99302750326E-02	7.33545304251E-04	-4.87862901930E-02	-4.66845221757E-03
1.79197324415E+09	-8.19778498361E-02	-7.87019264522E-02	6.99214873402E-02	-5.33327588947E-03	6.98182932218E-02	-4.17021514102E-03	-5.33123599013E-02	6.38105043257E-03
1.79364548495E+09	-7.49199850152E-02	-8.38765605039E-02	6.93844271573E-02	-1.02387727421E-02	6.93856522741E-02	-9.07258723061E-03	-5.65717739702E-02	1.78027311973E-02
1.79531772575E+09	-6.89470439621E-02	-9.00996491615E-02	6.85005596254E-02	-1.50902128337E-02	6.85881781963E-02	-1.39161734196E-02	-5.85550541728E-02	2.94587999135E-02
1.79698996656E+09	-6.41749314295E-02	-9.71252186080E-02	6.72730715282E-02	-1.98703219248E-02	6.74576195786E-02	-1.87002998266E-02	-5.92689218898E-02	4.12046654188E-02
1.79866220736E+09	-6.06827079248E-02	-1.04765913562E-01	6.57191692048E-02	-2.45406523740E-02	6.59975387257E-02	-2.33951301757E-02	-5.86943420543E-02	5.28602541317E-02
1.80033444816E+09	-5.85698676124E-02	-1.12747927229E-01	6.38420606903E-02	-2.91053317111E-02	6.41967551889E-02	-2.79892212399E-02	-5.68631716402E-02	6.43522220808E-02
1.80200668896E+09	-5.77818661629E-02	-1.20876871794E-01	6.16540613137E-02	-3.35213171582E-02	6.20864249185E-02	-3.24280071737E-02	-5.37920361719E-02	7.55019743491E-02
1.80367892977E+09	-5.83112480847E-02	-1.28906508844E-01	5.91418357215E-02	-3.77739418197E-02	5.96670188499E-02	-3.67301058442E-02	-4.95638164109E-02	8.61852702853E-02
1.80535117057E+09	-6.00640796942E-02	-1.36675889662E-01	5.63369620568E-02	-4.18466140380E-02	5.69496587680E-02	-4.08442226386E-02	-4.41850663117E-02	9.62930922530E-02
1.80702341137E+09	-6.29932938890E-02	-1.43999983593E-01	5.32571626222E-02	-4.57037473001E-02	5.39470644892E-02	-4.47645879791E-02	-3.77958731700E-02	1.05719416619E-01
1.80869565217E+09	-6.69833646801E-02	-1.50726590707E-01	4.99201201875E-02	-4.93497111847E-02	5.06601824669E-02	-4.84632994443E-02	-3.04328318585E-02	1.14349003808E-01
1.81036789298E+09	-7.19194589283E-02	-1.56759498011E-01	4.63236823377E-02	-5.27405844504E-02	4.71376774284E-02	-5.19164386415E-02	-2.21862253845E-02	1.22114576270E-01
1.81204013378E+09	-7.76583023833E-02	-1.61963346262E-01	4.24951169272E-02	-5.58754669890E-02	4.33641276810E-02	-5.51285685435E-02	-1.31981602523E-02	1.28903001814E-01
1.81371237458E+09	-8.40940277415E-02	-1.66248662855E-01	3.84419196232E-02	-5.87283071495E-02	3.93677660737E-02	-5.80450463018E-02	-3.54098638162E-03	1.34654889395E-01
1.81538461538E+09	-9.10745899747E-02	-1.69531421358E-01	3.41965068784E-02	-6.12956330320E-02	3.51709246541E-02	-6.06888850652E-02	6.65567176215E-03	1.39349926158E-01
1.81705685619E+09	-9.84307113602E-02	-1.71802936027E-01	2.97890874785E-02	-6.35477112255E-02	3.07903312172E-02	-6.30230195659E-02	1.72965745731E-02	1.42893424244E-01
1.81872909699E+09	-1.06049017733E-01	-1.72990615089E-01	2.52315546529E-02	-6.54778359044E-02	2.62599904876E-02	-6.50326182289E-02	2.82316739391E-02	1.45283922152E-01
1.82040133779E+09	-1.13722693890E-01	-1.73136466258E-01	2.05304317471E-02	-6.70807846295E-02	2.15963440459E-02	-6.67163356183E-02	3.93564770836E-02	1.46494503513E-01
1.82207357860E+09	-1.21412303642E-01	-1.72221281591E-01	1.57385431904E-02	-6.83390791055E-02	1.68087712610E-02	-6.80468361099E-02	5.05279076550E-02	1.46518924610E-01
1.82374581940E+09	-1.28887323092E-01	-1.70285890996E-01	1.08690465844E-02	-6.92361137810E-02	1.19564797288E-02	-6.90447044972E-02	6.16563876256E-02	1.45349086078E-01
1.82541806020E+09	-1.36098846075E-01	-1.67348591027E-01	5.95713990733E-03	-6.97987422608E-02	7.03622078251E-03	-6.96676575636E-02	7.25948299906E-02	1.43030178034E-01
1.82709030100E+09	-1.42895897290E-01	-1.63457639235E-01	1.02106473411E-03	-6.99934777158E-02	2.09819240203E-03	-6.99445970437E-02	8.32333372758E-02	1.39548203940E-01
1.82876254181E+09	-1.49140256477E-01	-1.58665984452E-01	-3.91873108221E-03	-6.98360263725E-02	-2.83951502450E-03	-6.98600389161E-02	9.34698081836E-02	1.35001489695E-01
1.83043478261E+09	-1.54780984556E-01	-1.53029937692E-01	-8.81112062431E-03	-6.93340218108E-02	-7.74478303578E-03	-6.94234858886E-02	1.03168256798E-01	1.29396433008E-01
1.83210702341E+09	-1.59601602529E-01	-1.46677891790E-01	-1.36456653709E-02	-6.84747146603E-02	-1.26032788294E-02	-6.86485697040E-02	1.12251700579E-01	1.22844396773E-01
1.83377926421E+09	-1.63619487224E-01	-1.39641198309E-01	-1.84012009267E-02	-6.72829962661E-02	-1.73697593024E-02	-6.75199938030E-02	1.20590397293E-01	1.15341179056E-01
1.83545150502E+09	-1.66663500604E-01	-1.32063075956E-01	-2.30363959857E-02	-6.57615635486E-02	-2.20370159739E-02	-6.60604997547E-02	1.28135593648E-01	1.07042182142E-01
1.83712374582E+09	-1.68664053855E-01	-1.24045967061E-01	-2.75408055395E-02	-6.39298286676E-02	-2.65611461565E-02	-6.42853427034E-02	1.34778123226E-01	9.79961888248E-02
1.83879598662E+09	-1.69530954682E-01	-1.15743890436E-01	-3.18947439986E-02	-6.17809806111E-02	-3.09524680576E-02	-6.22105195056E-02	1.40449920875E-01	8.83343120229E-02
1.84046822742E+09	-1.69220443474E-01	-1.07296605396E-01	-3.60915198814E-02	-5.93552759446E-02	-3.51673344215E-02	-5.98316856717E-02	1.45096112585E-01	7.81302078453E-02
1.84214046823E+09	-1.67637094730E-01	-9.89271683499E-02	-4.00814721633E-02	-5.66451407390E-02	-3.92072275007E-02	-5.71919862335E-02	1.48665727201E-01	6.75284998431E-02
1.84381270903E+09	-1.64801957163E-01	-9.07976810377E-02	-4.38682105673E-02	-5.36775326743E-02	-4.30342320777E-02	-5.42740159158E-02	1.51111245387E-01	5.66351401841E-02
1.84548494983E+09	-1.60767574103E-01	-8.31377144635E-02	-4.74501814964E-02	-5.04788857135E-02	-4.66393879808E-02	-5.11292083837E-02	1.52426077759E-01	4.55664217480E-02
1.84715719064E+09	-1.55515209983E-01	-7.61458272750E-02	-5.07744463461E-02	-4.70443914385E-02	-5.00178856110E-02	-4.77414308256E-02	1.52586018926E-01	3.44553634739E-02
1.84882943144E+09	-1.49206018177E-01	-7.00435030550E-02	-5.38641410806E-02	-4.33902147911E-02	-5.31514671124E-02	-4.41403742799E-02	1.51589099796E-01	2.34050980885E-02
1.85050167224E+09	-1.41954327905E-01	-6.50595780244E-02	-5.67159455629E-02	-3.95583144554E-02	-5.60477235358E-02	-4.03506442968E-02	1.49457663938E-01	1.25717910560E-02
1.85217391304E+09	-1.33958258660E-01	-6.13641740599E-02	-5.92709767170E-02	-3.55427565707E-02	-5.86593949281E-02	-3.63855167200E-02	1.46214484021E-01	2.05286417232E-03
1.85384615385E+09	-1.25465141024E-01	-5.91056599386E-02	-6.15680932205E-02	-3.13750009379E-02	-6.09976777459E-02	-3.22496148203E-02	1.41926115580E-01	-8.02941052541E-03
1.85551839465E+09	-1.16739003251E-01	-5.83750445756E-02	-6.35786627933E-02	-2.70598579858E-02	-6.30641137464E-02	-2.79792794099E-02	1.36593705848E-01	-1.75607636507E-02
1.85719063545E+09	-1.08116580414E-01	-5.92149299226E-02	-6.52856169262E-02	-2.26242152996E-02	-6.48504842701E-02	-2.35731597249E-02	1.30337827798E-01	-2.64228214446E-02
1.85886287625E+09	-9.98841489919E-02	-6.15886775967E-02	-6.66959033908E-02	-1.80704067351E-02	-6.63075777019E-02	-1.90704820950E-02	1.23178979564E-01	-3.45462168047E-02
1.86053511706E+09	-9.23445154433E-02	-6.54202613323E-02	-6.78012442093E-02	-1.34456518492E-02	-6.74791041715E-02	-1.44780543646E-02	1.15246910449E-01	-4.18191854946E-02
1.86220735786E+09	-8.57564648684E-02	-7.04857853290E-02	-6.85886303408E-02	-8.75365838390E-03	-6.83374913277E-02	-9.79879138738E-03	1.06620948089E-01	-4.81924419103E-02
1.86387959866E+09	-8.03662101549E-02	-7.66159644455E-02	-6.90652896755E-02	-4.01308212014E-03	-6.88817839340E-02	-5.08196826054E-03	9.74084735622E-02	-5.35551999680E-02
1.86555183946E+09	-7.63298985267E-02	-8.35358233394E-02	-6.92361625085E-02	7.55589194734E-04	-6.91201536467E-02	-3.40949631307E-04	8.77220202786E-02	-5.78739434753E-02
1.86722408027E+09	-7.37966128854E-02	-9.09497021256E-02	-6.90787669888E-02	5.53749417558E-03	-6.90500491832E-02	4.43223852121E-03	7.76525029469E-02	-6.10973106883E-02
1.86889632107E+09	-7.27794373754E-02	-9.85544820941E-02	-6.86050726203E-02	1.03019148990E-02	-6.86505577650E-02	9.19650813261E-03	6.73361769009E-02	-6.32235862654E-02
1.87056856187E+09	-7.32644703401E-02	-1.06034937267E-01	-6.78127523372E-02	1.50429141774E-02	-6.79330685900E-02	1.39283270076E-02	5.68997995342E-02	-6.41735647131E-02
1.87224080268E+09	-7.51700628542E-02	-1.13108302760E-01	-6.66963209591E-02	1.97364848042E-02	-6.68996305277E-02	1.86250434953E-02	4.64470055905E-02	-6.40025447902E-02
1.87391304348E+09	-7.83541207397E-02	-1.19587869374E-01	-6.52563912898E-02	2.43650470919E-02	-6.55441516718E-02	2.32703417195E-02	3.60933129927E-02	-6.26948843741E-02
1.87558528428E+09	-8.26836165138E-02	-1.25190840566E-01	-6.34897195422E-02	2.89078364188E-02	-6.38565706465E-02	2.78265667465E-02	2.59791496737E-02	-6.02706469043E-02
1.87725752508E+09	-8.79146933594E-02	-1.29808665281E-01	-6.14097155037E-02	3.33409702246E-02	-6.18642575084E-02	3.22888012476E-02	1.62121963141E-02	-5.67710385122E-02
1.87892976589E+09	-9.38839335141E-02	-1.33307782122E-01	-5.90119144895E-02	3.76462086695E-02	-5.95364107819E-02	3.66146623421E-02	6.90456784244E-03	-5.22176183322E-02
1.88060200669E+09	-1.00318075632E-01	-1.35588982803E-01	-5.63012630500E-02	4.17737845631E-02	-5.68868261923E-02	4.07962502261E-02	-1.83710373553E-03	-4.66898988847E-02
1.88227424749E+09	-1.07044663172E-01	-1.36678763011E-01	-5.32749208937E-02	4.57257592176E-02	-5.39581835607E-02	4.47782612292E-02	-9.93266527505E-03	-4.02713761808E-02
1.88394648829E+09	-1.13834515559E-01	-1.36546509800E-01	-4.99510878004E-02	4.94662714549E-02	-5.07101363894E-02	4.85659746488E-02	-1.72459914954E-02	-3.30125280255E-02
1.88561872910E+09	-1.20534741756E-01	-1.35240133896E-01	-4.63514062726E-02	5.29653005879E-02	-4.71682044181E-02	5.21174061229E-02	-2.37564281957E-02	-2.50159801853E-02
1.88729096990E+09	-1.26966973885E-01	-1.32827728120E-01	-4.24955578687E-02	5.62079858747E-02	-4.33595520610E-02	5.54127035927E-02	-2.93411575705E-02	-1.63821522242E-02
1.88896321070E+09	-1.32967133960E-01	-1.29350436323E-01	-3.83949005631E-02	5.91517742004E-02	-3.93200049751E-02	5.84282239625E-02	-3.39964530475E-02	-7.19270942317E-03
1.89063545151E+09	-1.38384447111E-01	-1.24913173158E-01	-3.40661596039E-02	6.17856029096E-02	-3.50550426850E-02	6.11331196513E-02	-3.75926503255E-02	2.40115372132E-03
1.89230769231E+09	-1.43109930678E-01	-1.19620206923E-01	-2.95497085120E-02	6.41015964210E-02	-3.05845537454E-02	6.35092894315E-02	-4.01900192721E-02	1.23198466526E-02
1.89397993311E+09	-1.47041619689E-01	-1.13593922071E-01	-2.48631394436E-02	6.60511286959E-02	-2.59412716874E-02	6.55452907990E-02	-4.16905469784E-02	2.24383208387E-02
1.89565217391E+09	-1.50078127928E-01	-1.06984137044E-01	-2.00476281394E-02	6.76583191001E-02	-2.11613548693E-02	6.72324846687E-02	-4.21321801979E-02	3.26178508618E-02
