# Hz S RI R 50
! CMT, CMT808U, 21440046, 21.4.3/4
! Date: 12/11/2025 6:24:12 PM
! Data: Format (Calibration Info)
! Freq	S11:Re/Im(F2)	S41:Re/Im(F2)	S14:Re/Im(F2)	S44:Re/Im(F2)
1.70000000000E+09	-1.52980612043E-01	-8.98107719565E-02	-5.99033149059E-02	-2.69678225009E-02	-5.95455715868E-02	-2.72887610728E-02	-8.16883624310E-02	5.57641888447E-02
1.70100000000E+09	-1.52280049777E-01	-8.56461275199E-02	-6.09268721499E-02	-2.43865217016E-02	-6.06508179834E-02	-2.47168356325E-02	-8.03351678646E-02	6.74694455017E-02
1.70200000000E+09	-1.50896684999E-01	-8.15568056232E-02	-6.19243094961E-02	-2.18458883308E-02	-6.16907470197E-02	-2.21258204861E-02	-7.83614557253E-02	7.90479421568E-02
1.70300000000E+09	-1.49171094308E-01	-7.75678494983E-02	-6.27378804029E-02	-1.91785976422E-02	-6.25757184692E-02	-1.96415726358E-02	-7.54528405563E-02	9.04020910589E-02
1.70400000000E+09	-1.46943662418E-01	-7.36039594941E-02	-6.35748091675E-02	-1.64848257809E-02	-6.33069401804E-02	-1.69466674334E-02	-7.18618834628E-02	1.01548499852E-01
1.70500000000E+09	-1.44184418784E-01	-6.98618227687E-02	-6.41934840539E-02	-1.38606192137E-02	-6.40037233064E-02	-1.42395966880E-02	-6.75060629202E-02	1.12464296180E-01
1.70600000000E+09	-1.41035927581E-01	-6.64274573041E-02	-6.47133783705E-02	-1.11947714437E-02	-6.45195776416E-02	-1.15749575835E-02	-6.25392818127E-02	1.22973974036E-01
1.70700000000E+09	-1.37513311140E-01	-6.31919885584E-02	-6.51702406219E-02	-8.45339202339E-03	-6.50267559237E-02	-8.83123244008E-03	-5.67890385891E-02	1.33301648052E-01
1.70800000000E+09	-1.33631043288E-01	-6.02967126453E-02	-6.54286930996E-02	-5.72667634165E-03	-6.52997506131E-02	-6.11065664526E-03	-5.04966011053E-02	1.43157176433E-01
1.70900000000E+09	-1.29504561352E-01	-5.76937258003E-02	-6.55967507243E-02	-2.87347505260E-03	-6.55223479157E-02	-3.33065614611E-03	-4.35411339367E-02	1.52564474176E-01
1.71000000000E+09	-1.25047845386E-01	-5.54856299293E-02	-6.57950865706E-02	-1.50833889784E-04	-6.55859333431E-02	-5.95005406210E-04	-3.59963779736E-02	1.61493264113E-01
1.71100000000E+09	-1.20444426363E-01	-5.37264841926E-02	-6.57152417473E-02	2.62143637623E-03	-6.55896407882E-02	2.16229543624E-03	-2.79358651214E-02	1.69888082509E-01
1.71200000000E+09	-1.15650052463E-01	-5.22477205340E-02	-6.55594892908E-02	5.41181712768E-03	-6.55614172856E-02	4.89454274875E-03	-1.92952403619E-02	1.77856783150E-01
1.71300000000E+09	-1.10688437655E-01	-5.12896120629E-02	-6.51940410045E-02	8.03010492328E-03	-6.52020348284E-02	7.68547330164E-03	-1.02847947264E-02	1.85149861327E-01
1.71400000000E+09	-1.05758257361E-01	-5.06457050665E-02	-6.48568648456E-02	1.09122816497E-02	-6.48714796464E-02	1.03518656133E-02	-8.61733212508E-04	1.91872252914E-01
1.71500000000E+09	-1.00613226584E-01	-5.04205080027E-02	-6.43781672172E-02	1.35892182905E-02	-6.43040545169E-02	1.31466689892E-02	9.12548381921E-03	1.97992947013E-01
1.71600000000E+09	-9.55941118070E-02	-5.05620954436E-02	-6.37485821141E-02	1.62858271958E-02	-6.37102738818E-02	1.58025366747E-02	1.93736662170E-02	2.03408461603E-01
1.71700000000E+09	-9.04937582640E-02	-5.11366605282E-02	-6.30238004674E-02	1.89326312692E-02	-6.29726093965E-02	1.85002920101E-02	2.99769699561E-02	2.08286368749E-01
1.71800000000E+09	-8.55171960693E-02	-5.19425222368E-02	-6.21393788662E-02	2.15223956047E-02	-6.21339133077E-02	2.10952126226E-02	4.06935028289E-02	2.12291519321E-01
1.71900000000E+09	-8.06883389773E-02	-5.32263733944E-02	-6.11986967039E-02	2.41277418922E-02	-6.12032127021E-02	2.37338628984E-02	5.18015612018E-02	2.15891152290E-01
1.72000000000E+09	-7.58875571976E-02	-5.48739607706E-02	-6.01486596322E-02	2.66134975109E-02	-6.01311344675E-02	2.62057059825E-02	6.30058580573E-02	2.18586787820E-01
1.72100000000E+09	-7.12924334364E-02	-5.66701360755E-02	-5.88935543740E-02	2.91656160778E-02	-5.89883828956E-02	2.87828150497E-02	7.45063862414E-02	2.20534482451E-01
1.72200000000E+09	-6.68043522432E-02	-5.89061846986E-02	-5.76573626717E-02	3.16606415577E-02	-5.77066764742E-02	3.11265502900E-02	8.59171837578E-02	2.21959785495E-01
1.72300000000E+09	-6.24456999888E-02	-6.13618819511E-02	-5.62671437135E-02	3.40124634664E-02	-5.63623004784E-02	3.35477734369E-02	9.73892016015E-02	2.22655275791E-01
1.72400000000E+09	-5.84156269540E-02	-6.40418473565E-02	-5.48066920508E-02	3.62993770668E-02	-5.48876048509E-02	3.58715234546E-02	1.08933165088E-01	2.22541156427E-01
1.72500000000E+09	-5.44868315706E-02	-6.70665811258E-02	-5.32191176639E-02	3.85435587430E-02	-5.34232961208E-02	3.81195730781E-02	1.20365189589E-01	2.21712159068E-01
1.72600000000E+09	-5.07975397158E-02	-7.02029635987E-02	-5.15767313209E-02	4.07971928516E-02	-5.16995206407E-02	4.03195731831E-02	1.31667658888E-01	2.20144862877E-01
1.72700000000E+09	-4.72474762076E-02	-7.35530326264E-02	-4.97950833252E-02	4.28970092782E-02	-4.99599475429E-02	4.24374031435E-02	1.42994168998E-01	2.18002514727E-01
1.72800000000E+09	-4.40460646386E-02	-7.71583950204E-02	-4.79281161523E-02	4.49431630589E-02	-4.81261774475E-02	4.45122667629E-02	1.54014320228E-01	2.15078625307E-01
1.72900000000E+09	-4.10947124518E-02	-8.08986013645E-02	-4.60088150732E-02	4.68940882607E-02	-4.63351860486E-02	4.64812640085E-02	1.64953400232E-01	2.11621237457E-01
1.73000000000E+09	-3.82911465479E-02	-8.48243668063E-02	-4.40855444707E-02	4.88158029866E-02	-4.43025934269E-02	4.84251859509E-02	1.75496065163E-01	2.07419690962E-01
1.73100000000E+09	-3.57030437684E-02	-8.88748784188E-02	-4.19917243016E-02	5.05409788670E-02	-4.22463867176E-02	5.01317051821E-02	1.85881260785E-01	2.02586556915E-01
1.73200000000E+09	-3.34475104019E-02	-9.31141443308E-02	-3.98067834407E-02	5.22128363882E-02	-4.00513056076E-02	5.19048076579E-02	1.95863923298E-01	1.97128765697E-01
1.73300000000E+09	-3.14512270660E-02	-9.73392271675E-02	-3.76603049051E-02	5.38972534637E-02	-3.78776694404E-02	5.35067779992E-02	2.05538119675E-01	1.91152915923E-01
1.73400000000E+09	-2.97038592717E-02	-1.01809211239E-01	-3.52900192530E-02	5.53831797275E-02	-3.56951146394E-02	5.51173142108E-02	2.14811837054E-01	1.84554473282E-01
1.73500000000E+09	-2.82656683790E-02	-1.06380778395E-01	-3.30165973427E-02	5.68856308958E-02	-3.33638929818E-02	5.64990269395E-02	2.23612587388E-01	1.77435477377E-01
1.73600000000E+09	-2.71398432212E-02	-1.10883622326E-01	-3.06382130089E-02	5.81931414780E-02	-3.10007080428E-02	5.78412601760E-02	2.31862168195E-01	1.69627390763E-01
1.73700000000E+09	-2.62300188088E-02	-1.15523371419E-01	-2.81580322386E-02	5.94069836159E-02	-2.85353776492E-02	5.90530815089E-02	2.39859125811E-01	1.61683113582E-01
1.73800000000E+09	-2.56680083564E-02	-1.20239844134E-01	-2.56312417944E-02	6.05343452589E-02	-2.60322968537E-02	6.01778655945E-02	2.47101682050E-01	1.53113440638E-01
1.73900000000E+09	-2.53629857159E-02	-1.25033312252E-01	-2.30680216017E-02	6.15361324935E-02	-2.35474724166E-02	6.12178703101E-02	2.54033310967E-01	1.44058732540E-01
1.74000000000E+09	-2.54473883898E-02	-1.29779453592E-01	-2.05828788370E-02	6.24206445766E-02	-2.09276785627E-02	6.22504860535E-02	2.60260662744E-01	1.34592793938E-01
1.74100000000E+09	-2.58387743823E-02	-1.34465234580E-01	-1.79274398138E-02	6.32280401031E-02	-1.83855225147E-02	6.30191238635E-02	2.65938635289E-01	1.24982132107E-01
1.74200000000E+09	-2.64544174741E-02	-1.39192964096E-01	-1.53152704463E-02	6.39769065197E-02	-1.57265461242E-02	6.37320500129E-02	2.70968223735E-01	1.14808752345E-01
1.74300000000E+09	-2.75561906716E-02	-1.43786192409E-01	-1.25889200526E-02	6.46281501794E-02	-1.29987253093E-02	6.43129240484E-02	2.75486137975E-01	1.04407308115E-01
1.74400000000E+09	-2.88798882667E-02	-1.48327290702E-01	-9.90258098125E-03	6.50695601044E-02	-1.03622617867E-02	6.48078152869E-02	2.79306399133E-01	9.38321888791E-02
1.74500000000E+09	-3.06256247933E-02	-1.52724236283E-01	-7.17160486778E-03	6.53320824471E-02	-7.55564562630E-03	6.51949417811E-02	2.82398832589E-01	8.29643433443E-02
1.74600000000E+09	-3.26335355524E-02	-1.57051438083E-01	-4.42414274448E-03	6.55869993088E-02	-4.88093787584E-03	6.54624762450E-02	2.84881706592E-01	7.21060624797E-02
1.74700000000E+09	-3.50218446135E-02	-1.61182174835E-01	-1.67889730386E-03	6.58071788372E-02	-2.18441729502E-03	6.56221919997E-02	2.86704979403E-01	6.08988336849E-02
1.74800000000E+09	-3.76635629587E-02	-1.65060722752E-01	1.00540891029E-03	6.57680346522E-02	5.79517884444E-04	6.56614545602E-02	2.87861038449E-01	4.96787787484E-02
1.74900000000E+09	-4.06412882880E-02	-1.68735500740E-01	3.82580216260E-03	6.57421993471E-02	3.36576637314E-03	6.55439832961E-02	2.88337071639E-01	3.85547893723E-02
1.75000000000E+09	-4.39766199955E-02	-1.72204297642E-01	6.46406707801E-03	6.54984910889E-02	5.99744583499E-03	6.53600487218E-02	2.88096698450E-01	2.72747990590E-02
1.75100000000E+09	-4.73639658091E-02	-1.75334586466E-01	9.27749211465E-03	6.51895468889E-02	8.75634503697E-03	6.50501918863E-02	2.87217394724E-01	1.60219407682E-02
1.75200000000E+09	-5.12181202722E-02	-1.78217869289E-01	1.18987852795E-02	6.46889793349E-02	1.15057907573E-02	6.46622455435E-02	2.85529404501E-01	4.96387575562E-03
1.75300000000E+09	-5.51587542887E-02	-1.80628818465E-01	1.46216777198E-02	6.41982329133E-02	1.41878595084E-02	6.41292893481E-02	2.83305347872E-01	-6.14591128421E-03
1.75400000000E+09	-5.94291016682E-02	-1.82782191674E-01	1.72745007690E-02	6.34449998877E-02	1.67887726459E-02	6.34842000263E-02	2.80217788938E-01	-1.70387318347E-02
1.75500000000E+09	-6.37813868922E-02	-1.84534283531E-01	1.99056563964E-02	6.26964387769E-02	1.94578344985E-02	6.27548493351E-02	2.76665777264E-01	-2.77509918329E-02
1.75600000000E+09	-6.83233506768E-02	-1.85767105082E-01	2.25104348422E-02	6.17700717366E-02	2.20707063994E-02	6.18101881982E-02	2.72274657823E-01	-3.80544403541E-02
1.75700000000E+09	-7.28750896484E-02	-1.86713962172E-01	2.50173480343E-02	6.08656666761E-02	2.45498431968E-02	6.08599427668E-02	2.67347718064E-01	-4.83326524140E-02
1.75800000000E+09	-7.75226842540E-02	-1.87138245625E-01	2.75324360001E-02	5.97268714909E-02	2.70365721477E-02	5.98347318995E-02	2.61768821464E-01	-5.80783300545E-02
1.75900000000E+09	-8.22675781810E-02	-1.87124167422E-01	2.99970679329E-02	5.84986724874E-02	2.94571619418E-02	5.85712586686E-02	2.55589872097E-01	-6.75208660609E-02
1.76000000000E+09	-8.68548817133E-02	-1.86610902193E-01	3.23710536594E-02	5.72666736882E-02	3.18637357636E-02	5.73649382510E-02	2.48843818962E-01	-7.66579299228E-02
1.76100000000E+09	-9.13721301375E-02	-1.85604647875E-01	3.46537385434E-02	5.58512320573E-02	3.42462060605E-02	5.59640033967E-02	2.41437084099E-01	-8.52730132023E-02
1.76200000000E+09	-9.57892716619E-02	-1.84264045330E-01	3.69790723396E-02	5.44190000383E-02	3.65422408430E-02	5.44745191228E-02	2.33598267251E-01	-9.34023545670E-02
1.76300000000E+09	-1.00018485221E-01	-1.82330523760E-01	3.92024074711E-02	5.28188948711E-02	3.86894802046E-02	5.30004483219E-02	2.25275133278E-01	-1.01075778015E-01
1.76400000000E+09	-1.03956851702E-01	-1.79912702764E-01	4.13227636560E-02	5.11538101821E-02	4.08526339927E-02	5.13296632885E-02	2.16494714104E-01	-1.08195264610E-01
1.76500000000E+09	-1.07561900863E-01	-1.77198655244E-01	4.33931631919E-02	4.94942729396E-02	4.29118877010E-02	4.96224705695E-02	2.07138157118E-01	-1.14825712166E-01
1.76600000000E+09	-1.10885796144E-01	-1.74033864603E-01	4.53342528839E-02	4.76677332172E-02	4.49092773447E-02	4.78241237732E-02	1.97511915806E-01	-1.20721852446E-01
1.76700000000E+09	-1.13738914987E-01	-1.70430419652E-01	4.73079168326E-02	4.57161777274E-02	4.67876972169E-02	4.59918386981E-02	1.87394657160E-01	-1.26093808010E-01
1.76800000000E+09	-1.16201206211E-01	-1.66740820222E-01	4.91278574610E-02	4.37812392394E-02	4.87563869052E-02	4.40971466772E-02	1.77032568703E-01	-1.30716767543E-01
1.76900000000E+09	-1.18119124434E-01	-1.62609294763E-01	5.09384500774E-02	4.17787088694E-02	5.05246741025E-02	4.20696046541E-02	1.66382053205E-01	-1.34681889096E-01
1.77000000000E+09	-1.19576907743E-01	-1.58283327684E-01	5.26178203482E-02	3.96754493141E-02	5.21641839247E-02	3.99744148354E-02	1.55486903142E-01	-1.38093471940E-01
1.77100000000E+09	-1.20504428580E-01	-1.54089697237E-01	5.41512671175E-02	3.75842872242E-02	5.38521668288E-02	3.78212224670E-02	1.44317460288E-01	-1.40672641042E-01
1.77200000000E+09	-1.20766577159E-01	-1.49616052185E-01	5.57364546580E-02	3.53340480943E-02	5.53797257844E-02	3.56380754796E-02	1.33197922311E-01	-1.42533014616E-01
1.77300000000E+09	-1.20576800761E-01	-1.45227404256E-01	5.72795851331E-02	3.30188955004E-02	5.69104944224E-02	3.33500345925E-02	1.21800541264E-01	-1.43740760026E-01
1.77400000000E+09	-1.19690591091E-01	-1.40875104917E-01	5.86052304869E-02	3.07055318753E-02	5.82343757110E-02	3.10060044468E-02	1.10331349621E-01	-1.44168193703E-01
1.77500000000E+09	-1.18352852418E-01	-1.36740751806E-01	5.99144152491E-02	2.83567853825E-02	5.95401072935E-02	2.86311590748E-02	9.90205556385E-02	-1.43830678970E-01
1.77600000000E+09	-1.16460160423E-01	-1.32867053427E-01	6.11653670877E-02	2.58093761706E-02	6.08161527107E-02	2.62156845791E-02	8.75985310527E-02	-1.42811318276E-01
1.77700000000E+09	-1.14114208247E-01	-1.29329132154E-01	6.22606790046E-02	2.32626457080E-02	6.18745986798E-02	2.36806044337E-02	7.63109227304E-02	-1.40958780264E-01
1.77800000000E+09	-1.11304194053E-01	-1.26042827745E-01	6.32073942498E-02	2.06770361631E-02	6.29452336982E-02	2.11440417749E-02	6.52007184509E-02	-1.38515411656E-01
1.77900000000E+09	-1.08055565986E-01	-1.23291941991E-01	6.41631909989E-02	1.81589118659E-02	6.39351170029E-02	1.85568076861E-02	5.43150225012E-02	-1.35220883384E-01
1.78000000000E+09	-1.04616113958E-01	-1.20918492226E-01	6.49565830326E-02	1.54692617951E-02	6.46838864338E-02	1.58833036856E-02	4.35567318006E-02	-1.31224853197E-01
1.78100000000E+09	-1.00869613760E-01	-1.19102607692E-01	6.56589170998E-02	1.27183676783E-02	6.53805077558E-02	1.31294898224E-02	3.31696172534E-02	-1.26711987168E-01
1.78200000000E+09	-9.69194161245E-02	-1.17797448674E-01	6.62060931751E-02	9.87545106823E-03	6.59765767500E-02	1.03786336203E-02	2.31435108808E-02	-1.21414968460E-01
1.78300000000E+09	-9.29368167798E-02	-1.16973948275E-01	6.66078341148E-02	7.18757787688E-03	6.63439031252E-02	7.57258025131E-03	1.34029099288E-02	-1.15424339154E-01
1.78400000000E+09	-8.88344727372E-02	-1.16756838018E-01	6.69682303433E-02	4.33060300558E-03	6.68112567231E-02	4.79020532889E-03	4.08990502792E-03	-1.08961902091E-01
1.78500000000E+09	-8.47853207532E-02	-1.17020339937E-01	6.72164172238E-02	1.46855101961E-03	6.71108931450E-02	1.97222190288E-03	-4.71921555714E-03	-1.01783977126E-01
1.78600000000E+09	-8.08827977549E-02	-1.17715543035E-01	6.72873515452E-02	-1.36186730510E-03	6.71385132424E-02	-8.98560444150E-04	-1.30871922033E-02	-9.41449960066E-02
1.78700000000E+09	-7.71085808864E-02	-1.18936153322E-01	6.71573500944E-02	-4.31127967798E-03	6.70803890312E-02	-3.73390220157E-03	-2.08454134056E-02	-8.58318113608E-02
1.78800000000E+09	-7.35894042625E-02	-1.20626143957E-01	6.71095257118E-02	-7.10159657007E-03	6.70003021664E-02	-6.64286512621E-03	-2.80153818807E-02	-7.71091445361E-02
1.78900000000E+09	-7.02324313393E-02	-1.22683114378E-01	6.67727958694E-02	-1.00125936922E-02	6.66475840010E-02	-9.50726326763E-03	-3.47270958225E-02	-6.79475177591E-02
1.79000000000E+09	-6.71581015215E-02	-1.25184122417E-01	6.63138222518E-02	-1.29284668199E-02	6.63227784109E-02	-1.23790371006E-02	-4.08002737262E-02	-5.84454709052E-02
1.79100000000E+09	-6.44643015765E-02	-1.27898490520E-01	6.57438655281E-02	-1.56638759267E-02	6.57423135597E-02	-1.51968848314E-02	-4.61089903881E-02	-4.84870063378E-02
1.79200000000E+09	-6.20662639702E-02	-1.30875262777E-01	6.50254005733E-02	-1.85892751327E-02	6.50971907727E-02	-1.79804156850E-02	-5.07505312489E-02	-3.83417956051E-02
1.79300000000E+09	-6.00382716441E-02	-1.34140569213E-01	6.43088060122E-02	-2.13035805223E-02	6.43226373456E-02	-2.08760252100E-02	-5.46759032639E-02	-2.78319269473E-02
1.79400000000E+09	-5.83329198584E-02	-1.37512022963E-01	6.33707548550E-02	-2.40689697903E-02	6.34144490588E-02	-2.35536129534E-02	-5.80273948997E-02	-1.72557835035E-02
1.79500000000E+09	-5.70990593535E-02	-1.41079133803E-01	6.22576797821E-02	-2.67809171207E-02	6.23333253169E-02	-2.62567683387E-02	-6.05111094545E-02	-6.32759989425E-03
1.79600000000E+09	-5.61857952959E-02	-1.44704542833E-01	6.11101041184E-02	-2.94153330166E-02	6.11505907991E-02	-2.88757307882E-02	-6.23217320081E-02	4.69702750308E-03
1.79700000000E+09	-5.56182217887E-02	-1.48388734977E-01	5.98140869747E-02	-3.20331316098E-02	5.98743669244E-02	-3.15518716664E-02	-6.34566537977E-02	1.57157489777E-02
1.79800000000E+09	-5.55176569038E-02	-1.52144052711E-01	5.83596157853E-02	-3.46352654312E-02	5.85164062256E-02	-3.41314659986E-02	-6.37358289587E-02	2.68055668361E-02
1.79900000000E+09	-5.56705333694E-02	-1.55827515719E-01	5.68207897908E-02	-3.70763838298E-02	5.70041143932E-02	-3.65850848117E-02	-6.33351665400E-02	3.78998954209E-02
1.80000000000E+09	-5.62321469363E-02	-1.59521290269E-01	5.52274741875E-02	-3.94893782295E-02	5.53482345643E-02	-3.89750902348E-02	-6.22475103681E-02	4.87721416765E-02
1.80100000000E+09	-5.70944638516E-02	-1.63056867711E-01	5.34070972762E-02	-4.18906701494E-02	5.36388508867E-02	-4.14016364936E-02	-6.03636958383E-02	5.96357107854E-02
1.80200000000E+09	-5.82231818878E-02	-1.66513968428E-01	5.15941176128E-02	-4.41054425366E-02	5.18615717951E-02	-4.36160469542E-02	-5.78862785337E-02	7.03975842627E-02
1.80300000000E+09	-5.96908108466E-02	-1.69817338954E-01	4.96241402062E-02	-4.62880765516E-02	4.99315950910E-02	-4.57928564107E-02	-5.46532376761E-02	8.08149695957E-02
1.80400000000E+09	-6.14332895100E-02	-1.73070994422E-01	4.76232123069E-02	-4.83404933583E-02	4.78829178313E-02	-4.78585479075E-02	-5.06426353272E-02	9.09654959674E-02
1.80500000000E+09	-6.33696568780E-02	-1.76057682407E-01	4.54610572501E-02	-5.03512677456E-02	4.57459720679E-02	-4.99252951284E-02	-4.61420166678E-02	1.00768099095E-01
1.80600000000E+09	-6.55092153994E-02	-1.79017382097E-01	4.33398383676E-02	-5.22967372418E-02	4.35430511033E-02	-5.17655120861E-02	-4.09780283495E-02	1.10305857371E-01
1.80700000000E+09	-6.79855221940E-02	-1.81662915999E-01	4.09734093903E-02	-5.40471866590E-02	4.12390911648E-02	-5.35918110612E-02	-3.51994985628E-02	1.19382117285E-01
1.80800000000E+09	-7.05551676390E-02	-1.84198588707E-01	3.86269370326E-02	-5.57195262266E-02	3.88902690682E-02	-5.52968129976E-02	-2.87683989838E-02	1.28179123451E-01
1.80900000000E+09	-7.32751185459E-02	-1.86441337646E-01	3.61072734011E-02	-5.72072958699E-02	3.65106493002E-02	-5.69309842593E-02	-2.18965092428E-02	1.36237286344E-01
1.81000000000E+09	-7.63020703271E-02	-1.88608695088E-01	3.36979265844E-02	-5.88207489755E-02	3.40273881770E-02	-5.83742647250E-02	-1.45980566243E-02	1.44027673949E-01
1.81100000000E+09	-7.93947223871E-02	-1.90571513936E-01	3.10438810720E-02	-6.00852266237E-02	3.15051913721E-02	-5.97044272648E-02	-6.70425467672E-03	1.51239730634E-01
1.81200000000E+09	-8.26685568587E-02	-1.92155794635E-01	2.84268137245E-02	-6.12972622334E-02	2.88344806173E-02	-6.09472159239E-02	1.65503580699E-03	1.57796487915E-01
1.81300000000E+09	-8.60272915271E-02	-1.93734390675E-01	2.58175939723E-02	-6.24754009989E-02	2.62180927493E-02	-6.20898872138E-02	1.03115867723E-02	1.63830342562E-01
1.81400000000E+09	-8.94048405143E-02	-1.94987181514E-01	2.30734786458E-02	-6.34522448123E-02	2.35366359565E-02	-6.31737007078E-02	1.91861302744E-02	1.69385241024E-01
1.81500000000E+09	-9.30691676322E-02	-1.96012211747E-01	2.02885149157E-02	-6.43310266509E-02	2.07583326819E-02	-6.40730626223E-02	2.85580943844E-02	1.74241336416E-01
1.81600000000E+09	-9.66544186534E-02	-1.96849063222E-01	1.75280434094E-02	-6.51569292784E-02	1.80550376337E-02	-6.48249218541E-02	3.81943178404E-02	1.78387774843E-01
1.81700000000E+09	-1.00397611913E-01	-1.97463635906E-01	1.47754936191E-02	-6.57246131036E-02	1.52535651203E-02	-6.54451497059E-02	4.79265772434E-02	1.82039424047E-01
