# Hz S RI R 50
! CMT, CMT808U, 21440046, 21.4.3/4
! Date: 12/11/2025 11:09:02 AM
! Data: Format (Calibration Info)
! Freq	S11:Re/Im(F2)	S41:Re/Im(F2)	S14:Re/Im(F2)	S44:Re/Im(F2)
1.70000000000E+09	-2.00500124735E-01	-1.13298624158E-01	-6.12195284785E-02	-2.66198043808E-02	-6.08595343657E-02	-2.72615058788E-02	-7.40101880440E-02	6.96606760777E-02
1.70167224080E+09	-2.02029415570E-01	-1.05187185017E-01	-6.29570115338E-02	-2.23324092321E-02	-6.26549396078E-02	-2.30034860239E-02	-7.11889866809E-02	8.84793734227E-02
1.70334448161E+09	-2.02062778956E-01	-9.67134048738E-02	-6.44134609137E-02	-1.79317180330E-02	-6.41687320823E-02	-1.86235410865E-02	-6.63142730585E-02	1.06856848984E-01
1.70501672241E+09	-2.00573970147E-01	-8.81027922727E-02	-6.55864698847E-02	-1.34355597797E-02	-6.53899496626E-02	-1.41299396924E-02	-5.94744491930E-02	1.24523215446E-01
1.70668896321E+09	-1.97612332130E-01	-7.96516466357E-02	-6.64470380715E-02	-8.84599370595E-03	-6.63106485291E-02	-9.53781612299E-03	-5.08159796635E-02	1.41335624022E-01
1.70836120401E+09	-1.93245950816E-01	-7.15822345485E-02	-6.70094788377E-02	-4.17689674967E-03	-6.69123822385E-02	-4.88336350228E-03	-4.04207852138E-02	1.57075531543E-01
1.71003344482E+09	-1.87564427288E-01	-6.41542546665E-02	-6.72376833550E-02	5.36658302266E-04	-6.71943787751E-02	-1.60848500517E-04	-2.84466925432E-02	1.71570995594E-01
1.71170568562E+09	-1.80734075657E-01	-5.75347612096E-02	-6.71382683423E-02	5.28095398682E-03	-6.71387910388E-02	4.56757808292E-03	-1.50543677650E-02	1.84684605762E-01
1.71337792642E+09	-1.72908063347E-01	-5.18994612416E-02	-6.66856158761E-02	1.00230217586E-02	-6.67680532417E-02	9.32137700841E-03	-4.49790389437E-04	1.96272061337E-01
1.71505016722E+09	-1.64295191861E-01	-4.73732025232E-02	-6.59185558124E-02	1.47382610099E-02	-6.60327861253E-02	1.40516582281E-02	1.52403033631E-02	2.06227800941E-01
1.71672240803E+09	-1.55028534272E-01	-4.40412970031E-02	-6.47911720196E-02	1.94025274685E-02	-6.49542682355E-02	1.87224766208E-02	3.18280951971E-02	2.14470457503E-01
1.71839464883E+09	-1.45372542630E-01	-4.19846162358E-02	-6.33193982866E-02	2.39835205845E-02	-6.35317668319E-02	2.33274300002E-02	4.90604756290E-02	2.20928043262E-01
1.72006688963E+09	-1.35500253610E-01	-4.12246202035E-02	-6.15236591185E-02	2.84747009639E-02	-6.17808832233E-02	2.78271818820E-02	6.68112261953E-02	2.25586764215E-01
1.72173913043E+09	-1.25619008490E-01	-4.17583581227E-02	-5.93949830537E-02	3.28251668189E-02	-5.97000828276E-02	3.21831186756E-02	8.48402150012E-02	2.28373411559E-01
1.72341137124E+09	-1.15891394225E-01	-4.35835746412E-02	-5.69585104751E-02	3.70032347243E-02	-5.72913844561E-02	3.64030350933E-02	1.02967321767E-01	2.29327336880E-01
1.72508361204E+09	-1.06525078427E-01	-4.65929592309E-02	-5.42027386323E-02	4.10107965418E-02	-5.45886123136E-02	4.04386129933E-02	1.21003820521E-01	2.28434863169E-01
1.72675585284E+09	-9.76881716906E-02	-5.07732821483E-02	-5.11680775217E-02	4.48189346643E-02	-5.15847826891E-02	4.42632040577E-02	1.38744315899E-01	2.25752082953E-01
1.72842809365E+09	-8.95336303220E-02	-5.59764239941E-02	-4.78561529993E-02	4.83722470299E-02	-4.83097042205E-02	4.78586682775E-02	1.56064812583E-01	2.21280708990E-01
1.73010033445E+09	-8.21621259755E-02	-6.21428245936E-02	-4.42873807450E-02	5.16845884334E-02	-4.47685249325E-02	5.12001982780E-02	1.72739057234E-01	2.15158036485E-01
1.73177257525E+09	-7.57318046959E-02	-6.90954981182E-02	-4.04892193562E-02	5.47350541123E-02	-4.10027462295E-02	5.42699280341E-02	1.88638109443E-01	2.07401165297E-01
1.73344481605E+09	-7.03073978922E-02	-7.67183800836E-02	-3.64715678642E-02	5.74812708646E-02	-3.70191196139E-02	5.70703034336E-02	2.03579257676E-01	1.98137047062E-01
1.73511705686E+09	-6.59859076682E-02	-8.48474588329E-02	-3.22757754070E-02	5.99318060125E-02	-3.28422212160E-02	5.95573471062E-02	2.17450460608E-01	1.87466542187E-01
1.73678929766E+09	-6.27992512832E-02	-9.33438646599E-02	-2.79058290217E-02	6.20640750365E-02	-2.84980329059E-02	6.17405691129E-02	2.30109331726E-01	1.75501118119E-01
1.73846153846E+09	-6.07875234965E-02	-1.02026229416E-01	-2.33940279588E-02	6.38781020960E-02	-2.40008724855E-02	6.35662381545E-02	2.41420215663E-01	1.62387016865E-01
1.74013377926E+09	-5.99487708363E-02	-1.10764859321E-01	-1.87766347011E-02	6.53361236477E-02	-1.94028472322E-02	6.50822887255E-02	2.51301846548E-01	1.48255305617E-01
1.74180602007E+09	-6.02827002636E-02	-1.19382619712E-01	-1.40688746405E-02	6.64681694281E-02	-1.47180631434E-02	6.62554066860E-02	2.59670886205E-01	1.33251467304E-01
1.74347826087E+09	-6.17796115167E-02	-1.27748622175E-01	-9.30900885065E-03	6.72363534828E-02	-9.96623010274E-03	6.70508507106E-02	2.66393308371E-01	1.17545175107E-01
1.74515050167E+09	-6.43630427231E-02	-1.35707638740E-01	-4.51298328054E-03	6.76597204795E-02	-5.18273345318E-03	6.75308298770E-02	2.71483791385E-01	1.01276706788E-01
1.74682274247E+09	-6.80125590918E-02	-1.43134902064E-01	2.74750809462E-04	6.77363041171E-02	-3.95668899928E-04	6.76474006400E-02	2.74821603118E-01	8.46511004133E-02
1.74849498328E+09	-7.26506167768E-02	-1.49868817444E-01	5.04152191832E-03	6.74671584098E-02	4.36366056170E-03	6.74210107555E-02	2.76441437075E-01	6.78130243181E-02
1.75016722408E+09	-7.81725960828E-02	-1.55792514077E-01	9.76009462494E-03	6.68524632471E-02	9.07916607658E-03	6.68541061612E-02	2.76263499041E-01	5.09439443824E-02
1.75183946488E+09	-8.44994692600E-02	-1.60753966580E-01	1.43909578599E-02	6.59179057786E-02	1.37209955354E-02	6.59630453615E-02	2.74346671535E-01	3.42323136552E-02
1.75351170569E+09	-9.14888217617E-02	-1.64676246600E-01	1.89268058670E-02	6.46665192106E-02	1.82568467131E-02	6.47422695352E-02	2.70643930469E-01	1.78577841086E-02
1.75518394649E+09	-9.90013187357E-02	-1.67413543800E-01	2.33390123519E-02	6.31028340260E-02	2.26663917296E-02	6.32346655561E-02	2.65276759229E-01	2.01401583230E-03
1.75685618729E+09	-1.06860758023E-01	-1.68914645215E-01	2.75946755200E-02	6.12617188839E-02	2.69351415496E-02	6.14337563628E-02	2.58242939053E-01	-1.31313949627E-02
1.75852842809E+09	-1.14915002770E-01	-1.69073336421E-01	3.16991116500E-02	5.91459364448E-02	3.10528363935E-02	5.93452414435E-02	2.49641203943E-01	-2.74146247517E-02
1.76020066890E+09	-1.22924411104E-01	-1.67864902295E-01	3.56337089091E-02	5.67789964806E-02	3.49933103965E-02	5.70395873729E-02	2.39569336089E-01	-4.06571999879E-02
1.76187290970E+09	-1.30687643889E-01	-1.65273325204E-01	3.93931356897E-02	5.41790639643E-02	3.87442915830E-02	5.44794116796E-02	2.28131456464E-01	-5.27175800947E-02
1.76354515050E+09	-1.37979154021E-01	-1.61307044053E-01	4.29313125522E-02	5.13691468907E-02	4.23330807010E-02	5.17040293247E-02	2.15488215089E-01	-6.34118117777E-02
1.76521739130E+09	-1.44515484485E-01	-1.56057777221E-01	4.63062385315E-02	4.83717208403E-02	4.57045069418E-02	4.87448083889E-02	2.01741375951E-01	-7.26587993269E-02
1.76688963211E+09	-1.50060674746E-01	-1.49631882952E-01	4.94753185800E-02	4.51712466991E-02	4.88992329128E-02	4.55785416643E-02	1.87101931120E-01	-8.03106458638E-02
1.76856187291E+09	-1.54429059481E-01	-1.42189146729E-01	5.24662645365E-02	4.17960067036E-02	5.18943741418E-02	4.22511383888E-02	1.71743548429E-01	-8.62621588416E-02
1.77023411371E+09	-1.57455874212E-01	-1.33993532362E-01	5.52426123821E-02	3.82452957007E-02	5.47082860569E-02	3.87426513887E-02	1.55850266588E-01	-9.04892218384E-02
1.77190635452E+09	-1.58940429973E-01	-1.25263692261E-01	5.78369514749E-02	3.45266868219E-02	5.73220752369E-02	3.50616941037E-02	1.39626667484E-01	-9.28764765662E-02
1.77357859532E+09	-1.58818483084E-01	-1.16299693957E-01	6.02233114233E-02	3.06396057603E-02	5.97426020724E-02	3.12145508168E-02	1.23302811742E-01	-9.34318109816E-02
1.77525083612E+09	-1.57048638483E-01	-1.07406121289E-01	6.23970211414E-02	2.65650875018E-02	6.19540322452E-02	2.71681983934E-02	1.07064443139E-01	-9.21384297907E-02
1.77692307692E+09	-1.53642183820E-01	-9.89174838937E-02	6.43421426752E-02	2.23078946651E-02	6.39433524191E-02	2.29519320954E-02	9.11432090971E-02	-8.90297388907E-02
1.77859531773E+09	-1.48735380496E-01	-9.11428080477E-02	6.60333633602E-02	1.78807145566E-02	6.56673331356E-02	1.85656555372E-02	7.57456619690E-02	-8.41526651642E-02
1.78026755853E+09	-1.42458496701E-01	-8.43685603122E-02	6.74421674480E-02	1.32596440106E-02	6.71306275651E-02	1.39929874485E-02	6.10615409686E-02	-7.75985184752E-02
1.78193979933E+09	-1.35070564547E-01	-7.88225602867E-02	6.85460458528E-02	8.48123922566E-03	6.82814695995E-02	9.23643584094E-03	4.72980032353E-02	-6.94418626924E-02
1.78361204013E+09	-1.26798219980E-01	-7.47181175193E-02	6.92986532990E-02	3.55262588607E-03	6.91007277062E-02	4.35005978913E-03	3.46114413363E-02	-5.98202966043E-02
1.78528428094E+09	-1.17960211657E-01	-7.21758623617E-02	6.96681735362E-02	-1.47716077978E-03	6.95332023126E-02	-6.68440659213E-04	2.31743403316E-02	-4.88356196923E-02
1.78695652174E+09	-1.08871836994E-01	-7.12592960378E-02	6.96560516541E-02	-6.60078951553E-03	6.95817508204E-02	-5.76806172607E-03	1.31230485041E-02	-3.66890696573E-02
1.78862876254E+09	-9.98490951957E-02	-7.19773584595E-02	6.92132392642E-02	-1.17592580746E-02	6.92081115466E-02	-1.09244402346E-02	4.60047208458E-03	-2.35446723302E-02
1.79030100334E+09	-9.11955229814E-02	-7.42452317610E-02	6.83577807279E-02	-1.69099447334E-02	6.84122881240E-02	-1.60775453621E-02	-2.33269439877E-03	-9.55771203246E-03
1.79197324415E+09	-8.31783497767E-02	-7.79351243990E-02	6.70576461240E-02	-2.20030720363E-02	6.71848678682E-02	-2.11711744331E-02	-7.55627541557E-03	5.04963065034E-03
1.79364548495E+09	-7.59952773229E-02	-8.28955158689E-02	6.53269048642E-02	-2.70035980561E-02	6.55300372659E-02	-2.61722073560E-02	-1.10164303921E-02	2.00875334420E-02
1.79531772575E+09	-6.98753768406E-02	-8.89082347317E-02	6.31802897128E-02	-3.18430250127E-02	6.34509347776E-02	-3.10350777575E-02	-1.26928189848E-02	3.53509392032E-02
1.79698996656E+09	-6.49257943684E-02	-9.57783897754E-02	6.06313316046E-02	-3.64978729439E-02	6.09738913710E-02	-3.57067002676E-02	-1.25840716122E-02	5.06466851218E-02
1.79866220736E+09	-6.12491504172E-02	-1.03280527758E-01	5.77113012530E-02	-4.09225866780E-02	5.81251540722E-02	-4.01672730663E-02	-1.07044191547E-02	6.57183686406E-02
1.80033444816E+09	-5.89025886160E-02	-1.11166046088E-01	5.44468147039E-02	-4.50667735065E-02	5.49181525912E-02	-4.43528640017E-02	-7.08159275864E-03	8.04127202842E-02
1.80200668896E+09	-5.78795236753E-02	-1.19228838897E-01	5.08663164147E-02	-4.89358098683E-02	5.13889892297E-02	-4.82598236469E-02	-1.79543999195E-03	9.45323167994E-02
1.80367892977E+09	-5.81562001549E-02	-1.27252403531E-01	4.69991244257E-02	-5.24631966820E-02	4.75820940142E-02	-5.18512976268E-02	5.06654720798E-03	1.07872240402E-01
1.80535117057E+09	-5.96640890810E-02	-1.35033066338E-01	4.28862721975E-02	-5.56732506359E-02	4.35204738744E-02	-5.50999416863E-02	1.34389443847E-02	1.20275133790E-01
1.80702341137E+09	-6.23605673985E-02	-1.42424847391E-01	3.85718834931E-02	-5.85042171084E-02	3.92458936919E-02	-5.80050273919E-02	2.31543702994E-02	1.31572590366E-01
1.80869565217E+09	-6.61266895270E-02	-1.49267648452E-01	3.40742786548E-02	-6.09910954364E-02	3.47647938308E-02	-6.05424583354E-02	3.40734146732E-02	1.41645068238E-01
1.81036789298E+09	-7.08593527749E-02	-1.55453420946E-01	2.94320454833E-02	-6.30916915091E-02	3.01601768795E-02	-6.27121776291E-02	4.60988886702E-02	1.50392989040E-01
1.81204013378E+09	-7.64174998370E-02	-1.60832946712E-01	2.46916917933E-02	-6.48128314894E-02	2.54311942113E-02	-6.45030030536E-02	5.90049074142E-02	1.57652477206E-01
1.81371237458E+09	-8.27173328046E-02	-1.65325142345E-01	1.98770425251E-02	-6.61660711384E-02	2.06324740168E-02	-6.59100441495E-02	7.26354381430E-02	1.63373391499E-01
1.81538461538E+09	-8.95854818841E-02	-1.68837551287E-01	1.50274063626E-02	-6.71347601791E-02	1.57871333917E-02	-6.69483430839E-02	8.68250607595E-02	1.67506045468E-01
1.81705685619E+09	-9.68728710593E-02	-1.71351407894E-01	1.01640239572E-02	-6.77455788026E-02	1.09303250499E-02	-6.76100258128E-02	1.01397206750E-01	1.70009786433E-01
1.81872909699E+09	-1.04442316359E-01	-1.72798493946E-01	5.32632809815E-03	-6.79902104954E-02	6.08723561536E-03	-6.79292040175E-02	1.16146779330E-01	1.70851649665E-01
1.82040133779E+09	-1.12153126950E-01	-1.73200985586E-01	5.33416662614E-04	-6.78997011810E-02	1.29203758632E-03	-6.78768964094E-02	1.30901965494E-01	1.70029206529E-01
1.82207357860E+09	-1.19904904462E-01	-1.72532532992E-01	-4.18135504469E-03	-6.74641572031E-02	-3.44306557031E-03	-6.75099323565E-02	1.45479853321E-01	1.67592725266E-01
1.82374581940E+09	-1.27484077293E-01	-1.70821945221E-01	-8.81498249310E-03	-6.67216118074E-02	-8.08845053686E-03	-6.68080033199E-02	1.59754994684E-01	1.63523491377E-01
1.82541806020E+09	-1.34818207789E-01	-1.68106659556E-01	-1.33132763149E-02	-6.56588830622E-02	-1.26161914803E-02	-6.57960719113E-02	1.73456311614E-01	1.57933912258E-01
1.82709030100E+09	-1.41786479431E-01	-1.64404433464E-01	-1.77098882890E-02	-6.43361675485E-02	-1.70212990120E-02	-6.45089522549E-02	1.86542293109E-01	1.50841564040E-01
1.82876254181E+09	-1.48224342521E-01	-1.59785338353E-01	-2.19346300723E-02	-6.27289618834E-02	-2.12792735221E-02	-6.29396272918E-02	1.98772315973E-01	1.42386734815E-01
1.83043478261E+09	-1.54074676045E-01	-1.54279399801E-01	-2.60196422032E-02	-6.08667340898E-02	-2.53796564174E-02	-6.11231017362E-02	2.10051287654E-01	1.32635213105E-01
1.83210702341E+09	-1.59144528837E-01	-1.48004735982E-01	-2.99336303895E-02	-5.87685654740E-02	-2.93202214218E-02	-5.90654985621E-02	2.20247764074E-01	1.21724537714E-01
1.83377926421E+09	-1.63390306915E-01	-1.41025498046E-01	-3.36676367698E-02	-5.64666349713E-02	-3.30760469319E-02	-5.67946735177E-02	2.29232961193E-01	1.09752594602E-01
1.83545150502E+09	-1.66670762746E-01	-1.33470363450E-01	-3.72195786694E-02	-5.39754679404E-02	-3.66539575460E-02	-5.43224307746E-02	2.36906997266E-01	9.68829966997E-02
1.83712374582E+09	-1.68899114781E-01	-1.25427163510E-01	-4.05808393521E-02	-5.12794443897E-02	-4.00434378836E-02	-5.16639360594E-02	2.43197837534E-01	8.32194568198E-02
1.83879598662E+09	-1.69994261109E-01	-1.17064400154E-01	-4.37827854258E-02	-4.84314488899E-02	-4.32546348352E-02	-4.88417841915E-02	2.48032470945E-01	6.89557032763E-02
1.84046822742E+09	-1.69878386489E-01	-1.08535894493E-01	-4.67829369962E-02	-4.54110879904E-02	-4.62819530769E-02	-4.58589679041E-02	2.51359950299E-01	5.42504142740E-02
1.84214046823E+09	-1.68507879090E-01	-1.00060490131E-01	-4.95967479776E-02	-4.22598298961E-02	-4.91354378371E-02	-4.27265827857E-02	2.53106283143E-01	3.92464428032E-02
1.84381270903E+09	-1.65843625701E-01	-9.17982539265E-02	-5.22505356230E-02	-3.89536032624E-02	-5.18080855823E-02	-3.94504992514E-02	2.53293933560E-01	2.41291485817E-02
1.84548494983E+09	-1.61965490458E-01	-8.39788927986E-02	-5.47136346361E-02	-3.55101683698E-02	-5.42964024141E-02	-3.60339099518E-02	2.51859291182E-01	9.04174997638E-03
1.84715719064E+09	-1.56864412165E-01	-7.68010822896E-02	-5.70003685216E-02	-3.19311687930E-02	-5.66185024352E-02	-3.24735513417E-02	2.48893999085E-01	-5.82426891349E-03
1.84882943144E+09	-1.50645523217E-01	-7.05055358543E-02	-5.91058312388E-02	-2.81933496265E-02	-5.87554865857E-02	-2.87678980984E-02	2.44363649772E-01	-2.03262198071E-02
1.85050167224E+09	-1.43467239942E-01	-6.53028808287E-02	-6.10261100912E-02	-2.43203517960E-02	-6.06984681869E-02	-2.49250164332E-02	2.38364894459E-01	-3.42677789418E-02
1.85217391304E+09	-1.35516535794E-01	-6.13773321734E-02	-6.27418466111E-02	-2.02957631448E-02	-6.24561545649E-02	-2.09188556075E-02	2.30902088590E-01	-4.75557779302E-02
1.85384615385E+09	-1.27033504075E-01	-5.88755624435E-02	-6.42347760538E-02	-1.61032837673E-02	-6.39828751445E-02	-1.67534331031E-02	2.22092120427E-01	-5.99781665021E-02
1.85551839465E+09	-1.18285735124E-01	-5.79108218794E-02	-6.54858414073E-02	-1.17553973741E-02	-6.52765118500E-02	-1.24319959014E-02	2.12011926123E-01	-7.14227976088E-02
1.85719063545E+09	-1.09606882059E-01	-5.85115147504E-02	-6.64735213373E-02	-7.25436685520E-03	-6.63011272638E-02	-7.96064464725E-03	2.00767578514E-01	-8.17553514375E-02
1.85886287625E+09	-1.01258553223E-01	-6.06455001220E-02	-6.71410018439E-02	-2.63113597148E-03	-6.70178241733E-02	-3.33743486279E-03	1.88466623997E-01	-9.08834233571E-02
1.86053511706E+09	-9.35580182694E-02	-6.42244888706E-02	-6.74884848825E-02	2.13112590458E-03	-6.73997568077E-02	1.39822888370E-03	1.75257231833E-01	-9.86379817809E-02
1.86220735786E+09	-8.67791252300E-02	-6.91180143568E-02	-6.74687054758E-02	6.98562467452E-03	-6.74336635649E-02	6.23085606215E-03	1.61263284396E-01	-1.04991976170E-01
1.86387959866E+09	-8.11469768504E-02	-7.50758695952E-02	-6.70532021605E-02	1.18737959661E-02	-6.70759056666E-02	1.11135532019E-02	1.46657710393E-01	-1.09819874792E-01
1.86555183946E+09	-7.68375857161E-02	-8.18652667295E-02	-6.62544832262E-02	1.67712573259E-02	-6.63300582155E-02	1.59981999719E-02	1.31575720179E-01	-1.13080316863E-01
1.86722408027E+09	-7.39950776718E-02	-8.92051768465E-02	-6.50324072400E-02	2.16404482341E-02	-6.51695196344E-02	2.08691560578E-02	1.16186107709E-01	-1.14668699632E-01
1.86889632107E+09	-7.26618289911E-02	-9.67934547527E-02	-6.34138295808E-02	2.64104850421E-02	-6.36104230362E-02	2.56534817141E-02	1.00676527676E-01	-1.14602834884E-01
1.87056856187E+09	-7.28239257029E-02	-1.04313359218E-01	-6.14016957563E-02	3.10680252960E-02	-6.16601689567E-02	3.03117673766E-02	8.52110730748E-02	-1.12854156510E-01
1.87224080268E+09	-7.44196912738E-02	-1.11502940895E-01	-5.89961024934E-02	3.55515792193E-02	-5.93228801055E-02	3.48168574270E-02	7.00020823132E-02	-1.09420998980E-01
1.87391304348E+09	-7.73168261757E-02	-1.18133009947E-01	-5.62364659082E-02	3.98294033340E-02	-5.66165542512E-02	3.91208513052E-02	5.51960007792E-02	-1.04347615456E-01
1.87558528428E+09	-8.13944743628E-02	-1.23977518927E-01	-5.31368399248E-02	4.38661066016E-02	-5.35786466060E-02	4.31775355347E-02	4.10037813217E-02	-9.76690966533E-02
1.87725752508E+09	-8.64302005195E-02	-1.28849126692E-01	-4.97257296096E-02	4.76273761239E-02	-5.02238997144E-02	4.69792825060E-02	2.76095743311E-02	-8.94531058409E-02
1.87892976589E+09	-9.22452461950E-02	-1.32640439427E-01	-4.60471994330E-02	5.10918352909E-02	-4.65833038690E-02	5.04832286423E-02	1.51604393481E-02	-7.97826228652E-02
1.88060200669E+09	-9.86043497578E-02	-1.35237148594E-01	-4.21128880011E-02	5.42528218865E-02	-4.27156220453E-02	5.36762105717E-02	3.82619049018E-03	-6.88100171052E-02
1.88227424749E+09	-1.05310828808E-01	-1.36648006060E-01	-3.79634903532E-02	5.70800571898E-02	-3.86018082172E-02	5.65417465665E-02	-6.28427215042E-03	-5.66484846344E-02
1.88394648829E+09	-1.12153214215E-01	-1.36825147435E-01	-3.36321744004E-02	5.95491308584E-02	-3.43145317317E-02	5.90824833031E-02	-1.49902980420E-02	-4.34476477378E-02
1.88561872910E+09	-1.18957849855E-01	-1.35796241738E-01	-2.91615226520E-02	6.16871514660E-02	-2.98641524655E-02	6.12591690707E-02	-2.22247035592E-02	-2.93505132505E-02
1.88729096990E+09	-1.25520460706E-01	-1.33618885892E-01	-2.45600740056E-02	6.34578194406E-02	-2.52941004538E-02	6.30934904665E-02	-2.78803362978E-02	-1.45834216524E-02
1.88896321070E+09	-1.31714010683E-01	-1.30360663299E-01	-1.98587182507E-02	6.48690534346E-02	-2.06298369773E-02	6.45539753560E-02	-3.19261327026E-02	7.27383387569E-04
1.89063545151E+09	-1.37334123275E-01	-1.26072736340E-01	-1.51196893121E-02	6.59114999052E-02	-1.59069033092E-02	6.56586823545E-02	-3.42732683444E-02	1.63554543036E-02
1.89230769231E+09	-1.42300201157E-01	-1.20891892469E-01	-1.03337958649E-02	6.65893384627E-02	-1.11461985364E-02	6.63938499430E-02	-3.49323091159E-02	3.21436569295E-02
1.89397993311E+09	-1.46455308948E-01	-1.14939560899E-01	-5.56393096168E-03	6.69136662865E-02	-6.38480656752E-03	6.67827603450E-02	-3.39208204627E-02	4.78482453567E-02
1.89565217391E+09	-1.49726415385E-01	-1.08358700076E-01	-8.20363808039E-04	6.68952134149E-02	-1.65045066543E-03	6.68142808937E-02	-3.12394772340E-02	6.33328225377E-02
