# Hz S RI R 50
! CMT, CMT808U, 21440046, 21.4.3/4
! Date: 12/11/2025 6:04:37 PM
! Data: Format (Calibration Info)
! Freq	S11:Re/Im(F2)	S41:Re/Im(F2)	S14:Re/Im(F2)	S44:Re/Im(F2)
1.70000000000E+09	-1.51988247884E-01	-8.70990818164E-02	-5.94419111043E-02	-3.08161593115E-02	-5.90543236476E-02	-3.11244582131E-02	-1.25314138609E-01	4.50485876344E-02
1.70100000000E+09	-1.51050430789E-01	-8.21113831698E-02	-6.06640267303E-02	-2.83214324880E-02	-6.03754271107E-02	-2.86440593986E-02	-1.24852289740E-01	5.60589754238E-02
1.70200000000E+09	-1.49342127302E-01	-7.72477824192E-02	-6.18957581713E-02	-2.58620037076E-02	-6.16221115193E-02	-2.61340694686E-02	-1.23819550365E-01	6.70168627826E-02
1.70300000000E+09	-1.47197391764E-01	-7.25115378144E-02	-6.29502816990E-02	-2.32552469875E-02	-6.27534792452E-02	-2.37227850015E-02	-1.21872774773E-01	7.77856666122E-02
1.70400000000E+09	-1.44450884852E-01	-6.78899759137E-02	-6.40347455584E-02	-2.05890905558E-02	-6.37297176313E-02	-2.10537857900E-02	-1.19294010996E-01	8.84145302670E-02
1.70500000000E+09	-1.41096390987E-01	-6.35463103298E-02	-6.49258135215E-02	-1.79906930495E-02	-6.46995849678E-02	-1.83619640065E-02	-1.15987342438E-01	9.88623094472E-02
1.70600000000E+09	-1.37267671628E-01	-5.95835852272E-02	-6.57040426512E-02	-1.53043012483E-02	-6.54798624431E-02	-1.56929999459E-02	-1.12109533171E-01	1.08980528328E-01
1.70700000000E+09	-1.33004308249E-01	-5.59058621306E-02	-6.64321610337E-02	-1.25343154891E-02	-6.62618231105E-02	-1.29104942198E-02	-1.07477729421E-01	1.18971299179E-01
1.70800000000E+09	-1.28355546927E-01	-5.26507326822E-02	-6.69719826963E-02	-9.75415293825E-03	-6.68105203685E-02	-1.01410083364E-02	-1.02310836067E-01	1.28538492306E-01
1.70900000000E+09	-1.23407111587E-01	-4.97810646344E-02	-6.74004472097E-02	-6.80706188062E-03	-6.73102016737E-02	-7.27333955700E-03	-9.65196473390E-02	1.37738062051E-01
1.71000000000E+09	-1.18098074177E-01	-4.74193513198E-02	-6.78849196604E-02	-3.97432707646E-03	-6.76405254437E-02	-4.42243699335E-03	-9.01606589827E-02	1.46537319197E-01
1.71100000000E+09	-1.12613806748E-01	-4.55577586383E-02	-6.80533536985E-02	-1.05873143111E-03	-6.79093455351E-02	-1.53934375276E-03	-8.32940735570E-02	1.54858092663E-01
1.71200000000E+09	-1.06939771744E-01	-4.41033622467E-02	-6.81516724194E-02	1.89138164617E-03	-6.81345727338E-02	1.35310455268E-03	-7.58691763599E-02	1.62815409920E-01
1.71300000000E+09	-1.01102079926E-01	-4.32379619874E-02	-6.80313915094E-02	4.70020506863E-03	-6.79953039874E-02	4.34330674924E-03	-6.80391855237E-02	1.70185299996E-01
1.71400000000E+09	-9.52960577909E-02	-4.27825524372E-02	-6.79029494939E-02	7.78156124428E-03	-6.78834134010E-02	7.20813255695E-03	-5.98283936084E-02	1.77056592222E-01
1.71500000000E+09	-8.93233891980E-02	-4.28300830667E-02	-6.76152455387E-02	1.06862328275E-02	-6.75089523673E-02	1.02247773428E-02	-5.10308353876E-02	1.83398093356E-01
1.71600000000E+09	-8.34680972395E-02	-4.33233327631E-02	-6.71578973704E-02	1.36237879291E-02	-6.71048778086E-02	1.31238193975E-02	-4.19602880465E-02	1.89149865275E-01
1.71700000000E+09	-7.75798656852E-02	-4.43262307926E-02	-6.65911345368E-02	1.65234242980E-02	-6.65298347117E-02	1.60755861467E-02	-3.24939362702E-02	1.94405672436E-01
1.71800000000E+09	-7.18455024439E-02	-4.56402002427E-02	-6.58479591175E-02	1.93831741095E-02	-6.58099869565E-02	1.89260105428E-02	-2.29175504289E-02	1.98857006459E-01
1.71900000000E+09	-6.63126176844E-02	-4.74992452756E-02	-6.50006895039E-02	2.22661901218E-02	-6.49843091847E-02	2.18228891504E-02	-1.29280997091E-02	2.02950261760E-01
1.72000000000E+09	-6.08495575685E-02	-4.97718438496E-02	-6.40340709579E-02	2.50256635148E-02	-6.40051693991E-02	2.45925205183E-02	-2.77783660049E-03	2.06225699111E-01
1.72100000000E+09	-5.56552691001E-02	-5.22628279547E-02	-6.28444633664E-02	2.78692588013E-02	-6.29174284924E-02	2.74478259894E-02	7.65490995243E-03	2.08842599964E-01
1.72200000000E+09	-5.06184615177E-02	-5.52187430415E-02	-6.16409989124E-02	3.06427571871E-02	-6.16706316290E-02	3.00877543075E-02	1.80783526300E-02	2.10974392675E-01
1.72300000000E+09	-4.57750385888E-02	-5.84461708669E-02	-6.02626852143E-02	3.32900726003E-02	-6.03358850170E-02	3.27933286974E-02	2.85949131960E-02	2.12434395122E-01
1.72400000000E+09	-4.13195156371E-02	-6.19396637118E-02	-5.87710181031E-02	3.58640862878E-02	-5.88533075282E-02	3.53907346058E-02	3.92354602173E-02	2.13153910959E-01
1.72500000000E+09	-3.70190404620E-02	-6.58030563698E-02	-5.71441855266E-02	3.83736509044E-02	-5.73546964698E-02	3.79207195984E-02	4.98507923872E-02	2.13184204906E-01
1.72600000000E+09	-3.30340061797E-02	-6.98087932842E-02	-5.54413906691E-02	4.09002722842E-02	-5.55592454033E-02	4.03860744917E-02	6.03719363367E-02	2.12526914733E-01
1.72700000000E+09	-2.92462078445E-02	-7.40400819873E-02	-5.35733502725E-02	4.32556349446E-02	-5.37353712084E-02	4.27712171525E-02	7.09663462695E-02	2.11368615749E-01
1.72800000000E+09	-2.58671062004E-02	-7.85618705997E-02	-5.16139945637E-02	4.55644572546E-02	-5.18172415033E-02	4.50791790769E-02	8.13423183110E-02	2.09472385226E-01
1.72900000000E+09	-2.27986095303E-02	-8.32006429532E-02	-4.95519196687E-02	4.77387322768E-02	-4.98917146984E-02	4.72910173568E-02	9.16647620671E-02	2.07023716708E-01
1.73000000000E+09	-1.99602966513E-02	-8.80541640376E-02	-4.74909436003E-02	4.98805268690E-02	-4.77242743926E-02	4.94532394970E-02	1.01669312489E-01	2.03931895018E-01
1.73100000000E+09	-1.73939364966E-02	-9.30185200677E-02	-4.52296696167E-02	5.18068207202E-02	-4.55070394090E-02	5.13672946540E-02	1.11581687993E-01	2.00136019989E-01
1.73200000000E+09	-1.52153036891E-02	-9.81834841250E-02	-4.28861352896E-02	5.36691284364E-02	-4.31307213616E-02	5.33229266959E-02	1.21188782366E-01	1.95793171629E-01
1.73300000000E+09	-1.33604811336E-02	-1.03323389821E-01	-4.05606103305E-02	5.55071114935E-02	-4.07837131426E-02	5.50882413622E-02	1.30535098127E-01	1.90934020706E-01
1.73400000000E+09	-1.18014101769E-02	-1.08712297835E-01	-3.79885898448E-02	5.71307596362E-02	-3.84068269881E-02	5.68481451188E-02	1.39562946019E-01	1.85482708154E-01
1.73500000000E+09	-1.06271657159E-02	-1.14165086555E-01	-3.54995643603E-02	5.87481710468E-02	-3.58711087218E-02	5.83360648067E-02	1.48175530007E-01	1.79506548176E-01
1.73600000000E+09	-9.83851620255E-03	-1.19550521654E-01	-3.29316747114E-02	6.01573268068E-02	-3.33018239401E-02	5.97930609202E-02	1.56329892912E-01	1.72835191884E-01
1.73700000000E+09	-9.30317589601E-03	-1.25040404556E-01	-3.02450109753E-02	6.14346431349E-02	-3.06313236735E-02	6.10809150339E-02	1.64231382811E-01	1.66017386701E-01
1.73800000000E+09	-9.17799143057E-03	-1.30593969940E-01	-2.75062394606E-02	6.26362907256E-02	-2.79247615703E-02	6.22466078679E-02	1.71483861374E-01	1.58530591612E-01
1.73900000000E+09	-9.36834472484E-03	-1.36174159859E-01	-2.47330355795E-02	6.36591624990E-02	-2.52295114363E-02	6.33304485763E-02	1.78485964383E-01	1.50617826365E-01
1.74000000000E+09	-9.99191948783E-03	-1.41693226128E-01	-2.20438998056E-02	6.45642495402E-02	-2.23998233841E-02	6.43756307088E-02	1.84855817604E-01	1.42261255979E-01
1.74100000000E+09	-1.09786514499E-02	-1.47095429353E-01	-1.91890902794E-02	6.53575641043E-02	-1.96695557681E-02	6.51403891582E-02	1.90731606706E-01	1.33700950373E-01
1.74200000000E+09	-1.22328059442E-02	-1.52518936221E-01	-1.63942239774E-02	6.60743057908E-02	-1.68219367682E-02	6.58319889156E-02	1.96030074327E-01	1.24584229832E-01
1.74300000000E+09	-1.40259907663E-02	-1.57761024798E-01	-1.35060399743E-02	6.66927876620E-02	-1.39019479348E-02	6.63654551402E-02	2.00824036269E-01	1.15220379071E-01
1.74400000000E+09	-1.60812135490E-02	-1.62889519393E-01	-1.06453161610E-02	6.70769230703E-02	-1.11156945545E-02	6.67962525615E-02	2.04995618187E-01	1.05636882288E-01
1.74500000000E+09	-1.85784889946E-02	-1.67841283317E-01	-7.76110097813E-03	6.72570123543E-02	-8.16708044667E-03	6.71105082295E-02	2.08512267309E-01	9.57357416345E-02
1.74600000000E+09	-2.13894219178E-02	-1.72674439955E-01	-4.88801429455E-03	6.74316712704E-02	-5.37345015160E-03	6.73044793134E-02	2.11421326734E-01	8.58224311105E-02
1.74700000000E+09	-2.46296425061E-02	-1.77250522454E-01	-2.02457335558E-03	6.75451401983E-02	-2.55200440997E-03	6.73769575892E-02	2.13758185865E-01	7.54910000233E-02
1.74800000000E+09	-2.81167946497E-02	-1.81497709185E-01	7.58097346881E-04	6.74178389691E-02	3.10048197012E-04	6.73045549169E-02	2.15424827486E-01	6.51630196159E-02
1.74900000000E+09	-3.19900001388E-02	-1.85509862733E-01	3.65399453488E-03	6.72822455560E-02	3.18270525460E-03	6.70868572406E-02	2.16470355914E-01	5.48429509082E-02
1.75000000000E+09	-3.62304055242E-02	-1.89269273505E-01	6.35938933229E-03	6.69347619712E-02	5.88131149397E-03	6.67977658851E-02	2.16824263974E-01	4.43476265585E-02
1.75100000000E+09	-4.05497671838E-02	-1.92575895902E-01	9.21464740241E-03	6.65208917420E-02	8.68037229293E-03	6.63736015388E-02	2.16581216852E-01	3.38481361640E-02
1.75200000000E+09	-4.53442529140E-02	-1.95595707192E-01	1.18567669145E-02	6.59006410078E-02	1.14620266839E-02	6.58789700385E-02	2.15571441613E-01	2.34761522862E-02
1.75300000000E+09	-5.02552565449E-02	-1.98096709799E-01	1.45910782081E-02	6.53121703199E-02	1.41509538109E-02	6.52465899755E-02	2.14015044463E-01	1.30546262871E-02
1.75400000000E+09	-5.54721470235E-02	-2.00236282416E-01	1.72392839360E-02	6.44666965570E-02	1.67553715474E-02	6.45016574312E-02	2.11688085851E-01	2.78611799663E-03
1.75500000000E+09	-6.07897921632E-02	-2.01919093586E-01	1.98525437468E-02	6.36289690837E-02	1.94023277143E-02	6.36870630133E-02	2.08831374753E-01	-7.35613009300E-03
1.75600000000E+09	-6.62861992481E-02	-2.03020672812E-01	2.24186162826E-02	6.26384827867E-02	2.19687117481E-02	6.26763900497E-02	2.05218001719E-01	-1.71064265597E-02
1.75700000000E+09	-7.17756962715E-02	-2.03731363663E-01	2.48799938869E-02	6.16640677676E-02	2.44098957558E-02	6.16638228721E-02	2.01050178626E-01	-2.68536284462E-02
1.75800000000E+09	-7.73345545996E-02	-2.03852303979E-01	2.73318648423E-02	6.04819828252E-02	2.68391326349E-02	6.05901831456E-02	1.96257600785E-01	-3.61433188759E-02
1.75900000000E+09	-8.29800115692E-02	-2.03468136087E-01	2.97429775903E-02	5.92221930081E-02	2.92058595495E-02	5.92954570478E-02	1.90892740978E-01	-4.51603769035E-02
1.76000000000E+09	-8.84254483508E-02	-2.02509622283E-01	3.20532278773E-02	5.79830817099E-02	3.15442762521E-02	5.80892936457E-02	1.84966504921E-01	-5.38924203420E-02
1.76100000000E+09	-9.37643635818E-02	-2.00999940739E-01	3.42643077086E-02	5.65680122675E-02	3.38520781914E-02	5.66676556313E-02	1.78384518887E-01	-6.21587130044E-02
1.76200000000E+09	-9.89641518583E-02	-1.99064206485E-01	3.65255160285E-02	5.51578922008E-02	3.60792987877E-02	5.52088835452E-02	1.71390770566E-01	-6.99625571136E-02
1.76300000000E+09	-1.03904374972E-01	-1.96471785261E-01	3.86835395175E-02	5.35952620613E-02	3.81724871468E-02	5.37793959772E-02	1.63964952385E-01	-7.73771239052E-02
1.76400000000E+09	-1.08491145777E-01	-1.93350954432E-01	4.07496333755E-02	5.19807082681E-02	4.02719722463E-02	5.21595161232E-02	1.56028672879E-01	-8.42541719220E-02
1.76500000000E+09	-1.12694747974E-01	-1.89842141934E-01	4.27762480635E-02	5.03947581019E-02	4.22960842173E-02	5.05225279375E-02	1.47551422092E-01	-9.06847092666E-02
1.76600000000E+09	-1.16512153711E-01	-1.85827623217E-01	4.46835279089E-02	4.86416567972E-02	4.42633561238E-02	4.87910182067E-02	1.38802893148E-01	-9.64188748610E-02
1.76700000000E+09	-1.19775188347E-01	-1.81343077725E-01	4.66265854330E-02	4.67777927863E-02	4.61242059734E-02	4.70677364754E-02	1.29588687060E-01	-1.01685142566E-01
1.76800000000E+09	-1.22555402614E-01	-1.76730255217E-01	4.84573947518E-02	4.49573123903E-02	4.80729680627E-02	4.52670716413E-02	1.20130018611E-01	-1.06225402513E-01
1.76900000000E+09	-1.24687637460E-01	-1.71638418442E-01	5.02745490588E-02	4.30514707749E-02	4.98657946697E-02	4.33550185061E-02	1.10399935668E-01	-1.10170792659E-01
1.77000000000E+09	-1.26242714489E-01	-1.66346560065E-01	5.19997346887E-02	4.10658018258E-02	5.15333928000E-02	4.13606932981E-02	1.00421617691E-01	-1.13593326848E-01
1.77100000000E+09	-1.27181770882E-01	-1.61180265802E-01	5.35767324031E-02	3.91021204535E-02	5.32762354977E-02	3.93314165760E-02	9.01735204879E-02	-1.16233378724E-01
1.77200000000E+09	-1.27308285809E-01	-1.55743827150E-01	5.52387249745E-02	3.69670802713E-02	5.48651278685E-02	3.72575331414E-02	7.99647461963E-02	-1.18222610314E-01
1.77300000000E+09	-1.26888733978E-01	-1.50424247497E-01	5.68672234278E-02	3.47435538938E-02	5.64871778731E-02	3.50716552492E-02	6.94890367628E-02	-1.19572021726E-01
1.77400000000E+09	-1.25658359955E-01	-1.45185216436E-01	5.83264882333E-02	3.25400995004E-02	5.79245017954E-02	3.28335658440E-02	5.89522949251E-02	-1.20234805116E-01
1.77500000000E+09	-1.23854600889E-01	-1.40224944111E-01	5.97529214695E-02	3.02745361483E-02	5.93727866650E-02	3.05593476402E-02	4.85522464428E-02	-1.20170646132E-01
1.77600000000E+09	-1.21407493312E-01	-1.35572067113E-01	6.11516578238E-02	2.77949611393E-02	6.07890344983E-02	2.82087246646E-02	3.80197382732E-02	-1.19479097706E-01
1.77700000000E+09	-1.18416737811E-01	-1.31348977686E-01	6.24006343245E-02	2.53073930617E-02	6.20076259295E-02	2.57237560573E-02	2.76234450247E-02	-1.17986538491E-01
1.77800000000E+09	-1.14869331883E-01	-1.27472541361E-01	6.35386039843E-02	2.27557995954E-02	6.32448983779E-02	2.32411255627E-02	1.73923362349E-02	-1.15998315615E-01
1.77900000000E+09	-1.10831389320E-01	-1.24242976083E-01	6.46742535461E-02	2.02556137764E-02	6.44137341030E-02	2.06530139145E-02	7.34544208845E-03	-1.13207495121E-01
1.78000000000E+09	-1.06540450139E-01	-1.21503642324E-01	6.56532493968E-02	1.75478904792E-02	6.53639786169E-02	1.79851457162E-02	-2.58300442804E-03	-1.09753986699E-01
1.78100000000E+09	-1.01897782422E-01	-1.19450157599E-01	6.65296102216E-02	1.47601378551E-02	6.62509260214E-02	1.51952149186E-02	-1.21972787625E-02	-1.05859526491E-01
1.78200000000E+09	-9.70271907481E-02	-1.18017048044E-01	6.72916067173E-02	1.18559280457E-02	6.70337816046E-02	1.23813908331E-02	-2.14686515415E-02	-1.01234737527E-01
1.78300000000E+09	-9.21244437429E-02	-1.17199742928E-01	6.78567728744E-02	9.07590305517E-03	6.75821177047E-02	9.48308623132E-03	-3.04875457350E-02	-9.59841579892E-02
1.78400000000E+09	-8.71239611249E-02	-1.17112487324E-01	6.83909420268E-02	6.11242492924E-03	6.82278664623E-02	6.58123195124E-03	-3.91552794790E-02	-9.02913021973E-02
1.78500000000E+09	-8.22013956318E-02	-1.17640768842E-01	6.88151884523E-02	3.12715908631E-03	6.86869956534E-02	3.62952665310E-03	-4.73733374806E-02	-8.39155914608E-02
1.78600000000E+09	-7.74786339039E-02	-1.18696998837E-01	6.90181994196E-02	1.17285567155E-04	6.88591884062E-02	6.19179143346E-04	-5.51867091440E-02	-7.71618192062E-02
1.78700000000E+09	-7.29237583461E-02	-1.20400761206E-01	6.90147104011E-02	-2.98383131706E-03	6.89341258482E-02	-2.38750319933E-03	-6.24707475265E-02	-6.97562036922E-02
1.78800000000E+09	-6.87065242861E-02	-1.22664842521E-01	6.90443316434E-02	-5.97915129982E-03	6.89389695616E-02	-5.48919750335E-03	-6.92120689299E-02	-6.19891945176E-02
1.78900000000E+09	-6.47264376858E-02	-1.25399090599E-01	6.87937208212E-02	-9.08249746860E-03	6.86740054329E-02	-8.56241244453E-03	-7.56013250938E-02	-5.37895201005E-02
1.79000000000E+09	-6.11173010666E-02	-1.28632545131E-01	6.83946092876E-02	-1.21985568717E-02	6.83937382240E-02	-1.16270312210E-02	-8.14037176424E-02	-4.52776094536E-02
1.79100000000E+09	-5.79826886586E-02	-1.32147187490E-01	6.78509235928E-02	-1.51441405448E-02	6.78367895534E-02	-1.46595708897E-02	-8.65186768291E-02	-3.63618753885E-02
1.79200000000E+09	-5.52528856578E-02	-1.35970476223E-01	6.71312381321E-02	-1.82821828411E-02	6.71968991051E-02	-1.76451105609E-02	-9.10371028960E-02	-2.72457293943E-02
1.79300000000E+09	-5.29937371756E-02	-1.40115112196E-01	6.63878735412E-02	-2.11916953977E-02	6.63818784982E-02	-2.07414672469E-02	-9.49227649667E-02	-1.77584723840E-02
1.79400000000E+09	-5.11709082772E-02	-1.44407528547E-01	6.53936412097E-02	-2.41601938671E-02	6.54265435120E-02	-2.36307821604E-02	-9.83276328785E-02	-8.21088043670E-03
1.79500000000E+09	-4.99071998427E-02	-1.48903046213E-01	6.42065541581E-02	-2.70607755628E-02	6.42851394852E-02	-2.65244154787E-02	-1.00949300923E-01	1.69599224540E-03
1.79600000000E+09	-4.90961896917E-02	-1.53442157785E-01	6.29614811372E-02	-2.98740025133E-02	6.29988853399E-02	-2.93222353966E-02	-1.02971577928E-01	1.17213991463E-02
1.79700000000E+09	-4.87109687069E-02	-1.58023460092E-01	6.15368196302E-02	-3.26461975289E-02	6.16076649864E-02	-3.21548571464E-02	-1.04405553887E-01	2.17863683132E-02
1.79800000000E+09	-4.88911815644E-02	-1.62680113660E-01	5.99592274479E-02	-3.53800892939E-02	6.01150999674E-02	-3.48698465709E-02	-1.05037621628E-01	3.19141093554E-02
1.79900000000E+09	-4.94104779452E-02	-1.67180203771E-01	5.82699197326E-02	-3.79451352757E-02	5.84621714658E-02	-3.74440234050E-02	-1.05084771773E-01	4.20974710191E-02
1.80000000000E+09	-5.04340145083E-02	-1.71685678566E-01	5.65094129489E-02	-4.04602693170E-02	5.66506268656E-02	-3.99297381375E-02	-1.04514930127E-01	5.20949898129E-02
1.80100000000E+09	-5.18096425304E-02	-1.75991127117E-01	5.45323441210E-02	-4.29287810443E-02	5.47819629044E-02	-4.24375273053E-02	-1.03192536149E-01	6.21403488843E-02
1.80200000000E+09	-5.35240278422E-02	-1.80160072690E-01	5.25513009212E-02	-4.52021327216E-02	5.28315679033E-02	-4.47064364468E-02	-1.01356952334E-01	7.21505813828E-02
1.80300000000E+09	-5.56651197945E-02	-1.84115025730E-01	5.04041580442E-02	-4.74055858583E-02	5.07155275654E-02	-4.69076906082E-02	-9.87916540210E-02	8.18578712845E-02
1.80400000000E+09	-5.81388495813E-02	-1.87953287022E-01	4.82371907564E-02	-4.94657374438E-02	4.85167735464E-02	-4.89797165120E-02	-9.55450679337E-02	9.13584146621E-02
1.80500000000E+09	-6.08481054671E-02	-1.91460658887E-01	4.59157526144E-02	-5.14787693671E-02	4.62154642538E-02	-5.10355244493E-02	-9.18272414071E-02	1.00595706377E-01
1.80600000000E+09	-6.38003248637E-02	-1.94876260624E-01	4.36327146108E-02	-5.33799599387E-02	4.38547554425E-02	-5.28464035914E-02	-8.74784962239E-02	1.09642416151E-01
1.80700000000E+09	-6.71210304677E-02	-1.97893649746E-01	4.11300389164E-02	-5.50761843455E-02	4.14005093405E-02	-5.46164056318E-02	-8.25808727902E-02	1.18291207136E-01
1.80800000000E+09	-7.05876496788E-02	-2.00754101805E-01	3.86402049123E-02	-5.66837156838E-02	3.89231219775E-02	-5.62630131784E-02	-7.70274374834E-02	1.26715162820E-01
1.80900000000E+09	-7.41969589354E-02	-2.03227725320E-01	3.60111458418E-02	-5.80809578669E-02	3.64143945846E-02	-5.78014086234E-02	-7.10268338913E-02	1.34506077088E-01
1.81000000000E+09	-7.81371390076E-02	-2.05563905089E-01	3.34743533818E-02	-5.96038546637E-02	3.38216503484E-02	-5.91403046117E-02	-6.46595343021E-02	1.42083542577E-01
1.81100000000E+09	-8.21495410944E-02	-2.07623608504E-01	3.07289439153E-02	-6.07634741953E-02	3.12100161537E-02	-6.03880429524E-02	-5.76698099405E-02	1.49197097799E-01
1.81200000000E+09	-8.63528048983E-02	-2.09219549213E-01	2.80397934477E-02	-6.18584280997E-02	2.84582511690E-02	-6.15051763704E-02	-5.02488532136E-02	1.55726775805E-01
1.81300000000E+09	-9.06324529145E-02	-2.10751201943E-01	2.53662309855E-02	-6.28918157332E-02	2.57744930958E-02	-6.25249982249E-02	-4.24703140753E-02	1.61788551401E-01
1.81400000000E+09	-9.49149408093E-02	-2.11892971762E-01	2.25837705996E-02	-6.37405959300E-02	2.30697248911E-02	-6.34594302166E-02	-3.45055707709E-02	1.67418783800E-01
1.81500000000E+09	-9.95000541628E-02	-2.12733209923E-01	1.97787686159E-02	-6.44859160084E-02	2.02641438815E-02	-6.42431053330E-02	-2.60236791806E-02	1.72483230926E-01
1.81600000000E+09	-1.03965601833E-01	-2.13343071383E-01	1.70069551370E-02	-6.51789035879E-02	1.75438243539E-02	-6.48557034189E-02	-1.72337927228E-02	1.76884110978E-01
1.81700000000E+09	-1.08578588161E-01	-2.13653731626E-01	1.42610290839E-02	-6.56168593088E-02	1.47595794702E-02	-6.53375689310E-02	-8.34572302631E-03	1.80852081585E-01
