# Hz S RI R 50
! CMT, CMT808U, 21440046, 21.4.3/4
! Date: 12/11/2025 6:18:52 PM
! Data: Format (Calibration Info)
! Freq	S11:Re/Im(F2)	S41:Re/Im(F2)	S14:Re/Im(F2)	S44:Re/Im(F2)
1.70000000000E+09	-1.51693422263E-01	-8.81355704801E-02	-6.08383295298E-02	-2.61466386812E-02	-6.04965888487E-02	-2.64812767149E-02	-7.84767878173E-02	6.02909739716E-02
1.70100000000E+09	-1.50855181157E-01	-8.31580685013E-02	-6.18553902556E-02	-2.36367197986E-02	-6.16028188035E-02	-2.39765391162E-02	-7.70899189963E-02	7.12903605009E-02
1.70200000000E+09	-1.49268205869E-01	-7.83090698544E-02	-6.28888600256E-02	-2.11660441269E-02	-6.26565365027E-02	-2.14535685230E-02	-7.51590235713E-02	8.21559699796E-02
1.70300000000E+09	-1.47223643798E-01	-7.35568694278E-02	-6.37461632459E-02	-1.85576117510E-02	-6.35783350564E-02	-1.90261416944E-02	-7.23093746799E-02	9.27955448667E-02
1.70400000000E+09	-1.44565435259E-01	-6.89002044508E-02	-6.46443020309E-02	-1.58882596981E-02	-6.43772156688E-02	-1.63653590773E-02	-6.88335911691E-02	1.03204934738E-01
1.70500000000E+09	-1.41279223534E-01	-6.45210719614E-02	-6.53482583893E-02	-1.32851490043E-02	-6.51504809753E-02	-1.36803635043E-02	-6.46383353520E-02	1.13383793434E-01
1.70600000000E+09	-1.37526040372E-01	-6.05377974969E-02	-6.59592059132E-02	-1.06179390746E-02	-6.57640860990E-02	-1.10118560520E-02	-5.98674703635E-02	1.23158003123E-01
1.70700000000E+09	-1.33329129290E-01	-5.68212122381E-02	-6.64975112842E-02	-7.86144449091E-03	-6.63789507351E-02	-8.24090713135E-03	-5.43719327326E-02	1.32756438277E-01
1.70800000000E+09	-1.28724860325E-01	-5.35298778282E-02	-6.68755311432E-02	-5.07609305450E-03	-6.67549479975E-02	-5.48252487275E-03	-4.83739561894E-02	1.41868157992E-01
1.70900000000E+09	-1.23826026214E-01	-5.06277234586E-02	-6.71431523459E-02	-2.13506363237E-03	-6.70844894991E-02	-2.61873431426E-03	-4.17860423640E-02	1.50565783819E-01
1.71000000000E+09	-1.18556320949E-01	-4.82084311781E-02	-6.74382167956E-02	6.77422030193E-04	-6.72511342108E-02	2.29462025296E-04	-3.46379957503E-02	1.58784008348E-01
1.71100000000E+09	-1.13140737862E-01	-4.63222857484E-02	-6.74555145026E-02	3.59037865545E-03	-6.73423199495E-02	3.10569026385E-03	-2.70146474830E-02	1.66492850238E-01
1.71200000000E+09	-1.07475186419E-01	-4.48118816577E-02	-6.73756894980E-02	6.52425765402E-03	-6.73926948477E-02	5.99741809725E-03	-1.88737055311E-02	1.73786640203E-01
1.71300000000E+09	-1.01673112122E-01	-4.39065369395E-02	-6.70923383190E-02	9.32616302635E-03	-6.70921702632E-02	8.95922637065E-03	-1.03619666851E-02	1.80444379472E-01
1.71400000000E+09	-9.58925650849E-02	-4.34255245965E-02	-6.67785061579E-02	1.23780591639E-02	-6.68049021067E-02	1.18060996298E-02	-1.54567379601E-03	1.86542700155E-01
1.71500000000E+09	-8.99364964873E-02	-4.34310133107E-02	-6.63189470532E-02	1.52688541415E-02	-6.62554699657E-02	1.48110457008E-02	7.84908452245E-03	1.92075699158E-01
1.71600000000E+09	-8.41014841757E-02	-4.38784522682E-02	-6.56672415906E-02	1.81903117161E-02	-6.56509505400E-02	1.76812842052E-02	1.74549852979E-02	1.96933515877E-01
1.71700000000E+09	-7.82208422254E-02	-4.48430701351E-02	-6.49082094388E-02	2.10479151080E-02	-6.48829062142E-02	2.06108390316E-02	2.73614522326E-02	2.01319817648E-01
1.71800000000E+09	-7.25146752177E-02	-4.61277936399E-02	-6.39800955091E-02	2.38763831572E-02	-6.39882503447E-02	2.34234644353E-02	3.73638938497E-02	2.04842947275E-01
1.71900000000E+09	-6.69963776311E-02	-4.79501715497E-02	-6.29347431511E-02	2.67094624869E-02	-6.29619589236E-02	2.62838890468E-02	4.77278575408E-02	2.08001125747E-01
1.72000000000E+09	-6.15464716443E-02	-5.01905201076E-02	-6.17710279914E-02	2.94207577681E-02	-6.17772988862E-02	2.89822814750E-02	5.81622331604E-02	2.10294036263E-01
1.72100000000E+09	-5.63513237937E-02	-5.26334260970E-02	-6.03653196412E-02	3.21952078624E-02	-6.04839740647E-02	3.17849769158E-02	6.88822805337E-02	2.11879150476E-01
1.72200000000E+09	-5.13235085032E-02	-5.55572352829E-02	-5.89650169067E-02	3.48876795516E-02	-5.90392077107E-02	3.43440299056E-02	7.94737525848E-02	2.13010501725E-01
1.72300000000E+09	-4.64727804322E-02	-5.87450416658E-02	-5.73853224683E-02	3.74444561194E-02	-5.74972411483E-02	3.69679461200E-02	9.01189448714E-02	2.13428378613E-01
1.72400000000E+09	-4.20192917333E-02	-6.21992130618E-02	-5.56936192466E-02	3.99222265527E-02	-5.58061325169E-02	3.94650779912E-02	1.00832541025E-01	2.13092273889E-01
1.72500000000E+09	-3.77157503427E-02	-6.60344659603E-02	-5.38570768163E-02	4.23150134406E-02	-5.41012172100E-02	4.18777785172E-02	1.11419658508E-01	2.12072792092E-01
1.72600000000E+09	-3.37157059126E-02	-7.00181529961E-02	-5.19589494177E-02	4.47223397575E-02	-5.21096632218E-02	4.42211022446E-02	1.21888070385E-01	2.10365289750E-01
1.72700000000E+09	-2.99328608406E-02	-7.42192265437E-02	-4.98907967681E-02	4.69410309270E-02	-5.00836033077E-02	4.64674609146E-02	1.32348375544E-01	2.08135474026E-01
1.72800000000E+09	-2.65435740921E-02	-7.86996234607E-02	-4.77285698699E-02	4.90867110433E-02	-4.79651625707E-02	4.86377718117E-02	1.42529382909E-01	2.05171194813E-01
1.72900000000E+09	-2.34652117198E-02	-8.33256425071E-02	-4.54902676267E-02	5.11098425415E-02	-4.58451722413E-02	5.06735031621E-02	1.52603166218E-01	2.01672613287E-01
1.73000000000E+09	-2.06095266892E-02	-8.81438295879E-02	-4.32383910175E-02	5.30619077489E-02	-4.34977928009E-02	5.26642789709E-02	1.62302778573E-01	1.97512240395E-01
1.73100000000E+09	-1.80179954383E-02	-9.30872648378E-02	-4.08084113080E-02	5.47913964816E-02	-4.11145956476E-02	5.43926242980E-02	1.71847797682E-01	1.92709273603E-01
1.73200000000E+09	-1.58346259508E-02	-9.82314708556E-02	-3.83075602331E-02	5.64588561561E-02	-3.85769768430E-02	5.61419027534E-02	1.80997081371E-01	1.87331643965E-01
1.73300000000E+09	-1.39559836933E-02	-1.03353998820E-01	-3.58269858859E-02	5.80881655381E-02	-3.60912352534E-02	5.77036443644E-02	1.89833189641E-01	1.81502162891E-01
1.73400000000E+09	-1.23941270547E-02	-1.08711690637E-01	-3.31160647597E-02	5.94991233403E-02	-3.35565220215E-02	5.92450459061E-02	1.98284319836E-01	1.75072830551E-01
1.73500000000E+09	-1.11834167052E-02	-1.14145250876E-01	-3.05097603174E-02	6.08782894140E-02	-3.09006458629E-02	6.05145292922E-02	2.06295798891E-01	1.68148103288E-01
1.73600000000E+09	-1.03691005875E-02	-1.19521091158E-01	-2.78180966263E-02	6.20482041615E-02	-2.82126711440E-02	6.17310162712E-02	2.13754357047E-01	1.60564454191E-01
1.73700000000E+09	-9.81611064308E-03	-1.24986988246E-01	-2.50293715421E-02	6.31078625897E-02	-2.54490792472E-02	6.27715757202E-02	2.20942094779E-01	1.52843771972E-01
1.73800000000E+09	-9.66334149527E-03	-1.30530589420E-01	-2.22116845445E-02	6.40430568695E-02	-2.26324759670E-02	6.37040128755E-02	2.27400673461E-01	1.44555338396E-01
1.73900000000E+09	-9.81949804258E-03	-1.36116828722E-01	-1.93538225244E-02	6.48238674812E-02	-1.98681792180E-02	6.45330799810E-02	2.33587448359E-01	1.35814868319E-01
1.74000000000E+09	-1.04303258559E-02	-1.41622951263E-01	-1.66062162957E-02	6.54725054284E-02	-1.69783401894E-02	6.53309912368E-02	2.39055489834E-01	1.26684108749E-01
1.74100000000E+09	-1.13906298357E-02	-1.47012629849E-01	-1.37036960342E-02	6.60143437318E-02	-1.41969227116E-02	6.58315016177E-02	2.44006915698E-01	1.17392287870E-01
1.74200000000E+09	-1.26134881004E-02	-1.52441068297E-01	-1.08743485972E-02	6.64638343740E-02	-1.13115636900E-02	6.62595271324E-02	2.48297300408E-01	1.07611240826E-01
1.74300000000E+09	-1.43777121371E-02	-1.57669408039E-01	-7.95088498943E-03	6.68132834505E-02	-8.37086526711E-03	6.65292472439E-02	2.52065858824E-01	9.75966449140E-02
1.74400000000E+09	-1.63983722583E-02	-1.62797497443E-01	-5.08479044060E-03	6.69300012947E-02	-5.57322933122E-03	6.67025247705E-02	2.55187145095E-01	8.74392848438E-02
1.74500000000E+09	-1.88763624920E-02	-1.67756592871E-01	-2.20414054305E-03	6.68585002268E-02	-2.60678799578E-03	6.67498275104E-02	2.57574500592E-01	7.70096659056E-02
1.74600000000E+09	-2.16610447081E-02	-1.72592602603E-01	6.60168905153E-04	6.67710028950E-02	1.71881986634E-04	6.66788247200E-02	2.59351182412E-01	6.66135493876E-02
1.74700000000E+09	-2.48544123618E-02	-1.77182945804E-01	3.49412595103E-03	6.66247192123E-02	2.96826850184E-03	6.64890092812E-02	2.60510198805E-01	5.58981995555E-02
1.74800000000E+09	-2.83075854905E-02	-1.81444373380E-01	6.22768976681E-03	6.62297226436E-02	5.78611682680E-03	6.61634506349E-02	2.60964214727E-01	4.52154781384E-02
1.74900000000E+09	-3.21572177874E-02	-1.85458956788E-01	9.08430045676E-03	6.58452127854E-02	8.59111209083E-03	6.56878152504E-02	2.60795685789E-01	3.46156493784E-02
1.75000000000E+09	-3.63597672438E-02	-1.89226562191E-01	1.17248318493E-02	6.52371948177E-02	1.12405523484E-02	6.51289968277E-02	2.59867573976E-01	2.38900932850E-02
1.75100000000E+09	-4.06365091568E-02	-1.92566420812E-01	1.44989325757E-02	6.45780980954E-02	1.39706996858E-02	6.44712646538E-02	2.58330571338E-01	1.32300507922E-02
1.75200000000E+09	-4.54090264453E-02	-1.95618058163E-01	1.70518234398E-02	6.37046458444E-02	1.66708583795E-02	6.37254976817E-02	2.56011271024E-01	2.80215517687E-03
1.75300000000E+09	-5.02794034903E-02	-1.98146729110E-01	1.97071988203E-02	6.28828563785E-02	1.92646384720E-02	6.28530048538E-02	2.53151696120E-01	-7.66027585630E-03
1.75400000000E+09	-5.54718097825E-02	-2.00323206929E-01	2.22280839190E-02	6.17841010818E-02	2.17491239946E-02	6.18604712241E-02	2.49460152618E-01	-1.78602380333E-02
1.75500000000E+09	-6.07589334008E-02	-2.02061535207E-01	2.47094777739E-02	6.07047376880E-02	2.42755642880E-02	6.08109719250E-02	2.45287080328E-01	-2.78733961010E-02
1.75600000000E+09	-6.62204205225E-02	-2.03194342046E-01	2.71462808150E-02	5.94847868917E-02	2.67178373389E-02	5.95647762048E-02	2.40314999749E-01	-3.74095634980E-02
1.75700000000E+09	-7.16946126202E-02	-2.03959286846E-01	2.94592805215E-02	5.82869080456E-02	2.90156818378E-02	5.83257432299E-02	2.34792353338E-01	-4.68939859839E-02
1.75800000000E+09	-7.72435103671E-02	-2.04135171877E-01	3.17674597765E-02	5.68866826892E-02	3.12980506429E-02	5.70421927072E-02	2.28656414177E-01	-5.58291901097E-02
1.75900000000E+09	-8.28737777031E-02	-2.03835791053E-01	3.40078790443E-02	5.54122792166E-02	3.34912648468E-02	5.55244577223E-02	2.21939767938E-01	-6.44176438097E-02
1.76000000000E+09	-8.83330356476E-02	-2.02937663300E-01	3.61459112203E-02	5.39577715535E-02	3.56642413805E-02	5.40989485224E-02	2.14675930945E-01	-7.26410278758E-02
1.76100000000E+09	-9.36854577305E-02	-2.01479040426E-01	3.81732043715E-02	5.23627921400E-02	3.77838062759E-02	5.24940734277E-02	2.06785613034E-01	-8.02956128407E-02
1.76200000000E+09	-9.88832637225E-02	-1.99638674873E-01	4.02231311415E-02	5.07357072945E-02	3.98082065435E-02	5.08230749439E-02	1.98495382442E-01	-8.74548274472E-02
1.76300000000E+09	-1.03855908678E-01	-1.97110964100E-01	4.21742531307E-02	4.90018507496E-02	4.16997799191E-02	4.91971583468E-02	1.89785232666E-01	-9.41200244768E-02
1.76400000000E+09	-1.08488797807E-01	-1.94058942615E-01	4.40211904896E-02	4.72137423284E-02	4.35623763534E-02	4.74189746484E-02	1.80607209984E-01	-1.00176168297E-01
1.76500000000E+09	-1.12730900876E-01	-1.90617808613E-01	4.58154395955E-02	4.54565071158E-02	4.53585873938E-02	4.56065353410E-02	1.70911078863E-01	-1.05698741426E-01
1.76600000000E+09	-1.16612061713E-01	-1.86671977103E-01	4.74674792150E-02	4.35530173916E-02	4.70809705036E-02	4.37347104754E-02	1.60999761500E-01	-1.10464449505E-01
1.76700000000E+09	-1.19943192450E-01	-1.82251691877E-01	4.91593751144E-02	4.15575981588E-02	4.86754430903E-02	4.18663221318E-02	1.50641862935E-01	-1.14669600214E-01
1.76800000000E+09	-1.22795130022E-01	-1.77685460587E-01	5.07155440293E-02	3.96182164411E-02	5.03720793054E-02	3.99382341251E-02	1.40098872269E-01	-1.18076851205E-01
1.76900000000E+09	-1.25028323363E-01	-1.72635990305E-01	5.22680952581E-02	3.76010992735E-02	5.18880605828E-02	3.79263875768E-02	1.29339145324E-01	-1.20829803213E-01
1.77000000000E+09	-1.26685041189E-01	-1.67370718116E-01	5.37139392958E-02	3.55369540526E-02	5.32778339583E-02	3.58415779397E-02	1.18385318040E-01	-1.22979342441E-01
1.77100000000E+09	-1.27715705866E-01	-1.62224789404E-01	5.50015069740E-02	3.34974851733E-02	5.47294496303E-02	3.37385008946E-02	1.07236595791E-01	-1.24287893362E-01
1.77200000000E+09	-1.27955792236E-01	-1.56800835013E-01	5.63758996208E-02	3.13133902880E-02	5.60547977352E-02	3.16060484046E-02	9.61910055558E-02	-1.24868394083E-01
1.77300000000E+09	-1.27634108008E-01	-1.51445650308E-01	5.77086077479E-02	2.90604875259E-02	5.73642767030E-02	2.93959938586E-02	8.49495367077E-02	-1.24746332412E-01
1.77400000000E+09	-1.26502370337E-01	-1.46167955254E-01	5.88829729304E-02	2.68485476286E-02	5.85187043239E-02	2.71445476696E-02	7.37327209146E-02	-1.23886878447E-01
1.77500000000E+09	-1.24796423582E-01	-1.41148361287E-01	6.00147513964E-02	2.45738689403E-02	5.96775578394E-02	2.48717605138E-02	6.27128244983E-02	-1.22240913087E-01
1.77600000000E+09	-1.22420085454E-01	-1.36453565269E-01	6.11330832626E-02	2.21411197465E-02	6.08131615311E-02	2.25415312764E-02	5.16730413548E-02	-1.19922551534E-01
1.77700000000E+09	-1.19505769534E-01	-1.32154852956E-01	6.21222681148E-02	1.96927090547E-02	6.17634495037E-02	2.01073112574E-02	4.08574118466E-02	-1.16772264043E-01
1.77800000000E+09	-1.16021762390E-01	-1.28213169140E-01	6.29885834638E-02	1.71994852933E-02	6.27336489676E-02	1.76691368468E-02	3.03005469939E-02	-1.13074510299E-01
1.77900000000E+09	-1.12028569671E-01	-1.24895576317E-01	6.38721849239E-02	1.47651761310E-02	6.36468445701E-02	1.51639933435E-02	2.00241869697E-02	-1.08536044618E-01
1.78000000000E+09	-1.07766538561E-01	-1.22071211733E-01	6.46099535582E-02	1.21478190544E-02	6.43547546647E-02	1.25674312017E-02	9.96877163112E-03	-1.03325279116E-01
1.78100000000E+09	-1.03143195962E-01	-1.19935174238E-01	6.52704241769E-02	9.45801614634E-03	6.50181017415E-02	9.86872399079E-03	3.43904992741E-04	-9.76365143164E-02
1.78200000000E+09	-9.82891285382E-02	-1.18422843448E-01	6.57960272516E-02	6.66299317246E-03	6.55851595479E-02	7.16760897239E-03	-8.83516842708E-03	-9.11992891835E-02
1.78300000000E+09	-9.33851276377E-02	-1.17524294546E-01	6.61892763943E-02	3.98007605760E-03	6.59219975276E-02	4.36931198363E-03	-1.76752840788E-02	-8.41510545201E-02
1.78400000000E+09	-8.83724319437E-02	-1.17372493237E-01	6.65185403151E-02	1.12174466669E-03	6.63727626528E-02	1.57863228431E-03	-2.60259092329E-02	-7.66324326474E-02
1.78500000000E+09	-8.34318383904E-02	-1.17822909304E-01	6.67534652447E-02	-1.75774436714E-03	6.66546974247E-02	-1.26281062386E-03	-3.38155698850E-02	-6.84804691203E-02
1.78600000000E+09	-7.86623459671E-02	-1.18841152221E-01	6.67825155841E-02	-4.63996517316E-03	6.66311408276E-02	-4.15884008431E-03	-4.11061847936E-02	-5.99367608036E-02
1.78700000000E+09	-7.40849300311E-02	-1.20500273112E-01	6.66079978002E-02	-7.64369039755E-03	6.65469112363E-02	-7.04868862787E-03	-4.77453329271E-02	-5.07625389333E-02
1.78800000000E+09	-6.98280955923E-02	-1.22716202557E-01	6.64765641357E-02	-1.05215073038E-02	6.63888806789E-02	-1.00441027302E-02	-5.37368584375E-02	-4.12691968253E-02
1.78900000000E+09	-6.58328862492E-02	-1.25410038913E-01	6.60651543436E-02	-1.35137784662E-02	6.59516830474E-02	-1.29971710487E-02	-5.92589535390E-02	-3.13793162495E-02
1.79000000000E+09	-6.21784777080E-02	-1.28630540235E-01	6.55018781668E-02	-1.65235969769E-02	6.55266882478E-02	-1.59517130680E-02	-6.40878863728E-02	-2.12226069664E-02
1.79100000000E+09	-5.90168253445E-02	-1.32103396280E-01	6.47981392775E-02	-1.93477430040E-02	6.48089174376E-02	-1.88718788147E-02	-6.81373938684E-02	-1.07001700796E-02
1.79200000000E+09	-5.62652816702E-02	-1.35927674130E-01	6.38981400042E-02	-2.23624051911E-02	6.40054744426E-02	-2.17484538539E-02	-7.14796466237E-02	-4.89417866963E-05
1.79300000000E+09	-5.39756620870E-02	-1.40070715977E-01	6.30084288355E-02	-2.51625515411E-02	6.30434296760E-02	-2.47175274662E-02	-7.40985070778E-02	1.08850678991E-02
1.79400000000E+09	-5.21303007953E-02	-1.44350854695E-01	6.18650506828E-02	-2.80008163701E-02	6.19242717612E-02	-2.74812806608E-02	-7.61344520025E-02	2.18526332862E-02
1.79500000000E+09	-5.08565123059E-02	-1.48827553691E-01	6.05144587981E-02	-3.07725537395E-02	6.06107989864E-02	-3.02410261784E-02	-7.72877805457E-02	3.30717881954E-02
1.79600000000E+09	-5.00234041951E-02	-1.53357068485E-01	5.91181162798E-02	-3.34492382170E-02	5.91824530419E-02	-3.28955326500E-02	-7.77507993639E-02	4.43089356405E-02
1.79700000000E+09	-4.96237897614E-02	-1.57921804797E-01	5.75439524260E-02	-3.60762886385E-02	5.76278043480E-02	-3.55857840283E-02	-7.75555734814E-02	5.55127777881E-02
1.79800000000E+09	-4.97902519208E-02	-1.62569066524E-01	5.58093404947E-02	-3.86519764351E-02	5.59985688208E-02	-3.81543061069E-02	-7.65001610024E-02	6.66708586410E-02
1.79900000000E+09	-5.03015718329E-02	-1.67060022846E-01	5.39612937538E-02	-4.10655570335E-02	5.41918994269E-02	-4.05764888808E-02	-7.47752279385E-02	7.78022709113E-02
1.80000000000E+09	-5.12972294777E-02	-1.71557889112E-01	5.20701885917E-02	-4.34038143045E-02	5.22431596424E-02	-4.28846513932E-02	-7.23429934010E-02	8.86213015418E-02
1.80100000000E+09	-5.26628886415E-02	-1.75855592879E-01	4.99438512163E-02	-4.57006362512E-02	5.02246583389E-02	-4.52134700655E-02	-6.91550768337E-02	9.93756646325E-02
1.80200000000E+09	-5.43728804512E-02	-1.80018292883E-01	4.78207634224E-02	-4.77732088541E-02	4.81520413732E-02	-4.72854294378E-02	-6.53812964983E-02	1.09980327621E-01
1.80300000000E+09	-5.64947305198E-02	-1.83956712090E-01	4.55596187377E-02	-4.97864322015E-02	4.59037472693E-02	-4.92963817177E-02	-6.08652488167E-02	1.20147298281E-01
1.80400000000E+09	-5.89448048390E-02	-1.87802870080E-01	4.32671660674E-02	-5.16442659686E-02	4.35801944761E-02	-5.11766942733E-02	-5.56068666400E-02	1.30009901527E-01
1.80500000000E+09	-6.16399737654E-02	-1.91308225259E-01	4.08304832812E-02	-5.34216308203E-02	4.11612463450E-02	-5.30093836041E-02	-4.98644570951E-02	1.39456900135E-01
1.80600000000E+09	-6.45641902855E-02	-1.94712567506E-01	3.84519156203E-02	-5.51072537237E-02	3.87031165881E-02	-5.45952073614E-02	-4.34885480209E-02	1.48592816488E-01
1.80700000000E+09	-6.78616747408E-02	-1.97730557080E-01	3.58470940099E-02	-5.65715036699E-02	3.61680303623E-02	-5.61218628154E-02	-3.65211361523E-02	1.57201298347E-01
1.80800000000E+09	-7.13167151381E-02	-2.00592018263E-01	3.32892823044E-02	-5.79380564150E-02	3.35991029781E-02	-5.75350790719E-02	-2.89617792158E-02	1.65474586737E-01
1.80900000000E+09	-7.49045284164E-02	-2.03074861552E-01	3.05823256691E-02	-5.90891752099E-02	3.10236865262E-02	-5.88440188022E-02	-2.09442309753E-02	1.72961139134E-01
1.81000000000E+09	-7.88149704438E-02	-2.05421906930E-01	2.80054662028E-02	-6.03645856864E-02	2.83693979983E-02	-5.99363102094E-02	-1.25602650457E-02	1.80129550873E-01
1.81100000000E+09	-8.28199489485E-02	-2.07486976966E-01	2.52224635434E-02	-6.12546843089E-02	2.57205830337E-02	-6.09196875988E-02	-3.62097221338E-03	1.86671328254E-01
1.81200000000E+09	-8.70195820390E-02	-2.09109363508E-01	2.24975937827E-02	-6.20850187664E-02	2.29406188183E-02	-6.17903450096E-02	5.75133554095E-03	1.92533661472E-01
1.81300000000E+09	-9.13075933529E-02	-2.10654042823E-01	1.98084316805E-02	-6.28766116349E-02	2.02369803623E-02	-6.25502195111E-02	1.53810807602E-02	1.97783076853E-01
1.81400000000E+09	-9.55870544193E-02	-2.11800554679E-01	1.70290875134E-02	-6.34730542843E-02	1.75330192818E-02	-6.32302892511E-02	2.51544020017E-02	2.02540550546E-01
1.81500000000E+09	-1.00175338395E-01	-2.12644975429E-01	1.42352733553E-02	-6.39469569968E-02	1.47383928413E-02	-6.37488458400E-02	3.54135316924E-02	2.06577730873E-01
1.81600000000E+09	-1.04657004247E-01	-2.13269929365E-01	1.14845635083E-02	-6.43908558038E-02	1.20524593219E-02	-6.41229428529E-02	4.58855606881E-02	2.09871020182E-01
1.81700000000E+09	-1.09256010991E-01	-2.13577486604E-01	8.79535879233E-03	-6.45578940983E-02	9.29489473080E-03	-6.43409508344E-02	5.64161936133E-02	2.12617827542E-01
