# Hz S RI R 50
! CMT, CMT808U, 21440046, 21.4.3/4
! Date: 12/13/2025 10:50:21 PM
! Data: Format (Calibration Info)
! Freq	S11:Re/Im(F2)	S41:Re/Im(F2)	S14:Re/Im(F2)	S44:Re/Im(F2)
1.70000000000E+09	-8.63696762360E-02	-1.25440996656E-01	-4.98194214809E-02	-4.59878336393E-02	-4.95589211068E-02	-4.59434854524E-02	-2.91921119252E-02	5.86466265278E-02
1.70100000000E+09	-8.78587986253E-02	-1.20339390226E-01	-5.16549386016E-02	-4.39161506301E-02	-5.14637135002E-02	-4.38813800491E-02	-2.77956387746E-02	6.60481227354E-02
1.70200000000E+09	-8.87361000529E-02	-1.15024445967E-01	-5.35136423487E-02	-4.18507144619E-02	-5.33398007821E-02	-4.17785854709E-02	-2.60818904387E-02	7.33379961266E-02
1.70300000000E+09	-8.92695777880E-02	-1.09491216113E-01	-5.52407720957E-02	-3.96309905703E-02	-5.51006947479E-02	-3.97307384450E-02	-2.36999839828E-02	8.04398781820E-02
1.70400000000E+09	-8.92481396441E-02	-1.03707561759E-01	-5.69856232824E-02	-3.73322057068E-02	-5.67596042886E-02	-3.74341897576E-02	-2.08969963973E-02	8.73703821019E-02
1.70500000000E+09	-8.86044014134E-02	-9.78435256418E-02	-5.85798826981E-02	-3.50705122342E-02	-5.84127771279E-02	-3.51000448930E-02	-1.76068142905E-02	9.40984551699E-02
1.70600000000E+09	-8.74634904539E-02	-9.19992345575E-02	-6.01083189606E-02	-3.27242406043E-02	-5.99186372219E-02	-3.27430680045E-02	-1.39454177319E-02	1.00518577951E-01
1.70700000000E+09	-8.58210458416E-02	-8.60914307640E-02	-6.16037927718E-02	-3.02401935361E-02	-6.14503683224E-02	-3.02520146404E-02	-9.77177428792E-03	1.06840441401E-01
1.70800000000E+09	-8.36091112013E-02	-8.02404893741E-02	-6.29368560627E-02	-2.77097227680E-02	-6.27713513886E-02	-2.77381230626E-02	-5.29072844953E-03	1.12800998109E-01
1.70900000000E+09	-8.09565951245E-02	-7.44781341099E-02	-6.41842101504E-02	-2.50006856329E-02	-6.40670259418E-02	-2.51008577459E-02	-4.19072867064E-04	1.18403793034E-01
1.71000000000E+09	-7.77395613120E-02	-6.89066968820E-02	-6.54933321973E-02	-2.23474933636E-02	-6.52261622125E-02	-2.24267957986E-02	4.86935828682E-03	1.23680295365E-01
1.71100000000E+09	-7.40964078373E-02	-6.35690543469E-02	-6.65364519640E-02	-1.95680233875E-02	-6.63196925744E-02	-1.96822036139E-02	1.04185654163E-02	1.28570983954E-01
1.71200000000E+09	-6.99776820566E-02	-5.84157131393E-02	-6.74984737715E-02	-1.67305598243E-02	-6.74192778609E-02	-1.68826909042E-02	1.63433933442E-02	1.33184294746E-01
1.71300000000E+09	-6.54026893074E-02	-5.36303742478E-02	-6.82640197886E-02	-1.39574707784E-02	-6.81488622240E-02	-1.39474283585E-02	2.24555709197E-02	1.37316893295E-01
1.71400000000E+09	-6.05686933502E-02	-4.91209850370E-02	-6.90373498497E-02	-1.08878445636E-02	-6.89180827829E-02	-1.10816482737E-02	2.87586629557E-02	1.41039952598E-01
1.71500000000E+09	-5.52211092041E-02	-4.49682786372E-02	-6.96525709367E-02	-7.91403402543E-03	-6.94468772389E-02	-8.01538542234E-03	3.54708420050E-02	1.44370459321E-01
1.71600000000E+09	-4.96633292884E-02	-4.11755887955E-02	-7.01004808876E-02	-4.85722308399E-03	-6.99093455678E-02	-5.00740255413E-03	4.22554898441E-02	1.47212124970E-01
1.71700000000E+09	-4.37601993453E-02	-3.78334186770E-02	-7.04363835454E-02	-1.79551130555E-03	-7.02213151146E-02	-1.89362171210E-03	4.92724711607E-02	1.49729774830E-01
1.71800000000E+09	-3.76619646059E-02	-3.47925262862E-02	-7.05713054444E-02	1.27966396837E-03	-7.03911903114E-02	1.17453905608E-03	5.62565593331E-02	1.51609264561E-01
1.71900000000E+09	-3.14538441067E-02	-3.23148885540E-02	-7.06180205513E-02	4.42923725932E-03	-7.04205951424E-02	4.33114067335E-03	6.35218807786E-02	1.53265874240E-01
1.72000000000E+09	-2.49803846293E-02	-3.02879110318E-02	-7.04952557307E-02	7.51425483281E-03	-7.02763049293E-02	7.40722416925E-03	7.07605342109E-02	1.54296046784E-01
1.72100000000E+09	-1.84859118848E-02	-2.85299959155E-02	-7.01482369116E-02	1.07394079862E-02	-7.00247911636E-02	1.06228336943E-02	7.82033891706E-02	1.54803866227E-01
1.72200000000E+09	-1.18374804095E-02	-2.73633543415E-02	-6.97723354195E-02	1.39084678042E-02	-6.95786306550E-02	1.36586059756E-02	8.55031554019E-02	1.55055468138E-01
1.72300000000E+09	-5.11387466536E-03	-2.65874558571E-02	-6.91833039361E-02	1.70241585703E-02	-6.90218115562E-02	1.68390223908E-02	9.27907989581E-02	1.54810372812E-01
1.72400000000E+09	1.47963624338E-03	-2.62396246216E-02	-6.84374772550E-02	2.01035018518E-02	-6.82797520631E-02	1.99273524853E-02	1.00129581357E-01	1.54018772870E-01
1.72500000000E+09	8.17483960017E-03	-2.64126155394E-02	-6.75433229368E-02	2.31637361829E-02	-6.74748187167E-02	2.29868339607E-02	1.07316712078E-01	1.52771030815E-01
1.72600000000E+09	1.47570560448E-02	-2.69265590660E-02	-6.65160958705E-02	2.62723017917E-02	-6.63685801086E-02	2.60266212479E-02	1.14369572799E-01	1.51045944475E-01
1.72700000000E+09	2.13211257225E-02	-2.78644482801E-02	-6.52836679250E-02	2.92513838868E-02	-6.51638581531E-02	2.90056877805E-02	1.21427650925E-01	1.48991375515E-01
1.72800000000E+09	2.76855911792E-02	-2.92857097428E-02	-6.39249380733E-02	3.21893013568E-02	-6.38483409565E-02	3.19701692307E-02	1.28216148674E-01	1.46435705220E-01
1.72900000000E+09	3.38611747798E-02	-3.10165189165E-02	-6.24429013856E-02	3.50394833420E-02	-6.24620552934E-02	3.48223747275E-02	1.34937611161E-01	1.43536820394E-01
1.73000000000E+09	3.99570188113E-02	-3.32405283941E-02	-6.08924255837E-02	3.78738178026E-02	-6.08048278266E-02	3.76596893314E-02	1.41318978318E-01	1.40186225302E-01
1.73100000000E+09	4.58769972014E-02	-3.57508997007E-02	-5.91030936026E-02	4.05091490739E-02	-5.90493453406E-02	4.02752711227E-02	1.47643987841E-01	1.36392750874E-01
1.73200000000E+09	5.15041507135E-02	-3.87033859968E-02	-5.71946054309E-02	4.31087797914E-02	-5.71061131021E-02	4.29482701992E-02	1.53594655882E-01	1.32267950227E-01
1.73300000000E+09	5.68850994427E-02	-4.18361457810E-02	-5.52466413613E-02	4.56813162026E-02	-5.51538516344E-02	4.54379958318E-02	1.59337619306E-01	1.27843789169E-01
1.73400000000E+09	6.20300312527E-02	-4.54485865811E-02	-5.30290495219E-02	4.80706443037E-02	-5.31079779878E-02	4.79312432663E-02	1.64810372874E-01	1.23022514787E-01
1.73500000000E+09	6.68293219134E-02	-4.93295291299E-02	-5.08454639486E-02	5.04384805744E-02	-5.08685131392E-02	5.01644892222E-02	1.69897455047E-01	1.17887309528E-01
1.73600000000E+09	7.12985112476E-02	-5.34001270524E-02	-4.85176581704E-02	5.26151333572E-02	-4.85635118397E-02	5.23793121981E-02	1.74586163380E-01	1.12297978617E-01
1.73700000000E+09	7.54991802897E-02	-5.77557949321E-02	-4.60695323445E-02	5.46649885995E-02	-4.61147026302E-02	5.44062573889E-02	1.79112601501E-01	1.06699276371E-01
1.73800000000E+09	7.93103539899E-02	-6.24040778189E-02	-4.35080388682E-02	5.66146555165E-02	-4.35707355161E-02	5.63223306777E-02	1.83098546290E-01	1.00721443213E-01
1.73900000000E+09	8.27750461706E-02	-6.72578853586E-02	-4.08838222299E-02	5.84083872481E-02	-4.10228030543E-02	5.81490684799E-02	1.86874310849E-01	9.44411062078E-02
1.74000000000E+09	8.57988554915E-02	-7.23072903098E-02	-3.82949031249E-02	6.00550820800E-02	-3.82924940189E-02	5.99449132918E-02	1.90145378519E-01	8.79235183029E-02
1.74100000000E+09	8.84180759677E-02	-7.74185256509E-02	-3.55033595028E-02	6.16193349231E-02	-3.56418903547E-02	6.14288432517E-02	1.93035224688E-01	8.14091546969E-02
1.74200000000E+09	9.07061962840E-02	-8.27365169194E-02	-3.27508611626E-02	6.30788635579E-02	-3.28218007600E-02	6.28548218673E-02	1.95457751900E-01	7.44934187787E-02
1.74300000000E+09	9.24003898246E-02	-8.80768925621E-02	-2.98623970627E-02	6.44175259804E-02	-2.99029635753E-02	6.41185938725E-02	1.97534502789E-01	6.74892417642E-02
1.74400000000E+09	9.37242892559E-02	-9.34659128353E-02	-2.69638468532E-02	6.55280183258E-02	-2.70779726420E-02	6.52432369073E-02	1.99142545307E-01	6.04384147433E-02
1.74500000000E+09	9.45460780121E-02	-9.88958817900E-02	-2.40153476571E-02	6.64251085670E-02	-2.40726621860E-02	6.62654416080E-02	2.00248637018E-01	5.32235026409E-02
1.74600000000E+09	9.49344449384E-02	-1.04290640184E-01	-2.10487878580E-02	6.72816150714E-02	-2.11822166554E-02	6.71184612467E-02	2.00908271179E-01	4.61108416147E-02
1.74700000000E+09	9.48311976197E-02	-1.09642905406E-01	-1.80702069580E-02	6.80831360064E-02	-1.82356771017E-02	6.78650920312E-02	2.01175187672E-01	3.87360133065E-02
1.74800000000E+09	9.42916151526E-02	-1.14792845924E-01	-1.51466590695E-02	6.86078465900E-02	-1.52477014983E-02	6.84491644350E-02	2.00944186642E-01	3.14700518883E-02
1.74900000000E+09	9.32783660270E-02	-1.19827242899E-01	-1.20894065070E-02	6.91296387540E-02	-1.22076756847E-02	6.88697378375E-02	2.00281534615E-01	2.43188844355E-02
1.75000000000E+09	9.17870414431E-02	-1.24702166937E-01	-9.18440954342E-03	6.94006210099E-02	-9.33151365475E-03	6.91960345856E-02	1.99124504658E-01	1.71112499765E-02
1.75100000000E+09	9.00326360918E-02	-1.29275062235E-01	-6.12021429904E-03	6.96178969656E-02	-6.30475513418E-03	6.93764521108E-02	1.97559260667E-01	9.95634539768E-03
1.75200000000E+09	8.77193098762E-02	-1.33634266661E-01	-3.22746311080E-03	6.95809242269E-02	-3.29343770235E-03	6.94660525928E-02	1.95445576909E-01	3.03825549016E-03
1.75300000000E+09	8.50990608986E-02	-1.37573713412E-01	-2.47222703137E-04	6.95817272302E-02	-3.64436515376E-04	6.94161277814E-02	1.92973985661E-01	-3.91117120506E-03
1.75400000000E+09	8.20399733461E-02	-1.41232754078E-01	2.66504369639E-03	6.93004805527E-02	2.49950189631E-03	6.92119457525E-02	1.89938373905E-01	-1.06083925015E-02
1.75500000000E+09	7.87564413510E-02	-1.44495730223E-01	5.56619366628E-03	6.90165968622E-02	5.42456079328E-03	6.89416864274E-02	1.86607970932E-01	-1.71660701157E-02
1.75600000000E+09	7.51039973749E-02	-1.47276644161E-01	8.44734982653E-03	6.85484806889E-02	8.31338955399E-03	6.84523900741E-02	1.82718439587E-01	-2.33124995952E-02
1.75700000000E+09	7.12495446251E-02	-1.49651107653E-01	1.12247164634E-02	6.80955201365E-02	1.10558944756E-02	6.79318183692E-02	1.78498037275E-01	-2.94310323314E-02
1.75800000000E+09	6.72429502410E-02	-1.51493085730E-01	1.40100669347E-02	6.74101403611E-02	1.38173609757E-02	6.73444103219E-02	1.73871877919E-01	-3.50909781916E-02
1.75900000000E+09	6.29979779729E-02	-1.52838617809E-01	1.67591946193E-02	6.66386161529E-02	1.65163318650E-02	6.65194737825E-02	1.68907164308E-01	-4.05015102733E-02
1.76000000000E+09	5.87143653605E-02	-1.53616600533E-01	1.94317254439E-02	6.58537206518E-02	1.92084249221E-02	6.57612948717E-02	1.63565559318E-01	-4.56313508001E-02
1.76100000000E+09	5.43949914924E-02	-1.53848558376E-01	2.20064262158E-02	6.48877027620E-02	2.18825899131E-02	6.47691389453E-02	1.57811054349E-01	-5.03661029527E-02
1.76200000000E+09	5.01456350988E-02	-1.53623489309E-01	2.46322754184E-02	6.38911432341E-02	2.44688929758E-02	6.37199513181E-02	1.51848725232E-01	-5.46885195156E-02
1.76300000000E+09	4.58977792210E-02	-1.52718286347E-01	2.71909910545E-02	6.27372531918E-02	2.69435288550E-02	6.26868267955E-02	1.45648205268E-01	-5.86744057649E-02
1.76400000000E+09	4.18618728973E-02	-1.51276162111E-01	2.96481548630E-02	6.15118862663E-02	2.94268996098E-02	6.14692492122E-02	1.39162986340E-01	-6.21984756825E-02
1.76500000000E+09	3.80541738795E-02	-1.49349600813E-01	3.20665628497E-02	6.03099344946E-02	3.18312028209E-02	6.01877917371E-02	1.32340467220E-01	-6.53499084542E-02
1.76600000000E+09	3.44313003398E-02	-1.46903465973E-01	3.43643964262E-02	5.89159114999E-02	3.42056865583E-02	5.88074382518E-02	1.25445702266E-01	-6.79591090083E-02
1.76700000000E+09	3.11873410921E-02	-1.43917014558E-01	3.67338009181E-02	5.74123299229E-02	3.64562575866E-02	5.74108968808E-02	1.18273841978E-01	-7.01656673818E-02
1.76800000000E+09	2.83314400684E-02	-1.40629925899E-01	3.89569644943E-02	5.59165754775E-02	3.87982952845E-02	5.59452073719E-02	1.11037953489E-01	-7.17989956313E-02
1.76900000000E+09	2.59000782363E-02	-1.36756448395E-01	4.12008086440E-02	5.43474317656E-02	4.10055446073E-02	5.43505411957E-02	1.03703530563E-01	-7.30122284060E-02
1.77000000000E+09	2.38907474772E-02	-1.32585682145E-01	4.33447253159E-02	5.26796901304E-02	4.30810211440E-02	5.26695857991E-02	9.62798621955E-02	-7.37987122732E-02
1.77100000000E+09	2.24525311873E-02	-1.28291614304E-01	4.53468665518E-02	5.10294849256E-02	4.52428977375E-02	5.09490985958E-02	8.87789231677E-02	-7.39973784195E-02
1.77200000000E+09	2.16400700670E-02	-1.23580929913E-01	4.74475286661E-02	4.92030157348E-02	4.72605817671E-02	4.91750483832E-02	8.14228990029E-02	-7.36965473332E-02
1.77300000000E+09	2.13011690430E-02	-1.18794629748E-01	4.95229635039E-02	4.72820054954E-02	4.93061235838E-02	4.72795087024E-02	7.39573110006E-02	-7.29573816613E-02
1.77400000000E+09	2.16526006101E-02	-1.13808920240E-01	5.14279848611E-02	4.53620237613E-02	5.11860293787E-02	4.53304132250E-02	6.65509274985E-02	-7.17087846862E-02
1.77500000000E+09	2.26058647014E-02	-1.08868462767E-01	5.33109433737E-02	4.33912505418E-02	5.30759471117E-02	4.33206770829E-02	5.93839975818E-02	-6.99473575491E-02
1.77600000000E+09	2.41716677274E-02	-1.04001659634E-01	5.51873611382E-02	4.12135479734E-02	5.49622078348E-02	4.12635284405E-02	5.22008835324E-02	-6.77523059280E-02
1.77700000000E+09	2.62756696221E-02	-9.92741573027E-02	5.69378385907E-02	3.90131183926E-02	5.66546453369E-02	3.90579044779E-02	4.52448397848E-02	-6.49828425896E-02
1.77800000000E+09	2.90014521084E-02	-9.46296160706E-02	5.85893074272E-02	3.67202546862E-02	5.83969564116E-02	3.68462735580E-02	3.84885690646E-02	-6.19227359994E-02
1.77900000000E+09	3.23301620481E-02	-9.03058256072E-02	6.02488601899E-02	3.44918818762E-02	6.00877412013E-02	3.45233552212E-02	3.19905319024E-02	-5.82976324038E-02
1.78000000000E+09	3.61067736213E-02	-8.62726786568E-02	6.18013041629E-02	3.20438271135E-02	6.15775396038E-02	3.21034225189E-02	2.56684349819E-02	-5.42422562793E-02
1.78100000000E+09	4.03895047007E-02	-8.26704245757E-02	6.32601954511E-02	2.95063574986E-02	6.30376186867E-02	2.95421675478E-02	1.96761249579E-02	-4.99338777971E-02
1.78200000000E+09	4.51490761442E-02	-7.94296740541E-02	6.46129599403E-02	2.68370724417E-02	6.44107376886E-02	2.69613100731E-02	1.40402716945E-02	-4.51541309456E-02
1.78300000000E+09	5.01837440439E-02	-7.66468799335E-02	6.58315902761E-02	2.42353963428E-02	6.55828792144E-02	2.42438457061E-02	8.61459641345E-03	-4.00005804540E-02
1.78400000000E+09	5.56525426399E-02	-7.44679086355E-02	6.70433471329E-02	2.14499427755E-02	6.68765520384E-02	2.15384485119E-02	3.57400252175E-03	-3.45881771165E-02
1.78500000000E+09	6.13372042145E-02	-7.28156173770E-02	6.81533296468E-02	1.86094229142E-02	6.80200774785E-02	1.87264487544E-02	-1.03944968747E-03	-2.87768223919E-02
1.78600000000E+09	6.71805446404E-02	-7.16450188829E-02	6.90857816369E-02	1.57054544579E-02	6.88782037934E-02	1.58169707769E-02	-5.35619537165E-03	-2.27914792927E-02
1.78700000000E+09	7.31165064294E-02	-7.10898286331E-02	6.98073625574E-02	1.26712756280E-02	6.96732456111E-02	1.28718273825E-02	-9.16142375082E-03	-1.63524397566E-02
1.78800000000E+09	7.91754495751E-02	-7.11405064645E-02	7.06018582000E-02	9.70253769057E-03	7.04219023683E-02	9.79666074593E-03	-1.25545841335E-02	-9.81640559143E-03
1.78900000000E+09	8.52335026346E-02	-7.17354352607E-02	7.11118563172E-02	6.57115774096E-03	7.09015474103E-02	6.72230563710E-03	-1.56373965284E-02	-3.05124242690E-03
1.79000000000E+09	9.12779915623E-02	-7.29872531441E-02	7.14832594352E-02	3.38745636260E-03	7.13921373030E-02	3.58334608744E-03	-1.82622740684E-02	3.83796338766E-03
1.79100000000E+09	9.70860983636E-02	-7.46356878309E-02	7.17152896292E-02	3.16240360550E-04	7.15809044608E-02	4.26964464955E-04	-2.03396943323E-02	1.09485689846E-02
1.79200000000E+09	1.02806173081E-01	-7.68573074554E-02	7.17593567355E-02	-2.98370599982E-03	7.16915114885E-02	-2.73026350895E-03	-2.19538543907E-02	1.80371826182E-02
1.79300000000E+09	1.08302757136E-01	-7.96128340673E-02	7.17885340054E-02	-6.12864905677E-03	7.16475235496E-02	-6.06004032894E-03	-2.30937873878E-02	2.53250643644E-02
1.79400000000E+09	1.13548665639E-01	-8.27693497686E-02	7.15642079889E-02	-9.37952323382E-03	7.14288567235E-02	-9.20959289077E-03	-2.38881598144E-02	3.25398484123E-02
1.79500000000E+09	1.18456123927E-01	-8.64155507010E-02	7.10998634356E-02	-1.26007068842E-02	7.09886085626E-02	-1.24204787192E-02	-2.40674213507E-02	3.99380600536E-02
1.79600000000E+09	1.23022906809E-01	-9.04218386008E-02	7.05799291798E-02	-1.57892612862E-02	7.04182683656E-02	-1.55887304203E-02	-2.38361333549E-02	4.72907364429E-02
1.79700000000E+09	1.27230324165E-01	-9.47364893603E-02	6.98471653394E-02	-1.89759938282E-02	6.96992107829E-02	-1.88181759436E-02	-2.31836583680E-02	5.45706058219E-02
1.79800000000E+09	1.30995632417E-01	-9.94674897122E-02	6.89276414362E-02	-2.21518970967E-02	6.88485930104E-02	-2.19808943539E-02	-2.19554153356E-02	6.18018615901E-02
1.79900000000E+09	1.34409399164E-01	-1.04349546273E-01	6.78663038695E-02	-2.52245715231E-02	6.78016316936E-02	-2.50388216380E-02	-2.03209012585E-02	6.90000604553E-02
1.80000000000E+09	1.37367944280E-01	-1.09583072560E-01	6.67008237116E-02	-2.82613858299E-02	6.65789641013E-02	-2.80518706051E-02	-1.82715847131E-02	7.59079334981E-02
1.80100000000E+09	1.39890120494E-01	-1.14912611758E-01	6.52857580852E-02	-3.13037029190E-02	6.52500173837E-02	-3.11161907084E-02	-1.57083916500E-02	8.28171722022E-02
1.80200000000E+09	1.42009688854E-01	-1.20395774927E-01	6.38135408774E-02	-3.41703345245E-02	6.38010993587E-02	-3.39508031925E-02	-1.28187372678E-02	8.95901336888E-02
1.80300000000E+09	1.43604759450E-01	-1.25962442155E-01	6.21480928172E-02	-3.69883678673E-02	6.21443852182E-02	-3.67486966344E-02	-9.44556284509E-03	9.60444979902E-02
1.80400000000E+09	1.44760369737E-01	-1.31652261563E-01	6.04008306895E-02	-3.96897758088E-02	6.03543331577E-02	-3.94454838822E-02	-5.56916264326E-03	1.02262255351E-01
1.80500000000E+09	1.45540033970E-01	-1.37274718514E-01	5.84742419053E-02	-4.23414985037E-02	5.84230123950E-02	-4.21451399294E-02	-1.45055055054E-03	1.08167636418E-01
1.80600000000E+09	1.45893251165E-01	-1.42973941180E-01	5.65306850023E-02	-4.49061206687E-02	5.64062954820E-02	-4.46009024203E-02	3.08638636581E-03	1.13893385697E-01
1.80700000000E+09	1.45682788526E-01	-1.48495493875E-01	5.43351691581E-02	-4.72801088915E-02	5.42522867444E-02	-4.70225115892E-02	7.97521511473E-03	1.19224496380E-01
1.80800000000E+09	1.45162424152E-01	-1.54088030497E-01	5.21133448713E-02	-4.95586736945E-02	5.20223093345E-02	-4.93127220819E-02	1.32978574819E-02	1.24386510179E-01
1.80900000000E+09	1.44262546723E-01	-1.59431998952E-01	4.97110222221E-02	-5.16493635992E-02	4.97430450340E-02	-5.15258968429E-02	1.88202301127E-02	1.28912007715E-01
1.81000000000E+09	1.42863791899E-01	-1.64733027367E-01	4.73621591212E-02	-5.38345281392E-02	4.73168242737E-02	-5.35222083715E-02	2.45632707404E-02	1.33302077776E-01
1.81100000000E+09	1.41223992558E-01	-1.69903261031E-01	4.47683080099E-02	-5.56720092234E-02	4.48569063339E-02	-5.54169146935E-02	3.06934480950E-02	1.37255207742E-01
1.81200000000E+09	1.39120076324E-01	-1.74759706533E-01	4.21933111410E-02	-5.74374760987E-02	4.22091760548E-02	-5.72117942805E-02	3.70835479019E-02	1.40701752155E-01
1.81300000000E+09	1.36779608539E-01	-1.79526064543E-01	3.95940663719E-02	-5.91467935176E-02	3.96007548951E-02	-5.88720349498E-02	4.35858310833E-02	1.43753588936E-01
1.81400000000E+09	1.34147073140E-01	-1.84005634747E-01	3.68588544859E-02	-6.06598599772E-02	3.69362397898E-02	-6.04407046978E-02	5.01785677741E-02	1.46534162874E-01
1.81500000000E+09	1.31049630943E-01	-1.88269425509E-01	3.40707803156E-02	-6.20464876486E-02	3.41463464312E-02	-6.18568407619E-02	5.70769826276E-02	1.48771999192E-01
1.81600000000E+09	1.27831499784E-01	-1.92236207285E-01	3.12803355256E-02	-6.33793631226E-02	3.14149108102E-02	-6.30844403318E-02	6.40927697686E-02	1.50485705661E-01
1.81700000000E+09	1.24337196698E-01	-1.95979624046E-01	2.85020061742E-02	-6.44419286015E-02	2.85764827764E-02	-6.41667361091E-02	7.10859677517E-02	1.51895604440E-01
1.81800000000E+09	1.20502960579E-01	-1.99339612400E-01	2.56777407010E-02	-6.54096706946E-02	2.56885512530E-02	-6.51810219240E-02	7.82849270069E-02	1.52748905026E-01
