# Hz S RI R 50
! CMT, CMT808U, 21440046, 21.4.3/4
! Date: 12/11/2025 6:16:05 PM
! Data: Format (Calibration Info)
! Freq	S11:Re/Im(F2)	S41:Re/Im(F2)	S14:Re/Im(F2)	S44:Re/Im(F2)
1.70000000000E+09	-1.51976363123E-01	-8.57860005763E-02	-5.93917060794E-02	-3.39093100878E-02	-5.89856740439E-02	-3.42076203588E-02	-8.90550209058E-02	4.43260161083E-02
1.70100000000E+09	-1.50897662163E-01	-8.08196886660E-02	-6.07824215671E-02	-3.14193495504E-02	-6.04578437846E-02	-3.17459524251E-02	-8.87407474343E-02	5.44999464496E-02
1.70200000000E+09	-1.49046892773E-01	-7.59874361288E-02	-6.21738029561E-02	-2.89537078995E-02	-6.18841355792E-02	-2.92244289168E-02	-8.79288188269E-02	6.45790433930E-02
1.70300000000E+09	-1.46752092928E-01	-7.13125241456E-02	-6.34011859390E-02	-2.63269379236E-02	-6.31868532193E-02	-2.67904339838E-02	-8.62470025247E-02	7.45307377015E-02
1.70400000000E+09	-1.43872213970E-01	-6.67402314110E-02	-6.46504323205E-02	-2.36315303938E-02	-6.43332969896E-02	-2.40981542646E-02	-8.39469794670E-02	8.43175859172E-02
1.70500000000E+09	-1.40376820555E-01	-6.24967002477E-02	-6.57032487990E-02	-2.09808467035E-02	-6.54655285780E-02	-2.13674017525E-02	-8.09941640966E-02	9.39377852682E-02
1.70600000000E+09	-1.36432477261E-01	-5.86499719686E-02	-6.66687577208E-02	-1.82466187533E-02	-6.64120114331E-02	-1.86479715196E-02	-7.74789237607E-02	1.03239731150E-01
1.70700000000E+09	-1.32076071209E-01	-5.50821617789E-02	-6.75524692112E-02	-1.54090537045E-02	-6.73620181163E-02	-1.57943949320E-02	-7.32605482696E-02	1.12447090930E-01
1.70800000000E+09	-1.27331300724E-01	-5.19498351354E-02	-6.82461081554E-02	-1.25418879466E-02	-6.80593432507E-02	-1.29472425520E-02	-6.85620056822E-02	1.21227815023E-01
1.70900000000E+09	-1.22308509857E-01	-4.92118117073E-02	-6.88412331644E-02	-9.50319928782E-03	-6.87217636094E-02	-9.98083910910E-03	-6.32665736978E-02	1.29688193781E-01
1.71000000000E+09	-1.16950335408E-01	-4.69907709299E-02	-6.94407965722E-02	-6.56357314559E-03	-6.91870526002E-02	-7.03177750041E-03	-5.74286912445E-02	1.37734278250E-01
1.71100000000E+09	-1.11437130912E-01	-4.52595167219E-02	-6.97693906692E-02	-3.52592755723E-03	-6.95925419154E-02	-4.02062622902E-03	-5.11311247488E-02	1.45353602069E-01
1.71200000000E+09	-1.05744604029E-01	-4.39425951955E-02	-6.99770879555E-02	-4.55648954369E-04	-6.99397108016E-02	-1.00182838049E-03	-4.42931623419E-02	1.52629833028E-01
1.71300000000E+09	-9.98970860984E-02	-4.32142723663E-02	-6.99749586052E-02	2.47673239003E-03	-6.99051000880E-02	2.11024835738E-03	-3.70952322980E-02	1.59338989696E-01
1.71400000000E+09	-9.40975176761E-02	-4.29092967437E-02	-6.99450880203E-02	5.70629456243E-03	-6.99039432552E-02	5.11299625991E-03	-2.95664629728E-02	1.65575026482E-01
1.71500000000E+09	-8.81350818551E-02	-4.30793011829E-02	-6.97458306015E-02	8.75382175704E-03	-6.96223561881E-02	8.28270218851E-03	-2.14566734218E-02	1.71319839746E-01
1.71600000000E+09	-8.23074986303E-02	-4.37023247905E-02	-6.93481268919E-02	1.18449249872E-02	-6.92747824262E-02	1.13254011782E-02	-1.31195129191E-02	1.76481386631E-01
1.71700000000E+09	-7.64592790913E-02	-4.48348607891E-02	-6.88503873644E-02	1.48931071025E-02	-6.87667054649E-02	1.44307699021E-02	-4.43557371148E-03	1.81221185013E-01
1.71800000000E+09	-7.07887687316E-02	-4.62561026102E-02	-6.81441273065E-02	1.79060099810E-02	-6.80952014273E-02	1.74314948228E-02	4.36328812447E-03	1.85151773153E-01
1.71900000000E+09	-6.53062822396E-02	-4.82357987950E-02	-6.73377597653E-02	2.09460218674E-02	-6.73090358820E-02	2.04898785422E-02	1.35471602979E-02	1.88793296745E-01
1.72000000000E+09	-5.99246283003E-02	-5.05995965060E-02	-6.63926453729E-02	2.38548566028E-02	-6.63440727087E-02	2.33955944879E-02	2.28405598695E-02	1.91640398593E-01
1.72100000000E+09	-5.48133567604E-02	-5.31694432100E-02	-6.52029896934E-02	2.68500728924E-02	-6.52632776594E-02	2.64136872207E-02	3.24246907641E-02	1.93847899504E-01
1.72200000000E+09	-4.98612825139E-02	-5.62085234498E-02	-6.39945949389E-02	2.97623125784E-02	-6.40209739606E-02	2.91784189494E-02	4.19467140062E-02	1.95652578893E-01
1.72300000000E+09	-4.50985159826E-02	-5.95093957747E-02	-6.26090539196E-02	3.25379037655E-02	-6.26783529587E-02	3.20205207370E-02	5.15792448499E-02	1.96786629771E-01
1.72400000000E+09	-4.07342475292E-02	-6.30667808414E-02	-6.10966324990E-02	3.52417462603E-02	-6.11726006761E-02	3.47545512299E-02	6.13159028285E-02	1.97234646815E-01
1.72500000000E+09	-3.65180213966E-02	-6.69861136866E-02	-5.94414958536E-02	3.78784991162E-02	-5.96350871862E-02	3.73978098886E-02	7.09834691472E-02	1.97059010370E-01
1.72600000000E+09	-3.26351625622E-02	-7.10409751354E-02	-5.76989538827E-02	4.05168587948E-02	-5.78229778299E-02	3.99927157350E-02	8.05544646803E-02	1.96235481969E-01
1.72700000000E+09	-2.89563977006E-02	-7.53124154621E-02	-5.57830840561E-02	4.29793734251E-02	-5.59461014733E-02	4.24701734032E-02	9.01981127265E-02	1.94927162232E-01
1.72800000000E+09	-2.56741356596E-02	-7.98554070112E-02	-5.37793437326E-02	4.53769367788E-02	-5.39685567832E-02	4.48980099678E-02	9.95894495495E-02	1.92943788775E-01
1.72900000000E+09	-2.27098723603E-02	-8.45301069882E-02	-5.16739814072E-02	4.76582650184E-02	-5.19953167268E-02	4.71790366119E-02	1.08938903584E-01	1.90449764871E-01
1.73000000000E+09	-1.99691770262E-02	-8.93983142631E-02	-4.95495074163E-02	4.98792554931E-02	-4.97737456393E-02	4.94382711232E-02	1.17985523953E-01	1.87353036470E-01
1.73100000000E+09	-1.74985393817E-02	-9.43610693966E-02	-4.72358331702E-02	5.18690618409E-02	-4.75003797853E-02	5.14253111772E-02	1.26916626742E-01	1.83627875060E-01
1.73200000000E+09	-1.54267053465E-02	-9.95350403354E-02	-4.48399041888E-02	5.38096006975E-02	-4.50721623017E-02	5.34444518221E-02	1.35535274113E-01	1.79385188922E-01
1.73300000000E+09	-1.36586962959E-02	-1.04661110083E-01	-4.24446652585E-02	5.56948054455E-02	-4.26793095261E-02	5.52779510492E-02	1.43907490652E-01	1.74693627561E-01
1.73400000000E+09	-1.22086176863E-02	-1.10033296537E-01	-3.98238915750E-02	5.73913299915E-02	-4.02419552446E-02	5.70935638494E-02	1.51966982846E-01	1.69429319622E-01
1.73500000000E+09	-1.11183319689E-02	-1.15466964624E-01	-3.72833009785E-02	5.90510551519E-02	-3.76623692384E-02	5.86125618735E-02	1.59630108726E-01	1.63683815002E-01
1.73600000000E+09	-1.04102828861E-02	-1.20817519567E-01	-3.46501861824E-02	6.05031273309E-02	-3.50353520128E-02	6.01207391695E-02	1.66830625902E-01	1.57310963811E-01
1.73700000000E+09	-9.97500102883E-03	-1.26267928698E-01	-3.19171097227E-02	6.18297017875E-02	-3.23322584046E-02	6.14464380706E-02	1.73795338711E-01	1.50824504101E-01
1.73800000000E+09	-9.93709012344E-03	-1.31787572855E-01	-2.91487421405E-02	6.30445244588E-02	-2.95631647311E-02	6.26575862110E-02	1.80152590588E-01	1.43735027358E-01
1.73900000000E+09	-1.01996887335E-02	-1.37336706892E-01	-2.63272255701E-02	6.41078581937E-02	-2.68386326371E-02	6.37679216447E-02	1.86244061851E-01	1.36260788084E-01
1.74000000000E+09	-1.09155039872E-02	-1.42798023127E-01	-2.35954825390E-02	6.50322972395E-02	-2.39603630841E-02	6.48305764573E-02	1.91736649813E-01	1.28347761661E-01
1.74100000000E+09	-1.19795268992E-02	-1.48144099732E-01	-2.07097729855E-02	6.58615590959E-02	-2.11982538652E-02	6.56299732860E-02	1.96764328644E-01	1.20324590659E-01
1.74200000000E+09	-1.32924914190E-02	-1.53508821701E-01	-1.78772330192E-02	6.66039899175E-02	-1.83138062494E-02	6.63390038878E-02	2.01207132029E-01	1.11753198905E-01
1.74300000000E+09	-1.51534857265E-02	-1.58682756582E-01	-1.49562328743E-02	6.72321913549E-02	-1.53660781211E-02	6.69002192335E-02	2.05181274841E-01	1.02983757760E-01
1.74400000000E+09	-1.72592771342E-02	-1.63730735347E-01	-1.20689988009E-02	6.76361122716E-02	-1.25513489350E-02	6.73519773989E-02	2.08598756866E-01	9.40447113713E-02
1.74500000000E+09	-1.98217412321E-02	-1.68615056522E-01	-9.16284760758E-03	6.78533063470E-02	-9.56997495335E-03	6.76873004836E-02	2.11368011169E-01	8.48314244738E-02
1.74600000000E+09	-2.26895039916E-02	-1.73351480892E-01	-6.25986658335E-03	6.80378427957E-02	-6.74507269711E-03	6.78971406797E-02	2.13543610238E-01	7.56147980538E-02
1.74700000000E+09	-2.59533287007E-02	-1.77847121217E-01	-3.38135300024E-03	6.81844571124E-02	-3.90660480630E-03	6.79886621598E-02	2.15215094350E-01	6.60479893490E-02
1.74800000000E+09	-2.94890533956E-02	-1.82015748752E-01	-5.87341595883E-04	6.80781917529E-02	-1.03220297824E-03	6.79532068533E-02	2.16256145171E-01	5.64949403988E-02
1.74900000000E+09	-3.33804626191E-02	-1.85928541327E-01	2.34418392137E-03	6.79664806809E-02	1.85478619953E-03	6.77599189644E-02	2.16711581882E-01	4.69938367451E-02
1.75000000000E+09	-3.76497750287E-02	-1.89582053255E-01	5.06102808355E-03	6.76451418946E-02	4.57414139277E-03	6.74936335883E-02	2.16499274999E-01	3.73461666654E-02
1.75100000000E+09	-4.19693777930E-02	-1.92809902611E-01	7.93388399023E-03	6.72611145467E-02	7.38128340846E-03	6.70944754730E-02	2.15723125822E-01	2.77128124121E-02
1.75200000000E+09	-4.67863138891E-02	-1.95732235634E-01	1.05841792179E-02	6.66617170353E-02	1.01931985757E-02	6.66283070525E-02	2.14246919122E-01	1.82477436456E-02
1.75300000000E+09	-5.16871389533E-02	-1.98122136241E-01	1.33493098062E-02	6.61111500670E-02	1.28925746045E-02	6.60334331983E-02	2.12269156640E-01	8.73536516844E-03
1.75400000000E+09	-5.68989494451E-02	-2.00169164151E-01	1.60026295938E-02	6.52831350978E-02	1.54939829218E-02	6.53160386018E-02	2.09542417542E-01	-5.75697592290E-04
1.75500000000E+09	-6.21958265365E-02	-2.01745348993E-01	1.86237421015E-02	6.44816373826E-02	1.81604117675E-02	6.45442769307E-02	2.06359672126E-01	-9.74485862386E-03
1.75600000000E+09	-6.76650730429E-02	-2.02747783137E-01	2.12098063892E-02	6.35192349377E-02	2.07536268362E-02	6.35650299379E-02	2.02478377024E-01	-1.85368254805E-02
1.75700000000E+09	-7.31062800301E-02	-2.03364634404E-01	2.36908010442E-02	6.25958734335E-02	2.32037457936E-02	6.25916308641E-02	1.98053944071E-01	-2.72710837314E-02
1.75800000000E+09	-7.86292199514E-02	-2.03405370512E-01	2.61832443024E-02	6.14515143024E-02	2.56595874872E-02	6.15572395685E-02	1.93080837926E-01	-3.55732727126E-02
1.75900000000E+09	-8.42150251492E-02	-2.02929883084E-01	2.85880781135E-02	6.02292893814E-02	2.80463571214E-02	6.02965613697E-02	1.87585980909E-01	-4.35779947225E-02
1.76000000000E+09	-8.96022939968E-02	-2.01886306349E-01	3.09243402888E-02	5.90317692487E-02	3.04022814042E-02	5.91210369308E-02	1.81572429983E-01	-5.12789519817E-02
1.76100000000E+09	-9.48742300048E-02	-2.00282388897E-01	3.31614868275E-02	5.76641586245E-02	3.27345361534E-02	5.77447992268E-02	1.74972571901E-01	-5.85281525616E-02
1.76200000000E+09	-9.99811419952E-02	-1.98289056251E-01	3.54546758791E-02	5.62865902626E-02	3.49934553352E-02	5.63316047180E-02	1.67995337234E-01	-6.53212727798E-02
1.76300000000E+09	-1.04833822186E-01	-1.95616826655E-01	3.76356287623E-02	5.47691774960E-02	3.71148284563E-02	5.49461805131E-02	1.60640389614E-01	-7.17253736821E-02
1.76400000000E+09	-1.09324007632E-01	-1.92436991266E-01	3.97352564042E-02	5.32014087766E-02	3.92477659493E-02	5.33777791821E-02	1.52833605516E-01	-7.75857515216E-02
1.76500000000E+09	-1.13427815539E-01	-1.88868355688E-01	4.17922851933E-02	5.16522847027E-02	4.12947813352E-02	5.17782804749E-02	1.44527730898E-01	-8.30115514968E-02
1.76600000000E+09	-1.17139570957E-01	-1.84814621191E-01	4.37295583234E-02	4.99429738409E-02	4.33080362111E-02	5.00928628931E-02	1.36032564131E-01	-8.77710054519E-02
1.76700000000E+09	-1.20287300609E-01	-1.80306475159E-01	4.57284821447E-02	4.81350642605E-02	4.51940024909E-02	4.84156022184E-02	1.27096726014E-01	-9.20431410164E-02
1.76800000000E+09	-1.22922036829E-01	-1.75671851311E-01	4.75777932437E-02	4.63441513097E-02	4.71793194131E-02	4.66469970519E-02	1.17980698187E-01	-9.56374327040E-02
1.76900000000E+09	-1.24941309605E-01	-1.70571349820E-01	4.94434231857E-02	4.44922113720E-02	4.90253707864E-02	4.47866645222E-02	1.08638358889E-01	-9.86611780921E-02
1.77000000000E+09	-1.26366433966E-01	-1.65288270664E-01	5.12309052777E-02	4.25497559095E-02	5.07394053704E-02	4.28453645938E-02	9.90796893282E-02	-1.01158572142E-01
1.77100000000E+09	-1.27177504399E-01	-1.60138686337E-01	5.28509680376E-02	4.06291490544E-02	5.25396499805E-02	4.08394660405E-02	8.93125723584E-02	-1.02924640552E-01
1.77200000000E+09	-1.27171976540E-01	-1.54744372422E-01	5.45700268426E-02	3.85282349960E-02	5.41823968395E-02	3.88191778382E-02	7.96281754870E-02	-1.04044640514E-01
1.77300000000E+09	-1.26621801066E-01	-1.49470438266E-01	5.62556298500E-02	3.63533018737E-02	5.58569869475E-02	3.66770938467E-02	6.97231191288E-02	-1.04568432136E-01
1.77400000000E+09	-1.25269943136E-01	-1.44303656851E-01	5.77724398287E-02	3.41817737910E-02	5.73605026200E-02	3.44753986172E-02	5.97936325588E-02	-1.04445416489E-01
1.77500000000E+09	-1.23343285750E-01	-1.39410310704E-01	5.92588290870E-02	3.19471352564E-02	5.88653872105E-02	3.22299170109E-02	5.00487182189E-02	-1.03626244068E-01
1.77600000000E+09	-1.20780334607E-01	-1.34865557146E-01	6.07324452765E-02	2.95230106658E-02	6.03567036426E-02	2.99209201129E-02	4.02014359608E-02	-1.02229263566E-01
1.77700000000E+09	-1.17696445704E-01	-1.30753001726E-01	6.20648337471E-02	2.70504499231E-02	6.16573301404E-02	2.74683187681E-02	3.05280366671E-02	-1.00060798627E-01
1.77800000000E+09	-1.14062104866E-01	-1.26992548383E-01	6.32804532711E-02	2.45266240398E-02	6.29709672622E-02	2.50073933794E-02	2.10381078704E-02	-9.74346700588E-02
1.77900000000E+09	-1.09947864855E-01	-1.23912196994E-01	6.44889657362E-02	2.20465323349E-02	6.42184943545E-02	2.24478055177E-02	1.17864468020E-02	-9.40430808282E-02
1.78000000000E+09	-1.05601867451E-01	-1.21317893760E-01	6.55557171494E-02	1.93635375119E-02	6.52505246891E-02	1.97835130729E-02	2.66236001154E-03	-9.00706393071E-02
1.78100000000E+09	-1.00908291798E-01	-1.19418244292E-01	6.65272771378E-02	1.65827050433E-02	6.62317280330E-02	1.70035703629E-02	-6.13436753367E-03	-8.56786005637E-02
1.78200000000E+09	-9.60286380634E-02	-1.18156026029E-01	6.73734189488E-02	1.36860740625E-02	6.71089968965E-02	1.42006091366E-02	-1.45391228193E-02	-8.05925134770E-02
1.78300000000E+09	-9.11265396168E-02	-1.17504833171E-01	6.80422229338E-02	1.08895081846E-02	6.77480871060E-02	1.12961260600E-02	-2.27141799620E-02	-7.49445922574E-02
1.78400000000E+09	-8.61503546775E-02	-1.17591461554E-01	6.86718579286E-02	7.91267840109E-03	6.84860459366E-02	8.39962089522E-03	-3.04817666830E-02	-6.89089900882E-02
1.78500000000E+09	-8.12785662527E-02	-1.18268025776E-01	6.91763767569E-02	4.91520454466E-03	6.90386412893E-02	5.42765605214E-03	-3.78010308567E-02	-6.22245012751E-02
1.78600000000E+09	-7.66088236174E-02	-1.19496071381E-01	6.94738074038E-02	1.88729043099E-03	6.92857917864E-02	2.38338254023E-03	-4.47049007963E-02	-5.52249401554E-02
1.78700000000E+09	-7.21386553106E-02	-1.21334586903E-01	6.95507639121E-02	-1.26961629591E-03	6.94547602275E-02	-6.53868211501E-04	-5.10670462057E-02	-4.76096837181E-02
1.78800000000E+09	-6.80249244100E-02	-1.23740889557E-01	6.96743806727E-02	-4.29665759209E-03	6.95450116410E-02	-3.79569631325E-03	-5.68950305200E-02	-3.96877946828E-02
1.78900000000E+09	-6.41613380146E-02	-1.26583909561E-01	6.94990488186E-02	-7.44155704573E-03	6.93503547834E-02	-6.90707582848E-03	-6.23506861886E-02	-3.13887462431E-02
1.79000000000E+09	-6.06909684891E-02	-1.29932582929E-01	6.91669465680E-02	-1.06137411557E-02	6.91477724015E-02	-1.00305763440E-02	-6.72353994143E-02	-2.28257855435E-02
1.79100000000E+09	-5.76889688922E-02	-1.33518472337E-01	6.86824485946E-02	-1.36044640545E-02	6.86565535841E-02	-1.31155194313E-02	-7.14444228064E-02	-1.38934146942E-02
1.79200000000E+09	-5.51142835074E-02	-1.37421440248E-01	6.80172522031E-02	-1.68080680131E-02	6.80727254367E-02	-1.61624727439E-02	-7.50580910844E-02	-4.82007412678E-03
1.79300000000E+09	-5.30125089823E-02	-1.41623638270E-01	6.73287879656E-02	-1.97872998771E-02	6.73116652152E-02	-1.93210834793E-02	-7.80301375334E-02	4.55802130436E-03
1.79400000000E+09	-5.13396866117E-02	-1.45952361040E-01	6.63770741585E-02	-2.28200347803E-02	6.64118799626E-02	-2.22708655916E-02	-8.05425400551E-02	1.39696209593E-02
1.79500000000E+09	-5.02371387242E-02	-1.50443247920E-01	6.52286038175E-02	-2.57691574470E-02	6.53007400612E-02	-2.52159981860E-02	-8.22656291417E-02	2.36989363940E-02
1.79600000000E+09	-4.95633468290E-02	-1.54980355116E-01	6.40188667370E-02	-2.86473043411E-02	6.40457941266E-02	-2.80861711587E-02	-8.34128356598E-02	3.34802152708E-02
1.79700000000E+09	-4.93255835118E-02	-1.59539252495E-01	6.26307482465E-02	-3.14803228250E-02	6.26867097943E-02	-3.09689367018E-02	-8.39973842104E-02	4.32658912969E-02
1.79800000000E+09	-4.96427130441E-02	-1.64158384860E-01	6.10710803049E-02	-3.42709974658E-02	6.12159859987E-02	-3.37429975831E-02	-8.37940680507E-02	5.30634770679E-02
1.79900000000E+09	-5.03002989522E-02	-1.68614674654E-01	5.94138919777E-02	-3.68893006965E-02	5.95869256907E-02	-3.63726064587E-02	-8.30114356540E-02	6.28795382681E-02
1.80000000000E+09	-5.14406177898E-02	-1.73061054717E-01	5.76720436196E-02	-3.94569040378E-02	5.78024392847E-02	-3.89033551315E-02	-8.16519288639E-02	7.24454031946E-02
1.80100000000E+09	-5.29315794592E-02	-1.77296322721E-01	5.57073005484E-02	-4.19713810410E-02	5.59432621201E-02	-4.14632997969E-02	-7.95734543931E-02	8.20554485929E-02
1.80200000000E+09	-5.47743081272E-02	-1.81408102005E-01	5.37286533130E-02	-4.43027893888E-02	5.40166188926E-02	-4.37803312562E-02	-7.70149809412E-02	9.15509688613E-02
1.80300000000E+09	-5.69983147095E-02	-1.85275216387E-01	5.15991684839E-02	-4.65599417642E-02	5.19103956447E-02	-4.60276126735E-02	-7.37386840664E-02	1.00721607767E-01
1.80400000000E+09	-5.95571868375E-02	-1.89026652347E-01	4.94437726348E-02	-4.86526838776E-02	4.97119465969E-02	-4.81517409184E-02	-6.98210391329E-02	1.09641144216E-01
1.80500000000E+09	-6.23242683856E-02	-1.92434643133E-01	4.71356581024E-02	-5.06893959833E-02	4.74146883625E-02	-5.02408083696E-02	-6.54731094909E-02	1.18248145143E-01
1.80600000000E+09	-6.53495639007E-02	-1.95749424102E-01	4.48501424781E-02	-5.26342671192E-02	4.50718192616E-02	-5.20898132479E-02	-6.05224131845E-02	1.26628978820E-01
1.80700000000E+09	-6.87217984426E-02	-1.98679569589E-01	4.23536521978E-02	-5.43785049698E-02	4.26308802369E-02	-5.38965141190E-02	-5.50594848585E-02	1.34591657214E-01
1.80800000000E+09	-7.22320315865E-02	-2.01441446088E-01	3.98891803301E-02	-5.60168748707E-02	4.01581916667E-02	-5.55770304265E-02	-4.89942452980E-02	1.42290765675E-01
1.80900000000E+09	-7.58860236441E-02	-2.03822019339E-01	3.72570685493E-02	-5.74451085387E-02	3.76590870405E-02	-5.71531068704E-02	-4.25493601402E-02	1.49336982368E-01
1.81000000000E+09	-7.98545031292E-02	-2.06057903453E-01	3.47413789297E-02	-5.89918342856E-02	3.50806883279E-02	-5.85234536024E-02	-3.57510149999E-02	1.56136831703E-01
1.81100000000E+09	-8.38902381352E-02	-2.08027124364E-01	3.20114385465E-02	-6.01866349529E-02	3.24882988523E-02	-5.97818506933E-02	-2.84224975490E-02	1.62432719672E-01
1.81200000000E+09	-8.81207708358E-02	-2.09525593652E-01	2.93370233481E-02	-6.13026907756E-02	2.97471155082E-02	-6.09455561857E-02	-2.06757929699E-02	1.68127783651E-01
1.81300000000E+09	-9.24194537895E-02	-2.10960415069E-01	2.66732461387E-02	-6.23773033839E-02	2.70788493449E-02	-6.19912920760E-02	-1.26534447958E-02	1.73339439445E-01
1.81400000000E+09	-9.67166054537E-02	-2.12014923195E-01	2.39155961599E-02	-6.32518416020E-02	2.43894831099E-02	-6.29610026590E-02	-4.49717471396E-03	1.78131063692E-01
1.81500000000E+09	-1.01304938786E-01	-2.12752665620E-01	2.11218681524E-02	-6.40272116001E-02	2.16076200983E-02	-6.37641447621E-02	4.13629563279E-03	1.82317630271E-01
1.81600000000E+09	-1.05777763908E-01	-2.13277164093E-01	1.83732101469E-02	-6.47568095652E-02	1.89113109111E-02	-6.44288281769E-02	1.29955643887E-02	1.85839435671E-01
1.81700000000E+09	-1.10376426057E-01	-2.13485402417E-01	1.56599916046E-02	-6.52200209273E-02	1.61405205646E-02	-6.49312395106E-02	2.19326058160E-02	1.88960005046E-01
