# Hz S RI R 50
! CMT, CMT808U, 21440046, 21.4.3/4
! Date: 12/11/2025 6:06:06 PM
! Data: Format (Calibration Info)
! Freq	S11:Re/Im(F2)	S41:Re/Im(F2)	S14:Re/Im(F2)	S44:Re/Im(F2)
1.70000000000E+09	-1.51805188433E-01	-8.60155447508E-02	-5.90813062530E-02	-2.98250233777E-02	-5.86937719703E-02	-3.01306031885E-02	-1.14223760823E-01	3.61292742148E-02
1.70100000000E+09	-1.50751764136E-01	-8.10624938384E-02	-6.02744304251E-02	-2.73613696760E-02	-5.99834798587E-02	-2.76844234669E-02	-1.13743206438E-01	4.69663549069E-02
1.70200000000E+09	-1.48933676207E-01	-7.62523881876E-02	-6.14680187332E-02	-2.49248882243E-02	-6.12145512960E-02	-2.52082586430E-02	-1.12715792140E-01	5.77503070847E-02
1.70300000000E+09	-1.46686231879E-01	-7.15763233015E-02	-6.24945664245E-02	-2.23461879515E-02	-6.23189761458E-02	-2.28027717994E-02	-1.10755979791E-01	6.83510859482E-02
1.70400000000E+09	-1.43849419203E-01	-6.70216603532E-02	-6.35654419035E-02	-1.97140279354E-02	-6.32739694712E-02	-2.01793023722E-02	-1.08161000382E-01	7.87983976822E-02
1.70500000000E+09	-1.40406375436E-01	-6.27633855526E-02	-6.44266060515E-02	-1.71352614529E-02	-6.42060642319E-02	-1.75160050424E-02	-1.04868416434E-01	8.90793655803E-02
1.70600000000E+09	-1.36513157838E-01	-5.89018548767E-02	-6.51923300537E-02	-1.44792714615E-02	-6.49689110755E-02	-1.48691259766E-02	-1.00967594295E-01	9.90058181168E-02
1.70700000000E+09	-1.32196973501E-01	-5.53252590867E-02	-6.58923261773E-02	-1.17417167943E-02	-6.57427369142E-02	-1.21087619982E-02	-9.63473182376E-02	1.08845899530E-01
1.70800000000E+09	-1.27488150503E-01	-5.21735048152E-02	-6.64159294791E-02	-8.96305224298E-03	-6.62728786258E-02	-9.36807660005E-03	-9.11678679936E-02	1.18225808717E-01
1.70900000000E+09	-1.22522527581E-01	-4.93957843365E-02	-6.68238636821E-02	-6.04337545569E-03	-6.67413857192E-02	-6.51657658696E-03	-8.53819384453E-02	1.27263259684E-01
1.71000000000E+09	-1.17196012948E-01	-4.71336907809E-02	-6.72790713878E-02	-3.23772439843E-03	-6.70626033904E-02	-3.68505007910E-03	-7.90224547914E-02	1.35858195209E-01
1.71100000000E+09	-1.11708177657E-01	-4.53738722231E-02	-6.74447803584E-02	-3.36786324917E-04	-6.72907959021E-02	-8.06746287533E-04	-7.21302289178E-02	1.44014577443E-01
1.71200000000E+09	-1.06033737720E-01	-4.40035736803E-02	-6.75141707380E-02	2.58119305088E-03	-6.74949874981E-02	2.06211697719E-03	-6.46903800754E-02	1.51774816600E-01
1.71300000000E+09	-1.00210355651E-01	-4.32290237874E-02	-6.73637724104E-02	5.38554013098E-03	-6.73489019046E-02	5.02748839963E-03	-5.68508059831E-02	1.58945422430E-01
1.71400000000E+09	-9.44323349285E-02	-4.28570213953E-02	-6.72210601698E-02	8.44383842147E-03	-6.72042709172E-02	7.86987359744E-03	-4.86366032976E-02	1.65606415109E-01
1.71500000000E+09	-8.84804155485E-02	-4.29867338243E-02	-6.69168790722E-02	1.13268957936E-02	-6.68213252517E-02	1.08696236172E-02	-3.98206668691E-02	1.71747140688E-01
1.71600000000E+09	-8.26474559158E-02	-4.35475236943E-02	-6.64288410560E-02	1.42625367103E-02	-6.63806409277E-02	1.37497268951E-02	-3.07488651390E-02	1.77254714350E-01
1.71700000000E+09	-7.67950781799E-02	-4.46284619362E-02	-6.58470094852E-02	1.71250244299E-02	-6.57819144548E-02	1.66776455509E-02	-2.12824877380E-02	1.82292153932E-01
1.71800000000E+09	-7.11060656841E-02	-4.60108737876E-02	-6.50700519998E-02	1.99605822322E-02	-6.50411843147E-02	1.95147695827E-02	-1.17064719482E-02	1.86510809119E-01
1.71900000000E+09	-6.56194700652E-02	-4.79299753330E-02	-6.41997128164E-02	2.28283665168E-02	-6.41881219824E-02	2.24004772621E-02	-1.71247940589E-03	1.90362883275E-01
1.72000000000E+09	-6.02060565844E-02	-5.02486186320E-02	-6.32020587204E-02	2.55632427971E-02	-6.31746101210E-02	2.51258479170E-02	8.42302297757E-03	1.93386619661E-01
1.72100000000E+09	-5.50603362722E-02	-5.27805798426E-02	-6.19841581520E-02	2.83805516019E-02	-6.20651841949E-02	2.79632334955E-02	1.88505533900E-02	1.95716570244E-01
1.72200000000E+09	-5.00705416490E-02	-5.57787514516E-02	-6.07586793330E-02	3.11291458300E-02	-6.07999695932E-02	3.05757553227E-02	2.92361792483E-02	1.97594292950E-01
1.72300000000E+09	-4.52826672909E-02	-5.90470823032E-02	-5.93419242435E-02	3.37469458849E-02	-5.94405355961E-02	3.32566087955E-02	3.97351245410E-02	1.98766905460E-01
1.72400000000E+09	-4.08839420256E-02	-6.25737305942E-02	-5.78383702306E-02	3.62946324937E-02	-5.79247673035E-02	3.58249943907E-02	5.03464271045E-02	1.99171214422E-01
1.72500000000E+09	-3.66452658862E-02	-6.64645862710E-02	-5.61949850605E-02	3.87748134690E-02	-5.63979624259E-02	3.83221932844E-02	6.09146708981E-02	1.98920224851E-01
1.72600000000E+09	-3.27147238520E-02	-7.05030139235E-02	-5.44534613828E-02	4.12702389368E-02	-5.45824429570E-02	4.07569480515E-02	7.13804463875E-02	1.97948137528E-01
1.72700000000E+09	-2.89904915127E-02	-7.47488013294E-02	-5.25634097731E-02	4.35899334735E-02	-5.27319023898E-02	4.31131673011E-02	8.18886792872E-02	1.96460905362E-01
1.72800000000E+09	-2.56740815364E-02	-7.92886943685E-02	-5.05678321995E-02	4.58595271711E-02	-5.07725954704E-02	4.53876078981E-02	9.21869498248E-02	1.94225910987E-01
1.72900000000E+09	-2.26606713663E-02	-8.39429207429E-02	-4.84931835495E-02	4.80082743515E-02	-4.88179701846E-02	4.75478922722E-02	1.02387653906E-01	1.91449664765E-01
1.73000000000E+09	-1.98758402741E-02	-8.88024624163E-02	-4.63962852168E-02	5.00969671034E-02	-4.66288329641E-02	4.96671901886E-02	1.12297824839E-01	1.87982042478E-01
1.73100000000E+09	-1.73708657679E-02	-9.37833961689E-02	-4.41186847361E-02	5.19754020469E-02	-4.43881384122E-02	5.15393604356E-02	1.22079180029E-01	1.83859862863E-01
1.73200000000E+09	-1.52554557980E-02	-9.89389102292E-02	-4.17455837768E-02	5.38004271111E-02	-4.19971963072E-02	5.34503028695E-02	1.31536297772E-01	1.79159816038E-01
1.73300000000E+09	-1.34552484655E-02	-1.04085309986E-01	-3.94038940268E-02	5.55876558530E-02	-3.96326242208E-02	5.51720476781E-02	1.40722198694E-01	1.73951358888E-01
1.73400000000E+09	-1.19591320316E-02	-1.09453777052E-01	-3.68095442954E-02	5.71537859162E-02	-3.72310974843E-02	5.68860321670E-02	1.49559033120E-01	1.68132451747E-01
1.73500000000E+09	-1.08439316064E-02	-1.14892902625E-01	-3.43085798810E-02	5.87271524173E-02	-3.46737494682E-02	5.83207760659E-02	1.57974363840E-01	1.61755861978E-01
1.73600000000E+09	-1.01080150202E-02	-1.20255694301E-01	-3.17105730351E-02	6.00705029037E-02	-3.20978727136E-02	5.97171525284E-02	1.65888597233E-01	1.54738358020E-01
1.73700000000E+09	-9.62700696124E-03	-1.25728481709E-01	-2.90144233868E-02	6.12930549479E-02	-2.94175163407E-02	6.09401292019E-02	1.73567643181E-01	1.47530620052E-01
1.73800000000E+09	-9.56217903426E-03	-1.31251682592E-01	-2.62697335591E-02	6.24323499546E-02	-2.66842948756E-02	6.20543964923E-02	1.80561766376E-01	1.39701607650E-01
1.73900000000E+09	-9.79771543434E-03	-1.36807355763E-01	-2.34919472070E-02	6.34009854239E-02	-2.39862455254E-02	6.30745589609E-02	1.87283545475E-01	1.31402181313E-01
1.74000000000E+09	-1.04742561544E-02	-1.42295298663E-01	-2.07975625424E-02	6.42245249209E-02	-2.11645472584E-02	6.40491903908E-02	1.93343317173E-01	1.22679971577E-01
1.74100000000E+09	-1.15094416883E-02	-1.47662475976E-01	-1.79432684049E-02	6.49522321446E-02	-1.84293129791E-02	6.47533038277E-02	1.98888359397E-01	1.13761067256E-01
1.74200000000E+09	-1.28069788588E-02	-1.53050911532E-01	-1.51569966585E-02	6.56086530877E-02	-1.55866033454E-02	6.53781625515E-02	2.03823008120E-01	1.04280597349E-01
1.74300000000E+09	-1.46469393603E-02	-1.58239671141E-01	-1.22652267528E-02	6.61491553837E-02	-1.26690301785E-02	6.58422510079E-02	2.08238112950E-01	9.45735819362E-02
1.74400000000E+09	-1.67245193451E-02	-1.63322129918E-01	-9.42643870886E-03	6.64637207748E-02	-9.88925924995E-03	6.62070827473E-02	2.12016414185E-01	8.46542669095E-02
1.74500000000E+09	-1.92805794352E-02	-1.68232866019E-01	-6.56636470792E-03	6.65819530636E-02	-6.95793033071E-03	6.64437304514E-02	2.15128529311E-01	7.44286962539E-02
1.74600000000E+09	-2.21307920101E-02	-1.73008065134E-01	-3.70160394198E-03	6.66819730877E-02	-4.17828360153E-03	6.65637416490E-02	2.17583403193E-01	6.41857652781E-02
1.74700000000E+09	-2.53856995139E-02	-1.77536960617E-01	-8.64934606386E-04	6.67228926504E-02	-1.37893091180E-03	6.65551826541E-02	2.19456413442E-01	5.35546434104E-02
1.74800000000E+09	-2.89031728600E-02	-1.81733570278E-01	1.88766755390E-03	6.65217811138E-02	1.43854792182E-03	6.64173671565E-02	2.20648395480E-01	4.29256127677E-02
1.74900000000E+09	-3.28011208149E-02	-1.85669003761E-01	4.74334146079E-03	6.63157606302E-02	4.26993896272E-03	6.61271372435E-02	2.21180545787E-01	3.23352855640E-02
1.75000000000E+09	-3.70528653824E-02	-1.89348277179E-01	7.40955615634E-03	6.58911252931E-02	6.92902938595E-03	6.57582582355E-02	2.21008853746E-01	2.15841593679E-02
1.75100000000E+09	-4.14012440336E-02	-1.92607244787E-01	1.02186836999E-02	6.54073414603E-02	9.68944172061E-03	6.52714679297E-02	2.20202053282E-01	1.08326259682E-02
1.75200000000E+09	-4.62047147900E-02	-1.95557199150E-01	1.28038957930E-02	6.47167098714E-02	1.24219083681E-02	6.47078274166E-02	2.18627699844E-01	2.51133689283E-04
1.75300000000E+09	-5.11082545958E-02	-1.97976271866E-01	1.54874325785E-02	6.40786579818E-02	1.50493685561E-02	6.40231395797E-02	2.16502492931E-01	-1.03915565666E-02
1.75400000000E+09	-5.63328708169E-02	-2.00029533704E-01	1.80778356492E-02	6.31659139400E-02	1.75847429521E-02	6.32123624384E-02	2.13536960732E-01	-2.08239427082E-02
1.75500000000E+09	-6.16413303391E-02	-2.01645168104E-01	2.06053548875E-02	6.22674575195E-02	2.01600624301E-02	6.23420975833E-02	2.10072625850E-01	-3.11022342626E-02
1.75600000000E+09	-6.71156381610E-02	-2.02649123967E-01	2.31116599386E-02	6.12083942780E-02	2.26679610963E-02	6.12662225804E-02	2.05823308129E-01	-4.09869873003E-02
1.75700000000E+09	-7.25804735735E-02	-2.03283994784E-01	2.54988364376E-02	6.02065486213E-02	2.50217486627E-02	6.02071392453E-02	2.00984644508E-01	-5.08319235600E-02
1.75800000000E+09	-7.81003959132E-02	-2.03333742686E-01	2.78670306194E-02	5.89626952719E-02	2.73702850610E-02	5.90900279934E-02	1.95524541426E-01	-6.01813108911E-02
1.75900000000E+09	-8.36969421429E-02	-2.02874039117E-01	3.01823734957E-02	5.76682899343E-02	2.96531232566E-02	5.77535815023E-02	1.89482148965E-01	-6.92358293555E-02
1.76000000000E+09	-8.90886958048E-02	-2.01828173218E-01	3.24030283748E-02	5.63928340228E-02	3.19021873302E-02	5.64992364666E-02	1.82849946013E-01	-7.79713007844E-02
1.76100000000E+09	-9.43692521580E-02	-2.00259713103E-01	3.45230403409E-02	5.49643726948E-02	3.41208334291E-02	5.50563963604E-02	1.75576802017E-01	-8.61911848845E-02
1.76200000000E+09	-9.94917142484E-02	-1.98269859334E-01	3.66850840882E-02	5.35167325443E-02	3.62484054923E-02	5.35713344170E-02	1.67852383494E-01	-9.39701119718E-02
1.76300000000E+09	-1.04361417111E-01	-1.95612066838E-01	3.87529816588E-02	5.19468594473E-02	3.82464692172E-02	5.21242458691E-02	1.59710535509E-01	-1.01266952564E-01
1.76400000000E+09	-1.08861353755E-01	-1.92433965491E-01	4.07157675664E-02	5.03203235570E-02	4.02510113070E-02	5.05036039359E-02	1.51044211986E-01	-1.08018152644E-01
1.76500000000E+09	-1.12959039624E-01	-1.88886100564E-01	4.26443221128E-02	4.87187624735E-02	4.21682986994E-02	4.88587197780E-02	1.41828919713E-01	-1.14269123355E-01
1.76600000000E+09	-1.16673425244E-01	-1.84843131455E-01	4.44427135253E-02	4.69850355048E-02	4.40356521654E-02	4.71472870880E-02	1.32366796639E-01	-1.19802286058E-01
1.76700000000E+09	-1.19840212639E-01	-1.80333336451E-01	4.63081844849E-02	4.51366333542E-02	4.57884609563E-02	4.54223435223E-02	1.22411402203E-01	-1.24824163866E-01
1.76800000000E+09	-1.22493097308E-01	-1.75728210241E-01	4.80225602312E-02	4.33374211838E-02	4.76597836685E-02	4.36497374884E-02	1.12235579729E-01	-1.29072760349E-01
1.76900000000E+09	-1.24499745327E-01	-1.70646978516E-01	4.97541212720E-02	4.14618540399E-02	4.93550598869E-02	4.17562713022E-02	1.01795271978E-01	-1.32699882925E-01
1.77000000000E+09	-1.25952128036E-01	-1.65387913742E-01	5.13861296949E-02	3.95038310554E-02	5.09268810872E-02	3.98052626705E-02	9.11062889007E-02	-1.35744801496E-01
1.77100000000E+09	-1.26773446416E-01	-1.60265746139E-01	5.28740515914E-02	3.75775075380E-02	5.25841149346E-02	3.78127642429E-02	8.01758698625E-02	-1.37982878049E-01
1.77200000000E+09	-1.26807353684E-01	-1.54900361516E-01	5.44531529676E-02	3.54944638836E-02	5.40961032761E-02	3.57879792484E-02	6.92993308577E-02	-1.39526053622E-01
1.77300000000E+09	-1.26293829597E-01	-1.49635405339E-01	5.60022517660E-02	3.33247448301E-02	5.56264951732E-02	3.36487919514E-02	5.81571780090E-02	-1.40393789446E-01
1.77400000000E+09	-1.24982116764E-01	-1.44482053553E-01	5.73782875826E-02	3.11723041843E-02	5.69979132541E-02	3.14636550918E-02	4.69862061931E-02	-1.40529024566E-01
1.77500000000E+09	-1.23103478658E-01	-1.39587871311E-01	5.87336476068E-02	2.89558721461E-02	5.83612134127E-02	2.92331786836E-02	3.59507013341E-02	-1.39900788092E-01
1.77600000000E+09	-1.20584303964E-01	-1.35049765564E-01	6.00583924646E-02	2.65482865229E-02	5.97157566117E-02	2.69516111006E-02	2.48294738602E-02	-1.38630990632E-01
1.77700000000E+09	-1.17550941665E-01	-1.30933286647E-01	6.12574728605E-02	2.41271281633E-02	6.08650384853E-02	2.45356815960E-02	1.38783086931E-02	-1.36508057551E-01
1.77800000000E+09	-1.13972192042E-01	-1.27159188984E-01	6.23175220741E-02	2.16457987628E-02	6.20472856864E-02	2.21098098325E-02	3.11066144811E-03	-1.33848416000E-01
1.77900000000E+09	-1.09916125931E-01	-1.24051450522E-01	6.33974972642E-02	1.92062659102E-02	6.31492879884E-02	1.95978612504E-02	-7.42300306863E-03	-1.30344608312E-01
1.78000000000E+09	-1.05623398501E-01	-1.21429868813E-01	6.43365120487E-02	1.65717071615E-02	6.40661653057E-02	1.69995440248E-02	-1.78273611476E-02	-1.26184089547E-01
1.78100000000E+09	-1.00990291064E-01	-1.19481465624E-01	6.51710856379E-02	1.38609302203E-02	6.48984150943E-02	1.42808361137E-02	-2.78570123858E-02	-1.21542335641E-01
1.78200000000E+09	-9.61497232390E-02	-1.18153727577E-01	6.58752798052E-02	1.10368688667E-02	6.56474550044E-02	1.15434416331E-02	-3.75255154081E-02	-1.16133809155E-01
1.78300000000E+09	-9.12853882992E-02	-1.17430515973E-01	6.64228967132E-02	8.33146840423E-03	6.61480478351E-02	8.72712798855E-03	-4.68932284068E-02	-1.10075941452E-01
1.78400000000E+09	-8.63317782244E-02	-1.17438397065E-01	6.69260677972E-02	5.44514971640E-03	6.67565535536E-02	5.90983262821E-03	-5.58624433512E-02	-1.03567298138E-01
1.78500000000E+09	-8.14779592217E-02	-1.18036646049E-01	6.73132825867E-02	2.54010880658E-03	6.71948524610E-02	3.03573755016E-03	-6.43333996555E-02	-9.63582461263E-02
1.78600000000E+09	-7.68104184519E-02	-1.19167957948E-01	6.74990956577E-02	-3.74978721376E-04	6.73276160238E-02	9.70515428602E-05	-7.23553569560E-02	-8.87341564813E-02
1.78700000000E+09	-7.23261647712E-02	-1.20936240522E-01	6.74687955969E-02	-3.41158972890E-03	6.73904013981E-02	-2.82467540836E-03	-7.98113558021E-02	-8.04608413803E-02
1.78800000000E+09	-6.81766858738E-02	-1.23245600015E-01	6.74954855993E-02	-6.32062307154E-03	6.73861651980E-02	-5.84213063464E-03	-8.66797890617E-02	-7.18164876213E-02
1.78900000000E+09	-6.42683768994E-02	-1.26001497887E-01	6.72217392332E-02	-9.34325666916E-03	6.71036169935E-02	-8.82901915648E-03	-9.31273643298E-02	-6.27298676674E-02
1.79000000000E+09	-6.07420254958E-02	-1.29284362883E-01	6.68279895536E-02	-1.23848233379E-02	6.68268370832E-02	-1.18161954907E-02	-9.89512948423E-02	-5.33404096529E-02
1.79100000000E+09	-5.76718361021E-02	-1.32803176973E-01	6.62695843877E-02	-1.52396431469E-02	6.62716456588E-02	-1.47711861364E-02	-1.04057161482E-01	-4.35176985435E-02
1.79200000000E+09	-5.50108214588E-02	-1.36649655589E-01	6.55520578331E-02	-1.82929825137E-02	6.56212046055E-02	-1.76762263263E-02	-1.08501863870E-01	-3.35175331457E-02
1.79300000000E+09	-5.28125826800E-02	-1.40806069552E-01	6.48235243640E-02	-2.11432220893E-02	6.48202436686E-02	-2.06940932141E-02	-1.12256397958E-01	-2.31593531678E-02
1.79400000000E+09	-5.10669527834E-02	-1.45099112000E-01	6.38405681001E-02	-2.40386138785E-02	6.38770208024E-02	-2.35025797741E-02	-1.15492083725E-01	-1.27273579722E-02
1.79500000000E+09	-4.98620271794E-02	-1.49584793742E-01	6.26676554943E-02	-2.68543895587E-02	6.27397286936E-02	-2.63279262374E-02	-1.17891735356E-01	-1.96476354200E-03
1.79600000000E+09	-4.91055801737E-02	-1.54115384866E-01	6.14373296479E-02	-2.95911010814E-02	6.14725116105E-02	-2.90458272812E-02	-1.19633955205E-01	8.93892488916E-03
1.79700000000E+09	-4.87817154191E-02	-1.58693760230E-01	6.00439731762E-02	-3.22913088055E-02	6.01070589384E-02	-3.18049498973E-02	-1.20746383377E-01	1.98099095394E-02
1.79800000000E+09	-4.90102966079E-02	-1.63321660478E-01	5.84857088449E-02	-3.49529342011E-02	5.86417396112E-02	-3.44465304895E-02	-1.21006472013E-01	3.07730994498E-02
1.79900000000E+09	-4.95984840279E-02	-1.67811585890E-01	5.68185353854E-02	-3.74535453481E-02	5.70103366557E-02	-3.69518582328E-02	-1.20645922631E-01	4.17506891326E-02
1.80000000000E+09	-5.06662945815E-02	-1.72292413503E-01	5.51029172847E-02	-3.98972156228E-02	5.52359404966E-02	-3.93695652378E-02	-1.19604121758E-01	5.25235194936E-02
1.80100000000E+09	-5.20890506170E-02	-1.76566976596E-01	5.31555109482E-02	-4.22993494161E-02	5.34004705317E-02	-4.18216650656E-02	-1.17801533743E-01	6.33083978146E-02
1.80200000000E+09	-5.38646363687E-02	-1.80711394769E-01	5.12038912309E-02	-4.45161057572E-02	5.14931551808E-02	-4.40180840439E-02	-1.15429062704E-01	7.40234489139E-02
1.80300000000E+09	-5.60341240879E-02	-1.84628369894E-01	4.91054606257E-02	-4.66607361955E-02	4.94132510863E-02	-4.61595293161E-02	-1.12283481071E-01	8.43991281011E-02
1.80400000000E+09	-5.85493583547E-02	-1.88435010125E-01	4.69827060874E-02	-4.86620783506E-02	4.72555062250E-02	-4.81845463584E-02	-1.08409552517E-01	9.45660190839E-02
1.80500000000E+09	-6.12727848554E-02	-1.91901819274E-01	4.46889380742E-02	-5.06095917844E-02	4.49867879784E-02	-5.01880739289E-02	-1.04040084696E-01	1.04406969649E-01
1.80600000000E+09	-6.42542195112E-02	-1.95283164219E-01	4.24477882877E-02	-5.24667721374E-02	4.26675355234E-02	-5.19532559500E-02	-9.90005436805E-02	1.14023744075E-01
1.80700000000E+09	-6.76039532947E-02	-1.98274567294E-01	3.99913509715E-02	-5.41261458995E-02	4.02637808512E-02	-5.36686762131E-02	-9.33750581578E-02	1.23179630597E-01
1.80800000000E+09	-7.10818643270E-02	-2.01088037976E-01	3.75644189375E-02	-5.56854773226E-02	3.78292165687E-02	-5.52629260913E-02	-8.70779753659E-02	1.32111083303E-01
1.80900000000E+09	-7.47220740678E-02	-2.03523891138E-01	3.49681728905E-02	-5.70380542428E-02	3.53681701499E-02	-5.67586829409E-02	-8.03034835805E-02	1.40353139499E-01
1.81000000000E+09	-7.86806694551E-02	-2.05826998705E-01	3.24937944350E-02	-5.85162238387E-02	3.28237893617E-02	-5.80531656528E-02	-7.31154114289E-02	1.48312121309E-01
1.81100000000E+09	-8.27053543934E-02	-2.07857194559E-01	2.98002289084E-02	-5.96260916180E-02	3.02643825950E-02	-5.92602160813E-02	-6.53224201326E-02	1.55751147025E-01
1.81200000000E+09	-8.69294433775E-02	-2.09409869254E-01	2.71591546584E-02	-6.06827659830E-02	2.75663276542E-02	-6.03380531312E-02	-5.70515448059E-02	1.62569654706E-01
1.81300000000E+09	-9.12286060079E-02	-2.10905391141E-01	2.45324419408E-02	-6.16813337272E-02	2.49400177320E-02	-6.13157737737E-02	-4.84202238454E-02	1.68875340472E-01
1.81400000000E+09	-9.55199085052E-02	-2.11997249252E-01	2.18138920346E-02	-6.24953409448E-02	2.22781521760E-02	-6.22298936740E-02	-3.95828035404E-02	1.74699370665E-01
1.81500000000E+09	-1.00121388798E-01	-2.12797677902E-01	1.90655498786E-02	-6.32106901910E-02	1.95364971650E-02	-6.29587024514E-02	-3.02218470962E-02	1.79891005204E-01
1.81600000000E+09	-1.04598226153E-01	-2.13358216020E-01	1.63357514052E-02	-6.38681873880E-02	1.68771942750E-02	-6.35609917841E-02	-2.05602318909E-02	1.84374578901E-01
1.81700000000E+09	-1.09201411909E-01	-2.13615673610E-01	1.36592928961E-02	-6.42720571532E-02	1.41454519903E-02	-6.40065695073E-02	-1.07777538788E-02	1.88358869784E-01
