# Hz S RI R 50
! CMT, CMT808U, 21440046, 21.4.3/4
! Date: 12/11/2025 6:08:58 PM
! Data: Format (Calibration Info)
! Freq	S11:Re/Im(F2)	S41:Re/Im(F2)	S14:Re/Im(F2)	S44:Re/Im(F2)
1.70000000000E+09	-1.51520144154E-01	-8.55174092225E-02	-6.41200799872E-02	-3.16144128942E-02	-6.37252679579E-02	-3.19632125507E-02	-8.55456141862E-02	7.80312098868E-02
1.70100000000E+09	-1.50437833981E-01	-8.06338081149E-02	-6.53773264427E-02	-2.88619258012E-02	-6.50642713569E-02	-2.92324683487E-02	-8.31217827665E-02	8.94386151434E-02
1.70200000000E+09	-1.48611752369E-01	-7.58776966643E-02	-6.66147819260E-02	-2.61373597420E-02	-6.63412785840E-02	-2.64528226294E-02	-8.00843174128E-02	1.00652562902E-01
1.70300000000E+09	-1.46369271376E-01	-7.12531260277E-02	-6.76646447039E-02	-2.32743020543E-02	-6.74531567994E-02	-2.37750197650E-02	-7.61453910777E-02	1.11551854408E-01
1.70400000000E+09	-1.43520534430E-01	-6.67470244594E-02	-6.87151244766E-02	-2.03528575679E-02	-6.84045386583E-02	-2.08583039677E-02	-7.15262714299E-02	1.22180757980E-01
1.70500000000E+09	-1.40078853680E-01	-6.25160584126E-02	-6.95480990333E-02	-1.74939570269E-02	-6.93168697030E-02	-1.79068209262E-02	-6.61747419310E-02	1.32504062108E-01
1.70600000000E+09	-1.36199068760E-01	-5.86956584449E-02	-7.02610288928E-02	-1.45671654331E-02	-7.00325052937E-02	-1.49884012171E-02	-6.02485732622E-02	1.42363604516E-01
1.70700000000E+09	-1.31881930135E-01	-5.51567972759E-02	-7.08962539526E-02	-1.15602302346E-02	-7.07266746205E-02	-1.19701489479E-02	-5.35779757486E-02	1.51960675934E-01
1.70800000000E+09	-1.27185436532E-01	-5.20273508024E-02	-7.13238588752E-02	-8.53925034359E-03	-7.11711643396E-02	-8.98068588429E-03	-4.64186416239E-02	1.61009366343E-01
1.70900000000E+09	-1.22213833689E-01	-4.92911845575E-02	-7.16358908749E-02	-5.39481874688E-03	-7.15353517815E-02	-5.89590340990E-03	-3.86333938365E-02	1.69559199888E-01
1.71000000000E+09	-1.16884724408E-01	-4.70445074137E-02	-7.19752616229E-02	-2.35560432446E-03	-7.17389782630E-02	-2.84497024358E-03	-3.03053090748E-02	1.77579462193E-01
1.71100000000E+09	-1.11429263815E-01	-4.53223062734E-02	-7.20123798885E-02	7.41896328909E-04	-7.18518499577E-02	2.28034347707E-04	-2.15251168057E-02	1.85004444947E-01
1.71200000000E+09	-1.05747201900E-01	-4.39832568374E-02	-7.19399837131E-02	3.86704624577E-03	-7.19246004962E-02	3.29333879893E-03	-1.22230990297E-02	1.91941031806E-01
1.71300000000E+09	-9.99304015306E-02	-4.32250085008E-02	-7.16436067962E-02	6.81642818156E-03	-7.16323180724E-02	6.42402447157E-03	-2.60540065178E-03	1.98183351327E-01
1.71400000000E+09	-9.41643715226E-02	-4.28787076860E-02	-7.13514657389E-02	1.00349742247E-02	-7.13379547545E-02	9.42650618774E-03	7.34669225832E-03	2.03800768187E-01
1.71500000000E+09	-8.82172183181E-02	-4.30301091425E-02	-7.08930847051E-02	1.30598902839E-02	-7.08079005302E-02	1.25711595633E-02	1.78057033102E-02	2.08798759704E-01
1.71600000000E+09	-8.23898502456E-02	-4.36158873207E-02	-7.02598027393E-02	1.61064717785E-02	-7.02026345127E-02	1.55702724363E-02	2.84372918483E-02	2.13032590292E-01
1.71700000000E+09	-7.65366074199E-02	-4.47184951738E-02	-6.95126762059E-02	1.90872887218E-02	-6.94561499634E-02	1.86242516225E-02	3.93801661845E-02	2.16726585781E-01
1.71800000000E+09	-7.08598630392E-02	-4.61198173321E-02	-6.85748071976E-02	2.20129109046E-02	-6.85658766662E-02	2.15423610049E-02	5.03513264087E-02	2.19527083128E-01
1.71900000000E+09	-6.53835583066E-02	-4.80561355635E-02	-6.75583378039E-02	2.49607451120E-02	-6.75620519477E-02	2.44950879405E-02	6.16280050008E-02	2.21901979435E-01
1.72000000000E+09	-5.99832860182E-02	-5.04170814673E-02	-6.64141566824E-02	2.77661154847E-02	-6.64015103132E-02	2.73077631322E-02	7.29405655814E-02	2.23359457505E-01
1.72100000000E+09	-5.48375644254E-02	-5.29606878693E-02	-6.50531565425E-02	3.06464470563E-02	-6.51511255513E-02	3.01938737134E-02	8.44664838179E-02	2.24052027154E-01
1.72200000000E+09	-4.98732970633E-02	-5.59958510730E-02	-6.36864171235E-02	3.34370571706E-02	-6.37505526544E-02	3.28462820414E-02	9.58401711257E-02	2.24261397447E-01
1.72300000000E+09	-4.50939344978E-02	-5.92880438345E-02	-6.21555999097E-02	3.60777193539E-02	-6.22529813153E-02	3.55676738065E-02	1.07187471771E-01	2.23682854327E-01
1.72400000000E+09	-4.07150745363E-02	-6.28468433293E-02	-6.05205083505E-02	3.86557614886E-02	-6.06203153436E-02	3.81568758260E-02	1.18549141767E-01	2.22362946654E-01
1.72500000000E+09	-3.64859901533E-02	-6.67668816875E-02	-5.87573406214E-02	4.11499485132E-02	-5.89656965122E-02	4.06749320763E-02	1.29728609102E-01	2.20288118496E-01
1.72600000000E+09	-3.25783965509E-02	-7.08235318835E-02	-5.69170670132E-02	4.36501893096E-02	-5.70507640652E-02	4.31231730070E-02	1.40701312497E-01	2.17540734251E-01
1.72700000000E+09	-2.88865919430E-02	-7.51017601523E-02	-5.49208081248E-02	4.59766300495E-02	-5.50983515312E-02	4.54743792194E-02	1.51618895888E-01	2.14218669852E-01
1.72800000000E+09	-2.55977950867E-02	-7.96656259320E-02	-5.28489619886E-02	4.82490483949E-02	-5.30608780940E-02	4.77611631411E-02	1.62184251229E-01	2.10162783266E-01
1.72900000000E+09	-2.26258960812E-02	-8.43384984364E-02	-5.06843226725E-02	5.03982621664E-02	-5.10260516156E-02	4.99201412703E-02	1.72588070065E-01	2.05546954282E-01
1.73000000000E+09	-1.98793851483E-02	-8.92201354955E-02	-4.85194278860E-02	5.24799335543E-02	-4.87653845307E-02	5.20465254948E-02	1.82560252039E-01	2.00279902569E-01
1.73100000000E+09	-1.74089336677E-02	-9.42064241575E-02	-4.61828597053E-02	5.43664577278E-02	-4.64697072179E-02	5.39100212776E-02	1.92282878678E-01	1.94365331007E-01
1.73200000000E+09	-1.53300547314E-02	-9.93821452826E-02	-4.37612106101E-02	5.61850359981E-02	-4.40249430843E-02	5.58337054206E-02	2.01574765209E-01	1.87885053779E-01
1.73300000000E+09	-1.35758212037E-02	-1.04535352007E-01	-4.13663257701E-02	5.79777399412E-02	-4.16150359976E-02	5.75440028778E-02	2.10490020860E-01	1.80930671577E-01
1.73400000000E+09	-1.21337878393E-02	-1.09913310500E-01	-3.87322650587E-02	5.95669932138E-02	-3.91743128512E-02	5.92695629569E-02	2.18940392626E-01	1.73406547316E-01
1.73500000000E+09	-1.10484548006E-02	-1.15359814409E-01	-3.62092287036E-02	6.11416973661E-02	-3.65935613254E-02	6.07284118029E-02	2.26899466551E-01	1.65406607319E-01
1.73600000000E+09	-1.03734221079E-02	-1.20724918549E-01	-3.35742737153E-02	6.25205881474E-02	-3.39812683709E-02	6.21496962512E-02	2.34234313333E-01	1.56762330713E-01
1.73700000000E+09	-9.93695611869E-03	-1.26195178452E-01	-3.08651823108E-02	6.37852783695E-02	-3.12821561694E-02	6.34035151125E-02	2.41284542730E-01	1.48000141449E-01
1.73800000000E+09	-9.92697526794E-03	-1.31713272178E-01	-2.81044861706E-02	6.49391179994E-02	-2.85317454825E-02	6.45570900594E-02	2.47521254657E-01	1.38699604083E-01
1.73900000000E+09	-1.02149350359E-02	-1.37254998826E-01	-2.52989783707E-02	6.59561132574E-02	-2.58174079222E-02	6.56235915832E-02	2.53438383729E-01	1.28962351406E-01
1.74000000000E+09	-1.09546104670E-02	-1.42713040134E-01	-2.25888266187E-02	6.68426783209E-02	-2.29629527709E-02	6.66500045526E-02	2.58587410101E-01	1.18859309264E-01
1.74100000000E+09	-1.20423373646E-02	-1.48068549522E-01	-1.97063497948E-02	6.76346014704E-02	-2.02077571812E-02	6.74164365712E-02	2.63190828258E-01	1.08682482778E-01
1.74200000000E+09	-1.33859168735E-02	-1.53410237742E-01	-1.68894024960E-02	6.83563912375E-02	-1.73419357437E-02	6.80984993785E-02	2.67091816917E-01	9.79792484440E-02
1.74300000000E+09	-1.52822900327E-02	-1.58572251049E-01	-1.39847718685E-02	6.89706673314E-02	-1.44062806194E-02	6.86544847857E-02	2.70426706267E-01	8.71212837660E-02
1.74400000000E+09	-1.74192194587E-02	-1.63615256600E-01	-1.11100025895E-02	6.93758497814E-02	-1.15935666268E-02	6.90999719448E-02	2.73085499440E-01	7.61518431784E-02
1.74500000000E+09	-1.99991347683E-02	-1.68452531585E-01	-8.19905720578E-03	6.95806066693E-02	-8.60761288035E-03	6.94180009041E-02	2.74974175504E-01	6.49551294071E-02
1.74600000000E+09	-2.28863585581E-02	-1.73167825380E-01	-5.29487279282E-03	6.97790438228E-02	-5.79229646028E-03	6.96325973605E-02	2.76221367355E-01	5.38413549922E-02
1.74700000000E+09	-2.61847944803E-02	-1.77629407134E-01	-2.40220872243E-03	6.99272134988E-02	-2.94005376036E-03	6.97317819518E-02	2.76835660416E-01	4.24163972527E-02
1.74800000000E+09	-2.97280589016E-02	-1.81751565127E-01	4.15886786748E-04	6.98229103650E-02	-4.95307288019E-05	6.97089382464E-02	2.76724927446E-01	3.10789878856E-02
1.74900000000E+09	-3.36420514473E-02	-1.85623312827E-01	3.34636312232E-03	6.97230411145E-02	2.86251307571E-03	6.95225531065E-02	2.75960933979E-01	1.98712372746E-02
1.75000000000E+09	-3.79126166941E-02	-1.89234792078E-01	6.10331035933E-03	6.94059485587E-02	5.59752104553E-03	6.92566731946E-02	2.74432598027E-01	8.58329578210E-03
1.75100000000E+09	-4.22541921774E-02	-1.92406032068E-01	9.01789292531E-03	6.90446703859E-02	8.45442539489E-03	6.88839364268E-02	2.72267784610E-01	-2.59760315967E-03
1.75200000000E+09	-4.70303939656E-02	-1.95268012497E-01	1.17109633072E-02	6.84601638791E-02	1.13061684939E-02	6.84334805883E-02	2.69329668693E-01	-1.35313937247E-02
1.75300000000E+09	-5.19303278825E-02	-1.97591322644E-01	1.45180494549E-02	6.79189406855E-02	1.40492346744E-02	6.78425879008E-02	2.65825217275E-01	-2.44309108742E-02
1.75400000000E+09	-5.71317690204E-02	-1.99588657707E-01	1.72236482581E-02	6.71074319841E-02	1.67054269588E-02	6.71441632295E-02	2.61503306104E-01	-3.50376854486E-02
1.75500000000E+09	-6.24069959382E-02	-2.01119820806E-01	1.99079955732E-02	6.63179713093E-02	1.94330261979E-02	6.63657113696E-02	2.56701360527E-01	-4.54263735006E-02
1.75600000000E+09	-6.78285877636E-02	-2.02051407561E-01	2.25553799870E-02	6.53582144897E-02	2.20952329875E-02	6.53912108634E-02	2.51077291476E-01	-5.53096504169E-02
1.75700000000E+09	-7.32375058693E-02	-2.02620950142E-01	2.51127918905E-02	6.44282223079E-02	2.46102119033E-02	6.44176831084E-02	2.44890059577E-01	-6.50790657805E-02
1.75800000000E+09	-7.87005374520E-02	-2.02599595003E-01	2.76614482893E-02	6.32697676562E-02	2.71435390165E-02	6.33896836123E-02	2.38129143147E-01	-7.42749380493E-02
1.75900000000E+09	-8.42276115351E-02	-2.02089232463E-01	3.01673881471E-02	6.20364784271E-02	2.95955133445E-02	6.21115766221E-02	2.30782767414E-01	-8.30751383933E-02
1.76000000000E+09	-8.95624750167E-02	-2.00999989896E-01	3.25794918415E-02	6.08179560156E-02	3.20443631422E-02	6.09198901713E-02	2.22870458518E-01	-9.14937912830E-02
1.76100000000E+09	-9.47546714105E-02	-1.99368504626E-01	3.49122154599E-02	5.94328790726E-02	3.44691027906E-02	5.95243589191E-02	2.14355327956E-01	-9.93189545732E-02
1.76200000000E+09	-9.97839836516E-02	-1.97343019206E-01	3.72809002357E-02	5.80238976998E-02	3.68086147035E-02	5.80841182296E-02	2.05454452510E-01	-1.06617220396E-01
1.76300000000E+09	-1.04552120858E-01	-1.94650007653E-01	3.95640755092E-02	5.64747532696E-02	3.90146705486E-02	5.66448446563E-02	1.96121168254E-01	-1.13366671720E-01
1.76400000000E+09	-1.08961390974E-01	-1.91464155202E-01	4.17400381753E-02	5.48593183015E-02	4.12342983937E-02	5.50326302472E-02	1.86342636963E-01	-1.19509737754E-01
1.76500000000E+09	-1.12961548190E-01	-1.87893556524E-01	4.38921381424E-02	5.32637497241E-02	4.33818602844E-02	5.33818298744E-02	1.76039407397E-01	-1.25083113951E-01
1.76600000000E+09	-1.16586923039E-01	-1.83863825511E-01	4.59265938415E-02	5.15004958088E-02	4.54840445508E-02	5.16467513837E-02	1.65549315053E-01	-1.29857566423E-01
1.76700000000E+09	-1.19643835163E-01	-1.79371968909E-01	4.80109199690E-02	4.96232192973E-02	4.74632000647E-02	4.99014642806E-02	1.54627970706E-01	-1.34055118758E-01
1.76800000000E+09	-1.22203942130E-01	-1.74789641007E-01	4.99542939437E-02	4.77568209055E-02	4.95555919585E-02	4.80683191604E-02	1.43514269677E-01	-1.37429078696E-01
1.76900000000E+09	-1.24109354475E-01	-1.69755552338E-01	5.19227382684E-02	4.58210348989E-02	5.14744002838E-02	4.61136982429E-02	1.32217217462E-01	-1.40096415600E-01
1.77000000000E+09	-1.25458762637E-01	-1.64530284873E-01	5.37720912089E-02	4.37734257729E-02	5.32772580724E-02	4.40829832186E-02	1.20722535696E-01	-1.42158978460E-01
1.77100000000E+09	-1.26202827135E-01	-1.59452243291E-01	5.54748861931E-02	4.17553721617E-02	5.51541574425E-02	4.19876403918E-02	1.09046605422E-01	-1.43355626491E-01
1.77200000000E+09	-1.26148661862E-01	-1.54160769462E-01	5.72681301840E-02	3.95499349388E-02	5.68872764591E-02	3.98587243109E-02	9.74971403472E-02	-1.43792338585E-01
1.77300000000E+09	-1.25537084727E-01	-1.48979988189E-01	5.90326031838E-02	3.72662730077E-02	5.86278648204E-02	3.76081313512E-02	8.57741414333E-02	-1.43514691387E-01
1.77400000000E+09	-1.24165363107E-01	-1.43905867230E-01	6.06111789568E-02	3.49770949383E-02	6.01894572127E-02	3.52821609155E-02	7.40566361193E-02	-1.42457273496E-01
1.77500000000E+09	-1.22224706337E-01	-1.39113200210E-01	6.21514504350E-02	3.26037786339E-02	6.17492088550E-02	3.29017057772E-02	6.25819484707E-02	-1.40588689258E-01
1.77600000000E+09	-1.19652306774E-01	-1.34677109225E-01	6.36750796593E-02	3.00357693602E-02	6.32914193538E-02	3.04607971866E-02	5.11195203791E-02	-1.38043841269E-01
1.77700000000E+09	-1.16580684437E-01	-1.30676572031E-01	6.50525448180E-02	2.74417134290E-02	6.46217017240E-02	2.78723435120E-02	3.98628393781E-02	-1.34627223500E-01
1.77800000000E+09	-1.12967621633E-01	-1.27013868503E-01	6.62750120024E-02	2.47612994145E-02	6.59607658699E-02	2.52681112031E-02	2.88991456328E-02	-1.30626745855E-01
1.77900000000E+09	-1.08897512243E-01	-1.24018762818E-01	6.75091346075E-02	2.21410929248E-02	6.72168980981E-02	2.25596857327E-02	1.82498745218E-02	-1.25761741796E-01
1.78000000000E+09	-1.04607722885E-01	-1.21519109180E-01	6.85799514217E-02	1.93099198301E-02	6.82662064905E-02	1.97498517006E-02	7.84764540669E-03	-1.20212676077E-01
1.78100000000E+09	-9.99775065322E-02	-1.19681629719E-01	6.95407220917E-02	1.63824249159E-02	6.92347452617E-02	1.68255324188E-02	-2.10306702017E-03	-1.14157773118E-01
1.78200000000E+09	-9.51557826971E-02	-1.18478683507E-01	7.03565280456E-02	1.33505326298E-02	7.00900286852E-02	1.38776313691E-02	-1.15768143386E-02	-1.07341169282E-01
1.78300000000E+09	-9.03442897151E-02	-1.17882833219E-01	7.09921725562E-02	1.04165443502E-02	7.06918938282E-02	1.08400635265E-02	-2.06542788521E-02	-9.98633360548E-02
1.78400000000E+09	-8.54383497964E-02	-1.17993141935E-01	7.15955017987E-02	7.29964460586E-03	7.14019210879E-02	7.79788269246E-03	-2.92286576914E-02	-9.19288308535E-02
1.78500000000E+09	-8.06458467856E-02	-1.18705344681E-01	7.20458946416E-02	4.16417853076E-03	7.19083859002E-02	4.69488126780E-03	-3.72024094158E-02	-8.33141040441E-02
1.78600000000E+09	-7.60525063309E-02	-1.19948268871E-01	7.22949249611E-02	1.01889994415E-03	7.21105330597E-02	1.52936398928E-03	-4.46302930684E-02	-7.43048298201E-02
1.78700000000E+09	-7.16570283726E-02	-1.21802103890E-01	7.23136662537E-02	-2.24700928005E-03	7.22203418086E-02	-1.62992267789E-03	-5.13686617835E-02	-6.46616170286E-02
1.78800000000E+09	-6.76155414367E-02	-1.24192076886E-01	7.23739512709E-02	-5.39146095296E-03	7.22500950637E-02	-4.87432209011E-03	-5.74036552271E-02	-5.46702702384E-02
1.78900000000E+09	-6.38096718512E-02	-1.27023080793E-01	7.21323661277E-02	-8.63461888520E-03	7.19937096642E-02	-8.08898501662E-03	-6.29242972298E-02	-4.42950823270E-02
1.79000000000E+09	-6.04015734769E-02	-1.30343777813E-01	7.17287804060E-02	-1.19139100109E-02	7.17173940017E-02	-1.13108880127E-02	-6.76955305883E-02	-3.36493131425E-02
1.79100000000E+09	-5.74545113193E-02	-1.33905870272E-01	7.11772978713E-02	-1.50069307453E-02	7.11640076103E-02	-1.44891284004E-02	-7.16497492496E-02	-2.26292455972E-02
1.79200000000E+09	-5.49255901096E-02	-1.37769463348E-01	7.04289750649E-02	-1.82799784858E-02	7.04974537507E-02	-1.76282191488E-02	-7.48353359063E-02	-1.14927202769E-02
1.79300000000E+09	-5.28565109529E-02	-1.41944086709E-01	6.96734731632E-02	-2.13570729422E-02	6.96675156573E-02	-2.08757920604E-02	-7.72420183963E-02	-8.63686622970E-05
1.79400000000E+09	-5.12250590779E-02	-1.46224791834E-01	6.86453165106E-02	-2.44622634377E-02	6.86959657216E-02	-2.39002473236E-02	-7.90238631607E-02	1.13127272655E-02
1.79500000000E+09	-5.01362010430E-02	-1.50685773150E-01	6.74279784419E-02	-2.75064335675E-02	6.75050724883E-02	-2.69282200570E-02	-7.98694205452E-02	2.29778121759E-02
1.79600000000E+09	-4.95073010282E-02	-1.55178850839E-01	6.61297988476E-02	-3.04491637537E-02	6.61763180063E-02	-2.98607525598E-02	-7.99790057118E-02	3.46262776405E-02
1.79700000000E+09	-4.92759051806E-02	-1.59719688935E-01	6.46694476186E-02	-3.33578854094E-02	6.47315305468E-02	-3.28296439445E-02	-7.93801204353E-02	4.61916541695E-02
1.79800000000E+09	-4.95998457957E-02	-1.64291811499E-01	6.30312478186E-02	-3.62086925283E-02	6.31849372029E-02	-3.56679142291E-02	-7.78740984202E-02	5.77026328802E-02
1.79900000000E+09	-5.02668677366E-02	-1.68726513055E-01	6.12772387610E-02	-3.89068994464E-02	6.14617428729E-02	-3.83627524398E-02	-7.56465734535E-02	6.91174271026E-02
1.80000000000E+09	-5.14191747167E-02	-1.73138010756E-01	5.94487615238E-02	-4.15273097239E-02	5.95946478581E-02	-4.09666233100E-02	-7.26955398209E-02	8.01872344108E-02
1.80100000000E+09	-5.29316613871E-02	-1.77336331157E-01	5.73893684515E-02	-4.41139101043E-02	5.76383604119E-02	-4.35969630360E-02	-6.89428415337E-02	9.11723541924E-02
1.80200000000E+09	-5.47569082733E-02	-1.81403316856E-01	5.53209291036E-02	-4.64877049661E-02	5.56200199908E-02	-4.59615507946E-02	-6.45750038366E-02	1.01910228530E-01
1.80300000000E+09	-5.70033287381E-02	-1.85236475434E-01	5.31044499865E-02	-4.88062534519E-02	5.34246269274E-02	-4.82658411218E-02	-5.94304600771E-02	1.12202668294E-01
1.80400000000E+09	-5.95442960599E-02	-1.88956361530E-01	5.08393542275E-02	-5.09554354230E-02	5.11262650855E-02	-5.04393862980E-02	-5.35165850019E-02	1.22113775532E-01
1.80500000000E+09	-6.23200263349E-02	-1.92339478242E-01	4.84152495603E-02	-5.30443198090E-02	4.87300777704E-02	-5.25769947309E-02	-4.71178161114E-02	1.31558823129E-01
1.80600000000E+09	-6.53354951905E-02	-1.95620040040E-01	4.60365929657E-02	-5.50224797190E-02	4.62733940334E-02	-5.44688609211E-02	-4.00371332573E-02	1.40637078199E-01
1.80700000000E+09	-6.86959744780E-02	-1.98523856358E-01	4.34397806053E-02	-5.67994021615E-02	4.37371936792E-02	-5.63094550048E-02	-3.23939485351E-02	1.49121752917E-01
1.80800000000E+09	-7.21885538322E-02	-2.01249790567E-01	4.08560939323E-02	-5.84563276451E-02	4.11508692853E-02	-5.80153091058E-02	-2.41073392594E-02	1.57214606677E-01
1.80900000000E+09	-7.58308104574E-02	-2.03600945823E-01	3.81159771066E-02	-5.99149827018E-02	3.85427123407E-02	-5.96103258057E-02	-1.54140870747E-02	1.64462840603E-01
1.81000000000E+09	-7.97822951060E-02	-2.05805253926E-01	3.54909015678E-02	-6.14753476911E-02	3.58418198454E-02	-6.09984379340E-02	-6.33871846106E-03	1.71315188913E-01
1.81100000000E+09	-8.37929646367E-02	-2.07744608346E-01	3.26481463165E-02	-6.26770562366E-02	3.31423084161E-02	-6.22725151910E-02	3.29387007406E-03	1.77502529514E-01
1.81200000000E+09	-8.80004070621E-02	-2.09232291410E-01	2.98721621709E-02	-6.37984658878E-02	3.02996929986E-02	-6.34208025230E-02	1.33357387758E-02	1.82931382185E-01
1.81300000000E+09	-9.22659842927E-02	-2.10655153667E-01	2.71015614425E-02	-6.48657435427E-02	2.75251198407E-02	-6.44788446286E-02	2.36216477127E-02	1.87699373572E-01
1.81400000000E+09	-9.65417021278E-02	-2.11687009761E-01	2.42355575670E-02	-6.57384356504E-02	2.47220124049E-02	-6.54452236627E-02	3.40517700365E-02	1.91922162193E-01
1.81500000000E+09	-1.01103726926E-01	-2.12412096987E-01	2.13435517718E-02	-6.64916292049E-02	2.18375697993E-02	-6.62361194827E-02	4.49163659317E-02	1.95348481532E-01
1.81600000000E+09	-1.05556509906E-01	-2.12912045905E-01	1.84790332677E-02	-6.72084919780E-02	1.90400981013E-02	-6.68746623569E-02	5.59491705807E-02	1.97980615362E-01
1.81700000000E+09	-1.10116348054E-01	-2.13109865925E-01	1.56660792155E-02	-6.76481143354E-02	1.61798142953E-02	-6.73598282054E-02	6.70075169580E-02	2.00036667541E-01
