# Hz S RI R 50
! CMT, CMT808U, 21440046, 21.4.3/4
! Date: 12/11/2025 11:17:02 AM
! Data: Format (Calibration Info)
! Freq	S11:Re/Im(F2)	S41:Re/Im(F2)	S14:Re/Im(F2)	S44:Re/Im(F2)
1.70000000000E+09	-2.01448734536E-01	-1.10145664992E-01	-5.27153662647E-02	-4.68067146557E-02	-5.20185199563E-02	-4.74450778891E-02	1.42808374366E-02	5.21316515121E-02
1.70167224080E+09	-2.02413935343E-01	-1.01934065321E-01	-5.57925153230E-02	-4.32375271193E-02	-5.51512721794E-02	-4.39337560676E-02	1.58387342121E-02	5.99139607884E-02
1.70334448161E+09	-2.01882467835E-01	-9.34514498389E-02	-5.86975908403E-02	-3.94948464936E-02	-5.81125607295E-02	-4.02181128059E-02	1.82586232504E-02	6.75319683637E-02
1.70501672241E+09	-1.99854329964E-01	-8.49420180262E-02	-6.14140379262E-02	-3.55518734091E-02	-6.08796995388E-02	-3.63138095325E-02	2.15139956338E-02	7.48621816591E-02
1.70668896321E+09	-1.96341400197E-01	-7.67043724241E-02	-6.39181199386E-02	-3.13976616256E-02	-6.34336191850E-02	-3.21875510849E-02	2.55382519417E-02	8.18802824740E-02
1.70836120401E+09	-1.91505550050E-01	-6.89237865015E-02	-6.61859317940E-02	-2.70396055098E-02	-6.57531582605E-02	-2.78530096593E-02	3.03406139461E-02	8.84264488599E-02
1.71003344482E+09	-1.85427039220E-01	-6.18751051055E-02	-6.81937568055E-02	-2.24723532945E-02	-6.78341120954E-02	-2.33206609079E-02	3.58143613193E-02	9.44621781748E-02
1.71170568562E+09	-1.78285553704E-01	-5.57050392397E-02	-6.99254721711E-02	-1.77171286553E-02	-6.96069110007E-02	-1.85807810331E-02	4.19136143711E-02	9.99007129892E-02
1.71337792642E+09	-1.70216335935E-01	-5.05457556805E-02	-7.13084296630E-02	-1.27658871662E-02	-7.10614915335E-02	-1.36702820029E-02	4.85205442920E-02	1.04679757965E-01
1.71505016722E+09	-1.61466648919E-01	-4.65261246048E-02	-7.23760475214E-02	-7.67070716184E-03	-7.21766458884E-02	-8.58611888392E-03	5.56328735264E-02	1.08757011710E-01
1.71672240803E+09	-1.52157503558E-01	-4.37080517757E-02	-7.30434074285E-02	-2.42738710026E-03	-7.29180034514E-02	-3.36052575124E-03	6.31388393613E-02	1.12079923022E-01
1.71839464883E+09	-1.42546742185E-01	-4.21518451784E-02	-7.33215218634E-02	2.90975471248E-03	-7.32618478783E-02	1.96395298118E-03	7.09279165869E-02	1.14616721989E-01
1.72006688963E+09	-1.32824481912E-01	-4.18842559542E-02	-7.31696787846E-02	8.30184445395E-03	-7.31718674383E-02	7.34667903570E-03	7.89597099343E-02	1.16366636190E-01
1.72173913043E+09	-1.23138513480E-01	-4.28659473613E-02	-7.25957703263E-02	1.37219003629E-02	-7.26652352596E-02	1.27670454977E-02	8.71006190733E-02	1.17270651482E-01
1.72341137124E+09	-1.13707713930E-01	-4.50803699574E-02	-7.15874216898E-02	1.91086634428E-02	-7.17230906301E-02	1.81680689449E-02	9.53012549312E-02	1.17359276271E-01
1.72508361204E+09	-1.04680985842E-01	-4.84293381136E-02	-7.01203805438E-02	2.44655206144E-02	-7.03361067948E-02	2.35195352633E-02	1.03441344796E-01	1.16616307099E-01
1.72675585284E+09	-9.62141730700E-02	-5.28601939809E-02	-6.82253001990E-02	2.96801266209E-02	-6.84980565853E-02	2.87462843056E-02	1.11460493627E-01	1.15058769318E-01
1.72842809365E+09	-8.84630412647E-02	-5.82690840351E-02	-6.58966355213E-02	3.47359396007E-02	-6.62379957355E-02	3.38374241041E-02	1.19284647564E-01	1.12715880903E-01
1.73010033445E+09	-8.15201577498E-02	-6.45384464345E-02	-6.31521092188E-02	3.96095485443E-02	-6.35599190968E-02	3.87381825832E-02	1.26812563369E-01	1.09603365066E-01
1.73177257525E+09	-7.55025905593E-02	-7.15452474229E-02	-6.00194693302E-02	4.42464686577E-02	-6.04948151225E-02	4.34031425145E-02	1.33988099731E-01	1.05717905444E-01
1.73344481605E+09	-7.04962117115E-02	-7.91445794997E-02	-5.65178387045E-02	4.86040082847E-02	-5.70539422346E-02	4.78034818566E-02	1.40716782208E-01	1.01163153562E-01
1.73511705686E+09	-6.65636281364E-02	-8.71771072902E-02	-5.26826187173E-02	5.26535232200E-02	-5.32749442590E-02	5.18998266425E-02	1.46956276892E-01	9.59290024735E-02
1.73678929766E+09	-6.37328205824E-02	-9.55364321795E-02	-4.85343818727E-02	5.63668011021E-02	-4.91853563250E-02	5.56492109799E-02	1.52635171045E-01	9.00823308053E-02
1.73846153846E+09	-6.20602568444E-02	-1.04037001149E-01	-4.41222239401E-02	5.97258883139E-02	-4.48217561214E-02	5.90536175409E-02	1.57672834604E-01	8.36754555704E-02
1.74013377926E+09	-6.15070579262E-02	-1.12541612708E-01	-3.94756520229E-02	6.26986389504E-02	-4.02241613095E-02	6.20861575000E-02	1.62033597255E-01	7.68014726874E-02
1.74180602007E+09	-6.20788323536E-02	-1.20909297891E-01	-3.46432670786E-02	6.52724163761E-02	-3.54275055768E-02	6.47098848672E-02	1.65652084369E-01	6.94894134171E-02
1.74347826087E+09	-6.37531764824E-02	-1.28984656557E-01	-2.96528112944E-02	6.74485026277E-02	-3.04772868703E-02	6.69405992875E-02	1.68502772135E-01	6.18208405276E-02
1.74515050167E+09	-6.64870042327E-02	-1.36647678654E-01	-2.45545402182E-02	6.91977100619E-02	-2.54094207023E-02	6.87489993384E-02	1.70561578575E-01	5.38679213809E-02
1.74682274247E+09	-7.02249411676E-02	-1.43763297416E-01	-1.93810072370E-02	7.05364783584E-02	-2.02603344309E-02	7.01592064764E-02	1.71753104941E-01	4.57122387189E-02
1.74849498328E+09	-7.49160824257E-02	-1.50210072797E-01	-1.41653180841E-02	7.14676887997E-02	-1.50742178179E-02	7.11574227404E-02	1.72098426394E-01	3.74320013644E-02
1.75016722408E+09	-8.04693700918E-02	-1.55831350649E-01	-8.97589227880E-03	7.20034056862E-02	-9.90417770676E-03	7.17532844012E-02	1.71534397977E-01	2.91386125048E-02
1.75183946488E+09	-8.67658650360E-02	-1.60503553108E-01	-3.80979810123E-03	7.21575618086E-02	-4.74358024705E-03	7.19631923431E-02	1.70114405338E-01	2.08893894293E-02
1.75351170569E+09	-9.37014999771E-02	-1.64154404507E-01	1.29523924176E-03	7.19308558260E-02	3.44566505184E-04	7.18031916024E-02	1.67760750127E-01	1.27554930836E-02
1.75518394649E+09	-1.01145240211E-01	-1.66634405463E-01	6.29177288201E-03	7.13521770314E-02	5.33914459172E-03	7.12871079885E-02	1.64553693203E-01	4.89864020456E-03
1.75685618729E+09	-1.08910817030E-01	-1.67871178742E-01	1.11760536248E-02	7.04481929072E-02	1.02392725077E-02	7.04507962828E-02	1.60505314734E-01	-2.62659395169E-03
1.75852842809E+09	-1.16823054471E-01	-1.67783644195E-01	1.59330727874E-02	6.92378371118E-02	1.49734975416E-02	6.92849661049E-02	1.55606434175E-01	-9.71068940052E-03
1.76020066890E+09	-1.24666114104E-01	-1.66333051391E-01	2.05272560081E-02	6.77287676602E-02	1.95849476138E-02	6.78514000471E-02	1.49920132555E-01	-1.63133748147E-02
1.76187290970E+09	-1.32242144864E-01	-1.63510906574E-01	2.49800195730E-02	6.59680154538E-02	2.40400699405E-02	6.61446877883E-02	1.43531650355E-01	-2.23044971758E-02
1.76354515050E+09	-1.39298767356E-01	-1.59340692629E-01	2.92596571854E-02	6.39600000856E-02	2.83358161564E-02	6.41987921245E-02	1.36462918513E-01	-2.75925283703E-02
1.76521739130E+09	-1.45575921724E-01	-1.53893243384E-01	3.33791592638E-02	6.17194817147E-02	3.24674621712E-02	6.20244489863E-02	1.28796573541E-01	-3.21287281973E-02
1.76688963211E+09	-1.50826126700E-01	-1.47297339921E-01	3.73234197111E-02	5.92822655263E-02	3.64321892191E-02	5.96318387336E-02	1.20620470079E-01	-3.58437749540E-02
1.76856187291E+09	-1.54854459654E-01	-1.39729966696E-01	4.11228625381E-02	5.66457893916E-02	4.02412414599E-02	5.70547392934E-02	1.12037486333E-01	-3.86610503167E-02
1.77023411371E+09	-1.57494581884E-01	-1.31431063126E-01	4.47561208726E-02	5.38088355408E-02	4.38970526187E-02	5.42830535289E-02	1.03159462723E-01	-4.05745728926E-02
1.77190635452E+09	-1.58557939097E-01	-1.22689891814E-01	4.82348536311E-02	5.07876315199E-02	4.74087666602E-02	5.13186001884E-02	9.40604735447E-02	-4.14957637474E-02
1.77357859532E+09	-1.57990139546E-01	-1.13754496219E-01	5.15575729599E-02	4.75757820109E-02	5.07631444888E-02	4.81684980471E-02	8.48609456974E-02	-4.14476133723E-02
1.77525083612E+09	-1.55761451763E-01	-1.04996200157E-01	5.47332931166E-02	4.41707580346E-02	5.39764760645E-02	4.48083457712E-02	7.57077525454E-02	-4.04007963785E-02
1.77692307692E+09	-1.51935866392E-01	-9.67314952427E-02	5.77460407546E-02	4.05457621197E-02	5.70206820935E-02	4.12483563588E-02	6.66631288523E-02	-3.83548960197E-02
1.77859531773E+09	-1.46598306575E-01	-8.92679084559E-02	6.05795434486E-02	3.67018740587E-02	5.98934958663E-02	3.74648964506E-02	5.78844107784E-02	-3.53645157949E-02
1.78026755853E+09	-1.39975539504E-01	-8.29030878097E-02	6.32102197847E-02	3.26341725134E-02	6.25879048414E-02	3.34519857266E-02	4.94591004182E-02	-3.14590828150E-02
1.78193979933E+09	-1.32297502252E-01	-7.78332854449E-02	6.56317315340E-02	2.83366650603E-02	6.50508161664E-02	2.92120655610E-02	4.14806610143E-02	-2.66549381317E-02
1.78361204013E+09	-1.23845534828E-01	-7.42666823491E-02	6.78013586556E-02	2.38190009737E-02	6.72727385879E-02	2.47349866661E-02	3.40525200280E-02	-2.10495686225E-02
1.78528428094E+09	-1.14935988937E-01	-7.22867545056E-02	6.96637971997E-02	1.90621281348E-02	6.92082084631E-02	2.00305256322E-02	2.72594033340E-02	-1.46690190592E-02
1.78695652174E+09	-1.05888004321E-01	-7.19490487586E-02	7.12105769378E-02	1.40854402971E-02	7.08367571732E-02	1.50956377313E-02	2.11880621657E-02	-7.63009912503E-03
1.78862876254E+09	-9.70257820265E-02	-7.32170932241E-02	7.24079086389E-02	8.93035576992E-03	7.20913388000E-02	9.96791405396E-03	1.58755665996E-02	-2.22165781403E-06
1.79030100334E+09	-8.86333176909E-02	-7.60072539047E-02	7.31734097343E-02	3.61958068548E-03	7.29498691774E-02	4.68548498535E-03	1.13932128917E-02	8.13992100746E-03
1.79197324415E+09	-8.09612695826E-02	-8.01368845829E-02	7.35154611542E-02	-1.81147877602E-03	7.33913753855E-02	-7.20427982432E-04	7.79686064148E-03	1.67048044661E-02
1.79364548495E+09	-7.42049788596E-02	-8.54678675138E-02	7.34084375075E-02	-7.32344770408E-03	7.33690436721E-02	-6.20691832376E-03	5.12760047062E-03	2.55761506828E-02
1.79531772575E+09	-6.85727766261E-02	-9.17624981717E-02	7.28354909417E-02	-1.28301325627E-02	7.28814146523E-02	-1.17297661050E-02	3.40154292811E-03	3.47072159465E-02
1.79698996656E+09	-6.41383686434E-02	-9.87991794203E-02	7.17782272834E-02	-1.83155248135E-02	7.19201969699E-02	-1.72164344745E-02	2.64233908464E-03	4.39695940301E-02
1.79866220736E+09	-6.09858897711E-02	-1.06376915822E-01	7.02593041495E-02	-2.37053989930E-02	7.04921895479E-02	-2.26151128699E-02	2.87003037361E-03	5.32443078645E-02
1.80033444816E+09	-5.91511498272E-02	-1.14220141498E-01	6.82832242463E-02	-2.89525873257E-02	6.85992670980E-02	-2.78781538701E-02	4.08649368181E-03	6.24612467105E-02
1.80200668896E+09	-5.86161932535E-02	-1.22163473862E-01	6.58614291184E-02	-3.40030201906E-02	6.62712335334E-02	-3.29642423362E-02	6.27659186850E-03	7.15147513707E-02
1.80367892977E+09	-5.93397103123E-02	-1.29990323645E-01	6.30335427210E-02	-3.88219506607E-02	6.35234732186E-02	-3.78171318305E-02	9.42168464642E-03	8.02788167537E-02
1.80535117057E+09	-6.12462908652E-02	-1.37524342475E-01	5.98213254681E-02	-4.33596832550E-02	6.03989650322E-02	-4.24059200017E-02	1.35030077364E-02	8.86797893385E-02
1.80702341137E+09	-6.42606033180E-02	-1.44600883057E-01	5.62851250172E-02	-4.75989986382E-02	5.69220752219E-02	-4.67035084679E-02	1.84769977641E-02	9.66087556773E-02
1.80869565217E+09	-6.82933323310E-02	-1.51080353282E-01	5.24277365895E-02	-5.15113481886E-02	5.31317849424E-02	-5.06681553802E-02	2.42824342615E-02	1.03977487624E-01
1.81036789298E+09	-7.32240835351E-02	-1.56884970929E-01	4.82971813517E-02	-5.50595613522E-02	4.90746664373E-02	-5.42960457526E-02	3.08897088271E-02	1.10698020872E-01
1.81204013378E+09	-7.89174986334E-02	-1.61881454511E-01	4.39390102251E-02	-5.82413180293E-02	4.47669045648E-02	-5.75367829915E-02	3.82110201687E-02	1.16679418347E-01
1.81371237458E+09	-8.52776134109E-02	-1.65981544588E-01	3.94017560997E-02	-6.10345973218E-02	4.02698924873E-02	-6.04108965716E-02	4.61648364324E-02	1.21861825109E-01
1.81538461538E+09	-9.21595715861E-02	-1.69106123528E-01	3.47143609160E-02	-6.34481520055E-02	3.56181170750E-02	-6.29080116129E-02	5.46649610992E-02	1.26166435678E-01
1.81705685619E+09	-9.94004332614E-02	-1.71242866798E-01	2.99050459144E-02	-6.54889146459E-02	3.08467970140E-02	-6.50147289280E-02	6.36128476419E-02	1.29534824306E-01
1.81872909699E+09	-1.06893598747E-01	-1.72334722979E-01	2.50191847556E-02	-6.71216340898E-02	2.59737493320E-02	-6.67201622171E-02	7.29236218204E-02	1.31913868232E-01
1.82040133779E+09	-1.14468535624E-01	-1.72418553255E-01	2.00850415466E-02	-6.83927918230E-02	2.10595990564E-02	-6.80613183112E-02	8.24741879687E-02	1.33320856258E-01
1.82207357860E+09	-1.22037904688E-01	-1.71438113860E-01	1.51535893737E-02	-6.92753925792E-02	1.61246423129E-02	-6.90448052583E-02	9.21429254688E-02	1.33693285439E-01
1.82374581940E+09	-1.29439232980E-01	-1.69465423784E-01	1.02128511760E-02	-6.98146911500E-02	1.11943888936E-02	-6.96449997454E-02	1.01857562140E-01	1.32985874688E-01
1.82541806020E+09	-1.36553684189E-01	-1.66471677268E-01	5.32448215984E-03	-6.99974042652E-02	6.30091825283E-03	-6.99086822507E-02	1.11458334537E-01	1.31291303653E-01
1.82709030100E+09	-1.43257114809E-01	-1.62549935913E-01	4.92945608491E-04	-6.98592505582E-02	1.46791240204E-03	-6.98328343283E-02	1.20881231481E-01	1.28559492825E-01
1.82876254181E+09	-1.49416720814E-01	-1.57708034408E-01	-4.24869798739E-03	-6.94046369635E-02	-3.28392396789E-03	-6.94391396700E-02	1.29997427113E-01	1.24836946647E-01
1.83043478261E+09	-1.54966341200E-01	-1.52049832210E-01	-8.90384662974E-03	-6.86470585097E-02	-7.95419023544E-03	-6.87535255419E-02	1.38688920473E-01	1.20166202957E-01
1.83210702341E+09	-1.59701041955E-01	-1.45653446074E-01	-1.34388090765E-02	-6.76263231048E-02	-1.25075505970E-02	-6.77786483998E-02	1.46881577320E-01	1.14593645566E-01
1.83377926421E+09	-1.63600233126E-01	-1.38572629392E-01	-1.78490899300E-02	-6.63178413808E-02	-1.69500789066E-02	-6.65350993978E-02	1.54445643809E-01	1.08170882398E-01
1.83545150502E+09	-1.66511204486E-01	-1.30953655671E-01	-2.21437608526E-02	-6.47840131061E-02	-2.12494946371E-02	-6.50473713212E-02	1.61326308824E-01	1.00998954012E-01
1.83712374582E+09	-1.68360875333E-01	-1.22906888811E-01	-2.62862939580E-02	-6.30014539675E-02	-2.54231347662E-02	-6.33216146736E-02	1.67443683497E-01	9.31305703251E-02
1.83879598662E+09	-1.69042644453E-01	-1.14592507419E-01	-3.02829857884E-02	-6.10008851377E-02	-2.94590942558E-02	-6.13778947504E-02	1.72705651723E-01	8.46755486258E-02
1.84046822742E+09	-1.68550546758E-01	-1.06174661178E-01	-3.41549023151E-02	-5.87909536978E-02	-3.33533819518E-02	-5.92005636584E-02	1.77087361657E-01	7.57035679002E-02
1.84214046823E+09	-1.66769555095E-01	-9.78580791861E-02	-3.78725272863E-02	-5.63803954900E-02	-3.70924148960E-02	-5.68428536622E-02	1.80500434211E-01	6.63514000290E-02
1.84381270903E+09	-1.63716983431E-01	-8.98335589576E-02	-4.14362630058E-02	-5.37705688303E-02	-4.06939586475E-02	-5.42775766067E-02	1.82940707926E-01	5.67011308994E-02
1.84548494983E+09	-1.59491562685E-01	-8.23324092318E-02	-4.48588544398E-02	-5.09940402441E-02	-4.41275496780E-02	-5.15428094355E-02	1.84371934122E-01	4.68673969248E-02
1.84715719064E+09	-1.54061924869E-01	-7.55364246334E-02	-4.81244449035E-02	-4.80026729660E-02	-4.74403880193E-02	-4.86051713881E-02	1.84782035184E-01	3.69796907894E-02
1.84882943144E+09	-1.47599107434E-01	-6.96820044833E-02	-5.12424645846E-02	-4.48434436318E-02	-5.05966064925E-02	-4.54881954270E-02	1.84179781770E-01	2.71061271685E-02
1.85050167224E+09	-1.40237535202E-01	-6.49787052740E-02	-5.42113092970E-02	-4.14901929101E-02	-5.35893207840E-02	-4.21708641818E-02	1.82570310948E-01	1.73885911332E-02
1.85217391304E+09	-1.32187311985E-01	-6.15947572835E-02	-5.69965234739E-02	-3.79485290858E-02	-5.64184008844E-02	-3.86692239077E-02	1.79955273973E-01	7.88888774009E-03
1.85384615385E+09	-1.23717480450E-01	-5.96718425643E-02	-5.96112389565E-02	-3.42066088454E-02	-5.90776092705E-02	-3.49672183066E-02	1.76419317578E-01	-1.24842064506E-03
1.85551839465E+09	-1.15088998976E-01	-5.92871693238E-02	-6.20501006085E-02	-3.02598727751E-02	-6.15574189334E-02	-3.10681882147E-02	1.71954696535E-01	-9.92338018654E-03
1.85719063545E+09	-1.06638927616E-01	-6.04747402842E-02	-6.42636325453E-02	-2.61081346762E-02	-6.38106355666E-02	-2.69621280784E-02	1.66623671074E-01	-1.80691206317E-02
1.85886287625E+09	-9.86551297134E-02	-6.31348154472E-02	-6.62309640221E-02	-2.17564919479E-02	-6.58416255622E-02	-2.26281742859E-02	1.60506529818E-01	-2.56151179623E-02
1.86053511706E+09	-9.14225013305E-02	-6.71805831540E-02	-6.79379696933E-02	-1.71888330528E-02	-6.75988789583E-02	-1.81064888958E-02	1.53644345571E-01	-3.24386772045E-02
1.86220735786E+09	-8.52011667067E-02	-7.24338183280E-02	-6.93484847179E-02	-1.24246688188E-02	-6.90727980914E-02	-1.33805533753E-02	1.46114551913E-01	-3.84938869383E-02
1.86387959866E+09	-8.02063006601E-02	-7.86439668241E-02	-7.04174418241E-02	-7.48891639814E-03	-7.02145545434E-02	-8.47598655186E-03	1.38022719080E-01	-4.37262733689E-02
1.86555183946E+09	-7.65840922257E-02	-8.55620866330E-02	-7.11171140824E-02	-2.40843817887E-03	-7.09719951317E-02	-3.41644302532E-03	1.29422093368E-01	-4.80731810064E-02
1.86722408027E+09	-7.44464702477E-02	-9.28692110036E-02	-7.14221135551E-02	2.78835417511E-03	-7.13493966914E-02	1.76384340060E-03	1.20424708404E-01	-5.14464613286E-02
1.86889632107E+09	-7.37849002177E-02	-1.00277301472E-01	-7.12988986995E-02	8.06564757160E-03	-7.13101642362E-02	7.03509986554E-03	1.11083262772E-01	-5.38628879537E-02
1.87056856187E+09	-7.45795762563E-02	-1.07489782703E-01	-7.07305368434E-02	1.33602952549E-02	-7.08218272522E-02	1.23113174351E-02	1.01571665400E-01	-5.52467033634E-02
1.87224080268E+09	-7.67111065709E-02	-1.14252874201E-01	-6.97145409279E-02	1.86415346075E-02	-6.98910064814E-02	1.75974504989E-02	9.19346650492E-02	-5.56032338578E-02
1.87391304348E+09	-8.00429868997E-02	-1.20379643091E-01	-6.82426036558E-02	2.38385480183E-02	-6.84984797533E-02	2.28085151083E-02	8.22781969011E-02	-5.49035278354E-02
1.87558528428E+09	-8.44294503109E-02	-1.25650131157E-01	-6.63354423394E-02	2.89120499755E-02	-6.66728348854E-02	2.78963979243E-02	7.27439676541E-02	-5.31469149134E-02
1.87725752508E+09	-8.96736054341E-02	-1.29927181873E-01	-6.39960866547E-02	3.38081755234E-02	-6.44172540189E-02	3.28331792092E-02	6.34529915625E-02	-5.03544465348E-02
1.87892976589E+09	-9.55620179312E-02	-1.33100863147E-01	-6.12688144650E-02	3.84908722795E-02	-6.17578766124E-02	3.75338212981E-02	5.44801253236E-02	-4.65263874973E-02
1.88060200669E+09	-1.01881686323E-01	-1.35107615626E-01	-5.81551721337E-02	4.29111227156E-02	-5.87196902939E-02	4.19922658195E-02	4.59527400427E-02	-4.17322721599E-02
1.88227424749E+09	-1.08451409238E-01	-1.35963875390E-01	-5.47134181519E-02	4.70512761762E-02	-5.53539782749E-02	4.61719979374E-02	3.79795199524E-02	-3.60282808607E-02
1.88394648829E+09	-1.15077483943E-01	-1.35648637660E-01	-5.09659963904E-02	5.08566179310E-02	-5.16741135593E-02	5.00516025462E-02	3.06891877259E-02	-2.94337217553E-02
1.88561872910E+09	-1.21579263537E-01	-1.34191104602E-01	-4.69625972389E-02	5.43522969730E-02	-4.77220248908E-02	5.35859981304E-02	2.41493208411E-02	-2.20898152072E-02
1.88729096990E+09	-1.27812783233E-01	-1.31660049731E-01	-4.27107389414E-02	5.74713609814E-02	-4.35321687329E-02	5.67703115075E-02	1.84188298121E-02	-1.40562215984E-02
1.88896321070E+09	-1.33622700646E-01	-1.28090745542E-01	-3.82853254256E-02	6.02456738977E-02	-3.91552623554E-02	5.95998400470E-02	1.35968374076E-02	-5.41561501954E-03
1.89063545151E+09	-1.38834965510E-01	-1.23615222131E-01	-3.36696879515E-02	6.26377295544E-02	-3.45844569086E-02	6.20586100977E-02	9.74715913882E-03	3.67996847295E-03
1.89230769231E+09	-1.43363557310E-01	-1.18302113708E-01	-2.89632995437E-02	6.46631344622E-02	-2.99181245525E-02	6.41496830360E-02	6.90317968687E-03	1.31493620687E-02
1.89397993311E+09	-1.47112084634E-01	-1.12278154067E-01	-2.41482133803E-02	6.63046843573E-02	-2.51313652986E-02	6.58685840244E-02	5.08930763324E-03	2.28633111432E-02
1.89565217391E+09	-1.49999537066E-01	-1.05699280707E-01	-1.92747984435E-02	6.75694314758E-02	-2.02907609491E-02	6.72085211658E-02	4.31871665587E-03	3.27128622054E-02
