# Hz S RI R 50
! CMT, CMT808U, 21440046, 21.4.3/4
! Date: 12/13/2025 11:01:59 PM
! Data: Format (Calibration Info)
! Freq	S11:Re/Im(F2)	S41:Re/Im(F2)	S14:Re/Im(F2)	S44:Re/Im(F2)
1.70000000000E+09	-8.70104379004E-02	-1.26103309839E-01	-4.71623648742E-02	-4.66668551096E-02	-4.69221811122E-02	-4.66098783897E-02	-6.42779085828E-02	5.81531754795E-02
1.70100000000E+09	-8.85441617099E-02	-1.21036886087E-01	-4.90485712318E-02	-4.46790001344E-02	-4.88777962448E-02	-4.46416681545E-02	-6.34938815952E-02	6.56105940286E-02
1.70200000000E+09	-8.94672833864E-02	-1.15711082333E-01	-5.09653214544E-02	-4.26883170352E-02	-5.08147547851E-02	-4.26134275821E-02	-6.23815164760E-02	7.29790985158E-02
1.70300000000E+09	-9.00491809133E-02	-1.10195286618E-01	-5.27504023718E-02	-4.05538426039E-02	-5.26289337583E-02	-4.06519697290E-02	-6.06035823880E-02	8.01842217475E-02
1.70400000000E+09	-9.00745429832E-02	-1.04406176312E-01	-5.45454023770E-02	-3.83356329761E-02	-5.43376614575E-02	-3.84330388963E-02	-5.84095925127E-02	8.72375066526E-02
1.70500000000E+09	-8.94913380276E-02	-9.85476571253E-02	-5.61982573123E-02	-3.61345787105E-02	-5.60433638861E-02	-3.61571266938E-02	-5.57002571673E-02	9.41452888186E-02
1.70600000000E+09	-8.83924420493E-02	-9.26993819166E-02	-5.77693605391E-02	-3.38542053118E-02	-5.75817938599E-02	-3.38603066475E-02	-5.26443164733E-02	1.00762290646E-01
1.70700000000E+09	-8.67914882434E-02	-8.67777352446E-02	-5.92978028769E-02	-3.14436634988E-02	-5.91521018611E-02	-3.14437537667E-02	-4.90490404306E-02	1.07318278427E-01
1.70800000000E+09	-8.46557213991E-02	-8.09069439845E-02	-6.06607756014E-02	-2.89923155232E-02	-6.05130903652E-02	-2.89979425820E-02	-4.51493038996E-02	1.13523981183E-01
1.70900000000E+09	-8.20449414813E-02	-7.51204566074E-02	-6.19434336164E-02	-2.63336573872E-02	-6.18406046046E-02	-2.64313665953E-02	-4.08319074973E-02	1.19423585576E-01
1.71000000000E+09	-7.88791935755E-02	-6.95406013885E-02	-6.32799970725E-02	-2.37647299983E-02	-6.30376073048E-02	-2.38284442511E-02	-3.61347041646E-02	1.25014387156E-01
1.71100000000E+09	-7.52872912581E-02	-6.41559151209E-02	-6.43608955894E-02	-2.10681069202E-02	-6.41624441742E-02	-2.11661963812E-02	-3.11147597653E-02	1.30239605077E-01
1.71200000000E+09	-7.12250316604E-02	-5.89593702621E-02	-6.53502803956E-02	-1.82974815038E-02	-6.52851398632E-02	-1.84496126134E-02	-2.57293877257E-02	1.35219299782E-01
1.71300000000E+09	-6.66909866724E-02	-5.41246900303E-02	-6.61443369024E-02	-1.56227433930E-02	-6.60477805819E-02	-1.56045473150E-02	-2.01322692767E-02	1.39755602140E-01
1.71400000000E+09	-6.18917764363E-02	-4.95644583411E-02	-6.69594598274E-02	-1.26340861049E-02	-6.68572796778E-02	-1.28280420878E-02	-1.43440313744E-02	1.43891751474E-01
1.71500000000E+09	-5.65801356836E-02	-4.53493600920E-02	-6.76241381559E-02	-9.76644820718E-03	-6.74082318604E-02	-9.84569092115E-03	-8.10064405878E-03	1.47663274104E-01
1.71600000000E+09	-5.10513151912E-02	-4.14905207938E-02	-6.81088575622E-02	-6.81284539450E-03	-6.79358262537E-02	-6.93881249056E-03	-1.76777174167E-03	1.50983563843E-01
1.71700000000E+09	-4.51613173922E-02	-3.80863207378E-02	-6.84888068489E-02	-3.85319092972E-03	-6.82972403757E-02	-3.93143377080E-03	4.80329915270E-03	1.53992277567E-01
1.71800000000E+09	-3.90791644282E-02	-3.49767350524E-02	-6.87000762389E-02	-8.82632357998E-04	-6.85164193491E-02	-9.74086070139E-04	1.13744418663E-02	1.56358504478E-01
1.71900000000E+09	-3.28646239774E-02	-3.24152291717E-02	-6.88054498868E-02	2.16294051538E-03	-6.86287643494E-02	2.07290949148E-03	1.82174204212E-02	1.58555006483E-01
1.72000000000E+09	-2.63904493146E-02	-3.03201875633E-02	-6.87644467068E-02	5.13822538144E-03	-6.85623512067E-02	5.04347883604E-03	2.50849522358E-02	1.60133295380E-01
1.72100000000E+09	-1.98750735263E-02	-2.84901747023E-02	-6.84983379087E-02	8.24761376636E-03	-6.83946907969E-02	8.15343816904E-03	3.21495321078E-02	1.61201783786E-01
1.72200000000E+09	-1.32031054590E-02	-2.72479690618E-02	-6.82195642503E-02	1.13053938950E-02	-6.80459884216E-02	1.10811621240E-02	3.90872834049E-02	1.62027958398E-01
1.72300000000E+09	-6.44391326540E-03	-2.64122370665E-02	-6.77237677919E-02	1.43122858196E-02	-6.75859328940E-02	1.41496171003E-02	4.60775967837E-02	1.62389874942E-01
1.72400000000E+09	1.88944113170E-04	-2.60042319664E-02	-6.71110396087E-02	1.73012671984E-02	-6.69575556459E-02	1.71306586312E-02	5.30933920602E-02	1.62192402582E-01
1.72500000000E+09	6.92315395043E-03	-2.61299331963E-02	-6.63356305388E-02	2.02665674180E-02	-6.62850157972E-02	2.00983665927E-02	6.00133451370E-02	1.61559270799E-01
1.72600000000E+09	1.35506406643E-02	-2.65849860907E-02	-6.54504409741E-02	2.32740424651E-02	-6.53099377093E-02	2.30559303351E-02	6.68115761068E-02	1.60469483852E-01
1.72700000000E+09	2.01761426505E-02	-2.74822486756E-02	-6.43697910470E-02	2.61540684499E-02	-6.42598284195E-02	2.59489328197E-02	7.36238321802E-02	1.59055763918E-01
1.72800000000E+09	2.65965328706E-02	-2.88638524594E-02	-6.31658561269E-02	2.90261620235E-02	-6.30854161127E-02	2.88281192034E-02	8.02096310994E-02	1.57172322831E-01
1.72900000000E+09	3.28401760742E-02	-3.05607912236E-02	-6.18425084230E-02	3.18211215486E-02	-6.18666717612E-02	3.16000943238E-02	8.66967908301E-02	1.54943086549E-01
1.73000000000E+09	3.90030953581E-02	-3.27531273062E-02	-6.04606522098E-02	3.45943080896E-02	-6.03794146703E-02	3.44019517129E-02	9.29269601458E-02	1.52283205889E-01
1.73100000000E+09	4.49872624374E-02	-3.52518598317E-02	-5.88592105165E-02	3.71870237536E-02	-5.88067198749E-02	3.69607719519E-02	9.90621797259E-02	1.49185197981E-01
1.73200000000E+09	5.06992972117E-02	-3.81940545235E-02	-5.71250525091E-02	3.97543813801E-02	-5.70418106707E-02	3.96151750569E-02	1.04910226086E-01	1.45779206714E-01
1.73300000000E+09	5.61497661554E-02	-4.13323040129E-02	-5.53652554649E-02	4.23050865111E-02	-5.52707667108E-02	4.20656852971E-02	1.10535995378E-01	1.42073663734E-01
1.73400000000E+09	6.13612077199E-02	-4.49523794658E-02	-5.33298156970E-02	4.46851709932E-02	-5.34139812445E-02	4.45646152803E-02	1.15909495745E-01	1.37988181682E-01
1.73500000000E+09	6.62242807007E-02	-4.88510934812E-02	-5.13307374219E-02	4.70660107386E-02	-5.13730698181E-02	4.68003812795E-02	1.20955917420E-01	1.33615554271E-01
1.73600000000E+09	7.07589914116E-02	-5.29444395587E-02	-4.92051276363E-02	4.92447364913E-02	-4.92387898088E-02	4.90302516163E-02	1.25632010069E-01	1.28792327830E-01
1.73700000000E+09	7.50066939448E-02	-5.73426986074E-02	-4.69320281468E-02	5.13344558522E-02	-4.69884190015E-02	5.10877546826E-02	1.30110566902E-01	1.23984299174E-01
1.73800000000E+09	7.88889085026E-02	-6.20160207401E-02	-4.45714151571E-02	5.33343299033E-02	-4.46230466244E-02	5.30494958999E-02	1.34135638799E-01	1.18760169389E-01
1.73900000000E+09	8.23939516999E-02	-6.69181431193E-02	-4.21178176199E-02	5.51768793213E-02	-4.22574414200E-02	5.49349718370E-02	1.37949210022E-01	1.13305567876E-01
1.74000000000E+09	8.54631709704E-02	-7.20062810635E-02	-3.97025827771E-02	5.68859546217E-02	-3.97058189059E-02	5.67983168720E-02	1.41324521950E-01	1.07615983015E-01
1.74100000000E+09	8.81145843003E-02	-7.71687832377E-02	-3.70925423427E-02	5.85359960510E-02	-3.72148880209E-02	5.83651229499E-02	1.44328472135E-01	1.01915309653E-01
1.74200000000E+09	9.04325668514E-02	-8.25367571371E-02	-3.45011428582E-02	6.00839227184E-02	-3.45582510518E-02	5.98838164595E-02	1.46918777222E-01	9.58338790687E-02
1.74300000000E+09	9.21527693569E-02	-8.79204639596E-02	-3.17739935866E-02	6.15318550915E-02	-3.18091270372E-02	6.12416166823E-02	1.49152161823E-01	8.96952196762E-02
1.74400000000E+09	9.35023134607E-02	-9.33775390876E-02	-2.90274848036E-02	6.27489586337E-02	-2.91329648507E-02	6.24891178957E-02	1.51010255893E-01	8.34918832801E-02
1.74500000000E+09	9.43381899350E-02	-9.88428171388E-02	-2.62262444211E-02	6.37645237227E-02	-2.62684027234E-02	6.36154281220E-02	1.52385820867E-01	7.71297341804E-02
1.74600000000E+09	9.47274778577E-02	-1.04289405000E-01	-2.33930024069E-02	6.47386835939E-02	-2.35189302276E-02	6.46084466155E-02	1.53333542056E-01	7.08839002336E-02
1.74700000000E+09	9.46384032458E-02	-1.09701674469E-01	-2.05526735956E-02	6.56842650304E-02	-2.07110327275E-02	6.54765845523E-02	1.53955870795E-01	6.43739551040E-02
1.74800000000E+09	9.40955236263E-02	-1.14891249946E-01	-1.77499492850E-02	6.63447568200E-02	-1.78256824234E-02	6.62066484484E-02	1.54121807879E-01	5.79784034385E-02
1.74900000000E+09	9.30778408938E-02	-1.19984107945E-01	-1.47944821459E-02	6.70044759297E-02	-1.48964051606E-02	6.67708052744E-02	1.53893251808E-01	5.16886691230E-02
1.75000000000E+09	9.15930795366E-02	-1.24904902909E-01	-1.19877579298E-02	6.74484305557E-02	-1.21228901320E-02	6.72449607007E-02	1.53234189005E-01	4.53500528654E-02
1.75100000000E+09	8.98219870671E-02	-1.29511876918E-01	-9.01510582427E-03	6.78164110249E-02	-9.18931229553E-03	6.75948437890E-02	1.52189889231E-01	3.90486198842E-02
1.75200000000E+09	8.74868937771E-02	-1.33923718104E-01	-6.22351652181E-03	6.79487728912E-02	-6.27279768513E-03	6.78375234598E-02	1.50672143393E-01	3.29568608786E-02
1.75300000000E+09	8.48576522180E-02	-1.37906495914E-01	-3.29697987117E-03	6.81164733783E-02	-3.40817493710E-03	6.79504356245E-02	1.48857664716E-01	2.68314457594E-02
1.75400000000E+09	8.17717323493E-02	-1.41606824257E-01	-4.43184261363E-04	6.79999256326E-02	-6.06195999119E-04	6.79211497742E-02	1.46512365280E-01	2.09370504304E-02
1.75500000000E+09	7.84613078207E-02	-1.44912111783E-01	2.39763605884E-03	6.78860655371E-02	2.26779832512E-03	6.78204288178E-02	1.43887678910E-01	1.51662590745E-02
1.75600000000E+09	7.47904683455E-02	-1.47728032168E-01	5.23714633720E-03	6.75926323803E-02	5.11424780742E-03	6.74982559003E-02	1.40831954488E-01	9.79336397593E-03
1.75700000000E+09	7.09106208223E-02	-1.50133244303E-01	7.98371834319E-03	6.73162596456E-02	7.83203237910E-03	6.71644850393E-02	1.37455618572E-01	4.40454765227E-03
1.75800000000E+09	6.68702386250E-02	-1.52017159547E-01	1.07556727439E-02	6.68141400841E-02	1.05706682577E-02	6.67527596546E-02	1.33707362582E-01	-5.39177384194E-04
1.75900000000E+09	6.25856296878E-02	-1.53388544609E-01	1.34828189899E-02	6.62109019521E-02	1.32526718533E-02	6.60934713774E-02	1.29695575629E-01	-5.30750315143E-03
1.76000000000E+09	5.82568289511E-02	-1.54206034180E-01	1.61679252953E-02	6.55956257425E-02	1.59563006304E-02	6.55075743445E-02	1.25357344222E-01	-9.80249315842E-03
1.76100000000E+09	5.39223504498E-02	-1.54466532708E-01	1.87619611142E-02	6.48023832571E-02	1.86462404436E-02	6.46945753735E-02	1.20656037520E-01	-1.39540865874E-02
1.76200000000E+09	4.96071791303E-02	-1.54270837326E-01	2.14126988245E-02	6.39798175876E-02	2.12548682661E-02	6.38140536051E-02	1.15752170289E-01	-1.77438974287E-02
1.76300000000E+09	4.53231819758E-02	-1.53370098403E-01	2.39900184782E-02	6.29881894704E-02	2.37648607938E-02	6.29433111511E-02	1.10705133189E-01	-2.12604591373E-02
1.76400000000E+09	4.12341960297E-02	-1.51936799030E-01	2.64969004764E-02	6.19402419865E-02	2.62868941048E-02	6.18763975994E-02	1.05376046123E-01	-2.43505450202E-02
1.76500000000E+09	3.73546681622E-02	-1.50018652339E-01	2.89662754061E-02	6.08796489560E-02	2.87488661695E-02	6.07593353918E-02	9.97796387232E-02	-2.71519378144E-02
1.76600000000E+09	3.36751858705E-02	-1.47568912857E-01	3.13446198838E-02	5.96455140431E-02	3.11886140532E-02	5.95355969881E-02	9.41094145562E-02	-2.94503752311E-02
1.76700000000E+09	3.03857690689E-02	-1.44579443747E-01	3.37685235049E-02	5.82860027759E-02	3.35044880899E-02	5.82923114130E-02	8.82189184256E-02	-3.14334591288E-02
1.76800000000E+09	2.74798949578E-02	-1.41271385042E-01	3.60743029791E-02	5.69306889563E-02	3.59405443983E-02	5.69568923844E-02	8.22668642438E-02	-3.28947426945E-02
1.76900000000E+09	2.50114296170E-02	-1.37396957201E-01	3.84207640689E-02	5.54900850868E-02	3.82336693684E-02	5.54926089265E-02	7.62672422988E-02	-3.40093378249E-02
1.77000000000E+09	2.29288742441E-02	-1.33197640424E-01	4.06631117850E-02	5.39363006015E-02	4.03942714384E-02	5.39310718717E-02	7.01751359906E-02	-3.47787354416E-02
1.77100000000E+09	2.14550897197E-02	-1.28886585270E-01	4.27508891074E-02	5.24050230294E-02	4.26626747883E-02	5.23176723963E-02	6.40120819951E-02	-3.50228409248E-02
1.77200000000E+09	2.05896860883E-02	-1.24123599930E-01	4.49565422582E-02	5.06614476117E-02	4.47805758913E-02	5.06333934457E-02	5.79983047686E-02	-3.48565614629E-02
1.77300000000E+09	2.02228662892E-02	-1.19310453523E-01	4.71444625622E-02	4.88412317188E-02	4.69448460648E-02	4.88357925453E-02	5.19026104451E-02	-3.43104963947E-02
1.77400000000E+09	2.05378066781E-02	-1.14286195005E-01	4.91422449319E-02	4.70060902370E-02	4.89229083186E-02	4.69637071796E-02	4.58663964751E-02	-3.33657940144E-02
1.77500000000E+09	2.14503708746E-02	-1.09292772699E-01	5.11480453139E-02	4.51006710837E-02	5.09276147874E-02	4.50332218683E-02	4.00376512582E-02	-3.19733961868E-02
1.77600000000E+09	2.29916540051E-02	-1.04369856418E-01	5.31222689225E-02	4.29667105598E-02	5.29145208666E-02	4.30367331336E-02	3.41833939767E-02	-3.02131168890E-02
1.77700000000E+09	2.50895717702E-02	-9.95873776494E-02	5.49820908771E-02	4.08257164606E-02	5.47264796497E-02	4.08758492259E-02	2.85483265313E-02	-2.79773219921E-02
1.77800000000E+09	2.78056242812E-02	-9.48876267765E-02	5.67351305493E-02	3.85784031364E-02	5.65644483073E-02	3.86935616824E-02	2.30796686204E-02	-2.55309140099E-02
1.77900000000E+09	3.11184666880E-02	-9.05189247773E-02	5.84947861856E-02	3.63879868750E-02	5.83499906097E-02	3.64059074151E-02	1.78657095033E-02	-2.25915326346E-02
1.78000000000E+09	3.49068099359E-02	-8.64211339774E-02	6.01280526576E-02	3.39763124785E-02	5.99284953771E-02	3.40153270908E-02	1.27656187167E-02	-1.92860865559E-02
1.78100000000E+09	3.91939456417E-02	-8.27605277741E-02	6.16875292035E-02	3.14545847655E-02	6.14615250485E-02	3.14927222397E-02	7.96632538224E-03	-1.58246292831E-02
1.78200000000E+09	4.39713478777E-02	-7.94723403361E-02	6.31221505654E-02	2.88086589339E-02	6.29312307839E-02	2.89310404865E-02	3.48283803480E-03	-1.19514284353E-02
1.78300000000E+09	4.90349632306E-02	-7.66384865274E-02	6.44167108205E-02	2.62373843058E-02	6.41722586638E-02	2.62454481392E-02	-8.38479850103E-04	-7.78669829053E-03
1.78400000000E+09	5.45296659032E-02	-7.44155317120E-02	6.56889351659E-02	2.34791193263E-02	6.55407549326E-02	2.35545662257E-02	-4.83502768943E-03	-3.41557771326E-03
1.78500000000E+09	6.02406234919E-02	-7.27180488993E-02	6.68652997655E-02	2.06517933405E-02	6.67337364469E-02	2.07559818932E-02	-8.45580538503E-03	1.28103991609E-03
1.78600000000E+09	6.61229746401E-02	-7.15087528246E-02	6.78527923218E-02	1.77858473061E-02	6.76700144664E-02	1.78761796020E-02	-1.18307598035E-02	6.07692660879E-03
1.78700000000E+09	7.21020551634E-02	-7.09239962291E-02	6.86517034031E-02	1.47672538806E-02	6.85174669932E-02	1.49574065257E-02	-1.47872762290E-02	1.12634473593E-02
1.78800000000E+09	7.82074568583E-02	-7.09486812498E-02	6.94876131341E-02	1.18308764079E-02	6.93289702896E-02	1.19190428567E-02	-1.73717587544E-02	1.65281131868E-02
1.78900000000E+09	8.43084400305E-02	-7.15254644265E-02	7.00557857750E-02	8.74420099423E-03	6.98503067134E-02	8.87297197494E-03	-1.97460945470E-02	2.19564285291E-02
1.79000000000E+09	9.03934483502E-02	-7.27472927313E-02	7.04845674574E-02	5.58434735904E-03	7.03967424209E-02	5.76583905544E-03	-2.17337655325E-02	2.74514050658E-02
1.79100000000E+09	9.62444090074E-02	-7.44052240172E-02	7.07758617786E-02	2.56931663042E-03	7.06578381505E-02	2.66831339597E-03	-2.32467761765E-02	3.31322046165E-02
1.79200000000E+09	1.02005572037E-01	-7.66246185143E-02	7.08845045161E-02	-6.96004548636E-04	7.08236691472E-02	-4.45446367103E-04	-2.43833590631E-02	3.87292323501E-02
1.79300000000E+09	1.07552038507E-01	-7.93834240184E-02	7.09767262915E-02	-3.78779239803E-03	7.08345685094E-02	-3.72928949996E-03	-2.51323617476E-02	4.45038935522E-02
1.79400000000E+09	1.12844152478E-01	-8.25377262556E-02	7.08241806022E-02	-6.98507361575E-03	7.06995962253E-02	-6.82824621504E-03	-2.56442644404E-02	5.01835248267E-02
1.79500000000E+09	1.17781641689E-01	-8.61988110225E-02	7.04479300667E-02	-1.01526803092E-02	7.03426644879E-02	-9.98270198268E-03	-2.56313283318E-02	5.60477171560E-02
1.79600000000E+09	1.22376847236E-01	-9.02282231213E-02	7.00074489280E-02	-1.32849915590E-02	6.98413673753E-02	-1.31010487713E-02	-2.52880864118E-02	6.18011792808E-02
1.79700000000E+09	1.26616802026E-01	-9.45439622663E-02	6.93720548896E-02	-1.64270675797E-02	6.92104990101E-02	-1.62806074428E-02	-2.46408090456E-02	6.75126512730E-02
1.79800000000E+09	1.30414615180E-01	-9.92841093180E-02	6.85417388900E-02	-1.95573778403E-02	6.84710520845E-02	-1.93986004436E-02	-2.35187652923E-02	7.31551835565E-02
1.79900000000E+09	1.33865205695E-01	-1.04199226992E-01	6.75907950128E-02	-2.25772156087E-02	6.75267945169E-02	-2.24068856934E-02	-2.20655529768E-02	7.87758359116E-02
1.80000000000E+09	1.36842574797E-01	-1.09434812053E-01	6.65403594792E-02	-2.55790379346E-02	6.64261227123E-02	-2.53792542285E-02	-2.03278222657E-02	8.41073090718E-02
1.80100000000E+09	1.39397833124E-01	-1.14780505683E-01	6.52382618677E-02	-2.85814740583E-02	6.51974535109E-02	-2.84052010446E-02	-1.81566312488E-02	8.94557241839E-02
1.80200000000E+09	1.41538650562E-01	-1.20287871545E-01	6.38894448220E-02	-3.14053781162E-02	6.38824845003E-02	-3.12067861303E-02	-1.57685099824E-02	9.46983140237E-02
1.80300000000E+09	1.43166470327E-01	-1.25875109630E-01	6.23539099967E-02	-3.42072629136E-02	6.23512030047E-02	-3.39817246348E-02	-1.29901877625E-02	9.96567351461E-02
1.80400000000E+09	1.44341916816E-01	-1.31589840189E-01	6.07476837548E-02	-3.68856711506E-02	6.07030503042E-02	-3.66638150758E-02	-9.80623688574E-03	1.04403216719E-01
1.80500000000E+09	1.45141890711E-01	-1.37236535929E-01	5.89618731030E-02	-3.95346463157E-02	5.89140357691E-02	-3.93478673893E-02	-6.49660395233E-03	1.08906975779E-01
1.80600000000E+09	1.45520827041E-01	-1.42964892175E-01	5.71617509921E-02	-4.20884407535E-02	5.70388211488E-02	-4.18024292659E-02	-2.84142244995E-03	1.13259828000E-01
1.80700000000E+09	1.45336900096E-01	-1.48526583833E-01	5.51091027596E-02	-4.44741603771E-02	5.50251646731E-02	-4.42309267664E-02	1.07892859985E-03	1.17298963950E-01
1.80800000000E+09	1.44833702394E-01	-1.54151179231E-01	5.30471985786E-02	-4.67808345171E-02	5.29470629317E-02	-4.65498121085E-02	5.33459829104E-03	1.21226937768E-01
1.80900000000E+09	1.43940977656E-01	-1.59520039205E-01	5.07936693267E-02	-4.88980701000E-02	5.08130219313E-02	-4.87968544067E-02	9.72336141058E-03	1.24596576727E-01
1.81000000000E+09	1.42546824660E-01	-1.64872438981E-01	4.85909591765E-02	-5.11244848870E-02	4.85376697610E-02	-5.08242710044E-02	1.42489628113E-02	1.27887234039E-01
1.81100000000E+09	1.40916074564E-01	-1.70080237209E-01	4.61486345132E-02	-5.30255194181E-02	4.62430769994E-02	-5.27662691981E-02	1.90937074145E-02	1.30841049631E-01
1.81200000000E+09	1.38811352004E-01	-1.74965966409E-01	4.37160879371E-02	-5.48469074208E-02	4.37344375116E-02	-5.46249463995E-02	2.41322594723E-02	1.33365014556E-01
1.81300000000E+09	1.36466580136E-01	-1.79778392353E-01	4.12706698949E-02	-5.66266015240E-02	4.12679361772E-02	-5.63580807048E-02	2.92384537072E-02	1.35592444169E-01
1.81400000000E+09	1.33831753241E-01	-1.84296421211E-01	3.86709944692E-02	-5.82112205395E-02	3.87376441436E-02	-5.80173629356E-02	3.43570046282E-02	1.37650704532E-01
1.81500000000E+09	1.30734307841E-01	-1.88601069345E-01	3.60214593902E-02	-5.96924196256E-02	3.60971237350E-02	-5.95146863668E-02	3.97436630493E-02	1.39253112240E-01
1.81600000000E+09	1.27498914787E-01	-1.92609044454E-01	3.33566527647E-02	-6.11267463862E-02	3.34722766516E-02	-6.08480414682E-02	4.52339595746E-02	1.40441166888E-01
1.81700000000E+09	1.23985039745E-01	-1.96385436157E-01	3.07102807470E-02	-6.23074542420E-02	3.07808729220E-02	-6.20404676187E-02	5.06401676018E-02	1.41425206179E-01
1.81800000000E+09	1.20125744347E-01	-1.99788198257E-01	2.79960121401E-02	-6.33939815217E-02	2.79948242367E-02	-6.31626697732E-02	5.62554663131E-02	1.41948303932E-01
