# Hz S RI R 50
! CMT, CMT808U, 21440046, 21.4.3/4
! Date: 12/13/2025 10:53:40 PM
! Data: Format (Calibration Info)
! Freq	S11:Re/Im(F2)	S41:Re/Im(F2)	S14:Re/Im(F2)	S44:Re/Im(F2)
1.70000000000E+09	-9.09351066658E-02	-1.24215659908E-01	-4.66006768409E-02	-4.95056022670E-02	-4.63425136838E-02	-4.94483319941E-02	-5.42460202801E-02	4.83194318027E-02
1.70100000000E+09	-9.22438847869E-02	-1.18673811375E-01	-4.86274058898E-02	-4.74553124347E-02	-4.84557229846E-02	-4.74045348883E-02	-5.44387367280E-02	5.51402460263E-02
1.70200000000E+09	-9.28947524824E-02	-1.12914707509E-01	-5.06665711031E-02	-4.53790201770E-02	-5.05041674515E-02	-4.52875854863E-02	-5.43263032950E-02	6.19492965077E-02
1.70300000000E+09	-9.31754425993E-02	-1.06992484238E-01	-5.25540799099E-02	-4.31448075389E-02	-5.24295199975E-02	-4.32353082726E-02	-5.35825446657E-02	6.86873490344E-02
1.70400000000E+09	-9.28446271237E-02	-1.00844925755E-01	-5.44532624333E-02	-4.08250109841E-02	-5.42216486951E-02	-4.09143591627E-02	-5.24168307836E-02	7.53566340619E-02
1.70500000000E+09	-9.18768238439E-02	-9.46607220610E-02	-5.61757959653E-02	-3.85331474485E-02	-5.60054189198E-02	-3.85495222181E-02	-5.07922273100E-02	8.19796977282E-02
1.70600000000E+09	-9.03611100842E-02	-8.85302682183E-02	-5.77939641426E-02	-3.61573691534E-02	-5.76052510110E-02	-3.61615069743E-02	-4.88036585029E-02	8.83907914292E-02
1.70700000000E+09	-8.83303099012E-02	-8.23940015537E-02	-5.93675875257E-02	-3.36494302757E-02	-5.92213103468E-02	-3.36466507176E-02	-4.62892209733E-02	9.48358799434E-02
1.70800000000E+09	-8.57187522933E-02	-7.63589409814E-02	-6.07585096963E-02	-3.10977665208E-02	-6.06013390326E-02	-3.11090008460E-02	-4.34426897851E-02	1.01027360182E-01
1.70900000000E+09	-8.24760260382E-02	-7.04824254614E-02	-6.20536295676E-02	-2.83701024837E-02	-6.19414225441E-02	-2.84576278775E-02	-4.01715767071E-02	1.06988333567E-01
1.71000000000E+09	-7.88503920879E-02	-6.48391622950E-02	-6.33992758851E-02	-2.57294091210E-02	-6.31349586903E-02	-2.57846229949E-02	-3.64908203592E-02	1.12743776190E-01
1.71100000000E+09	-7.48012638928E-02	-5.94621117021E-02	-6.44545823793E-02	-2.29609196235E-02	-6.42516640222E-02	-2.30509209819E-02	-3.24787534803E-02	1.18208386669E-01
1.71200000000E+09	-7.02767834418E-02	-5.43134850258E-02	-6.54277897490E-02	-2.01471912166E-02	-6.53432078495E-02	-2.02865143892E-02	-2.80564321398E-02	1.23510517070E-01
1.71300000000E+09	-6.52985880933E-02	-4.95829447423E-02	-6.61922764381E-02	-1.74285839989E-02	-6.60845992295E-02	-1.73939013175E-02	-2.33905142152E-02	1.28430036177E-01
1.71400000000E+09	-6.00961386880E-02	-4.51598154442E-02	-6.69640931432E-02	-1.44230212739E-02	-6.68442724735E-02	-1.46077065715E-02	-1.84438949736E-02	1.33054039083E-01
1.71500000000E+09	-5.43859401072E-02	-4.11130735198E-02	-6.75899630048E-02	-1.15464516963E-02	-6.73702577470E-02	-1.16298394872E-02	-1.30352233555E-02	1.37355829861E-01
1.71600000000E+09	-4.84925376888E-02	-3.74635015975E-02	-6.80287730749E-02	-8.60432939614E-03	-6.78456249392E-02	-8.74959075587E-03	-7.46060926014E-03	1.41282427044E-01
1.71700000000E+09	-4.22578166838E-02	-3.42939667774E-02	-6.83784488856E-02	-5.68253313802E-03	-6.81696295509E-02	-5.76445460045E-03	-1.58946669366E-03	1.44954281433E-01
1.71800000000E+09	-3.58628268077E-02	-3.14432843966E-02	-6.85464976317E-02	-2.77091655695E-03	-6.83614924997E-02	-2.85094620921E-03	4.35640551745E-03	1.48050286784E-01
1.71900000000E+09	-2.93695939933E-02	-2.91741677596E-02	-6.86240018540E-02	2.17643914782E-04	-6.84402637994E-02	1.32692343881E-04	1.06437231272E-02	1.50998106784E-01
1.72000000000E+09	-2.26566467668E-02	-2.73713856348E-02	-6.85769423347E-02	3.10833921724E-03	-6.83649204686E-02	3.01169853026E-03	1.70284594009E-02	1.53387235782E-01
1.72100000000E+09	-1.59095064193E-02	-2.58546779259E-02	-6.83100865315E-02	6.12206020509E-03	-6.82014572397E-02	6.03694651530E-03	2.36938790228E-02	1.55297795091E-01
1.72200000000E+09	-9.05041406139E-03	-2.49459544519E-02	-6.80477547359E-02	9.08046066936E-03	-6.78521624134E-02	8.85245696174E-03	3.03110941151E-02	1.56977883581E-01
1.72300000000E+09	-2.13097007462E-03	-2.44404341138E-02	-6.75913633965E-02	1.19678488796E-02	-6.74375802000E-02	1.18031756401E-02	3.70513815390E-02	1.58222884734E-01
1.72400000000E+09	4.63101778448E-03	-2.43781010579E-02	-6.70298424466E-02	1.48256933456E-02	-6.68660014562E-02	1.46658318017E-02	4.39094701299E-02	1.58932493684E-01
1.72500000000E+09	1.14762056897E-02	-2.48562411795E-02	-6.63354239075E-02	1.76709676331E-02	-6.62750163292E-02	1.75164337332E-02	5.07361681153E-02	1.59222921871E-01
1.72600000000E+09	1.81682288464E-02	-2.56565967081E-02	-6.55487642429E-02	2.05595097614E-02	-6.54022711814E-02	2.03328463839E-02	5.75447294098E-02	1.59024658176E-01
1.72700000000E+09	2.48266463283E-02	-2.69076986614E-02	-6.45991377858E-02	2.33344437598E-02	-6.44635947911E-02	2.31161608776E-02	6.44396504856E-02	1.58518671665E-01
1.72800000000E+09	3.12762345567E-02	-2.86529928693E-02	-6.35410792104E-02	2.60936935421E-02	-6.34554099764E-02	2.58916062960E-02	7.11907504351E-02	1.57528898785E-01
1.72900000000E+09	3.75027528365E-02	-3.07117116429E-02	-6.23904445828E-02	2.87759012190E-02	-6.23999318573E-02	2.85696726947E-02	7.79113803346E-02	1.56153554589E-01
1.73000000000E+09	4.36156372810E-02	-3.32569119502E-02	-6.12026329553E-02	3.14728141939E-02	-6.11055419501E-02	3.12912613001E-02	8.44498978206E-02	1.54364801844E-01
1.73100000000E+09	4.95310483506E-02	-3.60947555121E-02	-5.98117350576E-02	3.39985194244E-02	-5.97290127345E-02	3.37643787564E-02	9.09647400231E-02	1.52089800853E-01
1.73200000000E+09	5.51446886960E-02	-3.93835654126E-02	-5.82962728572E-02	3.65137676339E-02	-5.81973807706E-02	3.63904408179E-02	9.72712392258E-02	1.49462434461E-01
1.73300000000E+09	6.04774845509E-02	-4.28485605272E-02	-5.67761825652E-02	3.90603273652E-02	-5.66665533046E-02	3.88227572292E-02	1.03420329782E-01	1.46511071767E-01
1.73400000000E+09	6.55402004199E-02	-4.67919371164E-02	-5.49866057963E-02	4.14443552086E-02	-5.50426468057E-02	4.13201543829E-02	1.09404056189E-01	1.43140572037E-01
1.73500000000E+09	7.02343866280E-02	-5.09999551691E-02	-5.32400512214E-02	4.38457912744E-02	-5.32513109823E-02	4.35903557813E-02	1.15083229599E-01	1.39423856515E-01
1.73600000000E+09	7.45594045160E-02	-5.53945321758E-02	-5.13680578676E-02	4.61123703340E-02	-5.13824671621E-02	4.58871269240E-02	1.20466619147E-01	1.35212893902E-01
1.73700000000E+09	7.86015697446E-02	-6.00726887710E-02	-4.93444235752E-02	4.82833954792E-02	-4.93828226240E-02	4.80347055436E-02	1.25708025532E-01	1.30971235742E-01
1.73800000000E+09	8.22219949038E-02	-6.50116488739E-02	-4.72271747586E-02	5.04066061761E-02	-4.72685255137E-02	5.01175431355E-02	1.30538169780E-01	1.26247986186E-01
1.73900000000E+09	8.54508458523E-02	-7.01625950783E-02	-4.50199234536E-02	5.23880061137E-02	-4.51361292172E-02	5.21405202812E-02	1.35214987052E-01	1.21216386591E-01
1.74000000000E+09	8.82278534203E-02	-7.54685735762E-02	-4.28322696539E-02	5.42712047543E-02	-4.28081877796E-02	5.41683364269E-02	1.39479412355E-01	1.15895784582E-01
1.74100000000E+09	9.05625999543E-02	-8.08259073582E-02	-4.04175227383E-02	5.61131525333E-02	-4.05410650337E-02	5.59270242948E-02	1.43420176635E-01	1.10492100802E-01
1.74200000000E+09	9.25573043736E-02	-8.63583485608E-02	-3.80182306443E-02	5.78754189921E-02	-3.80832905607E-02	5.76661886437E-02	1.46974504363E-01	1.04656129738E-01
1.74300000000E+09	9.39214582759E-02	-9.18987512515E-02	-3.54660215797E-02	5.95554110768E-02	-3.54927130124E-02	5.92602905650E-02	1.50214139836E-01	9.86816842007E-02
1.74400000000E+09	9.49101344756E-02	-9.74611685747E-02	-3.28832082466E-02	6.10311733165E-02	-3.29765832886E-02	6.07626871164E-02	1.53097700067E-01	9.25661866831E-02
1.74500000000E+09	9.53669416954E-02	-1.03022179742E-01	-3.01930947867E-02	6.23192477777E-02	-3.02259905689E-02	6.21575588786E-02	1.55512796748E-01	8.62187416370E-02
1.74600000000E+09	9.53693274218E-02	-1.08527913036E-01	-2.74686187496E-02	6.35760859914E-02	-2.75683655268E-02	6.34190385333E-02	1.57506156870E-01	7.99062921885E-02
1.74700000000E+09	9.48909841912E-02	-1.13950845422E-01	-2.46752392059E-02	6.47900769178E-02	-2.48311204771E-02	6.45798558313E-02	1.59199572337E-01	7.32430247043E-02
1.74800000000E+09	9.39497719184E-02	-1.19127353308E-01	-2.19145786894E-02	6.57531785212E-02	-2.19959299984E-02	6.56076597187E-02	1.60427011165E-01	6.66282405287E-02
1.74900000000E+09	9.25403911106E-02	-1.24166129487E-01	-1.89838828969E-02	6.67115186306E-02	-1.90963292347E-02	6.64466394874E-02	1.61252367927E-01	6.00285271445E-02
1.75000000000E+09	9.06514755451E-02	-1.28998502200E-01	-1.61716515281E-02	6.74342876974E-02	-1.62939845189E-02	6.72190737049E-02	1.61648959500E-01	5.32843751170E-02
1.75100000000E+09	8.84919357816E-02	-1.33492186118E-01	-1.31520324466E-02	6.80822501676E-02	-1.33244143671E-02	6.78499509926E-02	1.61656261745E-01	4.65151683025E-02
1.75200000000E+09	8.57715602696E-02	-1.37755648758E-01	-1.02867833215E-02	6.85009822004E-02	-1.03386253751E-02	6.83773061327E-02	1.61161861021E-01	3.98559342054E-02
1.75300000000E+09	8.27755903257E-02	-1.41528833552E-01	-7.27794046419E-03	6.89357998684E-02	-7.38470408786E-03	6.87641889772E-02	1.60330418345E-01	3.31031939982E-02
1.75400000000E+09	7.93268776683E-02	-1.44995142139E-01	-4.31524164324E-03	6.90753941663E-02	-4.46625825577E-03	6.89848658961E-02	1.58931618352E-01	2.64756886840E-02
1.75500000000E+09	7.56742151595E-02	-1.48043291294E-01	-1.33819133738E-03	6.92062168736E-02	-1.46118701137E-03	6.91177834342E-02	1.57251813648E-01	1.99124730917E-02
1.75600000000E+09	7.16814897435E-02	-1.50561201815E-01	1.65213875337E-03	6.91423928785E-02	1.54070562324E-03	6.90211038450E-02	1.55058231607E-01	1.36463347034E-02
1.75700000000E+09	6.75029735483E-02	-1.52627840076E-01	4.57642446051E-03	6.90670489703E-02	4.42988370800E-03	6.88898324749E-02	1.52519043208E-01	7.31523462329E-03
1.75800000000E+09	6.32201927085E-02	-1.54160584923E-01	7.52947152388E-03	6.87410935878E-02	7.34890901745E-03	6.86516098842E-02	1.49540776534E-01	1.32672742161E-03
1.75900000000E+09	5.86872202140E-02	-1.55138648723E-01	1.04722600003E-02	6.82976250381E-02	1.02422556429E-02	6.81708559598E-02	1.46224132792E-01	-4.52453939747E-03
1.76000000000E+09	5.41791772513E-02	-1.55533489848E-01	1.33519486648E-02	6.78209104781E-02	1.31502598274E-02	6.77219252958E-02	1.42517570548E-01	-1.01926105677E-02
1.76100000000E+09	4.96663306397E-02	-1.55368519591E-01	1.61620639293E-02	6.71413694839E-02	1.60583034125E-02	6.70158114330E-02	1.38377700806E-01	-1.55516787587E-02
1.76200000000E+09	4.52309187571E-02	-1.54706538336E-01	1.90497530257E-02	6.64158254941E-02	1.88729660937E-02	6.62440315955E-02	1.33965544101E-01	-2.06169281601E-02
1.76300000000E+09	4.08669242403E-02	-1.53347653868E-01	2.18474766297E-02	6.54879269385E-02	2.16084621662E-02	6.54373496568E-02	1.29310902530E-01	-2.54737969802E-02
1.76400000000E+09	3.67528597600E-02	-1.51420365677E-01	2.45628884527E-02	6.44737047174E-02	2.43539584040E-02	6.44045345899E-02	1.24308210498E-01	-2.99221448713E-02
1.76500000000E+09	3.28835010083E-02	-1.49014965483E-01	2.72736455816E-02	6.34414666003E-02	2.70350839356E-02	6.33056082216E-02	1.18908287965E-01	-3.41219482692E-02
1.76600000000E+09	2.92733929810E-02	-1.46070287221E-01	2.98459278843E-02	6.22071936073E-02	2.96826404799E-02	6.20887986317E-02	1.13374059222E-01	-3.78640216560E-02
1.76700000000E+09	2.60941444269E-02	-1.42582857837E-01	3.24828666879E-02	6.08233138446E-02	3.22064147469E-02	6.08006653824E-02	1.07485669103E-01	-4.13058434590E-02
1.76800000000E+09	2.33502347657E-02	-1.38789828580E-01	3.49831137996E-02	5.94123583766E-02	3.48305562447E-02	5.94271252206E-02	1.01448670233E-01	-4.42491057780E-02
1.76900000000E+09	2.10880462692E-02	-1.34427752582E-01	3.74996151380E-02	5.78990219729E-02	3.73077864750E-02	5.79007248899E-02	9.52594133945E-02	-4.68414232702E-02
1.77000000000E+09	1.92920585662E-02	-1.29775095537E-01	3.99100530681E-02	5.62700304891E-02	3.96379724295E-02	5.62432421457E-02	8.88833514537E-02	-4.91017146307E-02
1.77100000000E+09	1.81339937004E-02	-1.25021492944E-01	4.21426786536E-02	5.46310557207E-02	4.20406863413E-02	5.45412876983E-02	8.23135352903E-02	-5.08230671608E-02
1.77200000000E+09	1.76351812100E-02	-1.19872993410E-01	4.44684538969E-02	5.27937031311E-02	4.42857380457E-02	5.27543720608E-02	7.58012465748E-02	-5.21234598468E-02
1.77300000000E+09	1.76787069499E-02	-1.14680552099E-01	4.67537207490E-02	5.08469559998E-02	4.65436345634E-02	5.08387481864E-02	6.90856331246E-02	-5.30164953902E-02
1.77400000000E+09	1.84493032797E-02	-1.09342448584E-01	4.88530816414E-02	4.88861654713E-02	4.86100523668E-02	4.88389363605E-02	6.23180636870E-02	-5.34764398218E-02
1.77500000000E+09	1.98459538451E-02	-1.04070663399E-01	5.08935909559E-02	4.68400613491E-02	5.06671620003E-02	4.67689446616E-02	5.56767798237E-02	-5.34412001820E-02
1.77600000000E+09	2.19108594507E-02	-9.89235083573E-02	5.29074105177E-02	4.45901565410E-02	5.26869616521E-02	4.46380691263E-02	4.88983218409E-02	-5.30061557776E-02
1.77700000000E+09	2.45335108190E-02	-9.39684797418E-02	5.47858915209E-02	4.23115602046E-02	5.45150010195E-02	4.23505885861E-02	4.22474081491E-02	-5.20335788287E-02
1.77800000000E+09	2.78130275633E-02	-8.91573624336E-02	5.65209439924E-02	3.99504224025E-02	5.63357834650E-02	4.00557132113E-02	3.56719282049E-02	-5.07696040339E-02
1.77900000000E+09	3.17196570595E-02	-8.47311293852E-02	5.82433618242E-02	3.76327156951E-02	5.80879934293E-02	3.76576095021E-02	2.92410514957E-02	-4.89576022300E-02
1.78000000000E+09	3.60795183570E-02	-8.06343387089E-02	5.98307814153E-02	3.51205630713E-02	5.96162285871E-02	3.51640170730E-02	2.28639045200E-02	-4.66827818960E-02
1.78100000000E+09	4.09521761170E-02	-7.70545773445E-02	6.13066492453E-02	3.25210048292E-02	6.10784395908E-02	3.25522797315E-02	1.66994082484E-02	-4.41829467172E-02
1.78200000000E+09	4.63067110387E-02	-7.38959001595E-02	6.26550346743E-02	2.98014981694E-02	6.24615031007E-02	2.99191355461E-02	1.07830146865E-02	-4.11753508357E-02
1.78300000000E+09	5.19252954140E-02	-7.12598381811E-02	6.38482230795E-02	2.71938351315E-02	6.35932216007E-02	2.71943258470E-02	4.98086020403E-03	-3.77474753497E-02
1.78400000000E+09	5.79475611450E-02	-6.92964274448E-02	6.50060508945E-02	2.44031258101E-02	6.48554378274E-02	2.44838490939E-02	-5.63558152486E-04	-3.40460050750E-02
1.78500000000E+09	6.41719029048E-02	-6.79179177560E-02	6.60568899945E-02	2.15824454525E-02	6.59304232635E-02	2.16891440849E-02	-5.78410587717E-03	-2.99051092106E-02
1.78600000000E+09	7.05283717104E-02	-6.70852798216E-02	6.69155029297E-02	1.87497204202E-02	6.67307747380E-02	1.88381606231E-02	-1.07884377276E-02	-2.55364620479E-02
1.78700000000E+09	7.69233196356E-02	-6.69204378735E-02	6.75791067192E-02	1.57868630374E-02	6.74479179656E-02	1.59726047594E-02	-1.53940366087E-02	-2.06753435912E-02
1.78800000000E+09	8.33960162771E-02	-6.74183618267E-02	6.83109113624E-02	1.29311567115E-02	6.81387936008E-02	1.30090803948E-02	-1.96626049066E-02	-1.56312888069E-02
1.78900000000E+09	8.98121061081E-02	-6.84867487338E-02	6.87661564066E-02	9.94205820754E-03	6.85535486165E-02	1.00717204980E-02	-2.37282477885E-02	-1.03176120326E-02
1.79000000000E+09	9.61595889731E-02	-7.02439313921E-02	6.90981949570E-02	6.92680218063E-03	6.90099341942E-02	7.10312658155E-03	-2.74041982115E-02	-4.79705950476E-03
1.79100000000E+09	1.02206217288E-01	-7.24355827341E-02	6.92952385582E-02	4.08029240682E-03	6.91669299144E-02	4.15548825084E-03	-3.06032605823E-02	1.00902789817E-03
1.79200000000E+09	1.08102300509E-01	-7.52195595102E-02	6.93459321769E-02	9.85042999403E-04	6.92766741603E-02	1.22283423967E-03	-3.34102139270E-02	6.87589957529E-03
1.79300000000E+09	1.13725847200E-01	-7.85437159138E-02	6.93998187495E-02	-1.91533318262E-03	6.92541357479E-02	-1.85709987690E-03	-3.57996394816E-02	1.30056094328E-02
1.79400000000E+09	1.19030156316E-01	-8.22773526821E-02	6.92314850095E-02	-4.88635499869E-03	6.90959303389E-02	-4.73269120242E-03	-3.79199958430E-02	1.91563569610E-02
1.79500000000E+09	1.23933902644E-01	-8.64844651887E-02	6.88747984689E-02	-7.83125373022E-03	6.87579817780E-02	-7.66645168013E-03	-3.94624281057E-02	2.55674845117E-02
1.79600000000E+09	1.28438464896E-01	-9.10686974404E-02	6.84863948443E-02	-1.07301878533E-02	6.83126171512E-02	-1.05502056215E-02	-4.06466928499E-02	3.20207938481E-02
1.79700000000E+09	1.32529405372E-01	-9.59055393025E-02	6.79268343651E-02	-1.36214818117E-02	6.77618241981E-02	-1.34827649452E-02	-4.14742832441E-02	3.84797931291E-02
1.79800000000E+09	1.36129161999E-01	-1.01148890849E-01	6.72195394675E-02	-1.65130512523E-02	6.71390286190E-02	-1.63585952606E-02	-4.17369686028E-02	4.49892217973E-02
1.79900000000E+09	1.39330683187E-01	-1.06541139136E-01	6.64124499751E-02	-1.92925733359E-02	6.63316987417E-02	-1.91438778674E-02	-4.16310217575E-02	5.15484691331E-02
1.80000000000E+09	1.42026132068E-01	-1.12238298087E-01	6.55428421861E-02	-2.20803391054E-02	6.54157403614E-02	-2.18874782757E-02	-4.11493715154E-02	5.79034600203E-02
1.80100000000E+09	1.44243676524E-01	-1.18014591668E-01	6.44652734545E-02	-2.48690066782E-02	6.44134850468E-02	-2.46988249002E-02	-4.01739694847E-02	6.43405287239E-02
1.80200000000E+09	1.46030058242E-01	-1.23882422774E-01	6.33790461220E-02	-2.75246183929E-02	6.33499183912E-02	-2.73139872676E-02	-3.88995246729E-02	7.07433741416E-02
1.80300000000E+09	1.47266459680E-01	-1.29810768184E-01	6.21104977383E-02	-3.01589648419E-02	6.20945622124E-02	-2.99359794183E-02	-3.71437171547E-02	7.69171357352E-02
1.80400000000E+09	1.48019372220E-01	-1.35826293797E-01	6.08105222599E-02	-3.27009756139E-02	6.07442078665E-02	-3.24766915306E-02	-3.49076790750E-02	8.29580064852E-02
1.80500000000E+09	1.48387067314E-01	-1.41722400310E-01	5.93458405560E-02	-3.52524009601E-02	5.92865233268E-02	-3.50659869796E-02	-3.24410209376E-02	8.87786232048E-02
1.80600000000E+09	1.48311769976E-01	-1.47663249738E-01	5.79049209663E-02	-3.77478958072E-02	5.77457074452E-02	-3.74546485172E-02	-2.95475402579E-02	9.45015604601E-02
1.80700000000E+09	1.47655335182E-01	-1.53380335616E-01	5.62058991220E-02	-4.00991020569E-02	5.60921357565E-02	-3.98619410160E-02	-2.63089046931E-02	9.99427774363E-02
1.80800000000E+09	1.46673664167E-01	-1.59133238070E-01	5.44931079951E-02	-4.24137915338E-02	5.43740824014E-02	-4.21942107133E-02	-2.26204138332E-02	1.05283047940E-01
1.80900000000E+09	1.45290829109E-01	-1.64579847282E-01	5.25908405336E-02	-4.45900735857E-02	5.26120983260E-02	-4.44941495324E-02	-1.87149215416E-02	1.10126952987E-01
1.81000000000E+09	1.43418630236E-01	-1.69964578716E-01	5.07609350411E-02	-4.69271463305E-02	5.06873223474E-02	-4.66133009118E-02	-1.45729020306E-02	1.14895094968E-01
1.81100000000E+09	1.41304792062E-01	-1.75172314643E-01	4.86772456784E-02	-4.89486959073E-02	4.87314244587E-02	-4.86796673281E-02	-1.00232620599E-02	1.19322541992E-01
1.81200000000E+09	1.38719254602E-01	-1.79997593633E-01	4.65854872148E-02	-5.09375691465E-02	4.65569808665E-02	-5.07153007144E-02	-5.17933916071E-03	1.23352345903E-01
1.81300000000E+09	1.35913288681E-01	-1.84716012769E-01	4.44482910650E-02	-5.29334876113E-02	4.44180947937E-02	-5.26616849566E-02	-1.83821465245E-04	1.27092093910E-01
1.81400000000E+09	1.32807513628E-01	-1.89095614468E-01	4.21352763885E-02	-5.47604421700E-02	4.21843019366E-02	-5.45590330141E-02	4.91730420255E-03	1.30600833811E-01
1.81500000000E+09	1.29266766600E-01	-1.93220979555E-01	3.97655359330E-02	-5.65181156868E-02	3.98127320135E-02	-5.63324752432E-02	1.03942940974E-02	1.33677780395E-01
1.81600000000E+09	1.25621894504E-01	-1.97008475558E-01	3.73305784838E-02	-5.82542984988E-02	3.74308041312E-02	-5.79541363907E-02	1.60296843382E-02	1.36336010847E-01
1.81700000000E+09	1.21706342287E-01	-2.00540863782E-01	3.48808871396E-02	-5.97516254281E-02	3.49330799429E-02	-5.94750663736E-02	2.17129881806E-02	1.38772016374E-01
