# Hz S RI R 50
! CMT, CMT808U, 21440046, 21.4.3/4
! Date: 12/11/2025 11:21:33 AM
! Data: Format (Calibration Info)
! Freq	S11:Re/Im(F2)	S41:Re/Im(F2)	S14:Re/Im(F2)	S44:Re/Im(F2)
1.70000000000E+09	-2.08953404533E-01	-1.13787849573E-01	3.01744716296E-02	-6.25076864044E-02	3.10465937873E-02	-6.19751302850E-02	-2.76416500499E-02	3.95972934328E-02
1.70167224080E+09	-2.10381308669E-01	-1.04341522725E-01	2.59007432257E-02	-6.44714413704E-02	2.68000452901E-02	-6.40091171045E-02	-2.84577847349E-02	4.93475827416E-02
1.70334448161E+09	-2.10113730872E-01	-9.45821000546E-02	2.14851464121E-02	-6.61976819270E-02	2.24125804380E-02	-6.57866757128E-02	-2.82200836748E-02	5.91926248833E-02
1.70501672241E+09	-2.08131697210E-01	-8.47642138644E-02	1.69331124884E-02	-6.76462773672E-02	1.78914120862E-02	-6.73098741972E-02	-2.69218596268E-02	6.90046771728E-02
1.70668896321E+09	-2.04507222058E-01	-7.52325872003E-02	1.22708214985E-02	-6.88181419214E-02	1.32388843780E-02	-6.85491032470E-02	-2.46053956549E-02	7.87286758675E-02
1.70836120401E+09	-1.99322541601E-01	-6.61997654559E-02	7.48629724176E-03	-6.97031708675E-02	8.48415888017E-03	-6.94855033777E-02	-2.12255636385E-02	8.81838762922E-02
1.71003344482E+09	-1.92731335732E-01	-5.79617108240E-02	2.61064578655E-03	-7.02497665876E-02	3.61726268874E-03	-7.01076298608E-02	-1.68637770649E-02	9.73163022490E-02
1.71170568562E+09	-1.84873451076E-01	-5.06758857543E-02	-2.34065200759E-03	-7.04625108516E-02	-1.32625440483E-03	-7.03930989695E-02	-1.15370429307E-02	1.06003685530E-01
1.71337792642E+09	-1.75934536260E-01	-4.45584068809E-02	-7.33797331556E-03	-7.03278848406E-02	-6.32947002613E-03	-7.03268584421E-02	-5.32087866088E-03	1.14116770320E-01
1.71505016722E+09	-1.66148769216E-01	-3.97143662076E-02	-1.23676326007E-02	-6.98158057039E-02	-1.13581629162E-02	-6.98915454484E-02	1.75694567794E-03	1.21602101115E-01
1.71672240803E+09	-1.55717316728E-01	-3.62594528439E-02	-1.73815155170E-02	-6.89375694027E-02	-1.63676293831E-02	-6.90975454699E-02	9.62797497231E-03	1.28345873424E-01
1.71839464883E+09	-1.44882809044E-01	-3.42317418345E-02	-2.23640148654E-02	-6.76778308794E-02	-2.13715067601E-02	-6.78907480172E-02	1.81725539915E-02	1.34276311773E-01
1.72006688963E+09	-1.33864681560E-01	-3.36911244074E-02	-2.72649693758E-02	-6.60394560649E-02	-2.62861246870E-02	-6.63115762457E-02	2.73357505559E-02	1.39334066539E-01
1.72173913043E+09	-1.22859323275E-01	-3.46124562676E-02	-3.20503839683E-02	-6.39999458734E-02	-3.10855020748E-02	-6.43551783188E-02	3.69841339343E-02	1.43430251715E-01
1.72341137124E+09	-1.12103143493E-01	-3.69787161319E-02	-3.66848854446E-02	-6.16010492724E-02	-3.57639539778E-02	-6.20245018270E-02	4.70533663943E-02	1.46527773212E-01
1.72508361204E+09	-1.01809276314E-01	-4.06870900882E-02	-4.11591555221E-02	-5.88408298322E-02	-4.02494893718E-02	-5.93291731675E-02	5.74204289559E-02	1.48581527570E-01
1.72675585284E+09	-9.21463402494E-02	-4.56853072583E-02	-4.54033795732E-02	-5.57183460583E-02	-4.45421116310E-02	-5.62695157684E-02	6.79615273371E-02	1.49579985490E-01
1.72842809365E+09	-8.32805956625E-02	-5.18358109890E-02	-4.93956425082E-02	-5.22659064469E-02	-4.85717399807E-02	-5.28840761423E-02	7.85777379692E-02	1.49477505340E-01
1.73010033445E+09	-7.53658893191E-02	-5.90386302717E-02	-5.31266518326E-02	-4.85160330583E-02	-5.23333627282E-02	-4.91850330413E-02	8.91524926631E-02	1.48300965771E-01
1.73177257525E+09	-6.85404337842E-02	-6.70970502366E-02	-5.65310412168E-02	-4.44741852152E-02	-5.58073074869E-02	-4.51996073375E-02	9.95711063766E-02	1.46035462509E-01
1.73344481605E+09	-6.29020422594E-02	-7.58791723042E-02	-5.96158038298E-02	-4.01727102422E-02	-5.89475782380E-02	-4.09610064635E-02	1.09710239055E-01	1.42715564242E-01
1.73511705686E+09	-5.85272123445E-02	-8.51822947714E-02	-6.23644519587E-02	-3.56510793017E-02	-6.17458032221E-02	-3.64975687607E-02	1.19447929174E-01	1.38365332726E-01
1.73678929766E+09	-5.54703891989E-02	-9.48575352093E-02	-6.47256923159E-02	-3.09501953370E-02	-6.41814600411E-02	-3.18303157416E-02	1.28726691931E-01	1.33024446658E-01
1.73846153846E+09	-5.37721120391E-02	-1.04693613963E-01	-6.67254982164E-02	-2.60788310001E-02	-6.62330141372E-02	-2.69961261990E-02	1.37377422654E-01	1.26765448024E-01
1.74013377926E+09	-5.34115272647E-02	-1.14536794514E-01	-6.83056539857E-02	-2.10942820936E-02	-6.78952162774E-02	-2.20419294895E-02	1.45358031865E-01	1.19610201581E-01
1.74180602007E+09	-5.43879997409E-02	-1.24186927146E-01	-6.95158664491E-02	-1.60284612595E-02	-6.91660126645E-02	-1.69965659403E-02	1.52577216782E-01	1.11682613260E-01
1.74347826087E+09	-5.66778308569E-02	-1.33458942276E-01	-7.03121337294E-02	-1.09153425246E-02	-7.00345378849E-02	-1.19036510103E-02	1.58908404677E-01	1.03031578165E-01
1.74515050167E+09	-6.02020379592E-02	-1.42221809090E-01	-7.07109196419E-02	-5.78065850727E-03	-7.05013306055E-02	-6.77457227978E-03	1.64358646195E-01	9.37517959161E-02
1.74682274247E+09	-6.48907727488E-02	-1.50297210750E-01	-7.07142026867E-02	-6.67132886517E-04	-7.05730608899E-02	-1.67838638282E-03	1.68797798843E-01	8.39672871615E-02
1.74849498328E+09	-7.06805325729E-02	-1.57525686717E-01	-7.03387368203E-02	4.38274364218E-03	-7.02727427205E-02	3.37268322624E-03	1.72221355685E-01	7.37659658736E-02
1.75016722408E+09	-7.74342818693E-02	-1.63767309646E-01	-6.95875818344E-02	9.34365247878E-03	-6.95848784570E-02	8.33139393615E-03	1.74564637441E-01	6.32206812826E-02
1.75183946488E+09	-8.50161508393E-02	-1.68844827451E-01	-6.84930303024E-02	1.41875872277E-02	-6.85429204993E-02	1.31787300345E-02	1.75810718860E-01	5.24622154649E-02
1.75351170569E+09	-9.32893003673E-02	-1.72708080200E-01	-6.70635998993E-02	1.88858191821E-02	-6.71890764791E-02	1.78942612669E-02	1.75931426934E-01	4.15889030524E-02
1.75518394649E+09	-1.02063116139E-01	-1.75172472805E-01	-6.53130829645E-02	2.34162028616E-02	-6.55034034883E-02	2.24347369555E-02	1.74942461716E-01	3.07328651275E-02
1.75685618729E+09	-1.11161591085E-01	-1.76192752577E-01	-6.32891200472E-02	2.77513863061E-02	-6.35489523169E-02	2.67935750943E-02	1.72814101326E-01	2.00136363512E-02
1.75852842809E+09	-1.20359524964E-01	-1.75671930094E-01	-6.10008782782E-02	3.19010927893E-02	-6.13090581502E-02	3.09607130529E-02	1.69588588166E-01	9.50921690797E-03
1.76020066890E+09	-1.29420377513E-01	-1.73633182067E-01	-5.84775758523E-02	3.58312424918E-02	-5.88581707975E-02	3.49124942302E-02	1.65278626387E-01	-6.66452246334E-04
1.76187290970E+09	-1.38089478504E-01	-1.70008424703E-01	-5.57513105390E-02	3.95590617440E-02	-5.61890699436E-02	3.86505792973E-02	1.59930944517E-01	-1.04121239183E-02
1.76354515050E+09	-1.46107488674E-01	-1.64872993487E-01	-5.28454471894E-02	4.30639564127E-02	-5.33269515488E-02	4.21948051571E-02	1.53566519293E-01	-1.95989744545E-02
1.76521739130E+09	-1.53195702579E-01	-1.58318061448E-01	-4.97589328625E-02	4.63651348687E-02	-5.02970445206E-02	4.55163706240E-02	1.46250507370E-01	-2.81571296493E-02
1.76688963211E+09	-1.59098414336E-01	-1.50484869966E-01	-4.65124355078E-02	4.94641508559E-02	-4.71122990137E-02	4.86492965553E-02	1.38056607343E-01	-3.59748373574E-02
1.76856187291E+09	-1.63569437773E-01	-1.41595706772E-01	-4.31373095755E-02	5.23678924040E-02	-4.37786715411E-02	5.15700936416E-02	1.29028326213E-01	-4.29629447143E-02
1.77023411371E+09	-1.66450462904E-01	-1.31919340073E-01	-3.96157208267E-02	5.50706624818E-02	-4.03060451961E-02	5.43212209640E-02	1.19281031695E-01	-4.90700945182E-02
1.77190635452E+09	-1.67524764990E-01	-1.21719977690E-01	-3.59483111939E-02	5.75871373946E-02	-3.67043434296E-02	5.68776830229E-02	1.08875628777E-01	-5.41649741136E-02
1.77357859532E+09	-1.66736153619E-01	-1.11367744279E-01	-3.21366283851E-02	5.99187608752E-02	-3.29472292685E-02	5.92552794831E-02	9.79135782224E-02	-5.82128133642E-02
1.77525083612E+09	-1.64054612027E-01	-1.01204592010E-01	-2.81739373365E-02	6.20630770617E-02	-2.90340539851E-02	6.14432058892E-02	8.65348239694E-02	-6.11271124322E-02
1.77692307692E+09	-1.59539164092E-01	-9.16102026321E-02	-2.40538980224E-02	6.39885552168E-02	-2.49504287194E-02	6.34254396315E-02	7.48063449390E-02	-6.28809125146E-02
1.77859531773E+09	-1.53303438526E-01	-8.29482190075E-02	-1.97748537898E-02	6.57106304943E-02	-2.07214956150E-02	6.52028541163E-02	6.28898875973E-02	-6.34275960136E-02
1.78026755853E+09	-1.45577696993E-01	-7.55282361503E-02	-1.53228206459E-02	6.71763799054E-02	-1.63268375454E-02	6.67265471479E-02	5.09078519293E-02	-6.27231416314E-02
1.78193979933E+09	-1.36618238821E-01	-6.96087492669E-02	-1.07207688209E-02	6.83691437765E-02	-1.17582222080E-02	6.79916697543E-02	3.89881439034E-02	-6.07793758630E-02
1.78361204013E+09	-1.26733156316E-01	-6.54067698034E-02	-5.97248363138E-03	6.92630085598E-02	-7.04039689421E-03	6.89503782718E-02	2.72877246860E-02	-5.75981256808E-02
1.78528428094E+09	-1.16288350841E-01	-6.30608946577E-02	-1.08336221279E-03	6.98246749251E-02	-2.18931263832E-03	6.95960677425E-02	1.59249256218E-02	-5.31672082683E-02
1.78695652174E+09	-1.05668447139E-01	-6.26349634480E-02	3.89946576505E-03	7.00301569722E-02	2.76818719929E-03	6.98876503262E-02	5.04781864959E-03	-4.75812046045E-02
1.78862876254E+09	-9.52415155461E-02	-6.40871411086E-02	8.94118041365E-03	6.98525069394E-02	7.81467062536E-03	6.97992469388E-02	-5.21824343342E-03	-4.08744650408E-02
1.79030100334E+09	-8.53459611177E-02	-6.73108247802E-02	1.40582438977E-02	6.92737956725E-02	1.28933603458E-02	6.93106206821E-02	-1.47423106580E-02	-3.30985156311E-02
1.79197324415E+09	-7.62619242064E-02	-7.21519605622E-02	1.91272199105E-02	6.82798554612E-02	1.79795816305E-02	6.84112708163E-02	-2.34144802377E-02	-2.43536104486E-02
1.79364548495E+09	-6.82675211275E-02	-7.84087975639E-02	2.41763391772E-02	6.68651008814E-02	2.30205297947E-02	6.70911781830E-02	-3.11023545169E-02	-1.47466919437E-02
1.79531772575E+09	-6.15660663655E-02	-8.58239670528E-02	2.90949424573E-02	6.50360352910E-02	2.79614964575E-02	6.53571205151E-02	-3.77494571139E-02	-4.38383654086E-03
1.79698996656E+09	-5.62752295548E-02	-9.41396404107E-02	3.38987472750E-02	6.27945076823E-02	3.27756451064E-02	6.31986116716E-02	-4.32611372990E-02	6.62709263858E-03
1.79866220736E+09	-5.25214539020E-02	-1.03102161681E-01	3.84928518396E-02	6.01475204184E-02	3.74155556538E-02	6.06537146144E-02	-4.75737581191E-02	1.81077024659E-02
1.80033444816E+09	-5.03146040207E-02	-1.12411843515E-01	4.28714986636E-02	5.71409281624E-02	4.18340919980E-02	5.77232465476E-02	-5.06456095010E-02	2.99926109379E-02
1.80200668896E+09	-4.96709354857E-02	-1.21824796894E-01	4.69770381892E-02	5.37716730310E-02	4.60035578687E-02	5.44419407676E-02	-5.24504897151E-02	4.21143866592E-02
1.80367892977E+09	-5.05189447297E-02	-1.31107287558E-01	5.07955063814E-02	5.00944838401E-02	4.98759889670E-02	5.08364347415E-02	-5.29794651721E-02	5.43067708478E-02
1.80535117057E+09	-5.27861019799E-02	-1.40027592422E-01	5.42874498494E-02	4.61143219536E-02	5.34396359094E-02	4.69406105841E-02	-5.22029624500E-02	6.64774589905E-02
1.80702341137E+09	-5.63720123716E-02	-1.48400616791E-01	5.74371958460E-02	4.18960663329E-02	5.66643565071E-02	4.27874109406E-02	-5.01744622600E-02	7.84640441841E-02
1.80869565217E+09	-6.11660394344E-02	-1.56054946575E-01	6.02208923019E-02	3.74506342566E-02	5.95256800295E-02	3.83989662173E-02	-4.69088541094E-02	9.01468425907E-02
1.81036789298E+09	-6.70119704374E-02	-1.62878561269E-01	6.26300351281E-02	3.28471257626E-02	6.20129124549E-02	3.38341502740E-02	-4.24329951751E-02	1.01413458209E-01
1.81204013378E+09	-7.37771747741E-02	-1.68703031393E-01	6.46510144282E-02	2.80783042845E-02	6.41190138990E-02	2.91092348467E-02	-3.68040784803E-02	1.12113056007E-01
1.81371237458E+09	-8.12932871316E-02	-1.73473085525E-01	6.62659903747E-02	2.32067157266E-02	6.58338397742E-02	2.42786713001E-02	-3.01354015827E-02	1.22156833206E-01
1.81538461538E+09	-8.93992652330E-02	-1.77059848138E-01	6.75071496665E-02	1.82813622137E-02	6.71596722166E-02	1.93648593316E-02	-2.24523018938E-02	1.31460041523E-01
1.81705685619E+09	-9.79229101865E-02	-1.79482551805E-01	6.83559380942E-02	1.33212853771E-02	6.80996491153E-02	1.44293225887E-02	-1.38600663011E-02	1.39895592013E-01
1.81872909699E+09	-1.06660943028E-01	-1.80634575958E-01	6.88215858300E-02	8.36322388501E-03	6.86498498009E-02	9.47196311323E-03	-4.45687916465E-03	1.47404103613E-01
1.82040133779E+09	-1.15495229708E-01	-1.80582102540E-01	6.89098174514E-02	3.43298210595E-03	6.88325598081E-02	4.54743009392E-03	5.68940515247E-03	1.53922188740E-01
1.82207357860E+09	-1.24268034228E-01	-1.79325151756E-01	6.86523563141E-02	-1.42105939889E-03	6.86535759594E-02	-3.29049085921E-04	1.64169546628E-02	1.59348985460E-01
1.82374581940E+09	-1.32790563648E-01	-1.76877167330E-01	6.80456931573E-02	-6.19940698355E-03	6.81261744828E-02	-5.12677496022E-03	2.76720916344E-02	1.63663080075E-01
1.82541806020E+09	-1.40949010286E-01	-1.73301900188E-01	6.70982932521E-02	-1.08514163689E-02	6.72605090255E-02	-9.80980338562E-03	3.93096315634E-02	1.66842797531E-01
1.82709030100E+09	-1.48589835331E-01	-1.68611634147E-01	6.58630369413E-02	-1.53703110371E-02	6.60895981258E-02	-1.43519576369E-02	5.12225758082E-02	1.68811114641E-01
1.82876254181E+09	-1.55574973572E-01	-1.62929155692E-01	6.43337457935E-02	-1.97482807937E-02	6.46230406771E-02	-1.87606262554E-02	6.33087270493E-02	1.69600215915E-01
1.83043478261E+09	-1.61818566644E-01	-1.56291884118E-01	6.25352042428E-02	-2.39326206515E-02	6.28921008859E-02	-2.29789563775E-02	7.54322457451E-02	1.69175030264E-01
1.83210702341E+09	-1.67102615137E-01	-1.48849492038E-01	6.05124371559E-02	-2.79652665525E-02	6.09241026046E-02	-2.70390656835E-02	8.74899698054E-02	1.67548368742E-01
1.83377926421E+09	-1.71392263001E-01	-1.40657013670E-01	5.82426362246E-02	-3.17814399377E-02	5.87112708241E-02	-3.09051044175E-02	9.93515885157E-02	1.64725266426E-01
1.83545150502E+09	-1.74564329582E-01	-1.31898911733E-01	5.57937396320E-02	-3.54207769800E-02	5.63015886683E-02	-3.45900139090E-02	1.10921185939E-01	1.60719776913E-01
1.83712374582E+09	-1.76494294288E-01	-1.22659138906E-01	5.31588007100E-02	-3.88628813034E-02	5.37091008336E-02	-3.80676268415E-02	1.22058581243E-01	1.55567122036E-01
1.83879598662E+09	-1.77129967255E-01	-1.13136110632E-01	5.03536152666E-02	-4.21179810801E-02	5.09504214150E-02	-4.13664309793E-02	1.32669574084E-01	1.49345495484E-01
1.84046822742E+09	-1.76372352808E-01	-1.03511247885E-01	4.74021866746E-02	-4.51798408323E-02	4.80410113301E-02	-4.44544174579E-02	1.42643599484E-01	1.42069161337E-01
1.84214046823E+09	-1.74186980099E-01	-9.40141562071E-02	4.43071177000E-02	-4.80477785547E-02	4.49873780202E-02	-4.73700681418E-02	1.51881753081E-01	1.33816026524E-01
1.84381270903E+09	-1.70546834832E-01	-8.48685928291E-02	4.10907371054E-02	-5.07393056059E-02	4.18024910101E-02	-5.01083562573E-02	1.60294999916E-01	1.24672649946E-01
1.84548494983E+09	-1.65567750795E-01	-7.63076958405E-02	3.77360510186E-02	-5.32604107423E-02	3.84835862726E-02	-5.26603096420E-02	1.67773539858E-01	1.14703204216E-01
1.84715719064E+09	-1.59199627842E-01	-6.85591502157E-02	3.42638476456E-02	-5.55805479665E-02	3.50381881966E-02	-5.50390127370E-02	1.74220741619E-01	1.04022586814E-01
1.84882943144E+09	-1.51640032815E-01	-6.18835245737E-02	3.06423590294E-02	-5.77424917702E-02	3.14580671348E-02	-5.72399146694E-02	1.79604200409E-01	9.26879370888E-02
1.85050167224E+09	-1.43041497195E-01	-5.65247771918E-02	2.69124948503E-02	-5.97195270747E-02	2.77502872421E-02	-5.92648679385E-02	1.83803709911E-01	8.08762490537E-02
1.85217391304E+09	-1.33631571302E-01	-5.26770856352E-02	2.30320016509E-02	-6.15124982872E-02	2.38977224263E-02	-6.11033399170E-02	1.86804873849E-01	6.86284127787E-02
1.85384615385E+09	-1.23692006647E-01	-5.04992260509E-02	1.90161993418E-02	-6.30987920389E-02	1.99259118937E-02	-6.27431435496E-02	1.88542291810E-01	5.61512216465E-02
1.85551839465E+09	-1.13538895361E-01	-5.01163448449E-02	1.48647689775E-02	-6.44828964236E-02	1.57951457822E-02	-6.41832721243E-02	1.88985513152E-01	4.35381738125E-02
1.85719063545E+09	-1.03535187804E-01	-5.15597729166E-02	1.05647449148E-02	-6.56188289282E-02	1.15256110508E-02	-6.53675845034E-02	1.88128273325E-01	3.09571213585E-02
1.85886287625E+09	-9.40328498945E-02	-5.47792678047E-02	6.12452696128E-03	-6.64933764201E-02	7.09726463511E-03	-6.63139156866E-02	1.85953892105E-01	1.85133214598E-02
1.86053511706E+09	-8.53675264310E-02	-5.96529790889E-02	1.56237609315E-03	-6.70900942611E-02	2.56946738990E-03	-6.69651863334E-02	1.82499556849E-01	6.35047463515E-03
1.86220735786E+09	-7.78745561340E-02	-6.60147639302E-02	-3.11257218941E-03	-6.73626494893E-02	-2.09299112246E-03	-6.72997352866E-02	1.77778539430E-01	-5.36547301410E-03
1.86387959866E+09	-7.17982990418E-02	-7.35674211728E-02	-7.87371367289E-03	-6.73005238928E-02	-6.83375843090E-03	-6.73102956853E-02	1.71880265622E-01	-1.65271759811E-02
1.86555183946E+09	-6.73703057516E-02	-8.20124461227E-02	-1.26835864928E-02	-6.68700714962E-02	-1.16377082611E-02	-6.69491847576E-02	1.64801111150E-01	-2.69848145379E-02
1.86722408027E+09	-6.47161790608E-02	-9.10129146124E-02	-1.75063976369E-02	-6.60555729028E-02	-1.64565965931E-02	-6.62203410192E-02	1.56670054324E-01	-3.66277666996E-02
1.86889632107E+09	-6.38842826736E-02	-1.00171583861E-01	-2.23149385687E-02	-6.48565574449E-02	-2.12746702280E-02	-6.51004746519E-02	1.47557997246E-01	-4.53487808305E-02
1.87056856187E+09	-6.48425566384E-02	-1.09136269240E-01	-2.70424164736E-02	-6.32576877279E-02	-2.60125315466E-02	-6.35832846311E-02	1.37569294183E-01	-5.30590325264E-02
1.87224080268E+09	-6.74706520593E-02	-1.17589537964E-01	-3.16745517624E-02	-6.12653480850E-02	-3.06562149152E-02	-6.16728607542E-02	1.26807144121E-01	-5.96583189525E-02
1.87391304348E+09	-7.15810730993E-02	-1.25243164273E-01	-3.61482420956E-02	-5.88966049350E-02	-3.51574265711E-02	-5.93791583351E-02	1.15358480609E-01	-6.50695924533E-02
1.87558528428E+09	-7.70183806267E-02	-1.31840281522E-01	-4.04237153636E-02	-5.61573383831E-02	-3.94774893858E-02	-5.67205082594E-02	1.03396667311E-01	-6.92312977512E-02
1.87725752508E+09	-8.34961578007E-02	-1.37226493462E-01	-4.44885427133E-02	-5.30738930419E-02	-4.35773015021E-02	-5.37082283136E-02	9.10314103767E-02	-7.20919073369E-02
1.87892976589E+09	-9.07860584845E-02	-1.41250766633E-01	-4.82857501774E-02	-4.96682003993E-02	-4.74204596720E-02	-5.03698979051E-02	7.83799968927E-02	-7.35965501704E-02
1.88060200669E+09	-9.85917817815E-02	-1.43828465423E-01	-5.17864026869E-02	-4.59561610007E-02	-5.09803008284E-02	-4.67333556156E-02	6.55904050967E-02	-7.37241027098E-02
1.88227424749E+09	-1.06685037950E-01	-1.44995178257E-01	-5.49677646051E-02	-4.20021237472E-02	-5.42192872694E-02	-4.28323504925E-02	5.28023864136E-02	-7.25016019875E-02
1.88394648829E+09	-1.14826492190E-01	-1.44715584959E-01	-5.78224057898E-02	-3.78208769657E-02	-5.71381233980E-02	-3.86957723639E-02	4.01651001440E-02	-6.98587355937E-02
1.88561872910E+09	-1.22804175975E-01	-1.43058494993E-01	-6.03329517868E-02	-3.34344999921E-02	-5.96956247844E-02	-3.43638276506E-02	2.78287615549E-02	-6.58606398995E-02
1.88729096990E+09	-1.30402845306E-01	-1.40096497809E-01	-6.24735209228E-02	-2.88964769878E-02	-6.19088796947E-02	-2.98618147501E-02	1.59077612010E-02	-6.05305077305E-02
1.88896321070E+09	-1.37449159871E-01	-1.35909045479E-01	-6.42404581034E-02	-2.42244141958E-02	-6.37566022018E-02	-2.52432228791E-02	4.56815336730E-03	-5.38968277229E-02
1.89063545151E+09	-1.43787510764E-01	-1.30623102603E-01	-6.56415219380E-02	-1.94630074111E-02	-6.52398929605E-02	-2.05186265774E-02	-6.06483070078E-03	-4.60423327069E-02
1.89230769231E+09	-1.49285895242E-01	-1.24369709517E-01	-6.66635379923E-02	-1.46480249783E-02	-6.63327184842E-02	-1.57262657495E-02	-1.58428300465E-02	-3.70262484250E-02
1.89397993311E+09	-1.53812771964E-01	-1.17305414972E-01	-6.73192062562E-02	-9.81157052010E-03	-6.70600627876E-02	-1.09056523306E-02	-2.46782316456E-02	-2.69453449506E-02
