# Hz S RI R 50
! CMT, CMT808U, 21440046, 21.4.3/4
! Date: 12/13/2025 10:45:47 PM
! Data: Format (Calibration Info)
! Freq	S11:Re/Im(F2)	S41:Re/Im(F2)	S14:Re/Im(F2)	S44:Re/Im(F2)
1.70000000000E+09	-8.54367832319E-02	-1.27379267333E-01	-5.63372417691E-02	-3.95792025635E-02	-5.60718616102E-02	-3.95535678206E-02	-4.02191858052E-02	7.55241080873E-02
1.70100000000E+09	-8.71343358580E-02	-1.22312029956E-01	-5.79878758624E-02	-3.71433228724E-02	-5.77840056835E-02	-3.71363212023E-02	-3.82039062492E-02	8.28976053199E-02
1.70200000000E+09	-8.82160253561E-02	-1.17007154526E-01	-5.96270769016E-02	-3.47040144395E-02	-5.94483631064E-02	-3.46545171029E-02	-3.58482874600E-02	9.00995318846E-02
1.70300000000E+09	-8.89633703879E-02	-1.11450640524E-01	-6.11004371319E-02	-3.21025418554E-02	-6.09710683259E-02	-3.22400959772E-02	-3.28737412951E-02	9.70921332260E-02
1.70400000000E+09	-8.91587769067E-02	-1.05640205398E-01	-6.25683042936E-02	-2.94381472486E-02	-6.23374865502E-02	-2.95735995594E-02	-2.94911449357E-02	1.03851896601E-01
1.70500000000E+09	-8.87264886462E-02	-9.97460285661E-02	-6.38443331369E-02	-2.68243366301E-02	-6.36837038516E-02	-2.68716437902E-02	-2.56311534960E-02	1.10393148848E-01
1.70600000000E+09	-8.77781331068E-02	-9.38228681608E-02	-6.50156176984E-02	-2.41076038528E-02	-6.48355240888E-02	-2.41473766478E-02	-2.14354934254E-02	1.16592658508E-01
1.70700000000E+09	-8.63083801658E-02	-8.78058838984E-02	-6.61100031770E-02	-2.12957919064E-02	-6.59672041780E-02	-2.13294787910E-02	-1.67505794419E-02	1.22636962238E-01
1.70800000000E+09	-8.42884537960E-02	-8.18841110505E-02	-6.70131258696E-02	-1.84604960838E-02	-6.68653642757E-02	-1.84969185588E-02	-1.18032962482E-02	1.28303486320E-01
1.70900000000E+09	-8.17857949126E-02	-7.59831466372E-02	-6.78009664533E-02	-1.54465898713E-02	-6.77019886554E-02	-1.55770298724E-02	-6.46901230469E-03	1.33589026461E-01
1.71000000000E+09	-7.87216864523E-02	-7.02824804746E-02	-6.86255273658E-02	-1.25318334771E-02	-6.83801940296E-02	-1.26355524119E-02	-7.67975239625E-04	1.38532726898E-01
1.71100000000E+09	-7.52182530770E-02	-6.47925828750E-02	-6.91601574187E-02	-9.53958778652E-03	-6.89556404499E-02	-9.65886610740E-03	5.17217496198E-03	1.43049661999E-01
1.71200000000E+09	-7.12214247816E-02	-5.94878022813E-02	-6.95789641578E-02	-6.49128855551E-03	-6.95130606916E-02	-6.67373983140E-03	1.14500158423E-02	1.47274420629E-01
1.71300000000E+09	-6.67506431548E-02	-5.45417904518E-02	-6.97928912887E-02	-3.57943119478E-03	-6.96926350168E-02	-3.58488511200E-03	1.78685514973E-02	1.51018342142E-01
1.71400000000E+09	-6.20054145003E-02	-4.98402795630E-02	-6.99913487528E-02	-3.78038240477E-04	-6.98870846301E-02	-6.10450136402E-04	2.44608966387E-02	1.54324522629E-01
1.71500000000E+09	-5.67321103670E-02	-4.55035825940E-02	-7.00163976842E-02	2.64351997993E-03	-6.98217796847E-02	2.52258595501E-03	3.14285768947E-02	1.57221564939E-01
1.71600000000E+09	-5.12433490160E-02	-4.15145129799E-02	-6.98651642431E-02	5.72769435630E-03	-6.97061110047E-02	5.55567937853E-03	3.84325936729E-02	1.59628799271E-01
1.71700000000E+09	-4.53603312328E-02	-3.79763043584E-02	-6.96200762929E-02	8.76750105766E-03	-6.94294891078E-02	8.65687453123E-03	4.56265048644E-02	1.61711207806E-01
1.71800000000E+09	-3.92725585078E-02	-3.47324279617E-02	-6.91681265498E-02	1.17735968868E-02	-6.89978817254E-02	1.16518753990E-02	5.27448940316E-02	1.63112705398E-01
1.71900000000E+09	-3.30476540870E-02	-3.20409285176E-02	-6.86140679372E-02	1.48303596596E-02	-6.84534648977E-02	1.47094142134E-02	6.01119755422E-02	1.64301314251E-01
1.72000000000E+09	-2.65551290361E-02	-2.98138819195E-02	-6.79340730600E-02	1.77551642125E-02	-6.77412820431E-02	1.76362539866E-02	6.74211381376E-02	1.64882352438E-01
1.72100000000E+09	-1.99891729922E-02	-2.78740589227E-02	-6.70157016050E-02	2.07839043723E-02	-6.69324774534E-02	2.06687941483E-02	7.48892983505E-02	1.64916150380E-01
1.72200000000E+09	-1.32889480925E-02	-2.65085610528E-02	-6.60979841739E-02	2.37376627755E-02	-6.59465110080E-02	2.34761070589E-02	8.21605179692E-02	1.64701086948E-01
1.72300000000E+09	-6.47148502382E-03	-2.55663345728E-02	-6.49871632643E-02	2.65766385534E-02	-6.48683616668E-02	2.63840875274E-02	8.94050080417E-02	1.64008188964E-01
1.72400000000E+09	2.25512512909E-04	-2.50565179541E-02	-6.37707670991E-02	2.93749735673E-02	-6.36343855402E-02	2.91739686515E-02	9.66349045796E-02	1.62776433492E-01
1.72500000000E+09	7.03808927406E-03	-2.50708828951E-02	-6.23990236437E-02	3.20985448738E-02	-6.23628985525E-02	3.19066122418E-02	1.03680149477E-01	1.61092024076E-01
1.72600000000E+09	1.37434505201E-02	-2.54455067416E-02	-6.09467757413E-02	3.48438085797E-02	-6.08295654939E-02	3.45917078069E-02	1.10554319965E-01	1.58930536207E-01
1.72700000000E+09	2.04510254297E-02	-2.62657738320E-02	-5.93157851421E-02	3.74366373610E-02	-5.92203148168E-02	3.71983266712E-02	1.17389390044E-01	1.56454324111E-01
1.72800000000E+09	2.69654560733E-02	-2.75758274392E-02	-5.75790598873E-02	3.99794347813E-02	-5.75277065799E-02	3.97598739416E-02	1.23928499606E-01	1.53512128912E-01
1.72900000000E+09	3.33072204171E-02	-2.92067667547E-02	-5.57571987820E-02	4.24095893695E-02	-5.58126853047E-02	4.21854368314E-02	1.30344321572E-01	1.50236495195E-01
1.73000000000E+09	3.95612780251E-02	-3.13429324711E-02	-5.39077903873E-02	4.48090588293E-02	-5.38475355202E-02	4.45995730363E-02	1.36402186407E-01	1.46538612892E-01
1.73100000000E+09	4.56594568318E-02	-3.37864531718E-02	-5.18564714026E-02	4.70060833056E-02	-5.18414533337E-02	4.67594641979E-02	1.42324345662E-01	1.42426810140E-01
1.73200000000E+09	5.14686702628E-02	-3.66944265590E-02	-4.97171109927E-02	4.91503148257E-02	-4.96606958808E-02	4.90011530472E-02	1.47894961232E-01	1.38018897637E-01
1.73300000000E+09	5.70375341323E-02	-3.97954354253E-02	-4.75850186160E-02	5.12775828928E-02	-4.75053220802E-02	5.10358178936E-02	1.53182253706E-01	1.33327315049E-01
1.73400000000E+09	6.23652171011E-02	-4.33944300114E-02	-4.51806041033E-02	5.32059104083E-02	-4.52932779356E-02	5.30730367467E-02	1.58164407209E-01	1.28304650037E-01
1.73500000000E+09	6.73450056013E-02	-4.72961992307E-02	-4.28775832791E-02	5.51337735955E-02	-4.29323447578E-02	5.48626545115E-02	1.62767271177E-01	1.23001026638E-01
1.73600000000E+09	7.19928779498E-02	-5.13852362946E-02	-4.04604797426E-02	5.68511079882E-02	-4.05245853903E-02	5.66206638064E-02	1.66914705224E-01	1.17287591597E-01
1.73700000000E+09	7.63603521707E-02	-5.57976787362E-02	-3.79289860420E-02	5.84731272044E-02	-3.80051646850E-02	5.82221164254E-02	1.70877230407E-01	1.11620075516E-01
1.73800000000E+09	8.03424363123E-02	-6.04856921085E-02	-3.53341270589E-02	5.99895348315E-02	-3.54150178265E-02	5.97134027437E-02	1.74275390120E-01	1.05591712466E-01
1.73900000000E+09	8.39667341485E-02	-6.54103394462E-02	-3.26910158740E-02	6.13642249477E-02	-3.28560616630E-02	6.11112997599E-02	1.77445053556E-01	9.93541877060E-02
1.74000000000E+09	8.71403060770E-02	-7.05386422462E-02	-3.01094918070E-02	6.26050622357E-02	-3.01330734358E-02	6.24972985712E-02	1.80107619585E-01	9.29248054124E-02
1.74100000000E+09	8.99185597478E-02	-7.57449001617E-02	-2.73508655595E-02	6.37683899525E-02	-2.75032452411E-02	6.36021984420E-02	1.82373483254E-01	8.65294755205E-02
1.74200000000E+09	9.23350025407E-02	-8.11749493889E-02	-2.46294861369E-02	6.48609235666E-02	-2.47311512630E-02	6.46605036131E-02	1.84162438510E-01	7.98172216784E-02
1.74300000000E+09	9.41519817033E-02	-8.66358508655E-02	-2.18247453860E-02	6.58602474779E-02	-2.18892541765E-02	6.55715031894E-02	1.85597120014E-01	7.31013853983E-02
1.74400000000E+09	9.55957666104E-02	-9.21715997000E-02	-1.90088003806E-02	6.66195154400E-02	-1.91379623735E-02	6.63654471478E-02	1.86578460248E-01	6.63600502657E-02
1.74500000000E+09	9.65174103807E-02	-9.77276185371E-02	-1.61541350567E-02	6.72082242929E-02	-1.62184250256E-02	6.70531984678E-02	1.87057323703E-01	5.95294458911E-02
1.74600000000E+09	9.69888886509E-02	-1.03273679225E-01	-1.32924607162E-02	6.77553752619E-02	-1.34300732689E-02	6.76189384881E-02	1.87085399655E-01	5.28792138683E-02
1.74700000000E+09	9.69588461013E-02	-1.08799669245E-01	-1.04208260966E-02	6.82730907185E-02	-1.06062110798E-02	6.80887532972E-02	1.86772063820E-01	4.60224806868E-02
1.74800000000E+09	9.64750118830E-02	-1.14097042295E-01	-7.61814213483E-03	6.85470245334E-02	-7.72006726293E-03	6.84082249226E-02	1.85962497503E-01	3.93408128165E-02
1.74900000000E+09	9.55096021026E-02	-1.19308390101E-01	-4.66996391742E-03	6.88223124183E-02	-4.81483724226E-03	6.85819854975E-02	1.84753684042E-01	3.28344306616E-02
1.75000000000E+09	9.40412189992E-02	-1.24350254996E-01	-1.88772173694E-03	6.88649529988E-02	-2.04878621659E-03	6.86691651533E-02	1.83091275128E-01	2.63494660330E-02
1.75100000000E+09	9.22988788902E-02	-1.29103382312E-01	1.06947570434E-03	6.88668846277E-02	8.51465259662E-04	6.86564062073E-02	1.81049818476E-01	1.99606781978E-02
1.75200000000E+09	8.99601779747E-02	-1.33638089259E-01	3.81367494908E-03	6.86518818609E-02	3.75083558290E-03	6.85410198005E-02	1.78506105998E-01	1.38799028070E-02
1.75300000000E+09	8.73213999551E-02	-1.37759844913E-01	6.69106092095E-03	6.84672151174E-02	6.56563925384E-03	6.83009356468E-02	1.75685941935E-01	7.82766926243E-03
1.75400000000E+09	8.42078814279E-02	-1.41587825524E-01	9.49719744197E-03	6.80073854435E-02	9.32534893861E-03	6.79440981951E-02	1.72334191798E-01	2.04728219226E-03
1.75500000000E+09	8.08639238088E-02	-1.45018449129E-01	1.22944108620E-02	6.75567716412E-02	1.21478167485E-02	6.74982919645E-02	1.68735036906E-01	-3.50028018696E-03
1.75600000000E+09	7.71428120059E-02	-1.47946129645E-01	1.50842008490E-02	6.69412236647E-02	1.49414581486E-02	6.68577917389E-02	1.64676848185E-01	-8.62180881972E-03
1.75700000000E+09	7.32009363029E-02	-1.50481840682E-01	1.77866921208E-02	6.63353047596E-02	1.76104356957E-02	6.61896720777E-02	1.60335766034E-01	-1.36436194209E-02
1.75800000000E+09	6.91009657398E-02	-1.52467947072E-01	2.04898929483E-02	6.55052050070E-02	2.02868620614E-02	6.54588131062E-02	1.55668450267E-01	-1.82000607915E-02
1.75900000000E+09	6.47317399195E-02	-1.53942055423E-01	2.31801868573E-02	6.45953746555E-02	2.29241133283E-02	6.44958111963E-02	1.50731551787E-01	-2.24695562823E-02
1.76000000000E+09	6.03272886029E-02	-1.54838421225E-01	2.57948200148E-02	6.36603003065E-02	2.55630247457E-02	6.35946088904E-02	1.45519640583E-01	-2.64243683755E-02
1.76100000000E+09	5.58640705637E-02	-1.55188425279E-01	2.83330307198E-02	6.25611306184E-02	2.81974717361E-02	6.24617612055E-02	1.39993911311E-01	-2.99508749329E-02
1.76200000000E+09	5.14548008130E-02	-1.55052631329E-01	3.09212574733E-02	6.14083819309E-02	3.07513967085E-02	6.12705144648E-02	1.34305732436E-01	-3.30646121464E-02
1.76300000000E+09	4.70531552444E-02	-1.54235442447E-01	3.34499605690E-02	6.01065353371E-02	3.32056090326E-02	6.00755724323E-02	1.28506352625E-01	-3.58545511972E-02
1.76400000000E+09	4.28506300538E-02	-1.52840538243E-01	3.58914232482E-02	5.87249275763E-02	3.56593384879E-02	5.86760734480E-02	1.22505224646E-01	-3.81538375659E-02
1.76500000000E+09	3.88440708261E-02	-1.50969816598E-01	3.82878823307E-02	5.73369893207E-02	3.80610957247E-02	5.72261216838E-02	1.16254394120E-01	-4.01024327887E-02
1.76600000000E+09	3.50458359592E-02	-1.48538188508E-01	4.05889467804E-02	5.57578463924E-02	4.04146288232E-02	5.56750490604E-02	1.10028510650E-01	-4.15129338638E-02
1.76700000000E+09	3.16242944404E-02	-1.45566461260E-01	4.29462330085E-02	5.40534560624E-02	4.26507602109E-02	5.40587613239E-02	1.03608922735E-01	-4.25696250614E-02
1.76800000000E+09	2.85887197001E-02	-1.42261511126E-01	4.51629244620E-02	5.23288968080E-02	4.50042086090E-02	5.23749845336E-02	9.72235847896E-02	-4.30691372044E-02
1.76900000000E+09	2.59893191619E-02	-1.38363161188E-01	4.73908863140E-02	5.05136345818E-02	4.71864109066E-02	5.05466145778E-02	9.08393002749E-02	-4.31833253274E-02
1.77000000000E+09	2.37818806317E-02	-1.34147207108E-01	4.95164694298E-02	4.85932695028E-02	4.92411691474E-02	4.86064959377E-02	8.44483658333E-02	-4.29239628965E-02
1.77100000000E+09	2.21871326783E-02	-1.29788857845E-01	5.14718951134E-02	4.66551820541E-02	5.13704375779E-02	4.65907176658E-02	7.80509035905E-02	-4.21243674625E-02
1.77200000000E+09	2.11909624472E-02	-1.24987164415E-01	5.35141421627E-02	4.45317624803E-02	5.33243977682E-02	4.45215988790E-02	7.18767426579E-02	-4.08877452627E-02
1.77300000000E+09	2.07244619427E-02	-1.20100909738E-01	5.55272533041E-02	4.22967808580E-02	5.53142242507E-02	4.23272707230E-02	6.57001083409E-02	-3.92497234537E-02
1.77400000000E+09	2.09209997479E-02	-1.15009016440E-01	5.73355811118E-02	4.00593764079E-02	5.71048768305E-02	4.00340256997E-02	5.96331484606E-02	-3.72193469600E-02
1.77500000000E+09	2.17231535695E-02	-1.09938403990E-01	5.91132890127E-02	3.77268431672E-02	5.88780401851E-02	3.76970458628E-02	5.38655663947E-02	-3.47172185461E-02
1.77600000000E+09	2.31710444576E-02	-1.04929928671E-01	6.08391288471E-02	3.51865124280E-02	6.06113234966E-02	3.52587256113E-02	4.81499591547E-02	-3.18596792902E-02
1.77700000000E+09	2.51754249660E-02	-1.00035913964E-01	6.24192397883E-02	3.26145996690E-02	6.21442365692E-02	3.26916885145E-02	4.27384259049E-02	-2.85388585707E-02
1.77800000000E+09	2.78067564728E-02	-9.52256784014E-02	6.38461443521E-02	2.99706534473E-02	6.36618932746E-02	3.01038325666E-02	3.75632779777E-02	-2.49943419506E-02
1.77900000000E+09	3.10569244236E-02	-9.07312981323E-02	6.52590850891E-02	2.73690528354E-02	6.51038892686E-02	2.74126153142E-02	3.26928530453E-02	-2.09731998212E-02
1.78000000000E+09	3.47980632751E-02	-8.64939510935E-02	6.65132068703E-02	2.45624489889E-02	6.63063173624E-02	2.46357766491E-02	2.80301237824E-02	-1.66171886648E-02
1.78100000000E+09	3.90444508720E-02	-8.27087659056E-02	6.76475786458E-02	2.16559429611E-02	6.74280005145E-02	2.17347209071E-02	2.37452569544E-02	-1.21156482827E-02
1.78200000000E+09	4.37984258541E-02	-7.92789026932E-02	6.86442814942E-02	1.86655672467E-02	6.84478920301E-02	1.88132678639E-02	1.98288228130E-02	-7.22676539515E-03
1.78300000000E+09	4.88478886098E-02	-7.62888317918E-02	6.94539593148E-02	1.57706435092E-02	6.92034039377E-02	1.57937699997E-02	1.61533651203E-02	-2.07251103310E-03
1.78400000000E+09	5.43521290005E-02	-7.39346032363E-02	7.02150531553E-02	1.26966430475E-02	7.00691755797E-02	1.28052659298E-02	1.28909317104E-02	3.22770596907E-03
1.78500000000E+09	6.00858769312E-02	-7.20904608751E-02	7.08469232285E-02	9.59612153473E-03	7.07295224556E-02	9.73692745895E-03	1.00548025687E-02	8.83538666178E-03
1.78600000000E+09	6.60150747997E-02	-7.07526005226E-02	7.12779951215E-02	6.48305584265E-03	7.10931466485E-02	6.60951082346E-03	7.52016194210E-03	1.44861012916E-02
1.78700000000E+09	7.20278170619E-02	-7.00306180978E-02	7.14969196378E-02	3.27802401027E-03	7.13708470250E-02	3.49310907061E-03	5.48110069042E-03	2.05004207913E-02
1.78800000000E+09	7.82013943210E-02	-6.99371727852E-02	7.17382738937E-02	1.73258365958E-04	7.15728966063E-02	2.84386492630E-04	3.85133498991E-03	2.65215998863E-02
1.78900000000E+09	8.43761313777E-02	-7.03879186822E-02	7.16903252260E-02	-3.04129841558E-03	7.14989647154E-02	-2.87487960543E-03	2.51984955877E-03	3.26373960024E-02
1.79000000000E+09	9.05563726937E-02	-7.14950052081E-02	7.14986987159E-02	-6.26646216823E-03	7.14336353045E-02	-6.05905895866E-03	1.61676555046E-03	3.87995345629E-02
1.79100000000E+09	9.65080951031E-02	-7.30554172652E-02	7.11665903302E-02	-9.33164971212E-03	7.10582498201E-02	-9.20005739003E-03	1.25197778791E-03	4.50513124421E-02
1.79200000000E+09	1.02382145530E-01	-7.51912363016E-02	7.06537445635E-02	-1.25801550224E-02	7.06187313376E-02	-1.23094719075E-02	1.27684820663E-03	5.11629073688E-02
1.79300000000E+09	1.08053545474E-01	-7.78732307778E-02	7.01381657258E-02	-1.56209408106E-02	7.00109373082E-02	-1.55401640922E-02	1.74850151390E-03	5.73779867284E-02
1.79400000000E+09	1.13458634379E-01	-8.09759616086E-02	6.93643333958E-02	-1.87186833702E-02	6.92615089495E-02	-1.85448768983E-02	2.51630178347E-03	6.34225635887E-02
1.79500000000E+09	1.18535345297E-01	-8.45811510184E-02	6.83831133101E-02	-2.17718533426E-02	6.83033032796E-02	-2.15692971776E-02	3.83304325197E-03	6.95652408467E-02
1.79600000000E+09	1.23272358287E-01	-8.85736368521E-02	6.73706219550E-02	-2.47321063959E-02	6.72231598819E-02	-2.45174825751E-02	5.51173689241E-03	7.55242819620E-02
1.79700000000E+09	1.27649136982E-01	-9.28823004608E-02	6.61741157346E-02	-2.76600163740E-02	6.60338837250E-02	-2.74955914921E-02	7.51795432676E-03	8.13411609557E-02
1.79800000000E+09	1.31585020425E-01	-9.76232418490E-02	6.48074383605E-02	-3.05544777911E-02	6.47435426921E-02	-3.03751743339E-02	1.00158110488E-02	8.70205710372E-02
1.79900000000E+09	1.35174047812E-01	-1.02555814366E-01	6.33274376776E-02	-3.33093256460E-02	6.32819774521E-02	-3.31276050427E-02	1.28499703677E-02	9.25868910385E-02
1.80000000000E+09	1.38267991624E-01	-1.07841370470E-01	6.17859425890E-02	-3.60165760042E-02	6.16880028791E-02	-3.57940383157E-02	1.59878839048E-02	9.77505478290E-02
1.80100000000E+09	1.40934428946E-01	-1.13236568542E-01	6.00096493009E-02	-3.87008824834E-02	5.99977176745E-02	-3.85011567155E-02	1.95309778196E-02	1.02860959406E-01
1.80200000000E+09	1.43174410834E-01	-1.18798320807E-01	5.82283669292E-02	-4.11928301268E-02	5.82439352763E-02	-4.09681312902E-02	2.33152717569E-02	1.07759003187E-01
1.80300000000E+09	1.44903960616E-01	-1.24446986261E-01	5.62780788587E-02	-4.36393402123E-02	5.62969750217E-02	-4.33850953200E-02	2.74476775884E-02	1.12281367789E-01
1.80400000000E+09	1.46176510838E-01	-1.30212860333E-01	5.42942272979E-02	-4.59410560079E-02	5.42635627767E-02	-4.57028096952E-02	3.19871911533E-02	1.16503027439E-01
1.80500000000E+09	1.47038033237E-01	-1.35940080896E-01	5.21467211422E-02	-4.82013017672E-02	5.21302733909E-02	-4.80036294624E-02	3.65989247303E-02	1.20413931436E-01
1.80600000000E+09	1.47510126433E-01	-1.41732404122E-01	5.00325257847E-02	-5.03646573637E-02	4.99224565065E-02	-5.00496871088E-02	4.15377922222E-02	1.24051773223E-01
1.80700000000E+09	1.47376745767E-01	-1.47380030353E-01	4.76764210456E-02	-5.23532827887E-02	4.76192725503E-02	-5.20964219098E-02	4.67036482630E-02	1.27308266727E-01
1.80800000000E+09	1.46926551392E-01	-1.53105032896E-01	4.53355695752E-02	-5.42433726122E-02	4.52597446636E-02	-5.40051432344E-02	5.21580784160E-02	1.30377211378E-01
1.80900000000E+09	1.46073191436E-01	-1.58543628462E-01	4.28393693856E-02	-5.59482529956E-02	4.28884488283E-02	-5.58474596380E-02	5.76674350371E-02	1.32773102191E-01
1.81000000000E+09	1.44712515517E-01	-1.63987322091E-01	4.04229420821E-02	-5.77721226868E-02	4.03845945862E-02	-5.74595942526E-02	6.32649685126E-02	1.35053161310E-01
1.81100000000E+09	1.43108792488E-01	-1.69277720199E-01	3.77797667026E-02	-5.92459121569E-02	3.78893247476E-02	-5.90014509749E-02	6.91210693576E-02	1.36917210273E-01
1.81200000000E+09	1.41028300718E-01	-1.74256893281E-01	3.51686047405E-02	-6.06645598701E-02	3.52090280641E-02	-6.04462355967E-02	7.51000893080E-02	1.38281490883E-01
1.81300000000E+09	1.38691928088E-01	-1.79137008308E-01	3.25688720043E-02	-6.20339748253E-02	3.25839496612E-02	-6.17619070016E-02	8.10476448456E-02	1.39294373428E-01
1.81400000000E+09	1.36048367818E-01	-1.83727197472E-01	2.98350520957E-02	-6.32282419774E-02	2.99384954029E-02	-6.30211934815E-02	8.69628711287E-02	1.40088235157E-01
1.81500000000E+09	1.32960804653E-01	-1.88101582358E-01	2.70665617032E-02	-6.43073936599E-02	2.71646499953E-02	-6.41202387817E-02	9.30808840604E-02	1.40368973515E-01
1.81600000000E+09	1.29719761026E-01	-1.92178245036E-01	2.43030605031E-02	-6.53453217402E-02	2.44584100447E-02	-6.50623609669E-02	9.91702020453E-02	1.40200221911E-01
1.81700000000E+09	1.26195635437E-01	-1.96032366210E-01	2.15761085176E-02	-6.61303226107E-02	2.16754212636E-02	-6.58762240855E-02	1.05118054216E-01	1.39796779534E-01
1.81800000000E+09	1.22337654590E-01	-1.99497083983E-01	1.87972481037E-02	-6.68369799355E-02	1.88180433684E-02	-6.66169272770E-02	1.11174656875E-01	1.38886406202E-01
