# Hz S RI R 50
! CMT, CMT808U, 21440046, 21.4.3/4
! Date: 12/13/2025 10:56:22 PM
! Data: Format (Calibration Info)
! Freq	S11:Re/Im(F2)	S41:Re/Im(F2)	S14:Re/Im(F2)	S44:Re/Im(F2)
1.70000000000E+09	-8.66099788403E-02	-1.26036898361E-01	-4.62352315194E-02	-4.82640837484E-02	-4.59961832215E-02	-4.82028485377E-02	-7.06327135133E-02	5.02225920630E-02
1.70100000000E+09	-8.81278638191E-02	-1.20945771743E-01	-4.81919519678E-02	-4.63271265382E-02	-4.80234274807E-02	-4.62837314512E-02	-6.98476404997E-02	5.78253060449E-02
1.70200000000E+09	-8.90542540720E-02	-1.15628078514E-01	-5.01781926617E-02	-4.43746820500E-02	-5.00180674039E-02	-4.42917530743E-02	-6.87145689474E-02	6.53316754925E-02
1.70300000000E+09	-8.96391406228E-02	-1.10101490374E-01	-5.20325183028E-02	-4.22733027120E-02	-5.19088755668E-02	-4.23654064512E-02	-6.69016316475E-02	7.26885748959E-02
1.70400000000E+09	-8.96660969281E-02	-1.04328236847E-01	-5.39054545526E-02	-4.00799458213E-02	-5.36846941120E-02	-4.01766920158E-02	-6.46547375639E-02	7.98894198547E-02
1.70500000000E+09	-8.90759011371E-02	-9.84665517919E-02	-5.56256538278E-02	-3.79175774879E-02	-5.54651720354E-02	-3.79378623058E-02	-6.18982565985E-02	8.69678545697E-02
1.70600000000E+09	-8.79925977141E-02	-9.26175971016E-02	-5.72670979409E-02	-3.56632442184E-02	-5.70896005653E-02	-3.56707107349E-02	-5.87673746573E-02	9.37431563800E-02
1.70700000000E+09	-8.63935402325E-02	-8.66895501523E-02	-5.88745895134E-02	-3.32715401252E-02	-5.87370606151E-02	-3.32680301135E-02	-5.50956254197E-02	1.00460071068E-01
1.70800000000E+09	-8.42389187463E-02	-8.08247350419E-02	-6.03180391881E-02	-3.08391375041E-02	-6.01629413225E-02	-3.08481972056E-02	-5.10980703457E-02	1.06831840043E-01
1.70900000000E+09	-8.16406319785E-02	-7.50459295244E-02	-6.16746135030E-02	-2.82027556910E-02	-6.15713517961E-02	-2.82883188992E-02	-4.66655236953E-02	1.12904071037E-01
1.71000000000E+09	-7.84735959211E-02	-6.94461751314E-02	-6.30952947309E-02	-2.56456287453E-02	-6.28539158519E-02	-2.57031027039E-02	-4.18255507763E-02	1.18660966712E-01
1.71100000000E+09	-7.48787007842E-02	-6.40689275315E-02	-6.42510366428E-02	-2.29561270047E-02	-6.40436229703E-02	-2.30480475580E-02	-3.66761468534E-02	1.24045081151E-01
1.71200000000E+09	-7.08124298364E-02	-5.88693144885E-02	-6.53296217767E-02	-2.01867251892E-02	-6.52493659585E-02	-2.03403624009E-02	-3.11221684308E-02	1.29182614108E-01
1.71300000000E+09	-6.62769812272E-02	-5.40362440053E-02	-6.62069749303E-02	-1.75258571715E-02	-6.61017720397E-02	-1.74858724198E-02	-2.53427233546E-02	1.33878360153E-01
1.71400000000E+09	-6.14710847345E-02	-4.94881309622E-02	-6.70883062399E-02	-1.45256716864E-02	-6.69770955245E-02	-1.47115443502E-02	-1.93471890822E-02	1.38186244087E-01
1.71500000000E+09	-5.61529305125E-02	-4.52698507237E-02	-6.78225125252E-02	-1.16492337872E-02	-6.76269278300E-02	-1.17403322463E-02	-1.29043396016E-02	1.42108697824E-01
1.71600000000E+09	-5.06320054030E-02	-4.14301172685E-02	-6.84095665825E-02	-8.69467476830E-03	-6.82196635050E-02	-8.81946988941E-03	-6.33650302322E-03	1.45567434106E-01
1.71700000000E+09	-4.47354248326E-02	-3.80097498968E-02	-6.88602904141E-02	-5.72242548696E-03	-6.86656803176E-02	-5.79977511431E-03	4.80040062866E-04	1.48725231016E-01
1.71800000000E+09	-3.86575409360E-02	-3.49031281418E-02	-6.91478545541E-02	-2.73795655719E-03	-6.89597947240E-02	-2.82591388653E-03	7.30577096464E-03	1.51211780026E-01
1.71900000000E+09	-3.24523944228E-02	-3.23502026715E-02	-6.93236276145E-02	3.25485613691E-04	-6.91385004989E-02	2.40113435254E-04	1.44095980245E-02	1.53524031906E-01
1.72000000000E+09	-2.59785550500E-02	-3.02473258526E-02	-6.93617614253E-02	3.31703714183E-03	-6.91588975085E-02	3.22831447316E-03	2.15945550189E-02	1.55204750409E-01
1.72100000000E+09	-1.94594969585E-02	-2.84322076389E-02	-6.91828675938E-02	6.44017465108E-03	-6.90588892425E-02	6.35629870962E-03	2.89630328736E-02	1.56371146509E-01
1.72200000000E+09	-1.27950474749E-02	-2.71901747614E-02	-6.89687833006E-02	9.54626051985E-03	-6.87766903403E-02	9.31085242777E-03	3.62236653479E-02	1.57278003513E-01
1.72300000000E+09	-6.03472477882E-03	-2.63547912643E-02	-6.85478194096E-02	1.25721688679E-02	-6.83946806788E-02	1.24072615909E-02	4.35478971862E-02	1.57695551449E-01
1.72400000000E+09	6.00703393209E-04	-2.59413792263E-02	-6.79993028201E-02	1.55899651324E-02	-6.78385391439E-02	1.54354922768E-02	5.09192013558E-02	1.57547784582E-01
1.72500000000E+09	7.33793954609E-03	-2.60709307165E-02	-6.72986841267E-02	1.85903243254E-02	-6.72415131844E-02	1.84228827663E-02	5.82055137608E-02	1.56956050386E-01
1.72600000000E+09	1.39517156500E-02	-2.65139825769E-02	-6.64803758288E-02	2.16358184262E-02	-6.63294624284E-02	2.14084274880E-02	6.53811765340E-02	1.55888719967E-01
1.72700000000E+09	2.05862175279E-02	-2.74169521612E-02	-6.54702955305E-02	2.45639789791E-02	-6.53470956441E-02	2.43456567748E-02	7.25820408205E-02	1.54463281987E-01
1.72800000000E+09	2.70058639617E-02	-2.88089991621E-02	-6.43334499517E-02	2.74818496484E-02	-6.42486112312E-02	2.72742502807E-02	7.95698985355E-02	1.52547877443E-01
1.72900000000E+09	3.32486576954E-02	-3.05089810547E-02	-6.30713617876E-02	3.03174367641E-02	-6.30984946001E-02	3.00996790160E-02	8.64876289343E-02	1.50266930074E-01
1.73000000000E+09	3.94038554963E-02	-3.27114031082E-02	-6.17649914538E-02	3.31298506321E-02	-6.16654235568E-02	3.29411354129E-02	9.31073454406E-02	1.47529746466E-01
1.73100000000E+09	4.53960441708E-02	-3.51991964010E-02	-6.02063344856E-02	3.57689052415E-02	-6.01453633219E-02	3.55470354772E-02	9.96765293760E-02	1.44329449947E-01
1.73200000000E+09	5.10955559653E-02	-3.81424784840E-02	-5.85382801547E-02	3.83796173610E-02	-5.84477603011E-02	3.82551928975E-02	1.05969672926E-01	1.40807748400E-01
1.73300000000E+09	5.65396923856E-02	-4.12894849410E-02	-5.68370369918E-02	4.09949655321E-02	-5.67263684460E-02	4.07655809591E-02	1.12029614266E-01	1.36963266700E-01
1.73400000000E+09	6.17534241098E-02	-4.49114017213E-02	-5.48377261636E-02	4.34348368590E-02	-5.49209991850E-02	4.33190416018E-02	1.17846880907E-01	1.32711321152E-01
1.73500000000E+09	6.66130944449E-02	-4.88163749970E-02	-5.29053552986E-02	4.58733357667E-02	-5.29277562208E-02	4.56163970135E-02	1.23329715598E-01	1.28125127067E-01
1.73600000000E+09	7.11430639448E-02	-5.29000021094E-02	-5.08272725931E-02	4.81247415776E-02	-5.08498548058E-02	4.78995772653E-02	1.28436802011E-01	1.23088351889E-01
1.73700000000E+09	7.53992503249E-02	-5.72900695687E-02	-4.85942091958E-02	5.02601398152E-02	-4.86437175899E-02	5.00208011939E-02	1.33368783047E-01	1.18024154985E-01
1.73800000000E+09	7.92747366441E-02	-6.19659417690E-02	-4.62851373615E-02	5.23344415218E-02	-4.63244868143E-02	5.20443088781E-02	1.37813233020E-01	1.12520448587E-01
1.73900000000E+09	8.27838854626E-02	-6.68665618050E-02	-4.38808828915E-02	5.42265482881E-02	-4.39975004291E-02	5.39899838094E-02	1.42061238210E-01	1.06753731891E-01
1.74000000000E+09	8.58478989638E-02	-7.19501178827E-02	-4.15031692126E-02	5.60144202225E-02	-4.14983146284E-02	5.59206790015E-02	1.45850991949E-01	1.00730562888E-01
1.74100000000E+09	8.85072720906E-02	-7.71167092002E-02	-3.89171637612E-02	5.77283803947E-02	-3.90430008202E-02	5.75466150507E-02	1.49265392997E-01	9.46539701181E-02
1.74200000000E+09	9.08298053134E-02	-8.24811717721E-02	-3.63718975968E-02	5.93469146590E-02	-3.64310952624E-02	5.91465394482E-02	1.52258664450E-01	8.82008744934E-02
1.74300000000E+09	9.25390482589E-02	-8.78798474194E-02	-3.36761568243E-02	6.08629780038E-02	-3.37115083185E-02	6.05607042787E-02	1.54893710058E-01	8.16199595894E-02
1.74400000000E+09	9.38846339347E-02	-9.33278941740E-02	-3.09783110549E-02	6.21478630614E-02	-3.10733727896E-02	6.18860761856E-02	1.57117882798E-01	7.49740898704E-02
1.74500000000E+09	9.47144199531E-02	-9.88031756478E-02	-2.82042086280E-02	6.32313972684E-02	-2.82335023319E-02	6.30855329075E-02	1.58844972818E-01	6.81436384677E-02
1.74600000000E+09	9.50971918059E-02	-1.04254706222E-01	-2.54014733431E-02	6.42918526022E-02	-2.55181300854E-02	6.41488512994E-02	1.60147883139E-01	6.13949417052E-02
1.74700000000E+09	9.50068568825E-02	-1.09667470982E-01	-2.25680016841E-02	6.53070078312E-02	-2.27318600510E-02	6.51067081333E-02	1.61091386766E-01	5.43717590745E-02
1.74800000000E+09	9.44513530323E-02	-1.14862711960E-01	-1.97938235231E-02	6.60563433053E-02	-1.98705905651E-02	6.58958210678E-02	1.61560606242E-01	4.74254152976E-02
1.74900000000E+09	9.34225030435E-02	-1.19948245231E-01	-1.68662145988E-02	6.68027163520E-02	-1.69753627706E-02	6.65430392369E-02	1.61617012482E-01	4.05654167686E-02
1.75000000000E+09	9.19186574510E-02	-1.24867785457E-01	-1.40857314003E-02	6.73121911224E-02	-1.42194331159E-02	6.71059756847E-02	1.61196662166E-01	3.36158145549E-02
1.75100000000E+09	9.01373079025E-02	-1.29472029545E-01	-1.11226551179E-02	6.77657847428E-02	-1.12976333492E-02	6.75401384483E-02	1.60398803563E-01	2.67110553247E-02
1.75200000000E+09	8.77999898860E-02	-1.33874948707E-01	-8.34992960153E-03	6.79886748584E-02	-8.38745259068E-03	6.78691304441E-02	1.59070269599E-01	1.99940271053E-02
1.75300000000E+09	8.51538224432E-02	-1.37839425258E-01	-5.44098422340E-03	6.82423452501E-02	-5.53225880535E-03	6.80633133952E-02	1.57432487981E-01	1.32154712100E-02
1.75400000000E+09	8.20711964598E-02	-1.41517740494E-01	-2.59039779052E-03	6.82151845399E-02	-2.74454635635E-03	6.81423516995E-02	1.55224944793E-01	6.63158828030E-03
1.75500000000E+09	7.87585586655E-02	-1.44820126763E-01	2.45293178467E-04	6.81797040604E-02	1.22918543452E-04	6.81111497621E-02	1.52738376031E-01	1.95440914074E-04
1.75600000000E+09	7.50983005822E-02	-1.47613403359E-01	3.07837247058E-03	6.79911145850E-02	2.96567239270E-03	6.78933965033E-02	1.49750267963E-01	-5.90248233235E-03
1.75700000000E+09	7.12128793552E-02	-1.50023340683E-01	5.84061162590E-03	6.78031292519E-02	5.69460710677E-03	6.76430400931E-02	1.46415541994E-01	-1.19835102876E-02
1.75800000000E+09	6.71835360532E-02	-1.51884286569E-01	8.61293482882E-03	6.73924184125E-02	8.43732144976E-03	6.73205976286E-02	1.42690841049E-01	-1.76650841228E-02
1.75900000000E+09	6.29097084880E-02	-1.53247788782E-01	1.13661949570E-02	6.68814302523E-02	1.11378909685E-02	6.67572945644E-02	1.38637953526E-01	-2.31473648417E-02
1.76000000000E+09	5.85845770626E-02	-1.54044266577E-01	1.40484412563E-02	6.63659883596E-02	1.38480226044E-02	6.62728522758E-02	1.34240277364E-01	-2.83936660141E-02
1.76100000000E+09	5.42334631282E-02	-1.54301448408E-01	1.66739917617E-02	6.56700904515E-02	1.65546963020E-02	6.55545195232E-02	1.29465047195E-01	-3.32685614714E-02
1.76200000000E+09	4.99471017065E-02	-1.54095566802E-01	1.93508467248E-02	6.49469888674E-02	1.91913845014E-02	6.47783299208E-02	1.24436323028E-01	-3.78134703994E-02
1.76300000000E+09	4.56751710790E-02	-1.53191700522E-01	2.19628502214E-02	6.40603017616E-02	2.17319518014E-02	6.40077758873E-02	1.19205397219E-01	-4.20633339735E-02
1.76400000000E+09	4.16047423581E-02	-1.51737478155E-01	2.44975244492E-02	6.31003148943E-02	2.43002703288E-02	6.30288134310E-02	1.13679221506E-01	-4.59060805268E-02
1.76500000000E+09	3.77384953066E-02	-1.49813994182E-01	2.70166221780E-02	6.21262896234E-02	2.68065077445E-02	6.20015259802E-02	1.07826369356E-01	-4.94318926171E-02
1.76600000000E+09	3.40883987313E-02	-1.47366476147E-01	2.94364893716E-02	6.09949084356E-02	2.92815812908E-02	6.08853738916E-02	1.01896778151E-01	-5.24561046245E-02
1.76700000000E+09	3.08092393684E-02	-1.44375644952E-01	3.19267725976E-02	5.97280735825E-02	3.16585951378E-02	5.97202084210E-02	9.56558213400E-02	-5.51632533111E-02
1.76800000000E+09	2.79228209126E-02	-1.41067952465E-01	3.42890945144E-02	5.84576415231E-02	3.41555744734E-02	5.84865628933E-02	8.93794158457E-02	-5.73428659686E-02
1.76900000000E+09	2.54653600146E-02	-1.37195367841E-01	3.66945494367E-02	5.71026505204E-02	3.65063619821E-02	5.71067418095E-02	8.29699100234E-02	-5.91528645078E-02
1.77000000000E+09	2.34170361074E-02	-1.33002523933E-01	3.90048876080E-02	5.56429413082E-02	3.87407238317E-02	5.56238672395E-02	7.64500979159E-02	-6.06097133497E-02
1.77100000000E+09	2.19637035109E-02	-1.28707914575E-01	4.11608952248E-02	5.41864745683E-02	4.10683387603E-02	5.40776681073E-02	6.98303940096E-02	-6.15300743327E-02
1.77200000000E+09	2.11050303161E-02	-1.23969196419E-01	4.34381302753E-02	5.25272442291E-02	4.32622282239E-02	5.24826418399E-02	6.33365263041E-02	-6.20143492328E-02
1.77300000000E+09	2.07550393129E-02	-1.19171732516E-01	4.57078092535E-02	5.07837092457E-02	4.55071180555E-02	5.07725958389E-02	5.67103876136E-02	-6.21047982993E-02
1.77400000000E+09	2.10750077211E-02	-1.14160960558E-01	4.77984901579E-02	4.90128383319E-02	4.75748989120E-02	4.89661551413E-02	5.00916965570E-02	-6.17690539588E-02
1.77500000000E+09	2.19979247727E-02	-1.09187366414E-01	4.98879573388E-02	4.71676966898E-02	4.96583747704E-02	4.70943758946E-02	4.36677676588E-02	-6.09412036650E-02
1.77600000000E+09	2.35492916648E-02	-1.04302506303E-01	5.19578249079E-02	4.51037474707E-02	5.17335026885E-02	4.51575492335E-02	3.71959755658E-02	-5.97566798432E-02
1.77700000000E+09	2.56433033736E-02	-9.95331576549E-02	5.39067851057E-02	4.30105094014E-02	5.36489568778E-02	4.30490359593E-02	3.08957389006E-02	-5.80524390898E-02
1.77800000000E+09	2.83626267864E-02	-9.48645682545E-02	5.57536487738E-02	4.08273319669E-02	5.55800769009E-02	4.09311223108E-02	2.47542313148E-02	-5.61120457543E-02
1.77900000000E+09	3.16718553338E-02	-9.05212921616E-02	5.76121624940E-02	3.86669375612E-02	5.74698300972E-02	3.86962257730E-02	1.88152545753E-02	-5.36386620394E-02
1.78000000000E+09	3.54404144627E-02	-8.64307213348E-02	5.93537282256E-02	3.62971289456E-02	5.91504286683E-02	3.63404441916E-02	1.29809182186E-02	-5.07706951488E-02
1.78100000000E+09	3.97122846641E-02	-8.28011439874E-02	6.10084943214E-02	3.38316458563E-02	6.07882673168E-02	3.38476330920E-02	7.42446228306E-03	-4.77234694493E-02
1.78200000000E+09	4.44823431049E-02	-7.95292173702E-02	6.25432194579E-02	3.12214061981E-02	6.23611484251E-02	3.13139959217E-02	2.15435346208E-03	-4.42194655589E-02
1.78300000000E+09	4.95157722342E-02	-7.67146795054E-02	6.39480009608E-02	2.86690755914E-02	6.37026214363E-02	2.86698008268E-02	-2.95739539098E-03	-4.03781777785E-02
1.78400000000E+09	5.49952236815E-02	-7.45012163000E-02	6.53433710476E-02	2.59327450434E-02	6.51747309868E-02	2.60071263299E-02	-7.76530217269E-03	-3.63106892904E-02
1.78500000000E+09	6.06854770584E-02	-7.28096998135E-02	6.66254719002E-02	2.31295925134E-02	6.64906891284E-02	2.32234035976E-02	-1.22360671560E-02	-3.18670939402E-02
1.78600000000E+09	6.65481233417E-02	-7.16089126248E-02	6.77144934672E-02	2.02715317246E-02	6.75269716330E-02	2.03542873518E-02	-1.64680728280E-02	-2.72801308135E-02
1.78700000000E+09	7.25124881040E-02	-7.10332477628E-02	6.86218444234E-02	1.72689840585E-02	6.84812740916E-02	1.74447036442E-02	-2.02753069728E-02	-2.22572416945E-02
1.78800000000E+09	7.85860352900E-02	-7.10540607379E-02	6.95865820359E-02	1.43279063739E-02	6.94039559417E-02	1.44158194792E-02	-2.37320756589E-02	-1.71235737992E-02
1.78900000000E+09	8.46598489342E-02	-7.16334465478E-02	7.02515818837E-02	1.12378192146E-02	7.00378828758E-02	1.13631419906E-02	-2.69924477611E-02	-1.17927945734E-02
1.79000000000E+09	9.07217617820E-02	-7.28597918891E-02	7.07910767745E-02	8.07203834491E-03	7.07065197468E-02	8.25321885872E-03	-2.98553852930E-02	-6.33268968595E-03
1.79100000000E+09	9.65528065084E-02	-7.44979208066E-02	7.11937164893E-02	5.04440242342E-03	7.10744079516E-02	5.14196709973E-03	-3.22617356711E-02	-6.67759700366E-04
1.79200000000E+09	1.02280191151E-01	-7.67071765912E-02	7.14126196717E-02	1.76506246838E-03	7.13432474778E-02	2.00853360488E-03	-3.42819679795E-02	4.99691693672E-03
1.79300000000E+09	1.07815552401E-01	-7.94455250661E-02	7.16126408185E-02	-1.34341321368E-03	7.14769359339E-02	-1.29408171880E-03	-3.59122938110E-02	1.08781075861E-02
1.79400000000E+09	1.13094369431E-01	-8.25977203476E-02	7.15728385377E-02	-4.56118188943E-03	7.14364905669E-02	-4.42159655030E-03	-3.72895327312E-02	1.66791614212E-02
1.79500000000E+09	1.18011190674E-01	-8.62306753079E-02	7.12994117481E-02	-7.76898427820E-03	7.11865747420E-02	-7.58930852660E-03	-3.81319473337E-02	2.27031606107E-02
1.79600000000E+09	1.22598290736E-01	-9.02359924445E-02	7.09733637679E-02	-1.09376511480E-02	7.07958971281E-02	-1.07499848295E-02	-3.86627292277E-02	2.87060240710E-02
1.79700000000E+09	1.26833882394E-01	-9.45384791132E-02	7.04324844709E-02	-1.41202077404E-02	7.02771948691E-02	-1.39744569244E-02	-3.88448909863E-02	3.46702329442E-02
1.79800000000E+09	1.30622077632E-01	-9.92540374411E-02	6.97130368563E-02	-1.72870914115E-02	6.96341690840E-02	-1.71407819284E-02	-3.85481877343E-02	4.06287313925E-02
1.79900000000E+09	1.34072754209E-01	-1.04141400214E-01	6.88620405566E-02	-2.03677707170E-02	6.87849705134E-02	-2.02010576343E-02	-3.79038757453E-02	4.65926040813E-02
1.80000000000E+09	1.37047006318E-01	-1.09364061251E-01	6.79145720068E-02	-2.34170726485E-02	6.77900308688E-02	-2.32236023065E-02	-3.69327338572E-02	5.23194494989E-02
1.80100000000E+09	1.39604186149E-01	-1.14690184292E-01	6.67106290857E-02	-2.64846993601E-02	6.66591353497E-02	-2.63005603674E-02	-3.55279812446E-02	5.80895748424E-02
1.80200000000E+09	1.41750791300E-01	-1.20173429996E-01	6.54639337229E-02	-2.93896284234E-02	6.54466634456E-02	-2.91789421851E-02	-3.38767734646E-02	6.37846917871E-02
1.80300000000E+09	1.43385357985E-01	-1.25755253775E-01	6.40171671507E-02	-3.22587269557E-02	6.39983537020E-02	-3.20224415449E-02	-3.17982264956E-02	6.92472846015E-02
1.80400000000E+09	1.44574111776E-01	-1.31445754672E-01	6.24948839726E-02	-3.50108558505E-02	6.24282134927E-02	-3.47746057780E-02	-2.93053993844E-02	7.45291117248E-02
1.80500000000E+09	1.45379548975E-01	-1.37079850065E-01	6.07819330599E-02	-3.77319643234E-02	6.07338167423E-02	-3.75525936663E-02	-2.66233609373E-02	7.96064019575E-02
1.80600000000E+09	1.45773608297E-01	-1.42795339496E-01	5.90748106337E-02	-4.03702796883E-02	5.89231771397E-02	-4.00877165120E-02	-2.35849113393E-02	8.45582540380E-02
1.80700000000E+09	1.45589180585E-01	-1.48346051772E-01	5.70970374415E-02	-4.28554593261E-02	5.69974239463E-02	-4.25996857693E-02	-2.02321499860E-02	8.92137943978E-02
1.80800000000E+09	1.45099866389E-01	-1.53966366548E-01	5.50894000153E-02	-4.52471219734E-02	5.49893028769E-02	-4.50071706160E-02	-1.65137008068E-02	9.37765892165E-02
1.80900000000E+09	1.44208277707E-01	-1.59327434523E-01	5.28982801987E-02	-4.74464627877E-02	5.29210152863E-02	-4.73441220695E-02	-1.26171347128E-02	9.78208298041E-02
1.81000000000E+09	1.42822523221E-01	-1.64666067814E-01	5.07679252746E-02	-4.97752066312E-02	5.07055936551E-02	-4.94696121760E-02	-8.55011652827E-03	1.01812340791E-01
1.81100000000E+09	1.41207157734E-01	-1.69860154363E-01	4.83769361164E-02	-5.17625529936E-02	4.84583054397E-02	-5.15146160376E-02	-4.12545238252E-03	1.05456611336E-01
1.81200000000E+09	1.39118791830E-01	-1.74761546873E-01	4.59981056933E-02	-5.36826854579E-02	4.59967394519E-02	-5.34671091173E-02	5.33973334639E-04	1.08716937180E-01
1.81300000000E+09	1.36805577778E-01	-1.79553743674E-01	4.35966286806E-02	-5.55690898430E-02	4.35851735970E-02	-5.52972291920E-02	5.30907880355E-03	1.11693694771E-01
1.81400000000E+09	1.34158768746E-01	-1.84066598723E-01	4.10432453524E-02	-5.72657800063E-02	4.11013911674E-02	-5.70570102828E-02	1.01406090291E-02	1.14459794874E-01
1.81500000000E+09	1.31080623738E-01	-1.88352679856E-01	3.84261163861E-02	-5.88454181509E-02	3.84864531195E-02	-5.86635102924E-02	1.52879909418E-02	1.16816395254E-01
1.81600000000E+09	1.27863626988E-01	-1.92366844566E-01	3.57867051492E-02	-6.03902796526E-02	3.59019601679E-02	-6.00989502195E-02	2.05370401948E-02	1.18776081425E-01
1.81700000000E+09	1.24373511505E-01	-1.96132514556E-01	3.31743650467E-02	-6.16668179101E-02	3.32349098204E-02	-6.13976910652E-02	2.58029746616E-02	1.20506300855E-01
