# Hz S RI R 50
! CMT, CMT808U, 21440046, 21.4.3/4
! Date: 12/13/2025 10:54:57 PM
! Data: Format (Calibration Info)
! Freq	S11:Re/Im(F2)	S41:Re/Im(F2)	S14:Re/Im(F2)	S44:Re/Im(F2)
1.70000000000E+09	-8.65945081612E-02	-1.25142636311E-01	-4.89988968485E-02	-5.11521908082E-02	-4.87315422889E-02	-5.10905226614E-02	-2.92888108881E-02	5.00656769506E-02
1.70100000000E+09	-8.80237090498E-02	-1.20055181979E-01	-5.11086815019E-02	-4.91109659864E-02	-5.09177917013E-02	-4.90671380464E-02	-2.92145574254E-02	5.63392836332E-02
1.70200000000E+09	-8.88513887586E-02	-1.14732715272E-01	-5.32436864327E-02	-4.70519436057E-02	-5.30701554177E-02	-4.69570414146E-02	-2.88726612539E-02	6.25789825608E-02
1.70300000000E+09	-8.93275733910E-02	-1.09222281445E-01	-5.52381806277E-02	-4.48146071745E-02	-5.51039655391E-02	-4.49032787847E-02	-2.79353987688E-02	6.87529208564E-02
1.70400000000E+09	-8.92463951105E-02	-1.03456384343E-01	-5.72594141578E-02	-4.24734311435E-02	-5.70224912933E-02	-4.25834089018E-02	-2.66256248726E-02	7.48250913452E-02
1.70500000000E+09	-8.85536372053E-02	-9.76349015498E-02	-5.91033671882E-02	-4.01658040870E-02	-5.89399303310E-02	-4.01861136658E-02	-2.48711006757E-02	8.08179576748E-02
1.70600000000E+09	-8.73764904440E-02	-9.18283671551E-02	-6.08812294983E-02	-3.77394754807E-02	-6.06849525402E-02	-3.77460544424E-02	-2.27817489980E-02	8.66107647831E-02
1.70700000000E+09	-8.56905234785E-02	-8.59589604850E-02	-6.25888299343E-02	-3.51832132862E-02	-6.24403829611E-02	-3.51798332564E-02	-2.02154470007E-02	9.23833761440E-02
1.70800000000E+09	-8.34669386403E-02	-8.01870459930E-02	-6.41489020689E-02	-3.25636760152E-02	-6.39910900775E-02	-3.25824647901E-02	-1.73599984004E-02	9.79154984856E-02
1.70900000000E+09	-8.07836690568E-02	-7.44708147899E-02	-6.55967314223E-02	-2.97530486500E-02	-6.54899131747E-02	-2.98312652637E-02	-1.41278391535E-02	1.03214757487E-01
1.71000000000E+09	-7.75664260837E-02	-6.89666480030E-02	-6.70992712851E-02	-2.69817025123E-02	-6.68396849542E-02	-2.70431669164E-02	-1.05058767798E-02	1.08280546398E-01
1.71100000000E+09	-7.39322532018E-02	-6.36821248770E-02	-6.83208919184E-02	-2.40968708750E-02	-6.81097118715E-02	-2.41870372208E-02	-6.60031165537E-03	1.13057674902E-01
1.71200000000E+09	-6.98250976615E-02	-5.85873100565E-02	-6.94584222250E-02	-2.11273647379E-02	-6.93616573919E-02	-2.12799077760E-02	-2.32990160059E-03	1.17671699107E-01
1.71300000000E+09	-6.52780012858E-02	-5.38577828694E-02	-7.03756405363E-02	-1.82363010774E-02	-7.02517827150E-02	-1.82147661286E-02	2.16541862726E-03	1.21929510325E-01
1.71400000000E+09	-6.04637960787E-02	-4.93946024053E-02	-7.12920274014E-02	-1.50344864272E-02	-7.11676047500E-02	-1.52271177192E-02	6.85826239671E-03	1.25854893686E-01
1.71500000000E+09	-5.51623143551E-02	-4.52813193572E-02	-7.20318610873E-02	-1.19456314481E-02	-7.18231001407E-02	-1.20284165711E-02	1.19795721491E-02	1.29498993454E-01
1.71600000000E+09	-4.96427448217E-02	-4.15271976046E-02	-7.26129921396E-02	-8.77743408534E-03	-7.24082297527E-02	-8.91212772582E-03	1.72309151217E-02	1.32763428150E-01
1.71700000000E+09	-4.37747077691E-02	-3.82037589536E-02	-7.30588956556E-02	-5.59210004591E-03	-7.28363701746E-02	-5.67022043825E-03	2.27498511968E-02	1.35806206208E-01
1.71800000000E+09	-3.77258305845E-02	-3.51847927208E-02	-7.33098286446E-02	-2.39331273539E-03	-7.31123060858E-02	-2.49569755800E-03	2.82688382257E-02	1.38282919951E-01
1.71900000000E+09	-3.15533614448E-02	-3.27109430159E-02	-7.34465319755E-02	8.72155640943E-04	-7.32417478714E-02	7.81818778607E-04	3.41100782161E-02	1.40624365860E-01
1.72000000000E+09	-2.51169859800E-02	-3.06763004971E-02	-7.34354498166E-02	4.07019568657E-03	-7.32169306599E-02	3.97785768798E-03	4.00111739038E-02	1.42434091568E-01
1.72100000000E+09	-1.86565407179E-02	-2.89282602785E-02	-7.31903080572E-02	7.39839908382E-03	-7.30483783722E-02	7.29246960652E-03	4.61225373832E-02	1.43791652566E-01
1.72200000000E+09	-1.20504932609E-02	-2.77553591835E-02	-7.28970107993E-02	1.06861656738E-02	-7.26989815579E-02	1.04543005909E-02	5.22006872857E-02	1.44974038264E-01
1.72300000000E+09	-5.36392843415E-03	-2.69724715368E-02	-7.23927456271E-02	1.39036508686E-02	-7.22379611389E-02	1.37200926637E-02	5.83381232204E-02	1.45751791052E-01
1.72400000000E+09	1.20097428086E-03	-2.66129498787E-02	-7.17529364775E-02	1.70873685550E-02	-7.15794073352E-02	1.69250307797E-02	6.45641920730E-02	1.46013548191E-01
1.72500000000E+09	7.86913321869E-03	-2.67692050781E-02	-7.09402872705E-02	2.02583626571E-02	-7.08620735644E-02	2.00889014791E-02	7.07530544087E-02	1.45899054345E-01
1.72600000000E+09	1.44255030029E-02	-2.72544850033E-02	-7.00044746109E-02	2.34638153188E-02	-6.98377936920E-02	2.32235654824E-02	7.68602733585E-02	1.45344495910E-01
1.72700000000E+09	2.09788896646E-02	-2.81797222707E-02	-6.88725220009E-02	2.65374103946E-02	-6.87402301939E-02	2.63105759553E-02	8.30695490424E-02	1.44534833985E-01
1.72800000000E+09	2.73231263420E-02	-2.95772563862E-02	-6.76034402520E-02	2.95905076088E-02	-6.75064386396E-02	2.93870975315E-02	8.90980008296E-02	1.43257227227E-01
1.72900000000E+09	3.34938149970E-02	-3.12862789148E-02	-6.62073166633E-02	3.25628922471E-02	-6.62228014044E-02	3.23388874304E-02	9.51114808735E-02	1.41650270437E-01
1.73000000000E+09	3.95908892233E-02	-3.34857492314E-02	-6.47610192497E-02	3.55031877225E-02	-6.46491586589E-02	3.52998880712E-02	1.00888482237E-01	1.39663265185E-01
1.73100000000E+09	4.55051422426E-02	-3.59804690593E-02	-6.30671511564E-02	3.82490704053E-02	-6.29936647729E-02	3.80246100617E-02	1.06686930102E-01	1.37267426598E-01
1.73200000000E+09	5.11397170157E-02	-3.89199500622E-02	-6.12523586242E-02	4.09507803232E-02	-6.11442825325E-02	4.08165391941E-02	1.12222774673E-01	1.34547106278E-01
1.73300000000E+09	5.65317326537E-02	-4.20468311747E-02	-5.93851009951E-02	4.36580303338E-02	-5.92728744201E-02	4.34140886032E-02	1.17648334274E-01	1.31537522814E-01
1.73400000000E+09	6.16845523300E-02	-4.56478001340E-02	-5.72472123224E-02	4.61656551483E-02	-5.73191266218E-02	4.60440879324E-02	1.22877332613E-01	1.28150116789E-01
1.73500000000E+09	6.64828721385E-02	-4.95294804366E-02	-5.51539791048E-02	4.86759022400E-02	-5.51796449075E-02	4.84178768858E-02	1.27827326470E-01	1.24463466342E-01
1.73600000000E+09	7.09566828177E-02	-5.35985523140E-02	-5.29219857247E-02	5.09828107960E-02	-5.29495462947E-02	5.07407165444E-02	1.32456368532E-01	1.20338938368E-01
1.73700000000E+09	7.51552485741E-02	-5.79671058815E-02	-5.05487878067E-02	5.31858979688E-02	-5.05895854137E-02	5.29186103988E-02	1.37005290316E-01	1.16184781328E-01
1.73800000000E+09	7.89739201042E-02	-6.26028761576E-02	-4.80789708912E-02	5.52800529722E-02	-4.81226140196E-02	5.49892228513E-02	1.41122391870E-01	1.11636407042E-01
1.73900000000E+09	8.24195837114E-02	-6.74794985698E-02	-4.55323630775E-02	5.72200826613E-02	-4.56571370053E-02	5.69569191278E-02	1.45112865577E-01	1.06788582766E-01
1.74000000000E+09	8.54410433848E-02	-7.25218450156E-02	-4.30209751865E-02	5.90106250938E-02	-4.30089562310E-02	5.89162317370E-02	1.48703352483E-01	1.01697958626E-01
1.74100000000E+09	8.80674781106E-02	-7.76424443865E-02	-4.03010144597E-02	6.07381163469E-02	-4.04291703796E-02	6.05499260581E-02	1.51984324803E-01	9.65610019646E-02
1.74200000000E+09	9.03322758520E-02	-8.29517192207E-02	-3.76127910390E-02	6.23585821978E-02	-3.76665125029E-02	6.21378318231E-02	1.54903529604E-01	9.09836205816E-02
1.74300000000E+09	9.20219178897E-02	-8.83081744249E-02	-3.47839183121E-02	6.38710702151E-02	-3.48201415858E-02	6.35759440994E-02	1.57526428591E-01	8.53307628128E-02
1.74400000000E+09	9.33360832917E-02	-9.37084837701E-02	-3.19543889748E-02	6.51594048049E-02	-3.20524573241E-02	6.48799838666E-02	1.59790366642E-01	7.95568272227E-02
1.74500000000E+09	9.41428443918E-02	-9.91383479487E-02	-2.90631530665E-02	6.62245297415E-02	-2.90999838616E-02	6.60722198099E-02	1.61638200210E-01	7.35848477848E-02
1.74600000000E+09	9.45056767095E-02	-1.04534426194E-01	-2.61378547358E-02	6.72786392805E-02	-2.62617098802E-02	6.71210325993E-02	1.63091778873E-01	6.76584990635E-02
1.74700000000E+09	9.43833741464E-02	-1.09897584016E-01	-2.32141517311E-02	6.82711599923E-02	-2.33662444102E-02	6.80520695542E-02	1.64248032886E-01	6.14150738863E-02
1.74800000000E+09	9.38264595553E-02	-1.15051807387E-01	-2.03301889087E-02	6.89942673856E-02	-2.04131527864E-02	6.88324081816E-02	1.64984631051E-01	5.52448011202E-02
1.74900000000E+09	9.27759699431E-02	-1.20075583280E-01	-1.73130109224E-02	6.97165399775E-02	-1.74197649894E-02	6.94574003945E-02	1.65344958936E-01	4.91097964522E-02
1.75000000000E+09	9.12516934870E-02	-1.24935384755E-01	-1.44413371832E-02	7.02057029019E-02	-1.45743044160E-02	7.00013247022E-02	1.65270318019E-01	4.28525083013E-02
1.75100000000E+09	8.94686475662E-02	-1.29485226057E-01	-1.13929680266E-02	7.06248709460E-02	-1.15665969213E-02	7.03968351582E-02	1.64860614795E-01	3.65741676063E-02
1.75200000000E+09	8.71150120431E-02	-1.33842201547E-01	-8.52620913648E-03	7.08290425915E-02	-8.57953182875E-03	7.06987751354E-02	1.63960659011E-01	3.04412544293E-02
1.75300000000E+09	8.44700535597E-02	-1.37734255525E-01	-5.54788700019E-03	7.10638838897E-02	-5.64747880882E-03	7.08761452472E-02	1.62769301687E-01	2.42332054005E-02
1.75400000000E+09	8.13786890582E-02	-1.41346822014E-01	-2.63036987811E-03	7.10049929737E-02	-2.78132076538E-03	7.09123599466E-02	1.61037432559E-01	1.81587040671E-02
1.75500000000E+09	7.80667615539E-02	-1.44577195116E-01	2.73563937292E-04	7.09560966664E-02	1.58200792668E-04	7.08838416740E-02	1.59058381505E-01	1.21753471943E-02
1.75600000000E+09	7.44088270657E-02	-1.47315803608E-01	3.18499613729E-03	7.07490001149E-02	3.06659281898E-03	7.06385648351E-02	1.56584804134E-01	6.49645727502E-03
1.75700000000E+09	7.05526540180E-02	-1.49637187333E-01	6.00293603696E-03	7.05491178250E-02	5.85295499001E-03	7.03724599830E-02	1.53798519413E-01	7.54500970954E-04
1.75800000000E+09	6.65418596764E-02	-1.51445948784E-01	8.83805595044E-03	7.01174255611E-02	8.65812541472E-03	7.00487326215E-02	1.50599666823E-01	-4.62229013039E-03
1.75900000000E+09	6.22801621231E-02	-1.52715629755E-01	1.16595741058E-02	6.96088780621E-02	1.14279383840E-02	6.94844082059E-02	1.47116953416E-01	-9.85407328806E-03
1.76000000000E+09	5.80079266626E-02	-1.53449964393E-01	1.44053252710E-02	6.90863813295E-02	1.42023886110E-02	6.89843353958E-02	1.43268079806E-01	-1.48873916785E-02
1.76100000000E+09	5.37017836414E-02	-1.53625752714E-01	1.70944907889E-02	6.83931082924E-02	1.69768987345E-02	6.82697397772E-02	1.39032131038E-01	-1.96205972683E-02
1.76200000000E+09	4.94638705731E-02	-1.53331756474E-01	1.98402840604E-02	6.76642940969E-02	1.96816357650E-02	6.74908319295E-02	1.34545590768E-01	-2.40477972755E-02
1.76300000000E+09	4.52501294092E-02	-1.52366419523E-01	2.25293045760E-02	6.67779828009E-02	2.23008696351E-02	6.67179689068E-02	1.29863421515E-01	-2.82731572824E-02
1.76400000000E+09	4.12557891529E-02	-1.50853248544E-01	2.51509457579E-02	6.58156262882E-02	2.49312826068E-02	6.57535519008E-02	1.24862412674E-01	-3.20772331994E-02
1.76500000000E+09	3.74917954950E-02	-1.48870152835E-01	2.77414014040E-02	6.48725596642E-02	2.75258729554E-02	6.47357980327E-02	1.19519137701E-01	-3.56491940383E-02
1.76600000000E+09	3.39279603380E-02	-1.46365573644E-01	3.02646568174E-02	6.37347088801E-02	3.00891289088E-02	6.36168650882E-02	1.14075819981E-01	-3.87591608347E-02
1.76700000000E+09	3.07643375768E-02	-1.43327351802E-01	3.28427720681E-02	6.24700587365E-02	3.25679406918E-02	6.24606001670E-02	1.08319003655E-01	-4.15928286406E-02
1.76800000000E+09	2.79933088865E-02	-1.39996991898E-01	3.53094542207E-02	6.11877101903E-02	3.51647335318E-02	6.12197774882E-02	1.02458603689E-01	-4.39310669838E-02
1.76900000000E+09	2.56554122291E-02	-1.36123247267E-01	3.78207906807E-02	5.98468597331E-02	3.76193524856E-02	5.98336650934E-02	9.64796765539E-02	-4.59371110401E-02
1.77000000000E+09	2.37306947792E-02	-1.31938688449E-01	4.02378244897E-02	5.83720797545E-02	3.99815531614E-02	5.83472395682E-02	9.03514698059E-02	-4.76364451435E-02
1.77100000000E+09	2.23977610519E-02	-1.27646928226E-01	4.25300858987E-02	5.69002269064E-02	4.24241696905E-02	5.67951460929E-02	8.40752908968E-02	-4.88055900031E-02
1.77200000000E+09	2.16722531216E-02	-1.22942354355E-01	4.49282470390E-02	5.52186003513E-02	4.47466491865E-02	5.51697337826E-02	7.78779571532E-02	-4.95887200133E-02
1.77300000000E+09	2.14344542061E-02	-1.18198356552E-01	4.73326837061E-02	5.34291944495E-02	4.71158519795E-02	5.34190862368E-02	7.15296816512E-02	-5.00017113288E-02
1.77400000000E+09	2.18855426204E-02	-1.13256530863E-01	4.95556719248E-02	5.16120837190E-02	4.93111328779E-02	5.15684634304E-02	6.51587476846E-02	-4.99985777320E-02
1.77500000000E+09	2.29176369790E-02	-1.08362447480E-01	5.17664357261E-02	4.97153670937E-02	5.15345912136E-02	4.96331639102E-02	5.89173349405E-02	-4.95436365515E-02
1.77600000000E+09	2.45690268650E-02	-1.03577945511E-01	5.39711804901E-02	4.75892460353E-02	5.37464385822E-02	4.76280865751E-02	5.25974196955E-02	-4.87200638344E-02
1.77700000000E+09	2.67435064459E-02	-9.89262068713E-02	5.60625935347E-02	4.54189591017E-02	5.57861303452E-02	4.54521233266E-02	4.64101985208E-02	-4.74042071087E-02
1.77800000000E+09	2.95383986485E-02	-9.43798467460E-02	5.80308699388E-02	4.31512815898E-02	5.78366476459E-02	4.32452560149E-02	4.03203936800E-02	-4.58500527713E-02
1.77900000000E+09	3.28820276544E-02	-9.01677747893E-02	6.00172223038E-02	4.08891813491E-02	5.98530135439E-02	4.08979630704E-02	3.43982718888E-02	-4.37695963479E-02
1.78000000000E+09	3.66973024986E-02	-8.62307788065E-02	6.18696329141E-02	3.84071823094E-02	6.16537325516E-02	3.84520890571E-02	2.85432385571E-02	-4.12997693269E-02
1.78100000000E+09	4.09932257637E-02	-8.27397963058E-02	6.36339690041E-02	3.58152612135E-02	6.34020534382E-02	3.58420997998E-02	2.28967938365E-02	-3.86297506341E-02
1.78200000000E+09	4.57431760572E-02	-7.96129756104E-02	6.52829182747E-02	3.30716435656E-02	6.50789016203E-02	3.31759280542E-02	1.75156313945E-02	-3.55139370937E-02
1.78300000000E+09	5.07699235573E-02	-7.69439238545E-02	6.67727336074E-02	3.03950066595E-02	6.65059237960E-02	3.03884949488E-02	1.22202664089E-02	-3.20321254136E-02
1.78400000000E+09	5.61904163383E-02	-7.48687323428E-02	6.82369472470E-02	2.75121810491E-02	6.80761500994E-02	2.75783777475E-02	7.21375873513E-03	-2.83164273008E-02
1.78500000000E+09	6.18340617107E-02	-7.33045987814E-02	6.95905829900E-02	2.45614402910E-02	6.94497645342E-02	2.46553025377E-02	2.48814629736E-03	-2.42028416055E-02
1.78600000000E+09	6.76230069165E-02	-7.22196112501E-02	7.07451362749E-02	2.15595592493E-02	7.05484635459E-02	2.16378160982E-02	-2.02731286966E-03	-1.99185479332E-02
1.78700000000E+09	7.34827345456E-02	-7.17380921873E-02	7.16985152646E-02	1.83945711519E-02	7.15657654198E-02	1.85709445375E-02	-6.16766739593E-03	-1.51739077939E-02
1.78800000000E+09	7.94670550217E-02	-7.18637709256E-02	7.27020645296E-02	1.52948581442E-02	7.25117818252E-02	1.53753318405E-02	-9.98268253832E-03	-1.02713215602E-02
1.78900000000E+09	8.54350789966E-02	-7.25053053266E-02	7.33997060254E-02	1.20402570567E-02	7.31779182985E-02	1.21671363980E-02	-1.36205839135E-02	-5.15468238238E-03
1.79000000000E+09	9.13992641998E-02	-7.37919336920E-02	7.39545449345E-02	8.73890819129E-03	7.38578587454E-02	8.90363176968E-03	-1.69016622652E-02	1.14637004780E-04
1.79100000000E+09	9.71237790665E-02	-7.54756729562E-02	7.43654564699E-02	5.54489959329E-03	7.42364567847E-02	5.63200151246E-03	-1.97387403965E-02	5.67105731386E-03
1.79200000000E+09	1.02736196823E-01	-7.77205055835E-02	7.45878702866E-02	2.09347711059E-03	7.45141181535E-02	2.34211092115E-03	-2.22357140343E-02	1.12393205183E-02
1.79300000000E+09	1.08153371672E-01	-8.04719350216E-02	7.47725638467E-02	-1.16445074493E-03	7.46225396481E-02	-1.11081076458E-03	-2.43458307712E-02	1.70625193936E-02
1.79400000000E+09	1.13314201294E-01	-8.36288116720E-02	7.47086609194E-02	-4.53781667036E-03	7.45584783834E-02	-4.38917731032E-03	-2.62165080390E-02	2.28773249909E-02
1.79500000000E+09	1.18136654907E-01	-8.72520559465E-02	7.44054994644E-02	-7.87836561775E-03	7.42830190247E-02	-7.71018041288E-03	-2.75634400989E-02	2.89455653646E-02
1.79600000000E+09	1.22618217213E-01	-9.12509963083E-02	7.40341761535E-02	-1.11934145038E-02	7.38445436977E-02	-1.10078849423E-02	-2.85840166966E-02	3.50330452902E-02
1.79700000000E+09	1.26757061381E-01	-9.55190924462E-02	7.34527067799E-02	-1.45148312691E-02	7.32706460514E-02	-1.43735421813E-02	-2.92849674541E-02	4.11374926481E-02
1.79800000000E+09	1.30467614462E-01	-1.00194806332E-01	7.26746338611E-02	-1.78193743903E-02	7.25879188457E-02	-1.76511047131E-02	-2.94871364295E-02	4.72761306076E-02
1.79900000000E+09	1.33815633145E-01	-1.05039409014E-01	7.17628751879E-02	-2.10091131557E-02	7.16793438943E-02	-2.08396407394E-02	-2.93189558716E-02	5.34749211316E-02
1.80000000000E+09	1.36729416618E-01	-1.10223681661E-01	7.07495577528E-02	-2.41853669809E-02	7.06105884687E-02	-2.39866902154E-02	-2.88428116692E-02	5.94664257269E-02
1.80100000000E+09	1.39211231456E-01	-1.15499092183E-01	6.94572744849E-02	-2.73593247386E-02	6.94102482743E-02	-2.71670980031E-02	-2.78965416026E-02	6.55637546033E-02
1.80200000000E+09	1.41297493791E-01	-1.20928131041E-01	6.81357587720E-02	-3.03619225934E-02	6.81096020471E-02	-3.01477838185E-02	-2.66874563566E-02	7.16301081586E-02
1.80300000000E+09	1.42889956993E-01	-1.26443836867E-01	6.66254830324E-02	-3.33274599322E-02	6.65828879035E-02	-3.30923157390E-02	-2.50365091887E-02	7.74867137213E-02
1.80400000000E+09	1.44023953773E-01	-1.32068150029E-01	6.50211412273E-02	-3.61678055400E-02	6.49495082085E-02	-3.59299304740E-02	-2.29327620439E-02	8.32134004597E-02
1.80500000000E+09	1.44776701129E-01	-1.37648375341E-01	6.32241931512E-02	-3.89718936302E-02	6.31494835071E-02	-3.87788856992E-02	-2.06170891057E-02	8.87510371757E-02
1.80600000000E+09	1.45133615167E-01	-1.43299036742E-01	6.14229101139E-02	-4.16972253025E-02	6.12738217809E-02	-4.13941324877E-02	-1.79048929160E-02	9.42143091424E-02
1.80700000000E+09	1.44929979812E-01	-1.48790690576E-01	5.93492645143E-02	-4.42384757207E-02	5.92531644917E-02	-4.39730240819E-02	-1.48607890469E-02	9.93922156729E-02
1.80800000000E+09	1.44406485871E-01	-1.54342737517E-01	5.72754656206E-02	-4.66905605158E-02	5.71570293616E-02	-4.64494095361E-02	-1.14002917287E-02	1.04532919574E-01
1.80900000000E+09	1.43491934385E-01	-1.59635203302E-01	5.49908020205E-02	-4.89408821998E-02	5.49935920023E-02	-4.88360037755E-02	-7.74543742151E-03	1.09150456936E-01
1.81000000000E+09	1.42100577778E-01	-1.64909611707E-01	5.27756845679E-02	-5.13235924227E-02	5.26949454887E-02	-5.09984624939E-02	-3.85656629922E-03	1.13744106435E-01
1.81100000000E+09	1.40466339691E-01	-1.70043914319E-01	5.02924465781E-02	-5.33453160341E-02	5.03683072849E-02	-5.30871435548E-02	4.41061014010E-04	1.18019068155E-01
1.81200000000E+09	1.38375947354E-01	-1.74882424570E-01	4.78416618636E-02	-5.53084496294E-02	4.78261543666E-02	-5.50768891883E-02	4.99924603387E-03	1.21894806123E-01
1.81300000000E+09	1.36045652593E-01	-1.79617574855E-01	4.53563755046E-02	-5.72283751841E-02	4.53306285410E-02	-5.69337043410E-02	9.71169984812E-03	1.25521830419E-01
1.81400000000E+09	1.33399576767E-01	-1.84056463437E-01	4.27245897717E-02	-5.89396025158E-02	4.27772146932E-02	-5.87281333706E-02	1.45307934105E-02	1.28951365589E-01
1.81500000000E+09	1.30330635264E-01	-1.88296725425E-01	4.00330223251E-02	-6.05471043563E-02	4.00907152354E-02	-6.03497287494E-02	1.96881140739E-02	1.31961692738E-01
1.81600000000E+09	1.27123220970E-01	-1.92234076812E-01	3.73271499827E-02	-6.21088752836E-02	3.74348457428E-02	-6.17990063569E-02	2.50239908609E-02	1.34570119739E-01
1.81700000000E+09	1.23627629355E-01	-1.95959830724E-01	3.46443223658E-02	-6.34003196400E-02	3.46983229442E-02	-6.31176101945E-02	3.03966432210E-02	1.36962167266E-01
1.81800000000E+09	1.19805333465E-01	-1.99291764723E-01	3.18821326840E-02	-6.46067619176E-02	3.18815526457E-02	-6.43678890731E-02	3.60376217082E-02	1.38898983994E-01
