# Hz S RI R 50
! CMT, CMT808U, 21440046, 21.4.3/4
! Date: 12/11/2025 11:17:54 AM
! Data: Format (Calibration Info)
! Freq	S11:Re/Im(F2)	S41:Re/Im(F2)	S14:Re/Im(F2)	S44:Re/Im(F2)
1.70000000000E+09	-2.00146984366E-01	-1.12998565224E-01	2.99941655803E-02	-6.34578809402E-02	3.08162464756E-02	-6.29493488075E-02	-1.64449824247E-02	3.90610117450E-02
1.70167224080E+09	-2.01518659421E-01	-1.04908780372E-01	2.56348622452E-02	-6.54584310634E-02	2.65003538765E-02	-6.50177176020E-02	-1.76497325204E-02	4.79951611513E-02
1.70334448161E+09	-2.01385614887E-01	-9.64785592467E-02	2.11354920908E-02	-6.72159476787E-02	2.20265623836E-02	-6.68354283825E-02	-1.78810069162E-02	5.70737627520E-02
1.70501672241E+09	-1.99756106380E-01	-8.80035902405E-02	1.64929531699E-02	-6.86899567764E-02	1.74012774609E-02	-6.83863493033E-02	-1.71004995250E-02	6.61970119240E-02
1.70668896321E+09	-1.96678785295E-01	-7.97585302720E-02	1.16948763105E-02	-6.98792358330E-02	1.26416914846E-02	-6.96326547144E-02	-1.53706630634E-02	7.52641392328E-02
1.70836120401E+09	-1.92238004501E-01	-7.19378916915E-02	6.79275487414E-03	-7.07524187451E-02	7.73398487871E-03	-7.05716327357E-02	-1.26288053670E-02	8.41498815477E-02
1.71003344482E+09	-1.86584673315E-01	-6.47831749220E-02	1.75858048619E-03	-7.12896920663E-02	2.71020203820E-03	-7.11802907091E-02	-8.93006199085E-03	9.27793740841E-02
1.71170568562E+09	-1.79847135976E-01	-5.84628123867E-02	-3.33892940687E-03	-7.14648576209E-02	-2.37890523374E-03	-7.14143031066E-02	-4.30984771254E-03	1.01031510628E-01
1.71337792642E+09	-1.72201224441E-01	-5.31052079689E-02	-8.51560450772E-03	-7.12558610694E-02	-7.54559742304E-03	-7.12835332213E-02	1.15172435909E-03	1.08802640440E-01
1.71505016722E+09	-1.63838473718E-01	-4.88294857348E-02	-1.36943816898E-02	-7.06468485119E-02	-1.27397266635E-02	-7.07501090098E-02	7.48548190879E-03	1.15989281102E-01
1.71672240803E+09	-1.54926584773E-01	-4.56794537582E-02	-1.88673805013E-02	-6.96487056413E-02	-1.79134197968E-02	-6.98116937796E-02	1.45634048367E-02	1.22534456771E-01
1.71839464883E+09	-1.45661807914E-01	-4.37211532692E-02	-2.39830332964E-02	-6.82314706311E-02	-2.30354329294E-02	-6.84573073751E-02	2.23041711064E-02	1.28353456297E-01
1.72006688963E+09	-1.36220499497E-01	-4.29615563751E-02	-2.90016685981E-02	-6.63973782247E-02	-2.80793021986E-02	-6.66859819464E-02	3.06736786078E-02	1.33374355569E-01
1.72173913043E+09	-1.26759545820E-01	-4.33952938764E-02	-3.38757346828E-02	-6.41479879979E-02	-3.29782319865E-02	-6.45087518161E-02	3.95299132492E-02	1.37492902459E-01
1.72341137124E+09	-1.17450325389E-01	-4.49993937725E-02	-3.85705253543E-02	-6.15208309874E-02	-3.77004872559E-02	-6.19444838009E-02	4.88117547170E-02	1.40722315518E-01
1.72508361204E+09	-1.08450003216E-01	-4.77105572169E-02	-4.30617802764E-02	-5.85115547814E-02	-4.22175148074E-02	-5.90055479368E-02	5.83937945652E-02	1.42991931857E-01
1.72675585284E+09	-9.98822821994E-02	-5.14717402390E-02	-4.72836910006E-02	-5.51496304445E-02	-4.64845402681E-02	-5.56958564825E-02	6.81707607196E-02	1.44306149193E-01
1.72842809365E+09	-9.19049100588E-02	-5.62229098957E-02	-5.12297962361E-02	-5.14566402086E-02	-5.04685779398E-02	-5.20555749180E-02	7.80848430877E-02	1.44580462410E-01
1.73010033445E+09	-8.45950875419E-02	-6.18684921485E-02	-5.48642082633E-02	-4.74687841865E-02	-5.41477150330E-02	-4.81165967034E-02	8.79685351313E-02	1.43884284308E-01
1.73177257525E+09	-7.80916136115E-02	-6.83080924720E-02	-5.81480275308E-02	-4.32005816327E-02	-5.74900142511E-02	-4.39135555423E-02	9.77713659219E-02	1.42193522915E-01
1.73344481605E+09	-7.24731332346E-02	-7.54393704255E-02	-6.10892290912E-02	-3.87146955799E-02	-6.04696728113E-02	-3.94717593693E-02	1.07352736561E-01	1.39519110303E-01
1.73511705686E+09	-6.78272535724E-02	-8.31418646638E-02	-6.36326436788E-02	-3.40259750398E-02	-6.30886897431E-02	-3.48165546513E-02	1.16628053029E-01	1.35877755552E-01
1.73678929766E+09	-6.42366728084E-02	-9.13001422081E-02	-6.57988157511E-02	-2.91724063059E-02	-6.53100595607E-02	-3.00030853441E-02	1.25512587405E-01	1.31326735680E-01
1.73846153846E+09	-6.17432853776E-02	-9.97531973591E-02	-6.75753923094E-02	-2.41956682865E-02	-6.71519166246E-02	-2.50593565522E-02	1.33891179596E-01	1.25903792186E-01
1.74013377926E+09	-6.04020913732E-02	-1.08386863753E-01	-6.89397573977E-02	-1.91286923748E-02	-6.85647505177E-02	-2.00192770615E-02	1.41681327581E-01	1.19656784330E-01
1.74180602007E+09	-6.02122959535E-02	-1.17032989172E-01	-6.99045596284E-02	-1.40088693404E-02	-6.96042677147E-02	-1.49294785139E-02	1.48820575880E-01	1.12661386869E-01
1.74347826087E+09	-6.12077480267E-02	-1.25537117212E-01	-7.04733092320E-02	-8.88448620151E-03	-7.02355571444E-02	-9.81352055826E-03	1.55237328306E-01	1.04946696935E-01
1.74515050167E+09	-6.33571629051E-02	-1.33744497874E-01	-7.06433587947E-02	-3.77712710071E-03	-7.04698419037E-02	-4.70854175225E-03	1.60849079279E-01	9.66377925381E-02
1.74682274247E+09	-6.66339525381E-02	-1.41520440563E-01	-7.04392440486E-02	1.27620486877E-03	-7.03301131818E-02	3.40150459181E-04	1.65615176324E-01	8.77839998725E-02
1.74849498328E+09	-7.09995930206E-02	-1.48677041321E-01	-6.98681756735E-02	6.25366501167E-03	-6.98234832597E-02	5.31111603795E-03	1.69467287395E-01	7.84806993925E-02
1.75016722408E+09	-7.63775998695E-02	-1.55053699328E-01	-6.89557629611E-02	1.11186191400E-02	-6.89713360043E-02	1.01727688796E-02	1.72367480611E-01	6.87935047466E-02
1.75183946488E+09	-8.26500810122E-02	-1.60505316383E-01	-6.76956067111E-02	1.58388650202E-02	-6.77807925694E-02	1.49110386236E-02	1.74314882080E-01	5.88407680815E-02
1.75351170569E+09	-8.97113462931E-02	-1.64894762332E-01	-6.61415913292E-02	2.04243161944E-02	-6.62905639562E-02	1.95060610102E-02	1.75225741216E-01	4.86917706269E-02
1.75518394649E+09	-9.73848632886E-02	-1.68050705026E-01	-6.42920213155E-02	2.48267350702E-02	-6.45063924140E-02	2.39242423026E-02	1.75105753202E-01	3.84645105913E-02
1.75685618729E+09	-1.05514325521E-01	-1.69926596636E-01	-6.21967797348E-02	2.90561776548E-02	-6.24412838657E-02	2.81650184935E-02	1.73964322823E-01	2.82456936463E-02
1.75852842809E+09	-1.13902109562E-01	-1.70375829135E-01	-5.98361568750E-02	3.30784182781E-02	-6.01587457976E-02	3.22017452339E-02	1.71808200895E-01	1.81631696047E-02
1.76020066890E+09	-1.22289764492E-01	-1.69356986876E-01	-5.72669741899E-02	3.69035718462E-02	-5.76382851157E-02	3.60558322886E-02	1.68610544201E-01	8.27260095647E-03
1.76187290970E+09	-1.30454217724E-01	-1.66867118782E-01	-5.45050537144E-02	4.05187573843E-02	-5.49265670583E-02	3.96905252843E-02	1.64399885218E-01	-1.32405146209E-03
1.76354515050E+09	-1.38139958431E-01	-1.62875448932E-01	-5.15528321750E-02	4.39427495854E-02	-5.20300507890E-02	4.31383767168E-02	1.59237046757E-01	-1.04811525413E-02
1.76521739130E+09	-1.45050840801E-01	-1.57521218433E-01	-4.84446619891E-02	4.71506883577E-02	-4.89641503366E-02	4.63755596327E-02	1.53127825689E-01	-1.91576099241E-02
1.76688963211E+09	-1.50936635962E-01	-1.50890764712E-01	-4.51674124551E-02	5.01610117055E-02	-4.57457044838E-02	4.94123646816E-02	1.46125815718E-01	-2.72405526671E-02
1.76856187291E+09	-1.55557844641E-01	-1.43190989816E-01	-4.17710529357E-02	5.29910034221E-02	-4.23952349047E-02	5.22730129835E-02	1.38279082858E-01	-3.46191097313E-02
1.77023411371E+09	-1.58728330373E-01	-1.34673547568E-01	-3.82114623399E-02	5.56298036987E-02	-3.88804177280E-02	5.49454730370E-02	1.29656163752E-01	-4.12340492018E-02
1.77190635452E+09	-1.60267174046E-01	-1.25611070780E-01	-3.45146574164E-02	5.80699692943E-02	-3.52340248253E-02	5.74342634061E-02	1.20349340418E-01	-4.69895088504E-02
1.77357859532E+09	-1.60114181764E-01	-1.16310621161E-01	-3.06753952440E-02	6.03328140156E-02	-3.14332952054E-02	5.97357203103E-02	1.10417286066E-01	-5.18133498259E-02
1.77525083612E+09	-1.58224146093E-01	-1.07133063769E-01	-2.66899446124E-02	6.24049373363E-02	-2.74884863112E-02	6.18537739176E-02	9.99748023002E-02	-5.56291216158E-02
1.77692307692E+09	-1.54625706903E-01	-9.84162330651E-02	-2.25291709190E-02	6.42608827978E-02	-2.33781430083E-02	6.37595716029E-02	8.91029562423E-02	-5.83651070971E-02
1.77859531773E+09	-1.49487431282E-01	-9.04902773745E-02	-1.81946654865E-02	6.58925903574E-02	-1.90902081599E-02	6.54471012527E-02	7.79470707690E-02	-5.99880902046E-02
1.78026755853E+09	-1.42944229367E-01	-8.36381342581E-02	-1.37068700342E-02	6.72828854485E-02	-1.46424622701E-02	6.69036623797E-02	6.66153693155E-02	-6.04648687908E-02
1.78193979933E+09	-1.35289324009E-01	-7.81152740766E-02	-9.05758434590E-03	6.83975703590E-02	-1.00219454008E-02	6.80688647175E-02	5.52101300797E-02	-5.97701453169E-02
1.78361204013E+09	-1.26776834896E-01	-7.40926830472E-02	-4.25262026664E-03	6.91949912233E-02	-5.25339591171E-03	6.89349241907E-02	4.39042303432E-02	-5.78927058010E-02
1.78528428094E+09	-1.17751132238E-01	-7.16960002339E-02	6.88941864478E-04	6.96519165036E-02	-3.44167587575E-04	6.94681530583E-02	3.28160520254E-02	-5.48333690912E-02
1.78695652174E+09	-1.08542979630E-01	-7.09857324815E-02	5.72864764540E-03	6.97389120340E-02	4.67021136662E-03	6.96337996471E-02	2.20561447968E-02	-5.06209075191E-02
1.78862876254E+09	-9.94713859604E-02	-7.19000745217E-02	1.08336288439E-02	6.94138119873E-02	9.76099957576E-03	6.93927928828E-02	1.17743390296E-02	-4.53288197386E-02
1.79030100334E+09	-9.08360271046E-02	-7.43780830996E-02	1.59654082804E-02	6.86660807909E-02	1.48978748518E-02	6.87333398495E-02	2.07854303242E-03	-3.89655468520E-02
1.79197324415E+09	-8.29006660056E-02	-7.82301927839E-02	2.10792098857E-02	6.74752844311E-02	2.00110675601E-02	6.76379401657E-02	-6.91751124000E-03	-3.16285776846E-02
1.79364548495E+09	-7.58523857525E-02	-8.33400491675E-02	2.61253745198E-02	6.58673968731E-02	2.50617171679E-02	6.61069852864E-02	-1.50910880867E-02	-2.34005664897E-02
1.79531772575E+09	-6.98930034617E-02	-8.94337092563E-02	3.10322066348E-02	6.38033962995E-02	2.99913247088E-02	6.41485015106E-02	-2.23652939198E-02	-1.43608111450E-02
1.79698996656E+09	-6.51181061365E-02	-9.63122263204E-02	3.57653365867E-02	6.13284536673E-02	3.47378096728E-02	6.17540321756E-02	-2.86714184181E-02	-4.60885473267E-03
1.79866220736E+09	-6.16205115846E-02	-1.03765056404E-01	4.02814826644E-02	5.84486430346E-02	3.92904157169E-02	5.89621541280E-02	-3.39098328842E-02	5.71386485929E-03
1.80033444816E+09	-5.94089255912E-02	-1.11542575120E-01	4.45170985039E-02	5.52134587014E-02	4.35778866371E-02	5.57902251669E-02	-3.80627972598E-02	1.65359796703E-02
1.80200668896E+09	-5.84877688619E-02	-1.19456644740E-01	4.84595997371E-02	5.16234797077E-02	4.75701414346E-02	5.22832268999E-02	-4.10599021660E-02	2.77314878080E-02
1.80367892977E+09	-5.88162951958E-02	-1.27300182719E-01	5.20550099060E-02	4.77410447202E-02	5.12296953910E-02	4.84696475572E-02	-4.28797797638E-02	3.91541611026E-02
1.80535117057E+09	-6.03137480948E-02	-1.34897536203E-01	5.53070153687E-02	4.36065110183E-02	5.45394488242E-02	4.43951149901E-02	-4.34885438872E-02	5.06985817686E-02
1.80702341137E+09	-6.29200346528E-02	-1.42106097824E-01	5.81876247833E-02	3.92494206957E-02	5.75009915154E-02	4.00991737841E-02	-4.29011173763E-02	6.22444267660E-02
1.80869565217E+09	-6.65512995675E-02	-1.48795615533E-01	6.06866024503E-02	3.47197516720E-02	6.00732376634E-02	3.56113973196E-02	-4.11184052232E-02	7.36519813520E-02
1.81036789298E+09	-7.10983972507E-02	-1.54856772431E-01	6.27995987349E-02	3.00482653214E-02	6.22584312303E-02	3.09817006621E-02	-3.81611019482E-02	8.48458341085E-02
1.81204013378E+09	-7.64646353454E-02	-1.60187347219E-01	6.45095246774E-02	2.52771141668E-02	6.40606047053E-02	2.62478348743E-02	-3.40332022476E-02	9.56688350426E-02
1.81371237458E+09	-8.25273030880E-02	-1.64684946961E-01	6.58347767038E-02	2.04456638611E-02	6.54690584235E-02	2.14387200308E-02	-2.88229638002E-02	1.06014043696E-01
1.81538461538E+09	-8.91666423287E-02	-1.68273512802E-01	6.67888424770E-02	1.55855018337E-02	6.65038377462E-02	1.66017575375E-02	-2.25382252731E-02	1.15776803022E-01
1.81705685619E+09	-9.62677266412E-02	-1.70930224795E-01	6.73638994156E-02	1.07360309887E-02	6.71611744006E-02	1.17507509523E-02	-1.52680056956E-02	1.24863680960E-01
1.81872909699E+09	-1.03698396754E-01	-1.72572856392E-01	6.75806885209E-02	5.91821419025E-03	6.74600487614E-02	6.94206447591E-03	-7.07356642568E-03	1.33149576588E-01
1.82040133779E+09	-1.11310294426E-01	-1.73202005686E-01	6.74673681141E-02	1.15509554637E-03	6.74182150148E-02	2.17183617057E-03	1.95466820102E-03	1.40586087445E-01
1.82207357860E+09	-1.19024736275E-01	-1.72779845552E-01	6.70010371772E-02	-3.52619393006E-03	6.70410071412E-02	-2.52118388434E-03	1.17224949659E-02	1.47070075464E-01
1.82374581940E+09	-1.26661200017E-01	-1.71348268403E-01	6.62378457021E-02	-8.09275041691E-03	6.63462250943E-02	-7.10503272535E-03	2.21527544151E-02	1.52541166303E-01
1.82541806020E+09	-1.34131903224E-01	-1.68863240872E-01	6.51719090250E-02	-1.25479511811E-02	6.53482096769E-02	-1.15934224845E-02	3.31204921997E-02	1.56937828164E-01
1.82709030100E+09	-1.41282684933E-01	-1.65349793288E-01	6.38462136647E-02	-1.68473328675E-02	6.40767391838E-02	-1.59254826275E-02	4.45308481677E-02	1.60197677357E-01
1.82876254181E+09	-1.47970491714E-01	-1.60849346645E-01	6.22496903588E-02	-2.10242419103E-02	6.25380188157E-02	-2.01252163259E-02	5.62667761094E-02	1.62334494439E-01
1.83043478261E+09	-1.54093968860E-01	-1.55407453989E-01	6.04079720091E-02	-2.50250573633E-02	6.07737761451E-02	-2.41559015355E-02	6.82144213173E-02	1.63251983876E-01
1.83210702341E+09	-1.59447237015E-01	-1.49111020256E-01	5.83574241812E-02	-2.88645498209E-02	5.87497621464E-02	-2.80373007823E-02	8.02619727682E-02	1.62983671807E-01
1.83377926421E+09	-1.63977617536E-01	-1.42044592351E-01	5.60830529003E-02	-3.25274564224E-02	5.65372032863E-02	-3.17417329591E-02	9.22705376442E-02	1.61488272297E-01
1.83545150502E+09	-1.67504479020E-01	-1.34329138041E-01	5.36336087885E-02	-3.60212975886E-02	5.41324049111E-02	-3.52671651624E-02	1.04142967367E-01	1.58806570505E-01
1.83712374582E+09	-1.69945251959E-01	-1.26060243593E-01	5.10034525551E-02	-3.93280356281E-02	5.15340137585E-02	-3.86196530696E-02	1.15735857633E-01	1.54905017498E-01
1.83879598662E+09	-1.71178009819E-01	-1.17402843897E-01	4.82065090976E-02	-4.24579287629E-02	4.87609423808E-02	-4.17840181404E-02	1.26935201268E-01	1.49868947386E-01
1.84046822742E+09	-1.71129544544E-01	-1.08562300560E-01	4.52533545592E-02	-4.54025518930E-02	4.58578689925E-02	-4.47657460548E-02	1.37660920955E-01	1.43717859997E-01
1.84214046823E+09	-1.69732807273E-01	-9.97490644831E-02	4.21408708083E-02	-4.81618296218E-02	4.27861000362E-02	-4.75769411610E-02	1.47756278644E-01	1.36493404438E-01
1.84381270903E+09	-1.66965976415E-01	-9.11653353684E-02	3.89163101839E-02	-5.07441670334E-02	3.95866504831E-02	-5.01909795118E-02	1.57145335057E-01	1.28288284059E-01
1.84548494983E+09	-1.62903863152E-01	-8.30491952598E-02	3.55381235791E-02	-5.31296640758E-02	3.62393668519E-02	-5.26180066479E-02	1.65691795962E-01	1.19130941691E-01
1.84715719064E+09	-1.57532232600E-01	-7.56385022747E-02	3.20358755036E-02	-5.53418398452E-02	3.27629999386E-02	-5.48751675302E-02	1.73318076701E-01	1.09164147032E-01
1.84882943144E+09	-1.51014316785E-01	-6.91774078101E-02	2.84031237186E-02	-5.73636145625E-02	2.91758479448E-02	-5.69296643034E-02	1.79932872024E-01	9.84071766928E-02
1.85050167224E+09	-1.43485164707E-01	-6.38924459697E-02	2.46505642677E-02	-5.91867466234E-02	2.54421290316E-02	-5.88045055123E-02	1.85494872654E-01	8.70412775124E-02
1.85217391304E+09	-1.35174827600E-01	-5.99658539384E-02	2.07737061718E-02	-6.07991563482E-02	2.15762320832E-02	-6.04593962504E-02	1.89876623800E-01	7.51129662536E-02
1.85384615385E+09	-1.26349742662E-01	-5.75667291678E-02	1.67651967741E-02	-6.22198322662E-02	1.76044687076E-02	-6.19280282229E-02	1.93080223582E-01	6.27847985516E-02
1.85551839465E+09	-1.17277875347E-01	-5.67674235441E-02	1.26297522151E-02	-6.34036036904E-02	1.34904929547E-02	-6.31596388825E-02	1.95020780352E-01	5.01836676564E-02
1.85719063545E+09	-1.08325436937E-01	-5.76279458254E-02	8.38198975205E-03	-6.43434112127E-02	9.26540665448E-03	-6.41515466500E-02	1.95657650629E-01	3.74319674280E-02
1.85886287625E+09	-9.97986316689E-02	-6.00861884647E-02	4.01488576842E-03	-6.50324138643E-02	4.91342903637E-03	-6.48851664312E-02	1.95011016400E-01	2.46287875354E-02
1.86053511706E+09	-9.19931970163E-02	-6.40311001146E-02	-4.55722600288E-04	-6.54215870172E-02	4.63978535723E-04	-6.53374199959E-02	1.93065247312E-01	1.19811761187E-02
1.86220735786E+09	-8.52069134830E-02	-6.92892158696E-02	-5.01296274858E-03	-6.54998683449E-02	-4.07751567713E-03	-6.54841892450E-02	1.89829037423E-01	-4.29445157422E-04
1.86387959866E+09	-7.96599575265E-02	-7.56160922307E-02	-9.61972995021E-03	-6.52499625178E-02	-8.68155271241E-03	-6.52932000939E-02	1.85347489108E-01	-1.24642206802E-02
1.86555183946E+09	-7.55359100072E-02	-8.27327806732E-02	-1.42652895971E-02	-6.46399919307E-02	-1.33274870971E-02	-6.47557497321E-02	1.79629515309E-01	-2.39833976846E-02
1.86722408027E+09	-7.29609454659E-02	-9.03288631887E-02	-1.89178283520E-02	-6.36821407678E-02	-1.79679569274E-02	-6.38656211897E-02	1.72768152497E-01	-3.48416186178E-02
1.86889632107E+09	-7.19432664222E-02	-9.81103292955E-02	-2.35141838100E-02	-6.23415944167E-02	-2.25830849634E-02	-6.25910548390E-02	1.64790038785E-01	-4.49620755574E-02
1.87056856187E+09	-7.24540542124E-02	-1.05728318024E-01	-2.80394623958E-02	-6.06210456308E-02	-2.71180799599E-02	-6.09511532773E-02	1.55804569909E-01	-5.42023475990E-02
1.87224080268E+09	-7.43984952191E-02	-1.12935066303E-01	-3.24481851994E-02	-5.85328469049E-02	-3.15391044950E-02	-5.89364193988E-02	1.45886380679E-01	-6.24692662716E-02
1.87391304348E+09	-7.76306766100E-02	-1.19501341044E-01	-3.66766124191E-02	-5.60851798299E-02	-3.57942949458E-02	-5.65475688135E-02	1.35104299428E-01	-6.96858195461E-02
1.87558528428E+09	-8.20233060259E-02	-1.25186582419E-01	-4.07061120713E-02	-5.32863573246E-02	-3.98605252504E-02	-5.38140243278E-02	1.23613319146E-01	-7.57305348944E-02
1.87725752508E+09	-8.73261875863E-02	-1.29864782833E-01	-4.44967823376E-02	-5.01671362388E-02	-4.36942873132E-02	-5.07495396087E-02	1.11508685856E-01	-8.05523987986E-02
1.87892976589E+09	-9.33431398797E-02	-1.33368548433E-01	-4.80247742519E-02	-4.67519584273E-02	-4.72590425113E-02	-4.73949895201E-02	9.88812217539E-02	-8.40642653696E-02
1.88060200669E+09	-9.98187652955E-02	-1.35673035138E-01	-5.12451950782E-02	-4.30749696123E-02	-5.05311909147E-02	-4.37844308028E-02	8.59183737847E-02	-8.62199086343E-02
1.88227424749E+09	-1.06565661145E-01	-1.36782576761E-01	-5.41628451011E-02	-3.91787541124E-02	-5.34939102753E-02	-3.99323185600E-02	7.26975982702E-02	-8.70202781111E-02
1.88394648829E+09	-1.13389386788E-01	-1.36663082702E-01	-5.67324400594E-02	-3.50917277429E-02	-5.61348473877E-02	-3.58906278438E-02	5.94370188428E-02	-8.63561639621E-02
1.88561872910E+09	-1.20089900236E-01	-1.35380809428E-01	-5.89817541691E-02	-3.08322865797E-02	-5.84359223720E-02	-3.16798603444E-02	4.62191117465E-02	-8.42611526842E-02
1.88729096990E+09	-1.26516044404E-01	-1.32967482385E-01	-6.08926476990E-02	-2.64444508034E-02	-6.04074868109E-02	-2.73378060092E-02	3.32284341122E-02	-8.07585459046E-02
1.88896321070E+09	-1.32510543927E-01	-1.29523279648E-01	-6.24569260748E-02	-2.19711177802E-02	-6.20351564281E-02	-2.28869754470E-02	2.06147699663E-02	-7.58086630731E-02
1.89063545151E+09	-1.37916246069E-01	-1.25127070638E-01	-6.36678840330E-02	-1.74292692407E-02	-6.33080311547E-02	-1.83743586540E-02	8.54360710386E-03	-6.94850620827E-02
1.89230769231E+09	-1.42620340489E-01	-1.19889847961E-01	-6.45506321807E-02	-1.28433643295E-02	-6.42645004304E-02	-1.38118154729E-02	-2.85494142511E-03	-6.18617294865E-02
1.89397993311E+09	-1.46544383191E-01	-1.13947749995E-01	-6.50914078313E-02	-8.23863759194E-03	-6.48833315280E-02	-9.21747609039E-03	-1.34221897287E-02	-5.29914832180E-02
