# Hz S RI R 50
! CMT, CMT808U, 21440046, 21.4.3/4
! Date: 12/13/2025 10:48:42 PM
! Data: Format (Calibration Info)
! Freq	S11:Re/Im(F2)	S41:Re/Im(F2)	S14:Re/Im(F2)	S44:Re/Im(F2)
1.70000000000E+09	-8.75449605186E-02	-1.24564138040E-01	-4.73960140538E-02	-4.98204061749E-02	-4.71341205325E-02	-4.97434642613E-02	-3.85230024239E-02	5.85626645325E-02
1.70100000000E+09	-8.89233455601E-02	-1.19345000028E-01	-4.94440014350E-02	-4.78385008600E-02	-4.92542797784E-02	-4.77974261976E-02	-3.74211435114E-02	6.53446166465E-02
1.70200000000E+09	-8.96864999750E-02	-1.13907006515E-01	-5.15048905730E-02	-4.58666311605E-02	-5.13385456624E-02	-4.57721258720E-02	-3.60192734554E-02	7.20091352460E-02
1.70300000000E+09	-9.00873528507E-02	-1.08265642128E-01	-5.34433603806E-02	-4.37135589787E-02	-5.33055802106E-02	-4.37948938226E-02	-3.39974747077E-02	7.84995898410E-02
1.70400000000E+09	-8.99414398219E-02	-1.02399542604E-01	-5.53988090711E-02	-4.14735107072E-02	-5.51837928050E-02	-4.15612937497E-02	-3.15802412767E-02	8.48438088007E-02
1.70500000000E+09	-8.91575850893E-02	-9.64706935728E-02	-5.72094442568E-02	-3.92562678120E-02	-5.70516758419E-02	-3.92630140940E-02	-2.87118469759E-02	9.10016876028E-02
1.70600000000E+09	-8.78718903529E-02	-9.05760293196E-02	-5.89477355029E-02	-3.69464666983E-02	-5.87629464115E-02	-3.69366702958E-02	-2.55147697353E-02	9.68842005929E-02
1.70700000000E+09	-8.60792784180E-02	-8.46260859806E-02	-6.06436458218E-02	-3.44894668164E-02	-6.04829269939E-02	-3.44726586005E-02	-2.18400737515E-02	1.02673864022E-01
1.70800000000E+09	-8.37268462570E-02	-7.87579515723E-02	-6.21925976274E-02	-3.19576953114E-02	-6.20177728005E-02	-3.19612061446E-02	-1.78793322441E-02	1.08125246340E-01
1.70900000000E+09	-8.09160038424E-02	-7.29898167659E-02	-6.36293897875E-02	-2.92419019412E-02	-6.35248439150E-02	-2.93315352889E-02	-1.35522775515E-02	1.13260371125E-01
1.71000000000E+09	-7.75547097536E-02	-6.74296663929E-02	-6.51327135379E-02	-2.65854837220E-02	-6.48571799126E-02	-2.66549077019E-02	-8.86790499015E-03	1.18091859442E-01
1.71100000000E+09	-7.37691194659E-02	-6.21231419244E-02	-6.63659998764E-02	-2.37910860223E-02	-6.61489539126E-02	-2.38789484868E-02	-3.92098153291E-03	1.22573429597E-01
1.71200000000E+09	-6.95226438884E-02	-5.70046526479E-02	-6.75083009216E-02	-2.09110366661E-02	-6.74288187146E-02	-2.10518416553E-02	1.37870643650E-03	1.26801169506E-01
1.71300000000E+09	-6.48293093169E-02	-5.22783819844E-02	-6.84504235816E-02	-1.81194640903E-02	-6.83462673868E-02	-1.80888659520E-02	6.82234405951E-03	1.30594305222E-01
1.71400000000E+09	-5.98776030576E-02	-4.78335813119E-02	-6.94029099152E-02	-1.49924217061E-02	-6.92785323466E-02	-1.51813902889E-02	1.24587502809E-02	1.34006839648E-01
1.71500000000E+09	-5.44353433256E-02	-4.37410548783E-02	-7.01795098546E-02	-1.19899249851E-02	-6.99745002903E-02	-1.20687842919E-02	1.84803775728E-02	1.37065363878E-01
1.71600000000E+09	-4.87748541186E-02	-4.00402224871E-02	-7.08009509938E-02	-8.88136041880E-03	-7.06077038839E-02	-9.00911775938E-03	2.45579479191E-02	1.39684435732E-01
1.71700000000E+09	-4.27820956990E-02	-3.67788660834E-02	-7.12933213291E-02	-5.76355767852E-03	-7.10794747077E-02	-5.83717621551E-03	3.08443839590E-02	1.42031287155E-01
1.71800000000E+09	-3.66065147534E-02	-3.38307742715E-02	-7.15885996793E-02	-2.63570212105E-03	-7.13919528612E-02	-2.72098672238E-03	3.70948484411E-02	1.43744181062E-01
1.71900000000E+09	-3.03439350307E-02	-3.14328604448E-02	-7.17771863722E-02	5.90928619559E-04	-7.15800308990E-02	5.06585409278E-04	4.36076551092E-02	1.45284268617E-01
1.72000000000E+09	-2.38124812046E-02	-2.95036651824E-02	-7.18192671129E-02	3.73881298160E-03	-7.15884670943E-02	3.65717708276E-03	5.00916151768E-02	1.46264301783E-01
1.72100000000E+09	-1.72553033671E-02	-2.78463504859E-02	-7.16020220191E-02	7.03881093665E-03	-7.14758151442E-02	6.95371877159E-03	5.67584432692E-02	1.46735014358E-01
1.72200000000E+09	-1.05635561756E-02	-2.67718712837E-02	-7.13601035899E-02	1.02948545223E-02	-7.11612942028E-02	1.00560411174E-02	6.32959452733E-02	1.47011498972E-01
1.72300000000E+09	-3.80420005158E-03	-2.61022464963E-02	-7.09040877852E-02	1.34680883311E-02	-7.07478596332E-02	1.33121662003E-02	6.98392009536E-02	1.46842419655E-01
1.72400000000E+09	2.81229780928E-03	-2.58629135921E-02	-7.02958445893E-02	1.66538030840E-02	-7.01180713809E-02	1.64839112322E-02	7.64030018330E-02	1.46162294342E-01
1.72500000000E+09	9.51479901815E-03	-2.61449238937E-02	-6.95196124721E-02	1.97999884811E-02	-6.94413340339E-02	1.96297204505E-02	8.28506591424E-02	1.45064096156E-01
1.72600000000E+09	1.60870773650E-02	-2.67447668120E-02	-6.86154556551E-02	2.29794680710E-02	-6.84582750718E-02	2.27491414712E-02	8.91471640888E-02	1.43532958780E-01
1.72700000000E+09	2.26613991626E-02	-2.77921953724E-02	-6.75152375203E-02	2.60447251309E-02	-6.73779064128E-02	2.58371719309E-02	9.54725448097E-02	1.41716678413E-01
1.72800000000E+09	2.90114184386E-02	-2.93194711036E-02	-6.62658412481E-02	2.90919524019E-02	-6.61689179676E-02	2.88749885722E-02	1.01532434145E-01	1.39447658372E-01
1.72900000000E+09	3.51809730944E-02	-3.11472442064E-02	-6.48974947662E-02	3.20438942360E-02	-6.48947162792E-02	3.18252807735E-02	1.07538753301E-01	1.36845175299E-01
1.73000000000E+09	4.12448737056E-02	-3.34614520230E-02	-6.34572908504E-02	3.49701054893E-02	-6.33450826291E-02	3.47793084790E-02	1.13244691217E-01	1.33880851039E-01
1.73100000000E+09	4.71318792496E-02	-3.60546008531E-02	-6.17801566306E-02	3.77031702643E-02	-6.17058995859E-02	3.74776465957E-02	1.18864732083E-01	1.30499642652E-01
1.73200000000E+09	5.27288125586E-02	-3.90974867842E-02	-5.99737477886E-02	4.04003037396E-02	-5.98749906303E-02	4.02719036093E-02	1.24210334231E-01	1.26821682169E-01
1.73300000000E+09	5.80798332117E-02	-4.23236511065E-02	-5.81267062044E-02	4.30916973406E-02	-5.79981368516E-02	4.28600186003E-02	1.29323318836E-01	1.22880351583E-01
1.73400000000E+09	6.31624540601E-02	-4.60188106169E-02	-5.59931787210E-02	4.55937847931E-02	-5.60561909518E-02	4.54612402804E-02	1.34196051929E-01	1.18581224035E-01
1.73500000000E+09	6.79152400137E-02	-4.99926279518E-02	-5.39007285897E-02	4.80831105746E-02	-5.39200416282E-02	4.78074919462E-02	1.38732711060E-01	1.14003760014E-01
1.73600000000E+09	7.23280976467E-02	-5.41235258605E-02	-5.16840355046E-02	5.03602638185E-02	-5.16897371609E-02	5.01338204025E-02	1.42902001195E-01	1.09002874948E-01
1.73700000000E+09	7.64599200325E-02	-5.85834454604E-02	-4.93080898928E-02	5.25327453608E-02	-4.93371214160E-02	5.22855849773E-02	1.46906005233E-01	1.04027603121E-01
1.73800000000E+09	8.01991248746E-02	-6.32834517577E-02	-4.68398382561E-02	5.46204440775E-02	-4.68664779860E-02	5.43175183191E-02	1.50437786606E-01	9.86858783157E-02
1.73900000000E+09	8.35735721060E-02	-6.82223552632E-02	-4.42860548962E-02	5.65294735944E-02	-4.44036537040E-02	5.62770272761E-02	1.53779774656E-01	9.30885511350E-02
1.74000000000E+09	8.65117587655E-02	-7.33106331650E-02	-4.17688248365E-02	5.83009628398E-02	-4.17606934121E-02	5.81992376323E-02	1.56669282415E-01	8.72853173358E-02
1.74100000000E+09	8.90373194887E-02	-7.84757168956E-02	-3.90678276221E-02	5.99940329581E-02	-3.91830488366E-02	5.98043334368E-02	1.59218714091E-01	8.14936190132E-02
1.74200000000E+09	9.12283639934E-02	-8.38317620588E-02	-3.63779287204E-02	6.15875880513E-02	-3.64224894785E-02	6.13672269204E-02	1.61347482524E-01	7.53174684122E-02
1.74300000000E+09	9.28176114677E-02	-8.92203613586E-02	-3.35486379903E-02	6.30655521190E-02	-3.35828280526E-02	6.27715163495E-02	1.63135506554E-01	6.91058601090E-02
1.74400000000E+09	9.40414468369E-02	-9.46458108545E-02	-3.07260466553E-02	6.43147364238E-02	-3.08186930848E-02	6.40413895575E-02	1.64553948229E-01	6.28441761216E-02
1.74500000000E+09	9.47541664455E-02	-1.00086654801E-01	-2.78327071339E-02	6.53559257199E-02	-2.78663110106E-02	6.51930314021E-02	1.65488320527E-01	5.64332980397E-02
1.74600000000E+09	9.50199416974E-02	-1.05496923878E-01	-2.49258520950E-02	6.63565479185E-02	-2.50354618166E-02	6.62066078991E-02	1.66009373636E-01	5.01329919926E-02
1.74700000000E+09	9.48089070605E-02	-1.10858960801E-01	-2.20008048389E-02	6.73141477715E-02	-2.21550941792E-02	6.70965454627E-02	1.66192760313E-01	4.35948014477E-02
1.74800000000E+09	9.41432886020E-02	-1.16000898952E-01	-1.91304595165E-02	6.79966445062E-02	-1.91984808227E-02	6.78387125327E-02	1.65946448406E-01	3.71753347394E-02
1.74900000000E+09	9.30085433973E-02	-1.21021566210E-01	-1.61092050627E-02	6.86736610141E-02	-1.62149665362E-02	6.84139149783E-02	1.65302649439E-01	3.08687883693E-02
1.75000000000E+09	9.13919916626E-02	-1.25870487610E-01	-1.32424351162E-02	6.91140965526E-02	-1.33675781984E-02	6.88991446587E-02	1.64213796924E-01	2.45058080022E-02
1.75100000000E+09	8.95142807855E-02	-1.30406520416E-01	-1.02166121241E-02	6.94954030786E-02	-1.03879580523E-02	6.92600368596E-02	1.62762563594E-01	1.82133849718E-02
1.75200000000E+09	8.70755160409E-02	-1.34715742401E-01	-7.36690252084E-03	6.96350673150E-02	-7.39542010359E-03	6.95203249497E-02	1.60835239092E-01	1.21147315702E-02
1.75300000000E+09	8.43309271459E-02	-1.38582916890E-01	-4.39103912181E-03	6.98239972577E-02	-4.49027540180E-03	6.96381188715E-02	1.58597478902E-01	6.02356540794E-03
1.75400000000E+09	8.11429172718E-02	-1.42163115577E-01	-1.48675700654E-03	6.97304248714E-02	-1.63932792115E-03	6.96283610128E-02	1.55849740714E-01	1.38191067570E-04
1.75500000000E+09	7.77416065981E-02	-1.45338144442E-01	1.39648532436E-03	6.96241428124E-02	1.28028449908E-03	6.95458078914E-02	1.52835934571E-01	-5.59587479545E-03
1.75600000000E+09	7.39896831559E-02	-1.48010554469E-01	4.28901117951E-03	6.93469460030E-02	4.16403283784E-03	6.92363636726E-02	1.49375265351E-01	-1.09393196063E-02
1.75700000000E+09	7.00414153455E-02	-1.50256476774E-01	7.07301836116E-03	6.90920554354E-02	6.93281225341E-03	6.89191226003E-02	1.45589539598E-01	-1.62784194958E-02
1.75800000000E+09	6.59536270188E-02	-1.51974333215E-01	9.88172862351E-03	6.85957027337E-02	9.70260775283E-03	6.85285253093E-02	1.41459152860E-01	-2.11926946426E-02
1.75900000000E+09	6.16226345698E-02	-1.53171551501E-01	1.26668111994E-02	6.80215122762E-02	1.24354008454E-02	6.79001963867E-02	1.37042614602E-01	-2.58744359035E-02
1.76000000000E+09	5.72832908070E-02	-1.53792573876E-01	1.53915207918E-02	6.74401683717E-02	1.51816878365E-02	6.73304810485E-02	1.32312826616E-01	-3.02980777432E-02
1.76100000000E+09	5.29338021652E-02	-1.53883424755E-01	1.80171711074E-02	6.66823912926E-02	1.79060540213E-02	6.65461627803E-02	1.27216451279E-01	-3.43570399797E-02
1.76200000000E+09	4.86359549175E-02	-1.53474803657E-01	2.07218470305E-02	6.58861394594E-02	2.05651047636E-02	6.56997949167E-02	1.21934317231E-01	-3.80614546319E-02
1.76300000000E+09	4.43928117383E-02	-1.52382571859E-01	2.33489406621E-02	6.49328222363E-02	2.31169337514E-02	6.48718510866E-02	1.16498537240E-01	-4.14697689504E-02
1.76400000000E+09	4.03513831782E-02	-1.50754514794E-01	2.59062498327E-02	6.39122187059E-02	2.56944198458E-02	6.38362990729E-02	1.10779935624E-01	-4.44480577373E-02
1.76500000000E+09	3.65665018456E-02	-1.48642822532E-01	2.84441546224E-02	6.28926473923E-02	2.82257825069E-02	6.27500541686E-02	1.04803047389E-01	-4.71114401998E-02
1.76600000000E+09	3.30066707170E-02	-1.46007365521E-01	3.08686101390E-02	6.16923393994E-02	3.07146049032E-02	6.15712430835E-02	9.87741027701E-02	-4.92744888082E-02
1.76700000000E+09	2.98394303259E-02	-1.42836440739E-01	3.33759094355E-02	6.03761371368E-02	3.30991411382E-02	6.03568734285E-02	9.25139044026E-02	-5.11065753311E-02
1.76800000000E+09	2.70821824643E-02	-1.39358306840E-01	3.57439542684E-02	5.90632429351E-02	3.56061482439E-02	5.90692050494E-02	8.62155333326E-02	-5.24237789962E-02
1.76900000000E+09	2.47855720185E-02	-1.35335666378E-01	3.81575484607E-02	5.76513132616E-02	3.79657187605E-02	5.76453104453E-02	7.98621091032E-02	-5.33846952492E-02
1.77000000000E+09	2.29023708845E-02	-1.31016481233E-01	4.04804994512E-02	5.61396734013E-02	4.02182203896E-02	5.61008450252E-02	7.34258986453E-02	-5.39715284772E-02
1.77100000000E+09	2.16504743562E-02	-1.26594400044E-01	4.26510157028E-02	5.46280879039E-02	4.25543226836E-02	5.45245448731E-02	6.69189831364E-02	-5.40375996577E-02
1.77200000000E+09	2.10018966224E-02	-1.21751845283E-01	4.49450782783E-02	5.29210547861E-02	4.47695412171E-02	5.28760575954E-02	6.05851272136E-02	-5.36908786375E-02
1.77300000000E+09	2.08642829507E-02	-1.16890558153E-01	4.72292391824E-02	5.11270763559E-02	4.70093310029E-02	5.11058809099E-02	5.41696049954E-02	-5.29424668885E-02
1.77400000000E+09	2.14189121546E-02	-1.11848724707E-01	4.93350664254E-02	4.93010463954E-02	4.90960035350E-02	4.92562652527E-02	4.78117226663E-02	-5.18015087945E-02
1.77500000000E+09	2.25698741751E-02	-1.06857097444E-01	5.14380257347E-02	4.74100144117E-02	5.12012160558E-02	4.73328953154E-02	4.16767478389E-02	-5.01945357234E-02
1.77600000000E+09	2.43546697772E-02	-1.01984897557E-01	5.35235747572E-02	4.52985024458E-02	5.33015379547E-02	4.53406692206E-02	3.55285829877E-02	-4.82217904968E-02
1.77700000000E+09	2.66752627734E-02	-9.72531698777E-02	5.54901379702E-02	4.31664049982E-02	5.52263240780E-02	4.31950902096E-02	2.96031889137E-02	-4.57836048690E-02
1.77800000000E+09	2.96004174935E-02	-9.26391041854E-02	5.73673263398E-02	4.09075158110E-02	5.71766533024E-02	4.10035962456E-02	2.38477429270E-02	-4.31128132208E-02
1.77900000000E+09	3.31207648141E-02	-8.83830644048E-02	5.92336201710E-02	3.87126942736E-02	5.90868199829E-02	3.87098241656E-02	1.83427217947E-02	-3.99413533060E-02
1.78000000000E+09	3.70945365017E-02	-8.44146004092E-02	6.10048087379E-02	3.62653554429E-02	6.07889749063E-02	3.62946163310E-02	1.29717417672E-02	-3.63897220009E-02
1.78100000000E+09	4.15671045691E-02	-8.09086673829E-02	6.26768849389E-02	3.37253789364E-02	6.24388150775E-02	3.37524959716E-02	7.89360852585E-03	-3.27008533045E-02
1.78200000000E+09	4.64947182903E-02	-7.77943491646E-02	6.42407880091E-02	3.10432065274E-02	6.40265394006E-02	3.11462864347E-02	3.13656295270E-03	-2.85834542802E-02
1.78300000000E+09	5.16845274146E-02	-7.51477356526E-02	6.56542519691E-02	2.84167298242E-02	6.53966801631E-02	2.84102254881E-02	-1.44979348194E-03	-2.41644498743E-02
1.78400000000E+09	5.72874863081E-02	-7.31179060715E-02	6.70538783343E-02	2.55996287520E-02	6.68851318279E-02	2.56689266532E-02	-5.69804644100E-03	-1.95497661982E-02
1.78500000000E+09	6.31010206574E-02	-7.16179259844E-02	6.83389758902E-02	2.27090929733E-02	6.82089807845E-02	2.27972814225E-02	-9.57915104850E-03	-1.45866058578E-02
1.78600000000E+09	6.90382392595E-02	-7.06247992479E-02	6.94307578622E-02	1.97591293063E-02	6.92365616530E-02	1.98412734382E-02	-1.32278353389E-02	-9.50551340097E-03
1.78700000000E+09	7.50491495690E-02	-7.02611605847E-02	7.03394061124E-02	1.66589227862E-02	7.01855740685E-02	1.68350587595E-02	-1.64236882180E-02	-4.03615184211E-03
1.78800000000E+09	8.11734896338E-02	-7.04925163326E-02	7.12779288542E-02	1.36256972795E-02	7.11022578166E-02	1.36983608730E-02	-1.92438242852E-02	1.52855627091E-03
1.78900000000E+09	8.72609750996E-02	-7.12809290146E-02	7.19505391533E-02	1.04328868602E-02	7.17253213828E-02	1.05546912080E-02	-2.18694994014E-02	7.24379812486E-03
1.79000000000E+09	9.33128413765E-02	-7.27036950276E-02	7.24565142770E-02	7.16161690564E-03	7.23520967364E-02	7.33910258119E-03	-2.40856163396E-02	1.30637742418E-02
1.79100000000E+09	9.91130517118E-02	-7.45615140176E-02	7.28275350730E-02	4.04527021750E-03	7.26887891962E-02	4.11822170208E-03	-2.58271222089E-02	1.90583199353E-02
1.79200000000E+09	1.04798584769E-01	-7.69676351818E-02	7.30046059357E-02	6.39136735141E-04	7.29175132274E-02	8.93040289875E-04	-2.71860265142E-02	2.50206655487E-02
1.79300000000E+09	1.10261132701E-01	-7.98921890713E-02	7.31458753758E-02	-2.56518143818E-03	7.30036274226E-02	-2.51459044734E-03	-2.81428680309E-02	3.11423702552E-02
1.79400000000E+09	1.15449039308E-01	-8.32069034145E-02	7.30442288026E-02	-5.87675845171E-03	7.28984306302E-02	-5.73611815177E-03	-2.88411855185E-02	3.71998117399E-02
1.79500000000E+09	1.20280827276E-01	-8.70144178365E-02	7.26995643224E-02	-9.18839974950E-03	7.25759096368E-02	-9.01449099368E-03	-2.90001100040E-02	4.34284020241E-02
1.79600000000E+09	1.24748635998E-01	-9.11732761567E-02	7.22882171572E-02	-1.24336344512E-02	7.21044777668E-02	-1.22517090569E-02	-2.88208472126E-02	4.95957553946E-02
1.79700000000E+09	1.28862522279E-01	-9.56117890793E-02	7.16716589990E-02	-1.57068194179E-02	7.14935807235E-02	-1.55664385720E-02	-2.83173210937E-02	5.57082552205E-02
1.79800000000E+09	1.32525013632E-01	-1.00459948674E-01	7.08515991624E-02	-1.89667722973E-02	7.07488918901E-02	-1.88039294153E-02	-2.73143252053E-02	6.17816858159E-02
1.79900000000E+09	1.35821232876E-01	-1.05458479796E-01	6.98955041258E-02	-2.21049451029E-02	6.98098623024E-02	-2.19478022134E-02	-2.59775662452E-02	6.78207969510E-02
1.80000000000E+09	1.38639217025E-01	-1.10775252064E-01	6.88430550011E-02	-2.52269594428E-02	6.87013151262E-02	-2.50209814770E-02	-2.43106980623E-02	7.35925579599E-02
1.80100000000E+09	1.41037846500E-01	-1.16201443252E-01	6.75249828286E-02	-2.83489008051E-02	6.74542242099E-02	-2.81521660496E-02	-2.21946859883E-02	7.93814697672E-02
1.80200000000E+09	1.43011189915E-01	-1.21744956449E-01	6.61503744826E-02	-3.12906754316E-02	6.61205419268E-02	-3.10770860011E-02	-1.98388926399E-02	8.50642118580E-02
1.80300000000E+09	1.44467924320E-01	-1.27371821812E-01	6.45888097108E-02	-3.41980293602E-02	6.45556560990E-02	-3.39623844185E-02	-1.70681799335E-02	9.04698670747E-02
1.80400000000E+09	1.45486706865E-01	-1.33087001399E-01	6.29390248111E-02	-3.69707175137E-02	6.28723930275E-02	-3.67374883789E-02	-1.38631146767E-02	9.56601434382E-02
1.80500000000E+09	1.46119494538E-01	-1.38736266168E-01	6.11083702435E-02	-3.97090837674E-02	6.10435228008E-02	-3.95190206136E-02	-1.04945888373E-02	1.00607934557E-01
1.80600000000E+09	1.46347958860E-01	-1.44449900447E-01	5.92735292158E-02	-4.23633290977E-02	5.91256562039E-02	-4.20729055309E-02	-6.78296833609E-03	1.05401984175E-01
1.80700000000E+09	1.45994340400E-01	-1.49992931938E-01	5.71805631203E-02	-4.48329530747E-02	5.70735755200E-02	-4.45721378425E-02	-2.74947376849E-03	1.09868710367E-01
1.80800000000E+09	1.45340562405E-01	-1.55581785279E-01	5.50575645762E-02	-4.72115376118E-02	5.49454980166E-02	-4.69720332824E-02	1.63472106341E-03	1.14210371714E-01
1.80900000000E+09	1.44299166926E-01	-1.60897590404E-01	5.27458200609E-02	-4.93973461421E-02	5.27592433957E-02	-4.92932572307E-02	6.15400856954E-03	1.17979778216E-01
1.81000000000E+09	1.42766404061E-01	-1.66190762964E-01	5.04976688247E-02	-5.16972290831E-02	5.04302417878E-02	-5.13807467993E-02	1.08695708024E-02	1.21674147697E-01
1.81100000000E+09	1.40989576827E-01	-1.71319639889E-01	4.79993047105E-02	-5.36524823485E-02	4.80720889689E-02	-5.33911521485E-02	1.59189748787E-02	1.25000938767E-01
1.81200000000E+09	1.38754782296E-01	-1.76137702972E-01	4.55253736260E-02	-5.55319102440E-02	4.55127828894E-02	-5.53099657149E-02	2.11672695789E-02	1.27875466518E-01
1.81300000000E+09	1.36284896978E-01	-1.80843429425E-01	4.30158660805E-02	-5.73549282952E-02	4.30017457230E-02	-5.70806933656E-02	2.64953388059E-02	1.30460257639E-01
1.81400000000E+09	1.33524237895E-01	-1.85243321935E-01	4.03769717279E-02	-5.89935091645E-02	4.04242215040E-02	-5.87919433951E-02	3.18901190888E-02	1.32812544802E-01
1.81500000000E+09	1.30314924802E-01	-1.89438971410E-01	3.76669364839E-02	-6.05243921837E-02	3.77214204718E-02	-6.03305950963E-02	3.75521622633E-02	1.34712551581E-01
1.81600000000E+09	1.26990783908E-01	-1.93317260226E-01	3.49540997739E-02	-6.20060392588E-02	3.50704286185E-02	-6.16945357449E-02	4.32969816223E-02	1.36181991773E-01
1.81700000000E+09	1.23385381528E-01	-1.96952780589E-01	3.22596530763E-02	-6.32111221110E-02	3.23286541733E-02	-6.29272037958E-02	4.90029694929E-02	1.37401979616E-01
1.81800000000E+09	1.19453858523E-01	-2.00207437746E-01	2.95070261608E-02	-6.43246209344E-02	2.94985324499E-02	-6.40951549506E-02	5.49051478442E-02	1.38165117912E-01
