# Hz S RI R 50
! CMT, CMT808U, 21440046, 21.4.3/4
! Date: 12/1/2025 1:22:18 PM
! Data: Format (Calibration Info)
! Freq	S11:Re/Im(F2)
1.70000000000E+09	8.63001949472E-01	-3.97980794976E-01
1.70050000000E+09	8.62322838570E-01	-3.99285053985E-01
1.70100000000E+09	8.61614407353E-01	-4.00549206707E-01
1.70150000000E+09	8.61043103799E-01	-4.01814413196E-01
1.70200000000E+09	8.60341510243E-01	-4.03075522833E-01
1.70250000000E+09	8.59675246750E-01	-4.04426012299E-01
1.70300000000E+09	8.59063665746E-01	-4.05692972288E-01
1.70350000000E+09	8.58399665282E-01	-4.06966519011E-01
1.70400000000E+09	8.57764135937E-01	-4.08248956737E-01
1.70450000000E+09	8.57090795630E-01	-4.09626257234E-01
1.70500000000E+09	8.56407940706E-01	-4.10857459164E-01
1.70550000000E+09	8.55782462230E-01	-4.12134743577E-01
1.70600000000E+09	8.55200558980E-01	-4.13408316510E-01
1.70650000000E+09	8.54467135911E-01	-4.14682697895E-01
1.70700000000E+09	8.53842361620E-01	-4.15931976721E-01
1.70750000000E+09	8.53125483725E-01	-4.17307205674E-01
1.70800000000E+09	8.52400862824E-01	-4.18495843432E-01
1.70850000000E+09	8.51788845933E-01	-4.19894343094E-01
1.70900000000E+09	8.51146712250E-01	-4.21094712754E-01
1.70950000000E+09	8.50451484262E-01	-4.22440282935E-01
1.71000000000E+09	8.49703235001E-01	-4.23694828593E-01
1.71050000000E+09	8.49107318999E-01	-4.24981732573E-01
1.71100000000E+09	8.48376547891E-01	-4.26289931365E-01
1.71150000000E+09	8.47673766715E-01	-4.27557277371E-01
1.71200000000E+09	8.47005114899E-01	-4.28867749456E-01
1.71250000000E+09	8.46316773398E-01	-4.30221248199E-01
1.71300000000E+09	8.45626235019E-01	-4.31458787109E-01
1.71350000000E+09	8.44931728399E-01	-4.32714644130E-01
1.71400000000E+09	8.44240953344E-01	-4.34118139321E-01
1.71450000000E+09	8.43568912827E-01	-4.35388495094E-01
1.71500000000E+09	8.42880195833E-01	-4.36714068759E-01
1.71550000000E+09	8.42180786964E-01	-4.38006571033E-01
1.71600000000E+09	8.41315725391E-01	-4.39276593198E-01
1.71650000000E+09	8.40629678599E-01	-4.40561697885E-01
1.71700000000E+09	8.39949308026E-01	-4.41970557484E-01
1.71750000000E+09	8.39244861111E-01	-4.43242571464E-01
1.71800000000E+09	8.38530110725E-01	-4.44496438421E-01
1.71850000000E+09	8.37747153802E-01	-4.45756635662E-01
1.71900000000E+09	8.37108080074E-01	-4.47109887535E-01
1.71950000000E+09	8.36346455721E-01	-4.48387297828E-01
1.72000000000E+09	8.35601963688E-01	-4.49752239710E-01
1.72050000000E+09	8.34850858019E-01	-4.51074567178E-01
1.72100000000E+09	8.34116671860E-01	-4.52386934283E-01
1.72150000000E+09	8.33370490649E-01	-4.53681380924E-01
1.72200000000E+09	8.32655818646E-01	-4.54974540935E-01
1.72250000000E+09	8.31922666169E-01	-4.56300555375E-01
1.72300000000E+09	8.31135131862E-01	-4.57606208477E-01
1.72350000000E+09	8.30440150228E-01	-4.58979136277E-01
1.72400000000E+09	8.29671244149E-01	-4.60311135330E-01
1.72450000000E+09	8.28950195569E-01	-4.61644441541E-01
1.72500000000E+09	8.28110374864E-01	-4.62996910332E-01
1.72550000000E+09	8.27312350574E-01	-4.64358169005E-01
1.72600000000E+09	8.26501024324E-01	-4.65722536460E-01
1.72650000000E+09	8.25766842668E-01	-4.67076041914E-01
1.72700000000E+09	8.24997413994E-01	-4.68375471454E-01
1.72750000000E+09	8.24111885817E-01	-4.69742543718E-01
1.72800000000E+09	8.23324081456E-01	-4.71076665873E-01
1.72850000000E+09	8.22528203481E-01	-4.72415509445E-01
1.72900000000E+09	8.21759531612E-01	-4.73818588022E-01
1.72950000000E+09	8.20914284354E-01	-4.75067079752E-01
1.73000000000E+09	8.20068228869E-01	-4.76568115400E-01
1.73050000000E+09	8.19270303496E-01	-4.77804967957E-01
1.73100000000E+09	8.18390615342E-01	-4.79142822968E-01
1.73150000000E+09	8.17610802551E-01	-4.80524189429E-01
1.73200000000E+09	8.16684096257E-01	-4.81887916849E-01
1.73250000000E+09	8.15859577257E-01	-4.83214454110E-01
1.73300000000E+09	8.14968741375E-01	-4.84623113906E-01
1.73350000000E+09	8.14145607622E-01	-4.85930434689E-01
1.73400000000E+09	8.13316609245E-01	-4.87332367006E-01
1.73450000000E+09	8.12429022311E-01	-4.88646866360E-01
1.73500000000E+09	8.11530852035E-01	-4.89969572602E-01
1.73550000000E+09	8.10729313890E-01	-4.91288896500E-01
1.73600000000E+09	8.09774581598E-01	-4.92709077904E-01
1.73650000000E+09	8.08818180482E-01	-4.94038166825E-01
1.73700000000E+09	8.08023150746E-01	-4.95354434198E-01
1.73750000000E+09	8.07092161244E-01	-4.96827884526E-01
1.73800000000E+09	8.06185544550E-01	-4.98092229749E-01
1.73850000000E+09	8.05270256084E-01	-4.99433875364E-01
1.73900000000E+09	8.04416817403E-01	-5.00830436046E-01
1.73950000000E+09	8.03532033582E-01	-5.02108686676E-01
1.74000000000E+09	8.02650609121E-01	-5.03550471700E-01
1.74050000000E+09	8.01677091404E-01	-5.04855765028E-01
1.74100000000E+09	8.00779426189E-01	-5.06311138060E-01
1.74150000000E+09	7.99824773263E-01	-5.07671492954E-01
1.74200000000E+09	7.98945101046E-01	-5.09093099523E-01
1.74250000000E+09	7.97976268325E-01	-5.10347246562E-01
1.74300000000E+09	7.97059189924E-01	-5.11781564691E-01
1.74350000000E+09	7.96070295717E-01	-5.13188593642E-01
1.74400000000E+09	7.95121616144E-01	-5.14540457811E-01
1.74450000000E+09	7.94181166063E-01	-5.15939834922E-01
1.74500000000E+09	7.93232757820E-01	-5.17247448637E-01
1.74550000000E+09	7.92254212441E-01	-5.18721255433E-01
1.74600000000E+09	7.91288089713E-01	-5.20031165561E-01
1.74650000000E+09	7.90302833213E-01	-5.21464111720E-01
1.74700000000E+09	7.89258255291E-01	-5.22810382337E-01
1.74750000000E+09	7.88231316721E-01	-5.24227583079E-01
1.74800000000E+09	7.87311290337E-01	-5.25551672808E-01
1.74850000000E+09	7.86305008856E-01	-5.26983347827E-01
1.74900000000E+09	7.85195454057E-01	-5.28372851241E-01
1.74950000000E+09	7.84291733254E-01	-5.29736180611E-01
1.75000000000E+09	7.83221511247E-01	-5.31153219625E-01
1.75050000000E+09	7.82202988651E-01	-5.32516592130E-01
1.75100000000E+09	7.81148069108E-01	-5.33894380712E-01
1.75150000000E+09	7.80168431049E-01	-5.35253058792E-01
1.75200000000E+09	7.79145916189E-01	-5.36687297076E-01
1.75250000000E+09	7.78085242342E-01	-5.38087635340E-01
1.75300000000E+09	7.77026695315E-01	-5.39450377261E-01
1.75350000000E+09	7.75974188749E-01	-5.40775767817E-01
1.75400000000E+09	7.74833722391E-01	-5.42202962862E-01
1.75450000000E+09	7.73790494994E-01	-5.43572935289E-01
1.75500000000E+09	7.72698484406E-01	-5.44945562354E-01
1.75550000000E+09	7.71632907447E-01	-5.46295543485E-01
1.75600000000E+09	7.70603151916E-01	-5.47722709578E-01
1.75650000000E+09	7.69426560217E-01	-5.49067379997E-01
1.75700000000E+09	7.68380642888E-01	-5.50438961482E-01
1.75750000000E+09	7.67264009761E-01	-5.51820663964E-01
1.75800000000E+09	7.66175939790E-01	-5.53202534046E-01
1.75850000000E+09	7.65113919749E-01	-5.54561296033E-01
1.75900000000E+09	7.63917595074E-01	-5.55979380801E-01
1.75950000000E+09	7.62811758831E-01	-5.57414414499E-01
1.76000000000E+09	7.61774250504E-01	-5.58750008557E-01
1.76050000000E+09	7.60569018012E-01	-5.60093929216E-01
1.76100000000E+09	7.59440259878E-01	-5.61486196424E-01
1.76150000000E+09	7.58266098880E-01	-5.62890694921E-01
1.76200000000E+09	7.57139682392E-01	-5.64251694401E-01
1.76250000000E+09	7.55923049809E-01	-5.65642027765E-01
1.76300000000E+09	7.54777080914E-01	-5.66965009345E-01
1.76350000000E+09	7.53596206331E-01	-5.68337703253E-01
1.76400000000E+09	7.52461825064E-01	-5.69701575287E-01
1.76450000000E+09	7.51208839077E-01	-5.71059223248E-01
1.76500000000E+09	7.50096188531E-01	-5.72409598751E-01
1.76550000000E+09	7.48877980603E-01	-5.73753145290E-01
1.76600000000E+09	7.47636923606E-01	-5.75175613556E-01
1.76650000000E+09	7.46444666774E-01	-5.76446984452E-01
1.76700000000E+09	7.45283562393E-01	-5.77794668434E-01
1.76750000000E+09	7.44052872182E-01	-5.79150089582E-01
1.76800000000E+09	7.42789831603E-01	-5.80471779603E-01
1.76850000000E+09	7.41568990168E-01	-5.81745691414E-01
1.76900000000E+09	7.40338235606E-01	-5.83120151670E-01
1.76950000000E+09	7.39035850943E-01	-5.84469247039E-01
1.77000000000E+09	7.37941058183E-01	-5.85815479886E-01
1.77050000000E+09	7.36661098032E-01	-5.87062696285E-01
1.77100000000E+09	7.35441068638E-01	-5.88364844871E-01
1.77150000000E+09	7.34154421969E-01	-5.89728078201E-01
1.77200000000E+09	7.32892050711E-01	-5.91024218298E-01
1.77250000000E+09	7.31709743042E-01	-5.92365479664E-01
1.77300000000E+09	7.30513050483E-01	-5.93568786492E-01
1.77350000000E+09	7.29189313666E-01	-5.94857194140E-01
1.77400000000E+09	7.27897609583E-01	-5.96165769998E-01
1.77450000000E+09	7.26648503831E-01	-5.97519553524E-01
1.77500000000E+09	7.25419146129E-01	-5.98750822143E-01
1.77550000000E+09	7.24120937139E-01	-6.00058802454E-01
1.77600000000E+09	7.22904977392E-01	-6.01249988366E-01
1.77650000000E+09	7.21711646864E-01	-6.02594529273E-01
1.77700000000E+09	7.20274188073E-01	-6.03769440129E-01
1.77750000000E+09	7.19108532690E-01	-6.05095568826E-01
1.77800000000E+09	7.17818961868E-01	-6.06352921616E-01
1.77850000000E+09	7.16572370677E-01	-6.07660841587E-01
1.77900000000E+09	7.15291858925E-01	-6.08914950114E-01
1.77950000000E+09	7.13981121822E-01	-6.10202998091E-01
1.78000000000E+09	7.12717354788E-01	-6.11417702539E-01
1.78050000000E+09	7.11464953118E-01	-6.12622129902E-01
1.78100000000E+09	7.10149691485E-01	-6.13949970208E-01
1.78150000000E+09	7.08969090575E-01	-6.15164726021E-01
1.78200000000E+09	7.07587124535E-01	-6.16413717245E-01
1.78250000000E+09	7.06258104387E-01	-6.17583751433E-01
1.78300000000E+09	7.05039746422E-01	-6.18848017212E-01
1.78350000000E+09	7.03753312352E-01	-6.20143209672E-01
1.78400000000E+09	7.02417685478E-01	-6.21413187692E-01
1.78450000000E+09	7.01182047203E-01	-6.22554316835E-01
1.78500000000E+09	6.99748151629E-01	-6.23910771788E-01
1.78550000000E+09	6.98539101941E-01	-6.25022169748E-01
1.78600000000E+09	6.97221295603E-01	-6.26322732513E-01
1.78650000000E+09	6.95967728581E-01	-6.27489643033E-01
1.78700000000E+09	6.94606680049E-01	-6.28721999905E-01
1.78750000000E+09	6.93333005067E-01	-6.29959566573E-01
1.78800000000E+09	6.91950026329E-01	-6.31170193047E-01
1.78850000000E+09	6.90705706829E-01	-6.32393359260E-01
1.78900000000E+09	6.89319809375E-01	-6.33527604558E-01
1.78950000000E+09	6.88068546181E-01	-6.34748951654E-01
1.79000000000E+09	6.86707235634E-01	-6.35988518794E-01
1.79050000000E+09	6.85496576253E-01	-6.37121623106E-01
1.79100000000E+09	6.84185221087E-01	-6.38312896667E-01
1.79150000000E+09	6.82842259574E-01	-6.39504434402E-01
1.79200000000E+09	6.81437834510E-01	-6.40740186311E-01
1.79250000000E+09	6.80180464903E-01	-6.41869937247E-01
1.79300000000E+09	6.78834437710E-01	-6.43114271138E-01
1.79350000000E+09	6.77583111382E-01	-6.44296574505E-01
1.79400000000E+09	6.76228006664E-01	-6.45431111674E-01
1.79450000000E+09	6.74872808006E-01	-6.46572454648E-01
1.79500000000E+09	6.73673039024E-01	-6.47867510356E-01
1.79550000000E+09	6.72199018404E-01	-6.49000504248E-01
1.79600000000E+09	6.70945686810E-01	-6.50192612283E-01
1.79650000000E+09	6.69595873059E-01	-6.51346277641E-01
1.79700000000E+09	6.68238971065E-01	-6.52585493981E-01
1.79750000000E+09	6.66892633595E-01	-6.53692118637E-01
1.79800000000E+09	6.65540319325E-01	-6.54821489905E-01
1.79850000000E+09	6.64219021370E-01	-6.55985013473E-01
1.79900000000E+09	6.62899314105E-01	-6.57155668675E-01
1.79950000000E+09	6.61469318319E-01	-6.58260620629E-01
1.80000000000E+09	6.60230875374E-01	-6.59440916311E-01
1.80050000000E+09	6.58783865440E-01	-6.60559286543E-01
1.80100000000E+09	6.57509361639E-01	-6.61715815618E-01
1.80150000000E+09	6.56091155622E-01	-6.62859015235E-01
1.80200000000E+09	6.54809450948E-01	-6.63969722100E-01
1.80250000000E+09	6.53449942434E-01	-6.65125034202E-01
1.80300000000E+09	6.52107336432E-01	-6.66271537827E-01
1.80350000000E+09	6.50709133717E-01	-6.67381748095E-01
1.80400000000E+09	6.49333259749E-01	-6.68490073172E-01
1.80450000000E+09	6.48029872380E-01	-6.69586658795E-01
1.80500000000E+09	6.46658557886E-01	-6.70750562794E-01
1.80550000000E+09	6.45231426888E-01	-6.71843276947E-01
1.80600000000E+09	6.43932143395E-01	-6.72979711553E-01
1.80650000000E+09	6.42539648633E-01	-6.74109470626E-01
1.80700000000E+09	6.41112944487E-01	-6.75207708588E-01
1.80750000000E+09	6.39778356318E-01	-6.76293133672E-01
1.80800000000E+09	6.38325354908E-01	-6.77385161337E-01
1.80850000000E+09	6.36997504104E-01	-6.78492837096E-01
1.80900000000E+09	6.35672563844E-01	-6.79539486168E-01
1.80950000000E+09	6.34243728084E-01	-6.80687128059E-01
1.81000000000E+09	6.32875959491E-01	-6.81723790824E-01
1.81050000000E+09	6.31574065818E-01	-6.82827149247E-01
1.81100000000E+09	6.30097935539E-01	-6.83838819441E-01
1.81150000000E+09	6.28788169487E-01	-6.84914664882E-01
1.81200000000E+09	6.27473079484E-01	-6.86001168515E-01
1.81250000000E+09	6.26066355968E-01	-6.87090599257E-01
1.81300000000E+09	6.24676882109E-01	-6.88164225619E-01
1.81350000000E+09	6.23316427094E-01	-6.89208042827E-01
1.81400000000E+09	6.21911234216E-01	-6.90289275176E-01
1.81450000000E+09	6.20561960945E-01	-6.91329900724E-01
1.81500000000E+09	6.19156762077E-01	-6.92401066807E-01
1.81550000000E+09	6.17760534623E-01	-6.93465284327E-01
1.81600000000E+09	6.16370257729E-01	-6.94539935883E-01
1.81650000000E+09	6.14921556894E-01	-6.95539618981E-01
1.81700000000E+09	6.13558631288E-01	-6.96572088650E-01
1.81750000000E+09	6.12142907900E-01	-6.97598119442E-01
1.81800000000E+09	6.10824299671E-01	-6.98691139479E-01
1.81850000000E+09	6.09333137156E-01	-6.99678525020E-01
1.81900000000E+09	6.07927939116E-01	-7.00733565122E-01
1.81950000000E+09	6.06566635352E-01	-7.01725583663E-01
1.82000000000E+09	6.05194703666E-01	-7.02821849756E-01
1.82050000000E+09	6.03702496492E-01	-7.03787394643E-01
1.82100000000E+09	6.02352414476E-01	-7.04807892944E-01
1.82150000000E+09	6.00938218086E-01	-7.05787636608E-01
1.82200000000E+09	5.99522282445E-01	-7.06723904669E-01
1.82250000000E+09	5.98167096204E-01	-7.07743772923E-01
1.82300000000E+09	5.96781053214E-01	-7.08758409027E-01
1.82350000000E+09	5.95328582629E-01	-7.09694738528E-01
1.82400000000E+09	5.93988529121E-01	-7.10687242972E-01
1.82450000000E+09	5.92552295730E-01	-7.11656150353E-01
1.82500000000E+09	5.91200222842E-01	-7.12658431750E-01
1.82550000000E+09	5.89801757718E-01	-7.13604694884E-01
1.82600000000E+09	5.88370279542E-01	-7.14600518368E-01
1.82650000000E+09	5.87037269852E-01	-7.15580826207E-01
1.82700000000E+09	5.85634127160E-01	-7.16552764824E-01
1.82750000000E+09	5.84286379060E-01	-7.17526879685E-01
1.82800000000E+09	5.82797596344E-01	-7.18504338298E-01
1.82850000000E+09	5.81470643754E-01	-7.19503927234E-01
1.82900000000E+09	5.80043663848E-01	-7.20487796961E-01
1.82950000000E+09	5.78644781974E-01	-7.21505970081E-01
1.83000000000E+09	5.77257545645E-01	-7.22435516643E-01
1.83050000000E+09	5.75854282111E-01	-7.23381294419E-01
1.83100000000E+09	5.74441447536E-01	-7.24353067106E-01
1.83150000000E+09	5.73010663249E-01	-7.25368419145E-01
1.83200000000E+09	5.71618222425E-01	-7.26276797445E-01
1.83250000000E+09	5.70159724875E-01	-7.27238703139E-01
1.83300000000E+09	5.68724605402E-01	-7.28230399267E-01
1.83350000000E+09	5.67360986533E-01	-7.29165004065E-01
1.83400000000E+09	5.65881314205E-01	-7.30161221787E-01
1.83450000000E+09	5.64450617439E-01	-7.31109382485E-01
1.83500000000E+09	5.63037443451E-01	-7.32033642993E-01
1.83550000000E+09	5.61599088173E-01	-7.33014113606E-01
1.83600000000E+09	5.60145253287E-01	-7.33894809395E-01
1.83650000000E+09	5.58737428886E-01	-7.34846364957E-01
1.83700000000E+09	5.57270279460E-01	-7.35850091152E-01
1.83750000000E+09	5.55888998378E-01	-7.36747683341E-01
1.83800000000E+09	5.54444163554E-01	-7.37663301892E-01
1.83850000000E+09	5.52955428487E-01	-7.38623738679E-01
1.83900000000E+09	5.51588764976E-01	-7.39508305503E-01
1.83950000000E+09	5.50097674512E-01	-7.40493559307E-01
1.84000000000E+09	5.48696691431E-01	-7.41368541148E-01
1.84050000000E+09	5.47278275083E-01	-7.42347295883E-01
1.84100000000E+09	5.45763344953E-01	-7.43284196663E-01
1.84150000000E+09	5.44304141622E-01	-7.44242806289E-01
1.84200000000E+09	5.42867509477E-01	-7.45217090368E-01
1.84250000000E+09	5.41458815689E-01	-7.46097577959E-01
1.84300000000E+09	5.40028550059E-01	-7.47046059580E-01
1.84350000000E+09	5.38422224183E-01	-7.47957906967E-01
1.84400000000E+09	5.36982932133E-01	-7.48959247185E-01
1.84450000000E+09	5.35480102531E-01	-7.49873188080E-01
1.84500000000E+09	5.34006532841E-01	-7.50748234819E-01
1.84550000000E+09	5.32551341319E-01	-7.51734588589E-01
1.84600000000E+09	5.31040959432E-01	-7.52632434585E-01
1.84650000000E+09	5.29564120119E-01	-7.53538743201E-01
1.84700000000E+09	5.28014156165E-01	-7.54499068209E-01
1.84750000000E+09	5.26488282983E-01	-7.55369580759E-01
1.84800000000E+09	5.24972465553E-01	-7.56299014811E-01
1.84850000000E+09	5.23459817313E-01	-7.57178492935E-01
1.84900000000E+09	5.21973259705E-01	-7.58056677229E-01
1.84950000000E+09	5.20438537411E-01	-7.59054119436E-01
1.85000000000E+09	5.18891031852E-01	-7.59854527783E-01
1.85050000000E+09	5.17329266011E-01	-7.60803358159E-01
1.85100000000E+09	5.15775440549E-01	-7.61699329094E-01
1.85150000000E+09	5.14236180775E-01	-7.62634450678E-01
1.85200000000E+09	5.12706117703E-01	-7.63494596475E-01
1.85250000000E+09	5.11204365162E-01	-7.64356843285E-01
1.85300000000E+09	5.09562001343E-01	-7.65259957417E-01
1.85350000000E+09	5.08044351129E-01	-7.66216630384E-01
1.85400000000E+09	5.06412540787E-01	-7.66950589768E-01
1.85450000000E+09	5.04852702023E-01	-7.67899576496E-01
1.85500000000E+09	5.03276714342E-01	-7.68722787211E-01
1.85550000000E+09	5.01722744616E-01	-7.69620072315E-01
1.85600000000E+09	5.00137842765E-01	-7.70588447670E-01
1.85650000000E+09	4.98521663878E-01	-7.71490786117E-01
1.85700000000E+09	4.96888618140E-01	-7.72340226148E-01
1.85750000000E+09	4.95323068905E-01	-7.73088129881E-01
1.85800000000E+09	4.93695521928E-01	-7.73928241841E-01
1.85850000000E+09	4.92076768062E-01	-7.74893452874E-01
1.85900000000E+09	4.90417610464E-01	-7.75651012668E-01
1.85950000000E+09	4.88720555815E-01	-7.76526794743E-01
1.86000000000E+09	4.87149091477E-01	-7.77492541696E-01
1.86050000000E+09	4.85485632332E-01	-7.78236519176E-01
1.86100000000E+09	4.83861506340E-01	-7.79079158414E-01
1.86150000000E+09	4.82281762939E-01	-7.79890219501E-01
1.86200000000E+09	4.80552877256E-01	-7.80773980175E-01
1.86250000000E+09	4.78883757348E-01	-7.81528935893E-01
1.86300000000E+09	4.77184303620E-01	-7.82316389506E-01
1.86350000000E+09	4.75731215399E-01	-7.83237788895E-01
1.86400000000E+09	4.73937283938E-01	-7.83947860359E-01
1.86450000000E+09	4.72383659296E-01	-7.84699972951E-01
1.86500000000E+09	4.70747523551E-01	-7.85591335409E-01
1.86550000000E+09	4.69071117147E-01	-7.86415845617E-01
1.86600000000E+09	4.67351333363E-01	-7.87172525915E-01
1.86650000000E+09	4.65665842667E-01	-7.88002117171E-01
1.86700000000E+09	4.64116583844E-01	-7.88952889842E-01
1.86750000000E+09	4.62445992246E-01	-7.89618906472E-01
1.86800000000E+09	4.60664828315E-01	-7.90538007777E-01
1.86850000000E+09	4.59059476636E-01	-7.91379383812E-01
1.86900000000E+09	4.57338477081E-01	-7.92308050347E-01
1.86950000000E+09	4.55585527740E-01	-7.93150272821E-01
1.87000000000E+09	4.53950415620E-01	-7.93964588035E-01
1.87050000000E+09	4.52130786405E-01	-7.94807549433E-01
1.87100000000E+09	4.50350828537E-01	-7.95657070703E-01
1.87150000000E+09	4.48618204304E-01	-7.96482710390E-01
1.87200000000E+09	4.46893609317E-01	-7.97353224857E-01
1.87250000000E+09	4.45068699435E-01	-7.98289558967E-01
1.87300000000E+09	4.43241879893E-01	-7.99064973233E-01
1.87350000000E+09	4.41385627349E-01	-7.99834076084E-01
1.87400000000E+09	4.39600686387E-01	-8.00673359264E-01
1.87450000000E+09	4.37695497371E-01	-8.01503399522E-01
1.87500000000E+09	4.35859195596E-01	-8.02305563168E-01
1.87550000000E+09	4.33948385938E-01	-8.03149122397E-01
1.87600000000E+09	4.32079608169E-01	-8.03829301789E-01
1.87650000000E+09	4.30323151175E-01	-8.04674707570E-01
