# Hz S RI R 50
! CMT, CMT808U, 21440046, 21.4.3/4
! Date: 12/1/2025 1:29:51 PM
! Data: Format (Calibration Info)
! Freq	S11:Re/Im(F2)
1.70000000000E+09	9.40433648218E-01	-1.84253471826E-01
1.70050000000E+09	9.40129308302E-01	-1.85582496509E-01
1.70100000000E+09	9.39863167336E-01	-1.86899689915E-01
1.70150000000E+09	9.39535872900E-01	-1.88243723876E-01
1.70200000000E+09	9.39241600602E-01	-1.89458905081E-01
1.70250000000E+09	9.38923851323E-01	-1.90867174592E-01
1.70300000000E+09	9.38626681957E-01	-1.92121203805E-01
1.70350000000E+09	9.38314918390E-01	-1.93406506164E-01
1.70400000000E+09	9.38038257282E-01	-1.94732166580E-01
1.70450000000E+09	9.37789938104E-01	-1.96050317131E-01
1.70500000000E+09	9.37474806080E-01	-1.97409767096E-01
1.70550000000E+09	9.37155169776E-01	-1.98720751242E-01
1.70600000000E+09	9.36873305504E-01	-1.99971639551E-01
1.70650000000E+09	9.36547882082E-01	-2.01277867426E-01
1.70700000000E+09	9.36247711453E-01	-2.02550697410E-01
1.70750000000E+09	9.35921732388E-01	-2.03900440580E-01
1.70800000000E+09	9.35603710980E-01	-2.05215294763E-01
1.70850000000E+09	9.35343867372E-01	-2.06495524289E-01
1.70900000000E+09	9.34974483375E-01	-2.07842414356E-01
1.70950000000E+09	9.34728873313E-01	-2.09165883766E-01
1.71000000000E+09	9.34388855051E-01	-2.10461814675E-01
1.71050000000E+09	9.34131913816E-01	-2.11856378623E-01
1.71100000000E+09	9.33768074807E-01	-2.13148527685E-01
1.71150000000E+09	9.33512120607E-01	-2.14385014706E-01
1.71200000000E+09	9.33196932284E-01	-2.15841286378E-01
1.71250000000E+09	9.32895876709E-01	-2.17098757966E-01
1.71300000000E+09	9.32590321458E-01	-2.18415027300E-01
1.71350000000E+09	9.32246051878E-01	-2.19710142745E-01
1.71400000000E+09	9.31984885031E-01	-2.21100640600E-01
1.71450000000E+09	9.31682759378E-01	-2.22414601109E-01
1.71500000000E+09	9.31313238920E-01	-2.23772768696E-01
1.71550000000E+09	9.31112738549E-01	-2.25175780413E-01
1.71600000000E+09	9.30649157258E-01	-2.26462289365E-01
1.71650000000E+09	9.30347448731E-01	-2.27821475733E-01
1.71700000000E+09	9.30087384380E-01	-2.29131101978E-01
1.71750000000E+09	9.29766947580E-01	-2.30530752746E-01
1.71800000000E+09	9.29480965864E-01	-2.31834134549E-01
1.71850000000E+09	9.29088587782E-01	-2.33215584994E-01
1.71900000000E+09	9.28743608014E-01	-2.34544048765E-01
1.71950000000E+09	9.28346676993E-01	-2.35881000812E-01
1.72000000000E+09	9.28083730097E-01	-2.37324574260E-01
1.72050000000E+09	9.27728324991E-01	-2.38686424841E-01
1.72100000000E+09	9.27364719650E-01	-2.40035971776E-01
1.72150000000E+09	9.27049337580E-01	-2.41447003002E-01
1.72200000000E+09	9.26668531031E-01	-2.42848813299E-01
1.72250000000E+09	9.26432648534E-01	-2.44197555636E-01
1.72300000000E+09	9.25935183977E-01	-2.45563254570E-01
1.72350000000E+09	9.25634657947E-01	-2.47027777642E-01
1.72400000000E+09	9.25244905274E-01	-2.48433438656E-01
1.72450000000E+09	9.24901490706E-01	-2.49777324415E-01
1.72500000000E+09	9.24488517642E-01	-2.51242183928E-01
1.72550000000E+09	9.24089667585E-01	-2.52596746969E-01
1.72600000000E+09	9.23750505308E-01	-2.54024566577E-01
1.72650000000E+09	9.23365956226E-01	-2.55423407047E-01
1.72700000000E+09	9.23004903378E-01	-2.56800610278E-01
1.72750000000E+09	9.22507509590E-01	-2.58263101204E-01
1.72800000000E+09	9.22152410060E-01	-2.59622636583E-01
1.72850000000E+09	9.21691206732E-01	-2.61034361985E-01
1.72900000000E+09	9.21441002310E-01	-2.62441334219E-01
1.72950000000E+09	9.20938853972E-01	-2.63825673410E-01
1.73000000000E+09	9.20536172094E-01	-2.65283842227E-01
1.73050000000E+09	9.20152369323E-01	-2.66676676429E-01
1.73100000000E+09	9.19633087165E-01	-2.68082668330E-01
1.73150000000E+09	9.19293844102E-01	-2.69498984476E-01
1.73200000000E+09	9.18802632016E-01	-2.70936111071E-01
1.73250000000E+09	9.18374597557E-01	-2.72303333632E-01
1.73300000000E+09	9.17948207197E-01	-2.73756321007E-01
1.73350000000E+09	9.17503128201E-01	-2.75175494297E-01
1.73400000000E+09	9.17075445328E-01	-2.76664092979E-01
1.73450000000E+09	9.16652023887E-01	-2.78021485451E-01
1.73500000000E+09	9.16189250191E-01	-2.79458214609E-01
1.73550000000E+09	9.15756042414E-01	-2.80837874644E-01
1.73600000000E+09	9.15178781565E-01	-2.82364166489E-01
1.73650000000E+09	9.14775090894E-01	-2.83787622710E-01
1.73700000000E+09	9.14233423632E-01	-2.85152247050E-01
1.73750000000E+09	9.13894150612E-01	-2.86659639726E-01
1.73800000000E+09	9.13311353643E-01	-2.88090518210E-01
1.73850000000E+09	9.12843367134E-01	-2.89501216606E-01
1.73900000000E+09	9.12423650052E-01	-2.90965541677E-01
1.73950000000E+09	9.11887024870E-01	-2.92374914137E-01
1.74000000000E+09	9.11381819751E-01	-2.93870425898E-01
1.74050000000E+09	9.10839908601E-01	-2.95277533491E-01
1.74100000000E+09	9.10400040914E-01	-2.96841396786E-01
1.74150000000E+09	9.09811346701E-01	-2.98186734468E-01
1.74200000000E+09	9.09394716659E-01	-2.99639599797E-01
1.74250000000E+09	9.08775800630E-01	-3.01088488005E-01
1.74300000000E+09	9.08300912928E-01	-3.02498788800E-01
1.74350000000E+09	9.07770091351E-01	-3.04048101000E-01
1.74400000000E+09	9.07263216618E-01	-3.05470339916E-01
1.74450000000E+09	9.06806302131E-01	-3.06949826720E-01
1.74500000000E+09	9.06245645811E-01	-3.08347116304E-01
1.74550000000E+09	9.05635821278E-01	-3.09801572135E-01
1.74600000000E+09	9.05150080061E-01	-3.11219173846E-01
1.74650000000E+09	9.04557697800E-01	-3.12715040816E-01
1.74700000000E+09	9.04022075828E-01	-3.14208415802E-01
1.74750000000E+09	9.03515273732E-01	-3.15676911577E-01
1.74800000000E+09	9.02966867455E-01	-3.17121077499E-01
1.74850000000E+09	9.02437368692E-01	-3.18632724326E-01
1.74900000000E+09	9.01774923993E-01	-3.20114897040E-01
1.74950000000E+09	9.01322350087E-01	-3.21587217980E-01
1.75000000000E+09	9.00688353910E-01	-3.23105469624E-01
1.75050000000E+09	9.00150765904E-01	-3.24564112120E-01
1.75100000000E+09	8.99557826747E-01	-3.26042445751E-01
1.75150000000E+09	8.98937476266E-01	-3.27487809637E-01
1.75200000000E+09	8.98389801666E-01	-3.29008308326E-01
1.75250000000E+09	8.97759210850E-01	-3.30496680277E-01
1.75300000000E+09	8.97176532666E-01	-3.32011350127E-01
1.75350000000E+09	8.96589350396E-01	-3.33387593160E-01
1.75400000000E+09	8.95966341703E-01	-3.35016474352E-01
1.75450000000E+09	8.95350693648E-01	-3.36507094201E-01
1.75500000000E+09	8.94649018932E-01	-3.38083978185E-01
1.75550000000E+09	8.94020991106E-01	-3.39460160629E-01
1.75600000000E+09	8.93450916224E-01	-3.41028902837E-01
1.75650000000E+09	8.92724633256E-01	-3.42535774638E-01
1.75700000000E+09	8.92065790199E-01	-3.44017034609E-01
1.75750000000E+09	8.91408772043E-01	-3.45501115287E-01
1.75800000000E+09	8.90850389977E-01	-3.47020424848E-01
1.75850000000E+09	8.90142878611E-01	-3.48546586625E-01
1.75900000000E+09	8.89397365075E-01	-3.50043903856E-01
1.75950000000E+09	8.88728817811E-01	-3.51570863132E-01
1.76000000000E+09	8.88131906635E-01	-3.53040011239E-01
1.76050000000E+09	8.87309356128E-01	-3.54532199889E-01
1.76100000000E+09	8.86662239659E-01	-3.56046865376E-01
1.76150000000E+09	8.85962896694E-01	-3.57559887369E-01
1.76200000000E+09	8.85230235971E-01	-3.59018377894E-01
1.76250000000E+09	8.84508464831E-01	-3.60612778230E-01
1.76300000000E+09	8.83790997900E-01	-3.62025377215E-01
1.76350000000E+09	8.82990029577E-01	-3.63589570275E-01
1.76400000000E+09	8.82289376329E-01	-3.65017060899E-01
1.76450000000E+09	8.81530457317E-01	-3.66509849343E-01
1.76500000000E+09	8.80866790707E-01	-3.67976404586E-01
1.76550000000E+09	8.80036446290E-01	-3.69462399833E-01
1.76600000000E+09	8.79277496763E-01	-3.70966299654E-01
1.76650000000E+09	8.78533444812E-01	-3.72436758550E-01
1.76700000000E+09	8.77830725044E-01	-3.73975346730E-01
1.76750000000E+09	8.77040121717E-01	-3.75402681107E-01
1.76800000000E+09	8.76247498578E-01	-3.76869796835E-01
1.76850000000E+09	8.75492605016E-01	-3.78358786829E-01
1.76900000000E+09	8.74707135273E-01	-3.79862760113E-01
1.76950000000E+09	8.73925201428E-01	-3.81396873360E-01
1.77000000000E+09	8.73192694530E-01	-3.82751514091E-01
1.77050000000E+09	8.72389814247E-01	-3.84307674698E-01
1.77100000000E+09	8.71602496470E-01	-3.85701236218E-01
1.77150000000E+09	8.70762615346E-01	-3.87203077530E-01
1.77200000000E+09	8.69959786937E-01	-3.88707681711E-01
1.77250000000E+09	8.69112688673E-01	-3.90160289153E-01
1.77300000000E+09	8.68353154927E-01	-3.91604080090E-01
1.77350000000E+09	8.67447977784E-01	-3.93036662832E-01
1.77400000000E+09	8.66692462357E-01	-3.94524001440E-01
1.77450000000E+09	8.65804666990E-01	-3.96022264460E-01
1.77500000000E+09	8.65034817707E-01	-3.97398289067E-01
1.77550000000E+09	8.64262124401E-01	-3.98882637584E-01
1.77600000000E+09	8.63414489977E-01	-4.00308009776E-01
1.77650000000E+09	8.62592589776E-01	-4.01837084005E-01
1.77700000000E+09	8.61680431896E-01	-4.03203736386E-01
1.77750000000E+09	8.60943704942E-01	-4.04666852475E-01
1.77800000000E+09	8.60072042727E-01	-4.06166538237E-01
1.77850000000E+09	8.59219195208E-01	-4.07625961397E-01
1.77900000000E+09	8.58321794666E-01	-4.09085471072E-01
1.77950000000E+09	8.57520448760E-01	-4.10505440169E-01
1.78000000000E+09	8.56649714105E-01	-4.11933829414E-01
1.78050000000E+09	8.55761986958E-01	-4.13371973722E-01
1.78100000000E+09	8.54892047669E-01	-4.14900539873E-01
1.78150000000E+09	8.54046677982E-01	-4.16259707099E-01
1.78200000000E+09	8.53184782936E-01	-4.17769191668E-01
1.78250000000E+09	8.52198430804E-01	-4.19102176565E-01
1.78300000000E+09	8.51361168900E-01	-4.20550163203E-01
1.78350000000E+09	8.50503492110E-01	-4.21972192393E-01
1.78400000000E+09	8.49555545521E-01	-4.23440330980E-01
1.78450000000E+09	8.48694735726E-01	-4.24813103726E-01
1.78500000000E+09	8.47799103523E-01	-4.26207516374E-01
1.78550000000E+09	8.46881842990E-01	-4.27617661657E-01
1.78600000000E+09	8.45891320182E-01	-4.29052622082E-01
1.78650000000E+09	8.45096772739E-01	-4.30391219801E-01
1.78700000000E+09	8.44154806236E-01	-4.31776886221E-01
1.78750000000E+09	8.43278063394E-01	-4.33231481064E-01
1.78800000000E+09	8.42373603216E-01	-4.34658851822E-01
1.78850000000E+09	8.41539831414E-01	-4.36073945305E-01
1.78900000000E+09	8.40575820959E-01	-4.37419510221E-01
1.78950000000E+09	8.39642463328E-01	-4.38771887476E-01
1.79000000000E+09	8.38704757022E-01	-4.40223902392E-01
1.79050000000E+09	8.37807264325E-01	-4.41534037385E-01
1.79100000000E+09	8.36924410955E-01	-4.42968611516E-01
1.79150000000E+09	8.35912379406E-01	-4.44339082624E-01
1.79200000000E+09	8.34996604578E-01	-4.45771709857E-01
1.79250000000E+09	8.34035776191E-01	-4.47163478203E-01
1.79300000000E+09	8.33145464210E-01	-4.48524189012E-01
1.79350000000E+09	8.32200420175E-01	-4.49873220131E-01
1.79400000000E+09	8.31230028547E-01	-4.51224905497E-01
1.79450000000E+09	8.30292452916E-01	-4.52522560960E-01
1.79500000000E+09	8.29410917372E-01	-4.53983411883E-01
1.79550000000E+09	8.28410529125E-01	-4.55342462106E-01
1.79600000000E+09	8.27445732156E-01	-4.56659270889E-01
1.79650000000E+09	8.26500774102E-01	-4.57997734567E-01
1.79700000000E+09	8.25548665180E-01	-4.59417131050E-01
1.79750000000E+09	8.24599786924E-01	-4.60711629132E-01
1.79800000000E+09	8.23705465983E-01	-4.62018689960E-01
1.79850000000E+09	8.22763752956E-01	-4.63408699373E-01
1.79900000000E+09	8.21878154081E-01	-4.64768686431E-01
1.79950000000E+09	8.20802392705E-01	-4.66107919917E-01
1.80000000000E+09	8.19897557745E-01	-4.67429175137E-01
1.80050000000E+09	8.18940041856E-01	-4.68764163300E-01
1.80100000000E+09	8.18001192108E-01	-4.70148775602E-01
1.80150000000E+09	8.16966142208E-01	-4.71423094772E-01
1.80200000000E+09	8.16038677529E-01	-4.72828546078E-01
1.80250000000E+09	8.15052825935E-01	-4.74122960579E-01
1.80300000000E+09	8.14136605159E-01	-4.75434737202E-01
1.80350000000E+09	8.13144483932E-01	-4.76800269326E-01
1.80400000000E+09	8.12188764422E-01	-4.78038438014E-01
1.80450000000E+09	8.11188792525E-01	-4.79367667592E-01
1.80500000000E+09	8.10181900581E-01	-4.80688688608E-01
1.80550000000E+09	8.09242278811E-01	-4.82026840454E-01
1.80600000000E+09	8.08299975460E-01	-4.83271880234E-01
1.80650000000E+09	8.07249855477E-01	-4.84586585593E-01
1.80700000000E+09	8.06344140055E-01	-4.85935624985E-01
1.80750000000E+09	8.05322948875E-01	-4.87270407851E-01
1.80800000000E+09	8.04399931908E-01	-4.88585078425E-01
1.80850000000E+09	8.03379271731E-01	-4.89869734216E-01
1.80900000000E+09	8.02417417863E-01	-4.91148225229E-01
1.80950000000E+09	8.01434548442E-01	-4.92464013355E-01
1.81000000000E+09	8.00453416455E-01	-4.93729179133E-01
1.81050000000E+09	7.99517343259E-01	-4.95065356181E-01
1.81100000000E+09	7.98452386246E-01	-4.96311339369E-01
1.81150000000E+09	7.97446240507E-01	-4.97592746666E-01
1.81200000000E+09	7.96521444245E-01	-4.98899462482E-01
1.81250000000E+09	7.95527113016E-01	-5.00188185158E-01
1.81300000000E+09	7.94522029557E-01	-5.01460462850E-01
1.81350000000E+09	7.93507409526E-01	-5.02690477823E-01
1.81400000000E+09	7.92467588498E-01	-5.03982563080E-01
1.81450000000E+09	7.91593117379E-01	-5.05234961542E-01
1.81500000000E+09	7.90566720027E-01	-5.06460178361E-01
1.81550000000E+09	7.89591693225E-01	-5.07767068239E-01
1.81600000000E+09	7.88599154638E-01	-5.09042381983E-01
1.81650000000E+09	7.87571909101E-01	-5.10285519629E-01
1.81700000000E+09	7.86616095869E-01	-5.11540979367E-01
1.81750000000E+09	7.85592895540E-01	-5.12783064067E-01
1.81800000000E+09	7.84675645608E-01	-5.14022290375E-01
1.81850000000E+09	7.83573873793E-01	-5.15335374329E-01
1.81900000000E+09	7.82568720547E-01	-5.16624404085E-01
1.81950000000E+09	7.81616035234E-01	-5.17868565014E-01
1.82000000000E+09	7.80678045453E-01	-5.19152391047E-01
1.82050000000E+09	7.79647798261E-01	-5.20360477154E-01
1.82100000000E+09	7.78742148087E-01	-5.21650177997E-01
1.82150000000E+09	7.77670882291E-01	-5.22804606348E-01
1.82200000000E+09	7.76659194174E-01	-5.24059091843E-01
1.82250000000E+09	7.75699314186E-01	-5.25353416498E-01
1.82300000000E+09	7.74782871177E-01	-5.26581639743E-01
1.82350000000E+09	7.73716559780E-01	-5.27814138769E-01
1.82400000000E+09	7.72810278960E-01	-5.29103203603E-01
1.82450000000E+09	7.71798911521E-01	-5.30326772224E-01
1.82500000000E+09	7.70783830982E-01	-5.31617661907E-01
1.82550000000E+09	7.69794413016E-01	-5.32818784077E-01
1.82600000000E+09	7.68838879699E-01	-5.34130516676E-01
1.82650000000E+09	7.67813971475E-01	-5.35381560087E-01
1.82700000000E+09	7.66772141121E-01	-5.36608735429E-01
1.82750000000E+09	7.65778927253E-01	-5.37858322908E-01
1.82800000000E+09	7.64750804596E-01	-5.39126988855E-01
1.82850000000E+09	7.63816167542E-01	-5.40418114249E-01
1.82900000000E+09	7.62730908225E-01	-5.41683093389E-01
1.82950000000E+09	7.61768723215E-01	-5.42933081460E-01
1.83000000000E+09	7.60737544530E-01	-5.44102367130E-01
1.83050000000E+09	7.59755239361E-01	-5.45400714143E-01
1.83100000000E+09	7.58715343848E-01	-5.46682788758E-01
1.83150000000E+09	7.57697794040E-01	-5.47938687699E-01
1.83200000000E+09	7.56676522682E-01	-5.49105447588E-01
1.83250000000E+09	7.55570641526E-01	-5.50451182640E-01
1.83300000000E+09	7.54536973682E-01	-5.51688486753E-01
1.83350000000E+09	7.53596803530E-01	-5.52938466075E-01
1.83400000000E+09	7.52501868322E-01	-5.54238675011E-01
1.83450000000E+09	7.51495247207E-01	-5.55492178987E-01
1.83500000000E+09	7.50421791771E-01	-5.56755979059E-01
1.83550000000E+09	7.49443340294E-01	-5.58023522035E-01
1.83600000000E+09	7.48275117458E-01	-5.59162385466E-01
1.83650000000E+09	7.47268096017E-01	-5.60431961230E-01
1.83700000000E+09	7.46248988892E-01	-5.61762373968E-01
1.83750000000E+09	7.45159756184E-01	-5.62936888859E-01
1.83800000000E+09	7.44145578990E-01	-5.64176932490E-01
1.83850000000E+09	7.43061449322E-01	-5.65459527564E-01
1.83900000000E+09	7.42027222131E-01	-5.66668851592E-01
1.83950000000E+09	7.40964049712E-01	-5.67997422205E-01
1.84000000000E+09	7.39911463544E-01	-5.69244387907E-01
1.84050000000E+09	7.38798504059E-01	-5.70465576377E-01
1.84100000000E+09	7.37709199281E-01	-5.71816946334E-01
1.84150000000E+09	7.36603293608E-01	-5.73048869332E-01
1.84200000000E+09	7.35549516080E-01	-5.74333692244E-01
1.84250000000E+09	7.34478361246E-01	-5.75539382414E-01
1.84300000000E+09	7.33345626008E-01	-5.76843441271E-01
1.84350000000E+09	7.32180310285E-01	-5.78122520297E-01
1.84400000000E+09	7.31063436536E-01	-5.79397468530E-01
1.84450000000E+09	7.29936346247E-01	-5.80623133933E-01
1.84500000000E+09	7.28768553022E-01	-5.81851528031E-01
1.84550000000E+09	7.27661659873E-01	-5.83096517077E-01
1.84600000000E+09	7.26525898215E-01	-5.84345158951E-01
1.84650000000E+09	7.25378161831E-01	-5.85600589180E-01
1.84700000000E+09	7.24225375416E-01	-5.86779603306E-01
1.84750000000E+09	7.23097723343E-01	-5.88119722156E-01
1.84800000000E+09	7.21873661018E-01	-5.89304737397E-01
1.84850000000E+09	7.20707272040E-01	-5.90515852246E-01
1.84900000000E+09	7.19588143953E-01	-5.91731831527E-01
1.84950000000E+09	7.18435056875E-01	-5.93024167086E-01
1.85000000000E+09	7.17255917701E-01	-5.94221900332E-01
1.85050000000E+09	7.16087603267E-01	-5.95470982876E-01
1.85100000000E+09	7.14880909839E-01	-5.96601876705E-01
1.85150000000E+09	7.13679134071E-01	-5.97913206793E-01
1.85200000000E+09	7.12473600730E-01	-5.99122774988E-01
1.85250000000E+09	7.11353341396E-01	-6.00309104744E-01
1.85300000000E+09	7.10082870797E-01	-6.01433587752E-01
1.85350000000E+09	7.08931627749E-01	-6.02666031497E-01
1.85400000000E+09	7.07699958044E-01	-6.03912135968E-01
1.85450000000E+09	7.06464562388E-01	-6.05123424174E-01
1.85500000000E+09	7.05333002249E-01	-6.06297027452E-01
1.85550000000E+09	7.04113247448E-01	-6.07495109738E-01
1.85600000000E+09	7.02946521247E-01	-6.08715645728E-01
1.85650000000E+09	7.01663563557E-01	-6.09930110849E-01
1.85700000000E+09	7.00487788093E-01	-6.11109553543E-01
1.85750000000E+09	6.99276028063E-01	-6.12297418612E-01
1.85800000000E+09	6.98063299489E-01	-6.13494095480E-01
1.85850000000E+09	6.96823584845E-01	-6.14704234041E-01
1.85900000000E+09	6.95573720049E-01	-6.15885464108E-01
1.85950000000E+09	6.94345215167E-01	-6.17142743456E-01
1.86000000000E+09	6.93097239017E-01	-6.18304261909E-01
1.86050000000E+09	6.91873064995E-01	-6.19574317315E-01
1.86100000000E+09	6.90685448987E-01	-6.20783287024E-01
1.86150000000E+09	6.89377907797E-01	-6.21893558506E-01
1.86200000000E+09	6.88138464909E-01	-6.23185442175E-01
1.86250000000E+09	6.86804303716E-01	-6.24308913308E-01
1.86300000000E+09	6.85560457642E-01	-6.25499253950E-01
1.86350000000E+09	6.84394485305E-01	-6.26738079559E-01
1.86400000000E+09	6.83031987129E-01	-6.27881745060E-01
1.86450000000E+09	6.81885686364E-01	-6.29151490259E-01
1.86500000000E+09	6.80565826622E-01	-6.30381289440E-01
1.86550000000E+09	6.79300415765E-01	-6.31527113599E-01
1.86600000000E+09	6.77917640726E-01	-6.32717378350E-01
1.86650000000E+09	6.76585369872E-01	-6.33915639922E-01
1.86700000000E+09	6.75430172324E-01	-6.35136349728E-01
1.86750000000E+09	6.74062873119E-01	-6.36269200919E-01
1.86800000000E+09	6.72713397742E-01	-6.37531410514E-01
1.86850000000E+09	6.71487772696E-01	-6.38804286926E-01
1.86900000000E+09	6.70140893356E-01	-6.40045483781E-01
1.86950000000E+09	6.68826484376E-01	-6.41251322881E-01
1.87000000000E+09	6.67452339859E-01	-6.42369680190E-01
1.87050000000E+09	6.66083418450E-01	-6.43590641568E-01
1.87100000000E+09	6.64761232417E-01	-6.44884762754E-01
1.87150000000E+09	6.63386694837E-01	-6.46039569407E-01
1.87200000000E+09	6.62016039160E-01	-6.47240643463E-01
1.87250000000E+09	6.60603949799E-01	-6.48536149851E-01
1.87300000000E+09	6.59226078714E-01	-6.49771082043E-01
1.87350000000E+09	6.57763884865E-01	-6.50909706611E-01
1.87400000000E+09	6.56364012259E-01	-6.52076188581E-01
1.87450000000E+09	6.54894084572E-01	-6.53374942579E-01
1.87500000000E+09	6.53494909591E-01	-6.54621674707E-01
1.87550000000E+09	6.52074892005E-01	-6.55780193935E-01
1.87600000000E+09	6.50621944638E-01	-6.56882107171E-01
1.87650000000E+09	6.49183049124E-01	-6.58184242495E-01
