# Hz S RI R 50
! CMT, CMT808U, 21440046, 21.4.3/4
! Date: 12/1/2025 1:45:14 PM
! Data: Format (Calibration Info)
! Freq	S11:Re/Im(F2)
1.70000000000E+09	9.00714760527E-01	-2.94921667183E-01
1.70050000000E+09	9.00222114284E-01	-2.96299397057E-01
1.70100000000E+09	8.99713233080E-01	-2.97556397008E-01
1.70150000000E+09	8.99308487157E-01	-2.98960672207E-01
1.70200000000E+09	8.98774409267E-01	-3.00259292313E-01
1.70250000000E+09	8.98293541803E-01	-3.01665664717E-01
1.70300000000E+09	8.97854450141E-01	-3.02921853142E-01
1.70350000000E+09	8.97338849210E-01	-3.04305118303E-01
1.70400000000E+09	8.96968475398E-01	-3.05638061984E-01
1.70450000000E+09	8.96416850490E-01	-3.07000852374E-01
1.70500000000E+09	8.95901616005E-01	-3.08358004264E-01
1.70550000000E+09	8.95411540872E-01	-3.09688294824E-01
1.70600000000E+09	8.95005157203E-01	-3.11006537840E-01
1.70650000000E+09	8.94480713606E-01	-3.12314484526E-01
1.70700000000E+09	8.94027030608E-01	-3.13618585067E-01
1.70750000000E+09	8.93487948193E-01	-3.15057602024E-01
1.70800000000E+09	8.92974095938E-01	-3.16364770027E-01
1.70850000000E+09	8.92519380708E-01	-3.17716462051E-01
1.70900000000E+09	8.91961772016E-01	-3.19055020121E-01
1.70950000000E+09	8.91566023992E-01	-3.20441771011E-01
1.71000000000E+09	8.90989581841E-01	-3.21849450450E-01
1.71050000000E+09	8.90527630098E-01	-3.23126459158E-01
1.71100000000E+09	8.89999980311E-01	-3.24517227648E-01
1.71150000000E+09	8.89377115000E-01	-3.25801276021E-01
1.71200000000E+09	8.88940538961E-01	-3.27194549967E-01
1.71250000000E+09	8.88415907542E-01	-3.28567050714E-01
1.71300000000E+09	8.87906914800E-01	-3.29786637746E-01
1.71350000000E+09	8.87342231368E-01	-3.31193905419E-01
1.71400000000E+09	8.86873645800E-01	-3.32609487159E-01
1.71450000000E+09	8.86355810234E-01	-3.33904543149E-01
1.71500000000E+09	8.85769413530E-01	-3.35307149561E-01
1.71550000000E+09	8.85331859657E-01	-3.36642295283E-01
1.71600000000E+09	8.84744940023E-01	-3.37978787978E-01
1.71650000000E+09	8.84205686742E-01	-3.39327746690E-01
1.71700000000E+09	8.83733211400E-01	-3.40693529041E-01
1.71750000000E+09	8.83148214535E-01	-3.42046213523E-01
1.71800000000E+09	8.82690547120E-01	-3.43362329042E-01
1.71850000000E+09	8.82059685182E-01	-3.44722410128E-01
1.71900000000E+09	8.81545524615E-01	-3.46064652496E-01
1.71950000000E+09	8.80980366079E-01	-3.47419851288E-01
1.72000000000E+09	8.80501374508E-01	-3.48814746271E-01
1.72050000000E+09	8.79947456427E-01	-3.50207264890E-01
1.72100000000E+09	8.79341320852E-01	-3.51560994751E-01
1.72150000000E+09	8.78798317182E-01	-3.52889833413E-01
1.72200000000E+09	8.78245420441E-01	-3.54235789821E-01
1.72250000000E+09	8.77735581070E-01	-3.55658048772E-01
1.72300000000E+09	8.77115153111E-01	-3.57041895563E-01
1.72350000000E+09	8.76528130381E-01	-3.58419250969E-01
1.72400000000E+09	8.76015143032E-01	-3.59769991108E-01
1.72450000000E+09	8.75398942609E-01	-3.61160352676E-01
1.72500000000E+09	8.74834783969E-01	-3.62511619421E-01
1.72550000000E+09	8.74235111312E-01	-3.63883591227E-01
1.72600000000E+09	8.73634773794E-01	-3.65268526457E-01
1.72650000000E+09	8.73030972721E-01	-3.66704228041E-01
1.72700000000E+09	8.72525993275E-01	-3.68074945472E-01
1.72750000000E+09	8.71829018721E-01	-3.69440524486E-01
1.72800000000E+09	8.71292779153E-01	-3.70807937534E-01
1.72850000000E+09	8.70601577351E-01	-3.72143920610E-01
1.72900000000E+09	8.70081116296E-01	-3.73581052447E-01
1.72950000000E+09	8.69451293540E-01	-3.74928461575E-01
1.73000000000E+09	8.68839973535E-01	-3.76357455552E-01
1.73050000000E+09	8.68256029647E-01	-3.77652105604E-01
1.73100000000E+09	8.67519030244E-01	-3.79030512415E-01
1.73150000000E+09	8.66983473558E-01	-3.80468590462E-01
1.73200000000E+09	8.66267451516E-01	-3.81852047513E-01
1.73250000000E+09	8.65667925751E-01	-3.83186623423E-01
1.73300000000E+09	8.64978223375E-01	-3.84647588065E-01
1.73350000000E+09	8.64369448709E-01	-3.85974554864E-01
1.73400000000E+09	8.63746088847E-01	-3.87403927199E-01
1.73450000000E+09	8.63114747605E-01	-3.88764010581E-01
1.73500000000E+09	8.62391367108E-01	-3.90137476666E-01
1.73550000000E+09	8.61827629668E-01	-3.91492054067E-01
1.73600000000E+09	8.61073239972E-01	-3.92944615530E-01
1.73650000000E+09	8.60384913519E-01	-3.94274264534E-01
1.73700000000E+09	8.59725386683E-01	-3.95711215597E-01
1.73750000000E+09	8.59064027866E-01	-3.97104977308E-01
1.73800000000E+09	8.58427224813E-01	-3.98442596882E-01
1.73850000000E+09	8.57729084517E-01	-3.99873797757E-01
1.73900000000E+09	8.56999077627E-01	-4.01210811950E-01
1.73950000000E+09	8.56364473335E-01	-4.02581423998E-01
1.74000000000E+09	8.55712263352E-01	-4.03983229449E-01
1.74050000000E+09	8.54958308177E-01	-4.05365094805E-01
1.74100000000E+09	8.54299060389E-01	-4.06891316498E-01
1.74150000000E+09	8.53578690042E-01	-4.08181015966E-01
1.74200000000E+09	8.52867758545E-01	-4.09570638173E-01
1.74250000000E+09	8.52147966763E-01	-4.10895307686E-01
1.74300000000E+09	8.51435704234E-01	-4.12333719223E-01
1.74350000000E+09	8.50670869754E-01	-4.13722905858E-01
1.74400000000E+09	8.49937723163E-01	-4.15089427134E-01
1.74450000000E+09	8.49294994193E-01	-4.16532073589E-01
1.74500000000E+09	8.48599640582E-01	-4.17810683329E-01
1.74550000000E+09	8.47776830021E-01	-4.19244955014E-01
1.74600000000E+09	8.47129661812E-01	-4.20602241389E-01
1.74650000000E+09	8.46379877182E-01	-4.22031901444E-01
1.74700000000E+09	8.45566882517E-01	-4.23440962459E-01
1.74750000000E+09	8.44820592071E-01	-4.24776247708E-01
1.74800000000E+09	8.44110787272E-01	-4.26160825885E-01
1.74850000000E+09	8.43318789356E-01	-4.27576107072E-01
1.74900000000E+09	8.42475131250E-01	-4.29018403732E-01
1.74950000000E+09	8.41783965735E-01	-4.30375238965E-01
1.75000000000E+09	8.40960473166E-01	-4.31802744893E-01
1.75050000000E+09	8.40199944845E-01	-4.33194364874E-01
1.75100000000E+09	8.39405994664E-01	-4.34523681742E-01
1.75150000000E+09	8.38629902450E-01	-4.35950007492E-01
1.75200000000E+09	8.37790947090E-01	-4.37287706149E-01
1.75250000000E+09	8.36984265933E-01	-4.38680686742E-01
1.75300000000E+09	8.36231632389E-01	-4.40049664726E-01
1.75350000000E+09	8.35464680766E-01	-4.41418511235E-01
1.75400000000E+09	8.34566487377E-01	-4.42885963292E-01
1.75450000000E+09	8.33720901847E-01	-4.44223535809E-01
1.75500000000E+09	8.32917625223E-01	-4.45627925070E-01
1.75550000000E+09	8.32087836863E-01	-4.46943039247E-01
1.75600000000E+09	8.31349302669E-01	-4.48411348337E-01
1.75650000000E+09	8.30459410438E-01	-4.49725131121E-01
1.75700000000E+09	8.29565646105E-01	-4.51118646096E-01
1.75750000000E+09	8.28739569887E-01	-4.52413176825E-01
1.75800000000E+09	8.27940628259E-01	-4.53857699122E-01
1.75850000000E+09	8.27071211048E-01	-4.55239782888E-01
1.75900000000E+09	8.26145412618E-01	-4.56639407181E-01
1.75950000000E+09	8.25302731112E-01	-4.58045429698E-01
1.76000000000E+09	8.24508378024E-01	-4.59368001617E-01
1.76050000000E+09	8.23606162184E-01	-4.60684290222E-01
1.76100000000E+09	8.22727854312E-01	-4.62051918430E-01
1.76150000000E+09	8.21816978971E-01	-4.63465740585E-01
1.76200000000E+09	8.21010575453E-01	-4.64823694239E-01
1.76250000000E+09	8.20101861798E-01	-4.66228563837E-01
1.76300000000E+09	8.19209610552E-01	-4.67497723315E-01
1.76350000000E+09	8.18289540443E-01	-4.68889094223E-01
1.76400000000E+09	8.17453124688E-01	-4.70219077259E-01
1.76450000000E+09	8.16486719441E-01	-4.71614775255E-01
1.76500000000E+09	8.15701540499E-01	-4.72901997408E-01
1.76550000000E+09	8.14675874577E-01	-4.74263237562E-01
1.76600000000E+09	8.13808605492E-01	-4.75702251454E-01
1.76650000000E+09	8.12884091791E-01	-4.76992588626E-01
1.76700000000E+09	8.11992498897E-01	-4.78325073561E-01
1.76750000000E+09	8.11080961648E-01	-4.79642190959E-01
1.76800000000E+09	8.10170047404E-01	-4.81029939609E-01
1.76850000000E+09	8.09200541397E-01	-4.82370095206E-01
1.76900000000E+09	8.08252759014E-01	-4.83744117817E-01
1.76950000000E+09	8.07278388389E-01	-4.85115570770E-01
1.77000000000E+09	8.06441459781E-01	-4.86386096848E-01
1.77050000000E+09	8.05385532528E-01	-4.87729798589E-01
1.77100000000E+09	8.04505541933E-01	-4.89053709901E-01
1.77150000000E+09	8.03487784095E-01	-4.90428922996E-01
1.77200000000E+09	8.02507794192E-01	-4.91752296222E-01
1.77250000000E+09	8.01563872417E-01	-4.93052636544E-01
1.77300000000E+09	8.00640746631E-01	-4.94396539578E-01
1.77350000000E+09	7.99620478951E-01	-4.95690791272E-01
1.77400000000E+09	7.98649687101E-01	-4.97026195417E-01
1.77450000000E+09	7.97670672971E-01	-4.98385423571E-01
1.77500000000E+09	7.96750182370E-01	-4.99608808931E-01
1.77550000000E+09	7.95752744720E-01	-5.00908182681E-01
1.77600000000E+09	7.94759803405E-01	-5.02251524264E-01
1.77650000000E+09	7.93768688873E-01	-5.03571483103E-01
1.77700000000E+09	7.92701528001E-01	-5.04833418194E-01
1.77750000000E+09	7.91776534967E-01	-5.06110716566E-01
1.77800000000E+09	7.90859165659E-01	-5.07440087314E-01
1.77850000000E+09	7.89768001850E-01	-5.08739887736E-01
1.77900000000E+09	7.88779156361E-01	-5.10071176361E-01
1.77950000000E+09	7.87762879177E-01	-5.11281274114E-01
1.78000000000E+09	7.86752501711E-01	-5.12557703315E-01
1.78050000000E+09	7.85747259807E-01	-5.13822527949E-01
1.78100000000E+09	7.84667994218E-01	-5.15195724583E-01
1.78150000000E+09	7.83786782471E-01	-5.16396676123E-01
1.78200000000E+09	7.82704799868E-01	-5.17783850478E-01
1.78250000000E+09	7.81606979653E-01	-5.18922433336E-01
1.78300000000E+09	7.80652626640E-01	-5.20248277593E-01
1.78350000000E+09	7.79606398114E-01	-5.21503778050E-01
1.78400000000E+09	7.78585295351E-01	-5.22812897984E-01
1.78450000000E+09	7.77589829947E-01	-5.24117307778E-01
1.78500000000E+09	7.76490601691E-01	-5.25343299921E-01
1.78550000000E+09	7.75487894491E-01	-5.26604205960E-01
1.78600000000E+09	7.74433293905E-01	-5.27883110364E-01
1.78650000000E+09	7.73439513919E-01	-5.29035656695E-01
1.78700000000E+09	7.72399898974E-01	-5.30367779562E-01
1.78750000000E+09	7.71332674261E-01	-5.31605796119E-01
1.78800000000E+09	7.70279106168E-01	-5.32935196942E-01
1.78850000000E+09	7.69285195672E-01	-5.34154149639E-01
1.78900000000E+09	7.68146537286E-01	-5.35413476611E-01
1.78950000000E+09	7.67148274022E-01	-5.36674535430E-01
1.79000000000E+09	7.66062636109E-01	-5.37925473546E-01
1.79050000000E+09	7.65005791205E-01	-5.39096428998E-01
1.79100000000E+09	7.63883492161E-01	-5.40321667489E-01
1.79150000000E+09	7.62804317378E-01	-5.41594252344E-01
1.79200000000E+09	7.61747854741E-01	-5.42923187230E-01
1.79250000000E+09	7.60583677151E-01	-5.44071144123E-01
1.79300000000E+09	7.59529745845E-01	-5.45337963160E-01
1.79350000000E+09	7.58467833997E-01	-5.46596012248E-01
1.79400000000E+09	7.57329032953E-01	-5.47725019957E-01
1.79450000000E+09	7.56287826265E-01	-5.48983251737E-01
1.79500000000E+09	7.55239313491E-01	-5.50289186017E-01
1.79550000000E+09	7.54080985967E-01	-5.51465163922E-01
1.79600000000E+09	7.53077112036E-01	-5.52662225525E-01
1.79650000000E+09	7.51914969822E-01	-5.53856813920E-01
1.79700000000E+09	7.50786604497E-01	-5.55151361786E-01
1.79750000000E+09	7.49600136174E-01	-5.56291548593E-01
1.79800000000E+09	7.48604746237E-01	-5.57490747556E-01
1.79850000000E+09	7.47522477520E-01	-5.58728666559E-01
1.79900000000E+09	7.46424057384E-01	-5.59906210689E-01
1.79950000000E+09	7.45147461256E-01	-5.61063241073E-01
1.80000000000E+09	7.44123637979E-01	-5.62282756861E-01
1.80050000000E+09	7.42999437355E-01	-5.63516605614E-01
1.80100000000E+09	7.41842614265E-01	-5.64595967143E-01
1.80150000000E+09	7.40697840679E-01	-5.65804004013E-01
1.80200000000E+09	7.39623360899E-01	-5.66947244689E-01
1.80250000000E+09	7.38438879982E-01	-5.68092104294E-01
1.80300000000E+09	7.37404195942E-01	-5.69309777478E-01
1.80350000000E+09	7.36222651994E-01	-5.70461785486E-01
1.80400000000E+09	7.35091941246E-01	-5.71608008662E-01
1.80450000000E+09	7.34006836619E-01	-5.72709143790E-01
1.80500000000E+09	7.32843752661E-01	-5.73928108284E-01
1.80550000000E+09	7.31731278217E-01	-5.75061806858E-01
1.80600000000E+09	7.30547360188E-01	-5.76218141212E-01
1.80650000000E+09	7.29432746440E-01	-5.77411483758E-01
1.80700000000E+09	7.28286393273E-01	-5.78535176175E-01
1.80750000000E+09	7.27126954928E-01	-5.79713835429E-01
1.80800000000E+09	7.25972743987E-01	-5.80965922111E-01
1.80850000000E+09	7.24813932392E-01	-5.82052007824E-01
1.80900000000E+09	7.23657887379E-01	-5.83191687329E-01
1.80950000000E+09	7.22515214148E-01	-5.84266541206E-01
1.81000000000E+09	7.21375518178E-01	-5.85400683803E-01
1.81050000000E+09	7.20327623511E-01	-5.86591949824E-01
1.81100000000E+09	7.19012299283E-01	-5.87692310102E-01
1.81150000000E+09	7.17936774693E-01	-5.88766968443E-01
1.81200000000E+09	7.16784804304E-01	-5.89920240131E-01
1.81250000000E+09	7.15684433097E-01	-5.91031666766E-01
1.81300000000E+09	7.14509439377E-01	-5.92121878176E-01
1.81350000000E+09	7.13400696012E-01	-5.93260698482E-01
1.81400000000E+09	7.12186902115E-01	-5.94388867074E-01
1.81450000000E+09	7.11044293593E-01	-5.95463964893E-01
1.81500000000E+09	7.09887113067E-01	-5.96632557713E-01
1.81550000000E+09	7.08738802664E-01	-5.97760450760E-01
1.81600000000E+09	7.07563589652E-01	-5.98810617194E-01
1.81650000000E+09	7.06385657062E-01	-5.99936971809E-01
1.81700000000E+09	7.05271962859E-01	-6.00971730363E-01
1.81750000000E+09	7.04137709463E-01	-6.02092587006E-01
1.81800000000E+09	7.02983897909E-01	-6.03172557662E-01
1.81850000000E+09	7.01740314510E-01	-6.04293097779E-01
1.81900000000E+09	7.00586617539E-01	-6.05414462036E-01
1.81950000000E+09	6.99453450634E-01	-6.06455908209E-01
1.82000000000E+09	6.98310768355E-01	-6.07634829577E-01
1.82050000000E+09	6.97098041018E-01	-6.08620220935E-01
1.82100000000E+09	6.95990984491E-01	-6.09768677728E-01
1.82150000000E+09	6.94781704930E-01	-6.10826539413E-01
1.82200000000E+09	6.93566676666E-01	-6.11849526654E-01
1.82250000000E+09	6.92452133095E-01	-6.12919116879E-01
1.82300000000E+09	6.91268027335E-01	-6.14012148834E-01
1.82350000000E+09	6.90046303574E-01	-6.15060069901E-01
1.82400000000E+09	6.88949184159E-01	-6.16174424187E-01
1.82450000000E+09	6.87761060960E-01	-6.17203014888E-01
1.82500000000E+09	6.86610791689E-01	-6.18359103988E-01
1.82550000000E+09	6.85394641137E-01	-6.19368532030E-01
1.82600000000E+09	6.84262477470E-01	-6.20453217961E-01
1.82650000000E+09	6.83066896065E-01	-6.21513472447E-01
1.82700000000E+09	6.81918090799E-01	-6.22626529522E-01
1.82750000000E+09	6.80663919695E-01	-6.23642182010E-01
1.82800000000E+09	6.79482634288E-01	-6.24746735759E-01
1.82850000000E+09	6.78343536349E-01	-6.25750621359E-01
1.82900000000E+09	6.77143233348E-01	-6.26870679572E-01
1.82950000000E+09	6.75926031523E-01	-6.27876428261E-01
1.83000000000E+09	6.74775599809E-01	-6.28915431216E-01
1.83050000000E+09	6.73588764125E-01	-6.30017451979E-01
1.83100000000E+09	6.72370794150E-01	-6.31039924964E-01
1.83150000000E+09	6.71252821208E-01	-6.32111456288E-01
1.83200000000E+09	6.70070452372E-01	-6.33144399746E-01
1.83250000000E+09	6.68766594578E-01	-6.34191964945E-01
1.83300000000E+09	6.67676423127E-01	-6.35273763741E-01
1.83350000000E+09	6.66487971016E-01	-6.36272964735E-01
1.83400000000E+09	6.65262641137E-01	-6.37449252389E-01
1.83450000000E+09	6.64031258694E-01	-6.38443695203E-01
1.83500000000E+09	6.62881088801E-01	-6.39504818888E-01
1.83550000000E+09	6.61678417132E-01	-6.40591584294E-01
1.83600000000E+09	6.60440778121E-01	-6.41620736698E-01
1.83650000000E+09	6.59266325841E-01	-6.42684637128E-01
1.83700000000E+09	6.58031435891E-01	-6.43828890732E-01
1.83750000000E+09	6.56891665588E-01	-6.44870704665E-01
1.83800000000E+09	6.55709939704E-01	-6.45881648102E-01
1.83850000000E+09	6.54425782586E-01	-6.46981725535E-01
1.83900000000E+09	6.53279085562E-01	-6.48071984319E-01
1.83950000000E+09	6.51999720681E-01	-6.49178118234E-01
1.84000000000E+09	6.50827406545E-01	-6.50177604735E-01
1.84050000000E+09	6.49574213159E-01	-6.51255614195E-01
1.84100000000E+09	6.48337558527E-01	-6.52311272933E-01
1.84150000000E+09	6.47117969538E-01	-6.53375502387E-01
1.84200000000E+09	6.45824856073E-01	-6.54515618745E-01
1.84250000000E+09	6.44630960671E-01	-6.55474717534E-01
1.84300000000E+09	6.43421141737E-01	-6.56608484171E-01
1.84350000000E+09	6.42077366539E-01	-6.57633826467E-01
1.84400000000E+09	6.40832876398E-01	-6.58751334080E-01
1.84450000000E+09	6.39587154654E-01	-6.59763304659E-01
1.84500000000E+09	6.38284245330E-01	-6.60827805429E-01
1.84550000000E+09	6.37009791054E-01	-6.61847488260E-01
1.84600000000E+09	6.35753061652E-01	-6.62897539236E-01
1.84650000000E+09	6.34427017643E-01	-6.63965401198E-01
1.84700000000E+09	6.33221084678E-01	-6.64980522425E-01
1.84750000000E+09	6.31966378536E-01	-6.66097677497E-01
1.84800000000E+09	6.30659836009E-01	-6.67143978719E-01
1.84850000000E+09	6.29373109522E-01	-6.68245762147E-01
1.84900000000E+09	6.28129987488E-01	-6.69262166688E-01
1.84950000000E+09	6.26828831648E-01	-6.70382820336E-01
1.85000000000E+09	6.25515085044E-01	-6.71400020512E-01
1.85050000000E+09	6.24160104677E-01	-6.72451666489E-01
1.85100000000E+09	6.22844669482E-01	-6.73445997816E-01
1.85150000000E+09	6.21548831961E-01	-6.74574141711E-01
1.85200000000E+09	6.20192525426E-01	-6.75606578822E-01
1.85250000000E+09	6.18775299329E-01	-6.76649806864E-01
1.85300000000E+09	6.17487779511E-01	-6.77643896990E-01
1.85350000000E+09	6.16187636636E-01	-6.78672809200E-01
1.85400000000E+09	6.14782179386E-01	-6.79726949008E-01
1.85450000000E+09	6.13423470125E-01	-6.80762942204E-01
1.85500000000E+09	6.12095312625E-01	-6.81773735291E-01
1.85550000000E+09	6.10722862106E-01	-6.82811370003E-01
1.85600000000E+09	6.09388315638E-01	-6.83859176497E-01
1.85650000000E+09	6.08049507609E-01	-6.84863612088E-01
1.85700000000E+09	6.06605953009E-01	-6.85929866966E-01
1.85750000000E+09	6.05253225245E-01	-6.86921985033E-01
1.85800000000E+09	6.03862985145E-01	-6.87876776170E-01
1.85850000000E+09	6.02464290001E-01	-6.88935192350E-01
1.85900000000E+09	6.01073171395E-01	-6.89875822741E-01
1.85950000000E+09	5.99636191658E-01	-6.90961572527E-01
1.86000000000E+09	5.98299967357E-01	-6.91977202060E-01
1.86050000000E+09	5.96884723913E-01	-6.92996750992E-01
1.86100000000E+09	5.95520332113E-01	-6.93951344589E-01
1.86150000000E+09	5.94161116343E-01	-6.94950968129E-01
1.86200000000E+09	5.92723382849E-01	-6.96018194693E-01
1.86250000000E+09	5.91232723230E-01	-6.96955602909E-01
1.86300000000E+09	5.89836413556E-01	-6.97976174070E-01
1.86350000000E+09	5.88461027179E-01	-6.99007298454E-01
1.86400000000E+09	5.86985146761E-01	-6.99999067997E-01
1.86450000000E+09	5.85642277172E-01	-7.01012510370E-01
1.86500000000E+09	5.84166152640E-01	-7.02017891358E-01
1.86550000000E+09	5.82729832417E-01	-7.02976518488E-01
1.86600000000E+09	5.81272966792E-01	-7.03979758583E-01
1.86650000000E+09	5.79786388823E-01	-7.04949381393E-01
1.86700000000E+09	5.78387719379E-01	-7.05988681479E-01
1.86750000000E+09	5.76964332004E-01	-7.06872318016E-01
1.86800000000E+09	5.75464164484E-01	-7.08035826878E-01
1.86850000000E+09	5.74050850907E-01	-7.08998370098E-01
1.86900000000E+09	5.72609854223E-01	-7.10017296640E-01
1.86950000000E+09	5.71105665566E-01	-7.11003653660E-01
1.87000000000E+09	5.69676454375E-01	-7.11976398087E-01
1.87050000000E+09	5.68154306309E-01	-7.12949565585E-01
1.87100000000E+09	5.66686811343E-01	-7.13962534596E-01
1.87150000000E+09	5.65212650699E-01	-7.14912549779E-01
1.87200000000E+09	5.63698197070E-01	-7.15955755981E-01
1.87250000000E+09	5.62131754808E-01	-7.16985214127E-01
1.87300000000E+09	5.60573952257E-01	-7.17956142343E-01
1.87350000000E+09	5.59044732599E-01	-7.18916227396E-01
1.87400000000E+09	5.57472114793E-01	-7.19842802734E-01
1.87450000000E+09	5.55913050788E-01	-7.20938004787E-01
1.87500000000E+09	5.54364440720E-01	-7.21876220670E-01
1.87550000000E+09	5.52756895615E-01	-7.22823776760E-01
1.87600000000E+09	5.51218071304E-01	-7.23651698441E-01
1.87650000000E+09	5.49579921304E-01	-7.24751024150E-01
