# Hz S RI R 50
! CMT, CMT808U, 21440046, 21.4.3/4
! Date: 12/1/2025 1:51:25 PM
! Data: Format (Calibration Info)
! Freq	S11:Re/Im(F2)
1.70000000000E+09	9.24902234315E-01	-2.40023718767E-01
1.70050000000E+09	9.24482499685E-01	-2.41316627355E-01
1.70100000000E+09	9.24090519841E-01	-2.42645516582E-01
1.70150000000E+09	9.23751525255E-01	-2.44055977390E-01
1.70200000000E+09	9.23385519492E-01	-2.45289100082E-01
1.70250000000E+09	9.22939083766E-01	-2.46706650804E-01
1.70300000000E+09	9.22593105801E-01	-2.48037563623E-01
1.70350000000E+09	9.22125033183E-01	-2.49346891324E-01
1.70400000000E+09	9.21819760721E-01	-2.50700081875E-01
1.70450000000E+09	9.21358278931E-01	-2.52077600028E-01
1.70500000000E+09	9.21020420086E-01	-2.53449866950E-01
1.70550000000E+09	9.20665739496E-01	-2.54742405620E-01
1.70600000000E+09	9.20350648019E-01	-2.56046666634E-01
1.70650000000E+09	9.19851827569E-01	-2.57426743119E-01
1.70700000000E+09	9.19512413687E-01	-2.58712261724E-01
1.70750000000E+09	9.19068354247E-01	-2.60140899352E-01
1.70800000000E+09	9.18629039979E-01	-2.61437432676E-01
1.70850000000E+09	9.18205349941E-01	-2.62854376167E-01
1.70900000000E+09	9.17795622862E-01	-2.64113757163E-01
1.70950000000E+09	9.17445842139E-01	-2.65525524255E-01
1.71000000000E+09	9.17053157628E-01	-2.66918781352E-01
1.71050000000E+09	9.16653852065E-01	-2.68279816297E-01
1.71100000000E+09	9.16246871221E-01	-2.69666932069E-01
1.71150000000E+09	9.15787084379E-01	-2.70921786458E-01
1.71200000000E+09	9.15439507751E-01	-2.72306990283E-01
1.71250000000E+09	9.15015009052E-01	-2.73712169342E-01
1.71300000000E+09	9.14589880352E-01	-2.74994094811E-01
1.71350000000E+09	9.14173708501E-01	-2.76345748820E-01
1.71400000000E+09	9.13785478940E-01	-2.77814910189E-01
1.71450000000E+09	9.13405125740E-01	-2.79135787302E-01
1.71500000000E+09	9.12874051127E-01	-2.80497351321E-01
1.71550000000E+09	9.12565685067E-01	-2.81902975252E-01
1.71600000000E+09	9.12019301825E-01	-2.83277032636E-01
1.71650000000E+09	9.11570619804E-01	-2.84655606894E-01
1.71700000000E+09	9.11258103995E-01	-2.86018788846E-01
1.71750000000E+09	9.10793142837E-01	-2.87468287784E-01
1.71800000000E+09	9.10346468959E-01	-2.88777097282E-01
1.71850000000E+09	9.09829617183E-01	-2.90182795192E-01
1.71900000000E+09	9.09482430302E-01	-2.91569297233E-01
1.71950000000E+09	9.08957457969E-01	-2.92889375054E-01
1.72000000000E+09	9.08545087686E-01	-2.94315304090E-01
1.72050000000E+09	9.08102473934E-01	-2.95652231443E-01
1.72100000000E+09	9.07622425086E-01	-2.97114672881E-01
1.72150000000E+09	9.07115476041E-01	-2.98463113972E-01
1.72200000000E+09	9.06696281008E-01	-2.99859572190E-01
1.72250000000E+09	9.06281043617E-01	-3.01225383672E-01
1.72300000000E+09	9.05744445247E-01	-3.02680996890E-01
1.72350000000E+09	9.05240330123E-01	-3.04079070202E-01
1.72400000000E+09	9.04820719940E-01	-3.05460415377E-01
1.72450000000E+09	9.04313981085E-01	-3.06821926980E-01
1.72500000000E+09	9.03810679680E-01	-3.08300790996E-01
1.72550000000E+09	9.03295712554E-01	-3.09627334873E-01
1.72600000000E+09	9.02804166090E-01	-3.11082751299E-01
1.72650000000E+09	9.02353116015E-01	-3.12489295685E-01
1.72700000000E+09	9.01856651133E-01	-3.13842034675E-01
1.72750000000E+09	9.01308635710E-01	-3.15306918977E-01
1.72800000000E+09	9.00862931636E-01	-3.16673649745E-01
1.72850000000E+09	9.00273685554E-01	-3.18011886384E-01
1.72900000000E+09	8.99886281984E-01	-3.19505919438E-01
1.72950000000E+09	8.99357941440E-01	-3.20889365295E-01
1.73000000000E+09	8.98851018535E-01	-3.22375952779E-01
1.73050000000E+09	8.98269352026E-01	-3.23690538854E-01
1.73100000000E+09	8.97664104999E-01	-3.25119492626E-01
1.73150000000E+09	8.97207954095E-01	-3.26485716457E-01
1.73200000000E+09	8.96642910116E-01	-3.27957808232E-01
1.73250000000E+09	8.96075276333E-01	-3.29345447418E-01
1.73300000000E+09	8.95555552703E-01	-3.30830420725E-01
1.73350000000E+09	8.95030723189E-01	-3.32155989520E-01
1.73400000000E+09	8.94537378812E-01	-3.33619794313E-01
1.73450000000E+09	8.93928535333E-01	-3.35044794214E-01
1.73500000000E+09	8.93375262118E-01	-3.36444295737E-01
1.73550000000E+09	8.92917573242E-01	-3.37837917157E-01
1.73600000000E+09	8.92255692057E-01	-3.39308022783E-01
1.73650000000E+09	8.91734436143E-01	-3.40706806813E-01
1.73700000000E+09	8.91125740327E-01	-3.42087587810E-01
1.73750000000E+09	8.90578513667E-01	-3.43559887944E-01
1.73800000000E+09	8.90012102484E-01	-3.44984922135E-01
1.73850000000E+09	8.89459784425E-01	-3.46382540340E-01
1.73900000000E+09	8.88836393980E-01	-3.47845294294E-01
1.73950000000E+09	8.88217733051E-01	-3.49227675262E-01
1.74000000000E+09	8.87678727481E-01	-3.50658572330E-01
1.74050000000E+09	8.87018423480E-01	-3.52072697442E-01
1.74100000000E+09	8.86496081363E-01	-3.53623904262E-01
1.74150000000E+09	8.85853831573E-01	-3.55002651361E-01
1.74200000000E+09	8.85274015344E-01	-3.56431899096E-01
1.74250000000E+09	8.84575439475E-01	-3.57862574006E-01
1.74300000000E+09	8.83977846745E-01	-3.59304364343E-01
1.74350000000E+09	8.83375218418E-01	-3.60739973614E-01
1.74400000000E+09	8.82745310138E-01	-3.62190862701E-01
1.74450000000E+09	8.82154989468E-01	-3.63700172732E-01
1.74500000000E+09	8.81581288193E-01	-3.64998543772E-01
1.74550000000E+09	8.80873103452E-01	-3.66498906832E-01
1.74600000000E+09	8.80245051366E-01	-3.67846417291E-01
1.74650000000E+09	8.79600420983E-01	-3.69359794205E-01
1.74700000000E+09	8.78882522579E-01	-3.70843624297E-01
1.74750000000E+09	8.78238113405E-01	-3.72269462553E-01
1.74800000000E+09	8.77633824051E-01	-3.73734769618E-01
1.74850000000E+09	8.76939572335E-01	-3.75124899244E-01
1.74900000000E+09	8.76216601942E-01	-3.76570533069E-01
1.74950000000E+09	8.75586593539E-01	-3.78010841349E-01
1.75000000000E+09	8.74947003020E-01	-3.79492428914E-01
1.75050000000E+09	8.74216294365E-01	-3.80880853895E-01
1.75100000000E+09	8.73527156481E-01	-3.82326191995E-01
1.75150000000E+09	8.72809154937E-01	-3.83758603172E-01
1.75200000000E+09	8.72180472983E-01	-3.85187086746E-01
1.75250000000E+09	8.71436030420E-01	-3.86688407918E-01
1.75300000000E+09	8.70801121959E-01	-3.88066530137E-01
1.75350000000E+09	8.70063255277E-01	-3.89506320593E-01
1.75400000000E+09	8.69328291681E-01	-3.90958809335E-01
1.75450000000E+09	8.68602963289E-01	-3.92403075528E-01
1.75500000000E+09	8.67841264564E-01	-3.93873242533E-01
1.75550000000E+09	8.67107858176E-01	-3.95249536744E-01
1.75600000000E+09	8.66493152937E-01	-3.96711310860E-01
1.75650000000E+09	8.65658103602E-01	-3.98174410371E-01
1.75700000000E+09	8.64958027761E-01	-3.99645215600E-01
1.75750000000E+09	8.64182942948E-01	-4.01099236042E-01
1.75800000000E+09	8.63473869712E-01	-4.02456207087E-01
1.75850000000E+09	8.62732048933E-01	-4.03991121333E-01
1.75900000000E+09	8.61952976018E-01	-4.05385908679E-01
1.75950000000E+09	8.61214747897E-01	-4.06915624718E-01
1.76000000000E+09	8.60526424969E-01	-4.08309156507E-01
1.76050000000E+09	8.59690958873E-01	-4.09694761243E-01
1.76100000000E+09	8.58857457624E-01	-4.11114251051E-01
1.76150000000E+09	8.58123171006E-01	-4.12620920363E-01
1.76200000000E+09	8.57339269743E-01	-4.14034591870E-01
1.76250000000E+09	8.56486809513E-01	-4.15533203802E-01
1.76300000000E+09	8.55713410945E-01	-4.16886403653E-01
1.76350000000E+09	8.54895678727E-01	-4.18294548461E-01
1.76400000000E+09	8.54100278756E-01	-4.19723550650E-01
1.76450000000E+09	8.53301488877E-01	-4.21108279139E-01
1.76500000000E+09	8.52548197077E-01	-4.22584043401E-01
1.76550000000E+09	8.51698556467E-01	-4.23964219470E-01
1.76600000000E+09	8.50881516631E-01	-4.25419110675E-01
1.76650000000E+09	8.49967645880E-01	-4.26854383310E-01
1.76700000000E+09	8.49157782000E-01	-4.28317967759E-01
1.76750000000E+09	8.48374334400E-01	-4.29698706972E-01
1.76800000000E+09	8.47514383435E-01	-4.31073728272E-01
1.76850000000E+09	8.46611726153E-01	-4.32515967751E-01
1.76900000000E+09	8.45750947557E-01	-4.33963757857E-01
1.76950000000E+09	8.44941629423E-01	-4.35339569930E-01
1.77000000000E+09	8.44177098926E-01	-4.36718048268E-01
1.77050000000E+09	8.43265638963E-01	-4.38201960047E-01
1.77100000000E+09	8.42428869753E-01	-4.39577693699E-01
1.77150000000E+09	8.41522855708E-01	-4.40983881548E-01
1.77200000000E+09	8.40657008824E-01	-4.42415248025E-01
1.77250000000E+09	8.39805862916E-01	-4.43899373952E-01
1.77300000000E+09	8.38964072583E-01	-4.45171057303E-01
1.77350000000E+09	8.38080766834E-01	-4.46631077899E-01
1.77400000000E+09	8.37172596259E-01	-4.47996549625E-01
1.77450000000E+09	8.36260936841E-01	-4.49467976284E-01
1.77500000000E+09	8.35432603043E-01	-4.50810757315E-01
1.77550000000E+09	8.34535631593E-01	-4.52209915791E-01
1.77600000000E+09	8.33668257768E-01	-4.53543970065E-01
1.77650000000E+09	8.32747257742E-01	-4.55007855898E-01
1.77700000000E+09	8.31740955740E-01	-4.56343407264E-01
1.77750000000E+09	8.30933608408E-01	-4.57787695876E-01
1.77800000000E+09	8.29965334638E-01	-4.59230333187E-01
1.77850000000E+09	8.29091293782E-01	-4.60646574140E-01
1.77900000000E+09	8.28149679088E-01	-4.61996580132E-01
1.77950000000E+09	8.27203320895E-01	-4.63378425769E-01
1.78000000000E+09	8.26308099732E-01	-4.64749954841E-01
1.78050000000E+09	8.25344576607E-01	-4.66173911110E-01
1.78100000000E+09	8.24437646124E-01	-4.67584439824E-01
1.78150000000E+09	8.23527013080E-01	-4.68939682036E-01
1.78200000000E+09	8.22597616611E-01	-4.70365702578E-01
1.78250000000E+09	8.21559737573E-01	-4.71629691405E-01
1.78300000000E+09	8.20677320506E-01	-4.73069369457E-01
1.78350000000E+09	8.19688760560E-01	-4.74544263614E-01
1.78400000000E+09	8.18668002515E-01	-4.75874077269E-01
1.78450000000E+09	8.17801131935E-01	-4.77192738815E-01
1.78500000000E+09	8.16744976734E-01	-4.78570697204E-01
1.78550000000E+09	8.15785169950E-01	-4.79955740003E-01
1.78600000000E+09	8.14760182671E-01	-4.81273493582E-01
1.78650000000E+09	8.13845973736E-01	-4.82612387118E-01
1.78700000000E+09	8.12774676680E-01	-4.83907218034E-01
1.78750000000E+09	8.11810107044E-01	-4.85294742591E-01
1.78800000000E+09	8.10837179221E-01	-4.86660454785E-01
1.78850000000E+09	8.09859454952E-01	-4.88067650071E-01
1.78900000000E+09	8.08830263362E-01	-4.89347226783E-01
1.78950000000E+09	8.07836787143E-01	-4.90735956016E-01
1.79000000000E+09	8.06768524471E-01	-4.92071463905E-01
1.79050000000E+09	8.05905736560E-01	-4.93351034990E-01
1.79100000000E+09	8.04797394554E-01	-4.94700621739E-01
1.79150000000E+09	8.03885202611E-01	-4.96024741075E-01
1.79200000000E+09	8.02852669654E-01	-4.97400319341E-01
1.79250000000E+09	8.01826382581E-01	-4.98661053764E-01
1.79300000000E+09	8.00822029324E-01	-5.00074665877E-01
1.79350000000E+09	7.99808698634E-01	-5.01321469396E-01
1.79400000000E+09	7.98789573742E-01	-5.02601131683E-01
1.79450000000E+09	7.97756259376E-01	-5.03992785989E-01
1.79500000000E+09	7.96751545854E-01	-5.05318477998E-01
1.79550000000E+09	7.95744566770E-01	-5.06606268748E-01
1.79600000000E+09	7.94715517391E-01	-5.07940052729E-01
1.79650000000E+09	7.93674441976E-01	-5.09201330575E-01
1.79700000000E+09	7.92615643513E-01	-5.10558903409E-01
1.79750000000E+09	7.91613530100E-01	-5.11823582543E-01
1.79800000000E+09	7.90627672694E-01	-5.13156371233E-01
1.79850000000E+09	7.89620142174E-01	-5.14475396146E-01
1.79900000000E+09	7.88625303845E-01	-5.15735812710E-01
1.79950000000E+09	7.87444581466E-01	-5.17078325282E-01
1.80000000000E+09	7.86473773230E-01	-5.18301649007E-01
1.80050000000E+09	7.85370669225E-01	-5.19635176638E-01
1.80100000000E+09	7.84329997911E-01	-5.21002609310E-01
1.80150000000E+09	7.83295334928E-01	-5.22253125008E-01
1.80200000000E+09	7.82283809238E-01	-5.23546201399E-01
1.80250000000E+09	7.81105145581E-01	-5.24807557910E-01
1.80300000000E+09	7.80155320242E-01	-5.26083748238E-01
1.80350000000E+09	7.79003791590E-01	-5.27396839476E-01
1.80400000000E+09	7.77977005431E-01	-5.28633664609E-01
1.80450000000E+09	7.76953019992E-01	-5.29898474465E-01
1.80500000000E+09	7.75900099094E-01	-5.31244311604E-01
1.80550000000E+09	7.74838725267E-01	-5.32453026791E-01
1.80600000000E+09	7.73786505047E-01	-5.33763717834E-01
1.80650000000E+09	7.72643057451E-01	-5.35013544975E-01
1.80700000000E+09	7.71565394702E-01	-5.36356945442E-01
1.80750000000E+09	7.70533291748E-01	-5.37644371518E-01
1.80800000000E+09	7.69402744631E-01	-5.38976786454E-01
1.80850000000E+09	7.68318167883E-01	-5.40145764737E-01
1.80900000000E+09	7.67247907487E-01	-5.41381604907E-01
1.80950000000E+09	7.66188062563E-01	-5.42699621665E-01
1.81000000000E+09	7.65132068232E-01	-5.43946872996E-01
1.81050000000E+09	7.64128405274E-01	-5.45305453373E-01
1.81100000000E+09	7.62926081940E-01	-5.46488377269E-01
1.81150000000E+09	7.61840803825E-01	-5.47781588951E-01
1.81200000000E+09	7.60831258966E-01	-5.49035010520E-01
1.81250000000E+09	7.59746592535E-01	-5.50338385904E-01
1.81300000000E+09	7.58596141942E-01	-5.51569099236E-01
1.81350000000E+09	7.57514017089E-01	-5.52775222849E-01
1.81400000000E+09	7.56347437217E-01	-5.54162940980E-01
1.81450000000E+09	7.55260069669E-01	-5.55332397732E-01
1.81500000000E+09	7.54167895868E-01	-5.56658781477E-01
1.81550000000E+09	7.53050911725E-01	-5.57937175900E-01
1.81600000000E+09	7.51904471575E-01	-5.59120308161E-01
1.81650000000E+09	7.50813689485E-01	-5.60481277680E-01
1.81700000000E+09	7.49695248343E-01	-5.61627898704E-01
1.81750000000E+09	7.48565135679E-01	-5.62884823761E-01
1.81800000000E+09	7.47553220282E-01	-5.64160465323E-01
1.81850000000E+09	7.46260406877E-01	-5.65388140924E-01
1.81900000000E+09	7.45191587189E-01	-5.66650251194E-01
1.81950000000E+09	7.44092176768E-01	-5.67917634077E-01
1.82000000000E+09	7.43020830533E-01	-5.69197978274E-01
1.82050000000E+09	7.41822859922E-01	-5.70444823715E-01
1.82100000000E+09	7.40705524697E-01	-5.71681915472E-01
1.82150000000E+09	7.39558226495E-01	-5.72951873666E-01
1.82200000000E+09	7.38328373598E-01	-5.74138281815E-01
1.82250000000E+09	7.37229721176E-01	-5.75342066455E-01
1.82300000000E+09	7.36110668427E-01	-5.76602183975E-01
1.82350000000E+09	7.34897818002E-01	-5.77810644933E-01
1.82400000000E+09	7.33822418444E-01	-5.79123717369E-01
1.82450000000E+09	7.32621209957E-01	-5.80272280498E-01
1.82500000000E+09	7.31431065178E-01	-5.81579304042E-01
1.82550000000E+09	7.30304524916E-01	-5.82798610117E-01
1.82600000000E+09	7.29135438173E-01	-5.84021827077E-01
1.82650000000E+09	7.27981469860E-01	-5.85253846112E-01
1.82700000000E+09	7.26766395136E-01	-5.86445258087E-01
1.82750000000E+09	7.25648695371E-01	-5.87686778868E-01
1.82800000000E+09	7.24411599291E-01	-5.88938611522E-01
1.82850000000E+09	7.23248686482E-01	-5.90139887920E-01
1.82900000000E+09	7.22069748937E-01	-5.91365627153E-01
1.82950000000E+09	7.20941019785E-01	-5.92626126030E-01
1.83000000000E+09	7.19739379689E-01	-5.93819360604E-01
1.83050000000E+09	7.18576618929E-01	-5.95067595874E-01
1.83100000000E+09	7.17365686773E-01	-5.96303644238E-01
1.83150000000E+09	7.16203454041E-01	-5.97506706773E-01
1.83200000000E+09	7.14987593562E-01	-5.98727804453E-01
1.83250000000E+09	7.13773273692E-01	-5.99989533600E-01
1.83300000000E+09	7.12587408136E-01	-6.01218969849E-01
1.83350000000E+09	7.11364434049E-01	-6.02399364868E-01
1.83400000000E+09	7.10152910093E-01	-6.03675242795E-01
1.83450000000E+09	7.08898886632E-01	-6.04921083523E-01
1.83500000000E+09	7.07669382778E-01	-6.06142941207E-01
1.83550000000E+09	7.06463907912E-01	-6.07390606089E-01
1.83600000000E+09	7.05219965514E-01	-6.08515197968E-01
1.83650000000E+09	7.04033627396E-01	-6.09758824850E-01
1.83700000000E+09	7.02726030340E-01	-6.11041307814E-01
1.83750000000E+09	7.01518144514E-01	-6.12157808563E-01
1.83800000000E+09	7.00290191065E-01	-6.13361080038E-01
1.83850000000E+09	6.99027918354E-01	-6.14590199834E-01
1.83900000000E+09	6.97784864381E-01	-6.15758261382E-01
1.83950000000E+09	6.96531862802E-01	-6.17041694139E-01
1.84000000000E+09	6.95336938567E-01	-6.18217242084E-01
1.84050000000E+09	6.94040873264E-01	-6.19428553347E-01
1.84100000000E+09	6.92774208123E-01	-6.20647918828E-01
1.84150000000E+09	6.91508091693E-01	-6.21908309388E-01
1.84200000000E+09	6.90262185678E-01	-6.23106430577E-01
1.84250000000E+09	6.88970336144E-01	-6.24224483527E-01
1.84300000000E+09	6.87756423054E-01	-6.25424712358E-01
1.84350000000E+09	6.86398105679E-01	-6.26686342875E-01
1.84400000000E+09	6.85140081903E-01	-6.27904189867E-01
1.84450000000E+09	6.83800227997E-01	-6.29131456502E-01
1.84500000000E+09	6.82462668629E-01	-6.30306428692E-01
1.84550000000E+09	6.81247288167E-01	-6.31539811924E-01
1.84600000000E+09	6.79924284650E-01	-6.32724124846E-01
1.84650000000E+09	6.78623156016E-01	-6.33910040344E-01
1.84700000000E+09	6.77312422873E-01	-6.35086953685E-01
1.84750000000E+09	6.76015374935E-01	-6.36366554398E-01
1.84800000000E+09	6.74680318103E-01	-6.37558558344E-01
1.84850000000E+09	6.73350331397E-01	-6.38718347927E-01
1.84900000000E+09	6.72048534081E-01	-6.39896293590E-01
1.84950000000E+09	6.70733876316E-01	-6.41182184909E-01
1.85000000000E+09	6.69346245862E-01	-6.42317998874E-01
1.85050000000E+09	6.67974651937E-01	-6.43558257095E-01
1.85100000000E+09	6.66648867287E-01	-6.44691885917E-01
1.85150000000E+09	6.65347415388E-01	-6.45934884769E-01
1.85200000000E+09	6.63923296682E-01	-6.47118074127E-01
1.85250000000E+09	6.62584399103E-01	-6.48289402350E-01
1.85300000000E+09	6.61228953883E-01	-6.49517440024E-01
1.85350000000E+09	6.59874102800E-01	-6.50704439975E-01
1.85400000000E+09	6.58511997469E-01	-6.51871945531E-01
1.85450000000E+09	6.57055000835E-01	-6.53100869673E-01
1.85500000000E+09	6.55649870955E-01	-6.54258047107E-01
1.85550000000E+09	6.54318288142E-01	-6.55442608546E-01
1.85600000000E+09	6.52955038046E-01	-6.56659851299E-01
1.85650000000E+09	6.51461144485E-01	-6.57852764014E-01
1.85700000000E+09	6.50111884743E-01	-6.59062734593E-01
1.85750000000E+09	6.48633844411E-01	-6.60225374840E-01
1.85800000000E+09	6.47260721730E-01	-6.61314973943E-01
1.85850000000E+09	6.45749824719E-01	-6.62496626391E-01
1.85900000000E+09	6.44358001831E-01	-6.63644931743E-01
1.85950000000E+09	6.42815640422E-01	-6.64810255007E-01
1.86000000000E+09	6.41403067084E-01	-6.66037837804E-01
1.86050000000E+09	6.39936456514E-01	-6.67260651891E-01
1.86100000000E+09	6.38531839813E-01	-6.68425430970E-01
1.86150000000E+09	6.37094346776E-01	-6.69517978834E-01
1.86200000000E+09	6.35590645330E-01	-6.70708667755E-01
1.86250000000E+09	6.34043037962E-01	-6.71803720677E-01
1.86300000000E+09	6.32546056325E-01	-6.72900328013E-01
1.86350000000E+09	6.31177424362E-01	-6.74083371821E-01
1.86400000000E+09	6.29637411120E-01	-6.75179589706E-01
1.86450000000E+09	6.28263040224E-01	-6.76386294634E-01
1.86500000000E+09	6.26626280217E-01	-6.77555971833E-01
1.86550000000E+09	6.25224350396E-01	-6.78618570815E-01
1.86600000000E+09	6.23700102003E-01	-6.79780251249E-01
1.86650000000E+09	6.22160758026E-01	-6.80912093089E-01
1.86700000000E+09	6.20749320063E-01	-6.82027502647E-01
1.86750000000E+09	6.19197615973E-01	-6.83099341602E-01
1.86800000000E+09	6.17677879069E-01	-6.84328944005E-01
1.86850000000E+09	6.16219798016E-01	-6.85427234747E-01
1.86900000000E+09	6.14645201422E-01	-6.86576570445E-01
1.86950000000E+09	6.13133897622E-01	-6.87715293528E-01
1.87000000000E+09	6.11667539153E-01	-6.88810133042E-01
1.87050000000E+09	6.09994009541E-01	-6.89933926555E-01
1.87100000000E+09	6.08499280189E-01	-6.91107257891E-01
1.87150000000E+09	6.06985290360E-01	-6.92194273480E-01
1.87200000000E+09	6.05491467622E-01	-6.93354910629E-01
1.87250000000E+09	6.03924418207E-01	-6.94494163275E-01
1.87300000000E+09	6.02335923530E-01	-6.95633088813E-01
1.87350000000E+09	6.00764847952E-01	-6.96710266301E-01
1.87400000000E+09	5.99166579815E-01	-6.97824196776E-01
1.87450000000E+09	5.97591392880E-01	-6.99039270744E-01
1.87500000000E+09	5.96025721769E-01	-7.00169611631E-01
1.87550000000E+09	5.94451245268E-01	-7.01314276105E-01
1.87600000000E+09	5.92808156718E-01	-7.02383132076E-01
1.87650000000E+09	5.91255180321E-01	-7.03620726768E-01
