# Hz S RI R 50
! CMT, CMT808U, 21440046, 21.4.3/4
! Date: 12/1/2025 1:34:36 PM
! Data: Format (Calibration Info)
! Freq	S11:Re/Im(F2)
1.70000000000E+09	9.51666768698E-01	-1.27947237535E-01
1.70050000000E+09	9.51435785643E-01	-1.29256932639E-01
1.70100000000E+09	9.51196780194E-01	-1.30493081810E-01
1.70150000000E+09	9.51020870564E-01	-1.31843312336E-01
1.70200000000E+09	9.50789957243E-01	-1.33092100620E-01
1.70250000000E+09	9.50561399576E-01	-1.34458196206E-01
1.70300000000E+09	9.50472458774E-01	-1.35672901342E-01
1.70350000000E+09	9.50157146978E-01	-1.36966795044E-01
1.70400000000E+09	9.50007784941E-01	-1.38292038753E-01
1.70450000000E+09	9.49812251323E-01	-1.39567521199E-01
1.70500000000E+09	9.49525859424E-01	-1.40855430087E-01
1.70550000000E+09	9.49388273606E-01	-1.42156932633E-01
1.70600000000E+09	9.49204266712E-01	-1.43395226589E-01
1.70650000000E+09	9.48932245365E-01	-1.44703099523E-01
1.70700000000E+09	9.48766353915E-01	-1.45958526524E-01
1.70750000000E+09	9.48568004641E-01	-1.47244899212E-01
1.70800000000E+09	9.48329276475E-01	-1.48533942104E-01
1.70850000000E+09	9.48110381833E-01	-1.49851664993E-01
1.70900000000E+09	9.47928804655E-01	-1.51125428383E-01
1.70950000000E+09	9.47730459597E-01	-1.52460538739E-01
1.71000000000E+09	9.47519427432E-01	-1.53743223645E-01
1.71050000000E+09	9.47332858779E-01	-1.55052073712E-01
1.71100000000E+09	9.47156159156E-01	-1.56401450725E-01
1.71150000000E+09	9.46920206860E-01	-1.57632174907E-01
1.71200000000E+09	9.46675565110E-01	-1.58946794504E-01
1.71250000000E+09	9.46527961993E-01	-1.60346924497E-01
1.71300000000E+09	9.46284649200E-01	-1.61616572733E-01
1.71350000000E+09	9.46020096432E-01	-1.62893650167E-01
1.71400000000E+09	9.45860041544E-01	-1.64259235928E-01
1.71450000000E+09	9.45634330367E-01	-1.65591955230E-01
1.71500000000E+09	9.45463803554E-01	-1.66919467921E-01
1.71550000000E+09	9.45227381385E-01	-1.68218019469E-01
1.71600000000E+09	9.44937339558E-01	-1.69581335424E-01
1.71650000000E+09	9.44652536525E-01	-1.70867299104E-01
1.71700000000E+09	9.44554040699E-01	-1.72192647577E-01
1.71750000000E+09	9.44278490544E-01	-1.73582416348E-01
1.71800000000E+09	9.44079936909E-01	-1.74850069989E-01
1.71850000000E+09	9.43761610221E-01	-1.76212736356E-01
1.71900000000E+09	9.43552884619E-01	-1.77568706754E-01
1.71950000000E+09	9.43248502428E-01	-1.78902266962E-01
1.72000000000E+09	9.42964653368E-01	-1.80275597880E-01
1.72050000000E+09	9.42767530129E-01	-1.81591181019E-01
1.72100000000E+09	9.42494898897E-01	-1.82942423190E-01
1.72150000000E+09	9.42226994330E-01	-1.84277083646E-01
1.72200000000E+09	9.41978288315E-01	-1.85638183843E-01
1.72250000000E+09	9.41741821554E-01	-1.86950393649E-01
1.72300000000E+09	9.41868209422E-01	-1.88205994271E-01
1.72350000000E+09	9.41678764372E-01	-1.89636015278E-01
1.72400000000E+09	9.41442479901E-01	-1.90939253661E-01
1.72450000000E+09	9.41168270150E-01	-1.92303596259E-01
1.72500000000E+09	9.40839203137E-01	-1.93648107118E-01
1.72550000000E+09	9.40526306491E-01	-1.94992370068E-01
1.72600000000E+09	9.40194000981E-01	-1.96355405761E-01
1.72650000000E+09	9.40019266295E-01	-1.97782523939E-01
1.72700000000E+09	9.39770126185E-01	-1.99127879676E-01
1.72750000000E+09	9.39431638731E-01	-2.00435563432E-01
1.72800000000E+09	9.39202824510E-01	-2.01801732246E-01
1.72850000000E+09	9.38808428450E-01	-2.03152630260E-01
1.72900000000E+09	9.38709402300E-01	-2.04570423203E-01
1.72950000000E+09	9.38335560053E-01	-2.05894573533E-01
1.73000000000E+09	9.38082153709E-01	-2.07381968920E-01
1.73050000000E+09	9.37728428251E-01	-2.08657533556E-01
1.73100000000E+09	9.37390516259E-01	-2.10073127456E-01
1.73150000000E+09	9.37097179739E-01	-2.11442259534E-01
1.73200000000E+09	9.36772405035E-01	-2.12895413665E-01
1.73250000000E+09	9.36448377480E-01	-2.14206740218E-01
1.73300000000E+09	9.36146300081E-01	-2.15663228056E-01
1.73350000000E+09	9.35791877270E-01	-2.16959790180E-01
1.73400000000E+09	9.35525642100E-01	-2.18461964291E-01
1.73450000000E+09	9.35140813595E-01	-2.19792018432E-01
1.73500000000E+09	9.34785718241E-01	-2.21208379020E-01
1.73550000000E+09	9.34460979938E-01	-2.22526864348E-01
1.73600000000E+09	9.34106962634E-01	-2.23982992291E-01
1.73650000000E+09	9.33764224141E-01	-2.25443550162E-01
1.73700000000E+09	9.33388209106E-01	-2.26788117864E-01
1.73750000000E+09	9.33106802458E-01	-2.28261104989E-01
1.73800000000E+09	9.32729619386E-01	-2.29619740765E-01
1.73850000000E+09	9.32368937965E-01	-2.30997033006E-01
1.73900000000E+09	9.31995573639E-01	-2.32380159092E-01
1.73950000000E+09	9.31604443289E-01	-2.33743177136E-01
1.74000000000E+09	9.31268970407E-01	-2.35313029103E-01
1.74050000000E+09	9.30804483510E-01	-2.36574361361E-01
1.74100000000E+09	9.30524488727E-01	-2.38108956656E-01
1.74150000000E+09	9.30147950987E-01	-2.39513078029E-01
1.74200000000E+09	9.29792306733E-01	-2.40935878047E-01
1.74250000000E+09	9.29293867786E-01	-2.42306581641E-01
1.74300000000E+09	9.28944227343E-01	-2.43776546033E-01
1.74350000000E+09	9.28499023049E-01	-2.45199142802E-01
1.74400000000E+09	9.28124223759E-01	-2.46642923541E-01
1.74450000000E+09	9.27722678448E-01	-2.48077146181E-01
1.74500000000E+09	9.27407416073E-01	-2.49433449129E-01
1.74550000000E+09	9.26937132008E-01	-2.50870331454E-01
1.74600000000E+09	9.26495860911E-01	-2.52245376665E-01
1.74650000000E+09	9.26117016086E-01	-2.53737341940E-01
1.74700000000E+09	9.25638391155E-01	-2.55203829482E-01
1.74750000000E+09	9.25221705495E-01	-2.56631042326E-01
1.74800000000E+09	9.24723525656E-01	-2.58097464968E-01
1.74850000000E+09	9.24357490096E-01	-2.59440033250E-01
1.74900000000E+09	9.23868235789E-01	-2.60986134610E-01
1.74950000000E+09	9.23439256960E-01	-2.62359176654E-01
1.75000000000E+09	9.23051995647E-01	-2.63852287154E-01
1.75050000000E+09	9.22552180413E-01	-2.65302161339E-01
1.75100000000E+09	9.22121796451E-01	-2.66725501879E-01
1.75150000000E+09	9.21642141905E-01	-2.68184075683E-01
1.75200000000E+09	9.21171694790E-01	-2.69634311934E-01
1.75250000000E+09	9.20667409919E-01	-2.71020295935E-01
1.75300000000E+09	9.20257368201E-01	-2.72518542628E-01
1.75350000000E+09	9.19798448409E-01	-2.73897112900E-01
1.75400000000E+09	9.19213525111E-01	-2.75387127598E-01
1.75450000000E+09	9.18768005167E-01	-2.76838425799E-01
1.75500000000E+09	9.18191105412E-01	-2.78337386791E-01
1.75550000000E+09	9.17733631012E-01	-2.79746779089E-01
1.75600000000E+09	9.17332691487E-01	-2.81161672417E-01
1.75650000000E+09	9.16785881508E-01	-2.82643442741E-01
1.75700000000E+09	9.16236624846E-01	-2.84111099792E-01
1.75750000000E+09	9.15781600463E-01	-2.85554865052E-01
1.75800000000E+09	9.15324042809E-01	-2.87095602102E-01
1.75850000000E+09	9.14800219633E-01	-2.88561813026E-01
1.75900000000E+09	9.14256600604E-01	-2.90020268215E-01
1.75950000000E+09	9.13720865344E-01	-2.91495477754E-01
1.76000000000E+09	9.13289992323E-01	-2.92938970371E-01
1.76050000000E+09	9.12661965477E-01	-2.94395981230E-01
1.76100000000E+09	9.12164170060E-01	-2.95889573994E-01
1.76150000000E+09	9.11574409953E-01	-2.97371820567E-01
1.76200000000E+09	9.11067380234E-01	-2.98843722738E-01
1.76250000000E+09	9.10518699691E-01	-3.00409145340E-01
1.76300000000E+09	9.09890328076E-01	-3.01817689745E-01
1.76350000000E+09	9.09259842324E-01	-3.03320604391E-01
1.76400000000E+09	9.08716019079E-01	-3.04780331752E-01
1.76450000000E+09	9.08124844207E-01	-3.06256475472E-01
1.76500000000E+09	9.07643675835E-01	-3.07707702710E-01
1.76550000000E+09	9.06979422355E-01	-3.09220854554E-01
1.76600000000E+09	9.06330737207E-01	-3.10728218284E-01
1.76650000000E+09	9.05669379454E-01	-3.12220304652E-01
1.76700000000E+09	9.05102593772E-01	-3.13657509438E-01
1.76750000000E+09	9.04515858038E-01	-3.15125649370E-01
1.76800000000E+09	9.03919134655E-01	-3.16672742764E-01
1.76850000000E+09	9.03202099033E-01	-3.18014376163E-01
1.76900000000E+09	9.02537987214E-01	-3.19579325850E-01
1.76950000000E+09	9.01877976542E-01	-3.21076462978E-01
1.77000000000E+09	9.01329589151E-01	-3.22536486570E-01
1.77050000000E+09	9.00639796901E-01	-3.23940323147E-01
1.77100000000E+09	8.99976874029E-01	-3.25407274988E-01
1.77150000000E+09	8.99295660181E-01	-3.26891266890E-01
1.77200000000E+09	8.98642835073E-01	-3.28386944256E-01
1.77250000000E+09	8.98015179192E-01	-3.29796576654E-01
1.77300000000E+09	8.97359289543E-01	-3.31229559792E-01
1.77350000000E+09	8.96673506634E-01	-3.32656785371E-01
1.77400000000E+09	8.95956812550E-01	-3.34139149666E-01
1.77450000000E+09	8.95241626316E-01	-3.35605049253E-01
1.77500000000E+09	8.94581387760E-01	-3.36978270678E-01
1.77550000000E+09	8.93932564288E-01	-3.38488732729E-01
1.77600000000E+09	8.93200024997E-01	-3.39893508279E-01
1.77650000000E+09	8.92582293709E-01	-3.41341636171E-01
1.77700000000E+09	8.91750082684E-01	-3.42796783344E-01
1.77750000000E+09	8.91111497902E-01	-3.44182184659E-01
1.77800000000E+09	8.90402136163E-01	-3.45624191719E-01
1.77850000000E+09	8.89702188051E-01	-3.47052816545E-01
1.77900000000E+09	8.88983952674E-01	-3.48577278401E-01
1.77950000000E+09	8.88264571163E-01	-3.49972945004E-01
1.78000000000E+09	8.87576941379E-01	-3.51380693683E-01
1.78050000000E+09	8.86827291461E-01	-3.52784048831E-01
1.78100000000E+09	8.86117621681E-01	-3.54258301054E-01
1.78150000000E+09	8.85478898126E-01	-3.55606705323E-01
1.78200000000E+09	8.84717578872E-01	-3.57074659287E-01
1.78250000000E+09	8.83949611847E-01	-3.58407096262E-01
1.78300000000E+09	8.83241845636E-01	-3.59907558870E-01
1.78350000000E+09	8.82516395544E-01	-3.61381509106E-01
1.78400000000E+09	8.81752367770E-01	-3.62764178910E-01
1.78450000000E+09	8.81001218474E-01	-3.64154532121E-01
1.78500000000E+09	8.80313014007E-01	-3.65582533234E-01
1.78550000000E+09	8.79510458517E-01	-3.66959462211E-01
1.78600000000E+09	8.78742470725E-01	-3.68434692475E-01
1.78650000000E+09	8.78067889632E-01	-3.69748811854E-01
1.78700000000E+09	8.77283427693E-01	-3.71166342149E-01
1.78750000000E+09	8.76504958374E-01	-3.72649357693E-01
1.78800000000E+09	8.75765515829E-01	-3.74035848469E-01
1.78850000000E+09	8.75032952095E-01	-3.75430753076E-01
1.78900000000E+09	8.74221902572E-01	-3.76872485164E-01
1.78950000000E+09	8.73487806866E-01	-3.78263005664E-01
1.79000000000E+09	8.72661951093E-01	-3.79704098196E-01
1.79050000000E+09	8.71996942643E-01	-3.81082721233E-01
1.79100000000E+09	8.71197179107E-01	-3.82450047474E-01
1.79150000000E+09	8.70443198930E-01	-3.83899798336E-01
1.79200000000E+09	8.69615516306E-01	-3.85367364177E-01
1.79250000000E+09	8.68765251143E-01	-3.86721507499E-01
1.79300000000E+09	8.68026972482E-01	-3.88158048281E-01
1.79350000000E+09	8.67222286265E-01	-3.89546820561E-01
1.79400000000E+09	8.66368695478E-01	-3.90908574313E-01
1.79450000000E+09	8.65607056800E-01	-3.92354120403E-01
1.79500000000E+09	8.64739944030E-01	-3.93696277819E-01
1.79550000000E+09	8.63901875070E-01	-3.95038955763E-01
1.79600000000E+09	8.63150297627E-01	-3.96497319493E-01
1.79650000000E+09	8.62280446917E-01	-3.97799926550E-01
1.79700000000E+09	8.61511822383E-01	-3.99217608419E-01
1.79750000000E+09	8.60583609736E-01	-4.00545766515E-01
1.79800000000E+09	8.59828288989E-01	-4.01913645108E-01
1.79850000000E+09	8.59017428565E-01	-4.03264529518E-01
1.79900000000E+09	8.58212156527E-01	-4.04630299498E-01
1.79950000000E+09	8.57306767698E-01	-4.06027133574E-01
1.80000000000E+09	8.56540316482E-01	-4.07327349554E-01
1.80050000000E+09	8.55651367020E-01	-4.08750230569E-01
1.80100000000E+09	8.54881416137E-01	-4.10023620930E-01
1.80150000000E+09	8.54086550069E-01	-4.11406216989E-01
1.80200000000E+09	8.53217227817E-01	-4.12721757619E-01
1.80250000000E+09	8.52233415529E-01	-4.14143151323E-01
1.80300000000E+09	8.51527440768E-01	-4.15428490276E-01
1.80350000000E+09	8.50664223370E-01	-4.16712840225E-01
1.80400000000E+09	8.49835984813E-01	-4.18087189934E-01
1.80450000000E+09	8.48982994528E-01	-4.19406691088E-01
1.80500000000E+09	8.48108916863E-01	-4.20724257417E-01
1.80550000000E+09	8.47290054997E-01	-4.22072432342E-01
1.80600000000E+09	8.46453333458E-01	-4.23370937402E-01
1.80650000000E+09	8.45653165269E-01	-4.24732388798E-01
1.80700000000E+09	8.44807845620E-01	-4.26102864623E-01
1.80750000000E+09	8.43906776207E-01	-4.27412010493E-01
1.80800000000E+09	8.43164567391E-01	-4.28770385956E-01
1.80850000000E+09	8.42220702957E-01	-4.30074234930E-01
1.80900000000E+09	8.41386742061E-01	-4.31364735775E-01
1.80950000000E+09	8.40581289527E-01	-4.32778888297E-01
1.81000000000E+09	8.39708648632E-01	-4.34024450745E-01
1.81050000000E+09	8.38968027930E-01	-4.35379209631E-01
1.81100000000E+09	8.38017933072E-01	-4.36714301897E-01
1.81150000000E+09	8.37139183372E-01	-4.38006155968E-01
1.81200000000E+09	8.36381946782E-01	-4.39326551308E-01
1.81250000000E+09	8.35524642738E-01	-4.40659429489E-01
1.81300000000E+09	8.34609628385E-01	-4.42005133515E-01
1.81350000000E+09	8.33725409115E-01	-4.43313457087E-01
1.81400000000E+09	8.32903906232E-01	-4.44620325379E-01
1.81450000000E+09	8.32002159955E-01	-4.45885193670E-01
1.81500000000E+09	8.31151245457E-01	-4.47251408786E-01
1.81550000000E+09	8.30243022185E-01	-4.48621999840E-01
1.81600000000E+09	8.29373278619E-01	-4.49870939929E-01
1.81650000000E+09	8.28505285067E-01	-4.51233398017E-01
1.81700000000E+09	8.27543528308E-01	-4.52462683425E-01
1.81750000000E+09	8.26707233919E-01	-4.53843102866E-01
1.81800000000E+09	8.25901916635E-01	-4.55060678494E-01
1.81850000000E+09	8.24910254960E-01	-4.56431415916E-01
1.81900000000E+09	8.24080637196E-01	-4.57720105095E-01
1.81950000000E+09	8.23149983145E-01	-4.59068414888E-01
1.82000000000E+09	8.22318700336E-01	-4.60324038383E-01
1.82050000000E+09	8.21386175937E-01	-4.61576057491E-01
1.82100000000E+09	8.20488126885E-01	-4.62934339802E-01
1.82150000000E+09	8.19624222082E-01	-4.64206977163E-01
1.82200000000E+09	8.18678600347E-01	-4.65452337027E-01
1.82250000000E+09	8.17847693320E-01	-4.66691969740E-01
1.82300000000E+09	8.16972725256E-01	-4.67948112598E-01
1.82350000000E+09	8.15952538342E-01	-4.69243089834E-01
1.82400000000E+09	8.15177446799E-01	-4.70532749848E-01
1.82450000000E+09	8.14180398071E-01	-4.71787714259E-01
1.82500000000E+09	8.13313497832E-01	-4.73109444908E-01
1.82550000000E+09	8.12405595886E-01	-4.74391122808E-01
1.82600000000E+09	8.11517797763E-01	-4.75616194327E-01
1.82650000000E+09	8.10669798369E-01	-4.76891434839E-01
1.82700000000E+09	8.09724482556E-01	-4.78164691689E-01
1.82750000000E+09	8.08856800681E-01	-4.79382884928E-01
1.82800000000E+09	8.07978658898E-01	-4.80740803676E-01
1.82850000000E+09	8.07069950704E-01	-4.81923845416E-01
1.82900000000E+09	8.06174739845E-01	-4.83239390385E-01
1.82950000000E+09	8.05302241695E-01	-4.84622545880E-01
1.83000000000E+09	8.04331217013E-01	-4.85821414467E-01
1.83050000000E+09	8.03503256027E-01	-4.87115241103E-01
1.83100000000E+09	8.02520485024E-01	-4.88459825554E-01
1.83150000000E+09	8.01648009274E-01	-4.89683566048E-01
1.83200000000E+09	8.00720090391E-01	-4.90922154657E-01
1.83250000000E+09	7.99783093358E-01	-4.92178053397E-01
1.83300000000E+09	7.98870629540E-01	-4.93489203050E-01
1.83350000000E+09	7.97909286966E-01	-4.94814609722E-01
1.83400000000E+09	7.97031478815E-01	-4.96075199065E-01
1.83450000000E+09	7.96112954519E-01	-4.97359439255E-01
1.83500000000E+09	7.95134802215E-01	-4.98599239144E-01
1.83550000000E+09	7.94285261002E-01	-4.99932907365E-01
1.83600000000E+09	7.93261662136E-01	-5.01140814015E-01
1.83650000000E+09	7.92351332517E-01	-5.02469493190E-01
1.83700000000E+09	7.91431271193E-01	-5.03792081756E-01
1.83750000000E+09	7.90446129751E-01	-5.05001480051E-01
1.83800000000E+09	7.89568316221E-01	-5.06271596221E-01
1.83850000000E+09	7.88549645109E-01	-5.07567548370E-01
1.83900000000E+09	7.87671972771E-01	-5.08849442601E-01
1.83950000000E+09	7.86684702351E-01	-5.10135843520E-01
1.84000000000E+09	7.85752918658E-01	-5.11391409368E-01
1.84050000000E+09	7.84762102495E-01	-5.12674766599E-01
1.84100000000E+09	7.83790173185E-01	-5.13923343659E-01
1.84150000000E+09	7.82772887741E-01	-5.15254908996E-01
1.84200000000E+09	7.81873437928E-01	-5.16531868380E-01
1.84250000000E+09	7.80853538748E-01	-5.17709039547E-01
1.84300000000E+09	7.79908979380E-01	-5.19058533651E-01
1.84350000000E+09	7.78925012563E-01	-5.20317215325E-01
1.84400000000E+09	7.77933153641E-01	-5.21633138513E-01
1.84450000000E+09	7.76938966834E-01	-5.22914795780E-01
1.84500000000E+09	7.75924717922E-01	-5.24158535326E-01
1.84550000000E+09	7.74942133002E-01	-5.25452160371E-01
1.84600000000E+09	7.73946111327E-01	-5.26723676950E-01
1.84650000000E+09	7.72952610934E-01	-5.28050816085E-01
1.84700000000E+09	7.71922614768E-01	-5.29286317845E-01
1.84750000000E+09	7.70910596407E-01	-5.30542330543E-01
1.84800000000E+09	7.69887001216E-01	-5.31827582661E-01
1.84850000000E+09	7.68843796591E-01	-5.33080092225E-01
1.84900000000E+09	7.67884582760E-01	-5.34336722309E-01
1.84950000000E+09	7.66805865217E-01	-5.35705139477E-01
1.85000000000E+09	7.65782993077E-01	-5.36870640809E-01
1.85050000000E+09	7.64744328853E-01	-5.38241196717E-01
1.85100000000E+09	7.63721603930E-01	-5.39411886516E-01
1.85150000000E+09	7.62667237885E-01	-5.40699558102E-01
1.85200000000E+09	7.61609817462E-01	-5.42032217139E-01
1.85250000000E+09	7.60573268480E-01	-5.43285562243E-01
1.85300000000E+09	7.59519560458E-01	-5.44563978678E-01
1.85350000000E+09	7.58439127094E-01	-5.45780407465E-01
1.85400000000E+09	7.57380348077E-01	-5.47075815904E-01
1.85450000000E+09	7.56318902580E-01	-5.48476035751E-01
1.85500000000E+09	7.55171076762E-01	-5.49647544330E-01
1.85550000000E+09	7.54137774340E-01	-5.50907039353E-01
1.85600000000E+09	7.53134668465E-01	-5.52203997158E-01
1.85650000000E+09	7.51997274162E-01	-5.53467651891E-01
1.85700000000E+09	7.50927657173E-01	-5.54844022410E-01
1.85750000000E+09	7.49756931391E-01	-5.55994617685E-01
1.85800000000E+09	7.48735254749E-01	-5.57250065765E-01
1.85850000000E+09	7.47610920684E-01	-5.58601485620E-01
1.85900000000E+09	7.46478033784E-01	-5.59806177607E-01
1.85950000000E+09	7.45375002451E-01	-5.61158128498E-01
1.86000000000E+09	7.44252181593E-01	-5.62434019002E-01
1.86050000000E+09	7.43085416873E-01	-5.63728033649E-01
1.86100000000E+09	7.42001690622E-01	-5.65026585941E-01
1.86150000000E+09	7.40792356995E-01	-5.66237992112E-01
1.86200000000E+09	7.39672855536E-01	-5.67629106489E-01
1.86250000000E+09	7.38379102413E-01	-5.68856026025E-01
1.86300000000E+09	7.37264594541E-01	-5.70139521542E-01
1.86350000000E+09	7.36151865821E-01	-5.71347058931E-01
1.86400000000E+09	7.34885150720E-01	-5.72691846661E-01
1.86450000000E+09	7.33791882343E-01	-5.73944233225E-01
1.86500000000E+09	7.32493027244E-01	-5.75238747051E-01
1.86550000000E+09	7.31325226868E-01	-5.76426966492E-01
1.86600000000E+09	7.30018345620E-01	-5.77728056661E-01
1.86650000000E+09	7.28811522568E-01	-5.78962926642E-01
1.86700000000E+09	7.27590690047E-01	-5.80174707367E-01
1.86750000000E+09	7.26389794609E-01	-5.81314822086E-01
1.86800000000E+09	7.25028588208E-01	-5.82706806121E-01
1.86850000000E+09	7.23868529535E-01	-5.83916905332E-01
1.86900000000E+09	7.22586992134E-01	-5.85110739554E-01
1.86950000000E+09	7.21286435361E-01	-5.86343317088E-01
1.87000000000E+09	7.20009251184E-01	-5.87532062298E-01
1.87050000000E+09	7.18686352150E-01	-5.88689021192E-01
1.87100000000E+09	7.17447590608E-01	-5.89916279023E-01
1.87150000000E+09	7.16128647489E-01	-5.91115313223E-01
1.87200000000E+09	7.14913123393E-01	-5.92305184924E-01
1.87250000000E+09	7.13592694892E-01	-5.93537643916E-01
1.87300000000E+09	7.12331613251E-01	-5.94644822489E-01
1.87350000000E+09	7.11013805267E-01	-5.95848528413E-01
1.87400000000E+09	7.09667866920E-01	-5.96999017402E-01
1.87450000000E+09	7.08403124572E-01	-5.98120451343E-01
1.87500000000E+09	7.07156323302E-01	-5.99345741696E-01
1.87550000000E+09	7.05828809040E-01	-6.00488861652E-01
1.87600000000E+09	7.04531991353E-01	-6.01538167340E-01
1.87650000000E+09	7.03225469230E-01	-6.02754493764E-01
