# Hz S RI R 50
! CMT, CMT808U, 21440046, 21.4.3/4
! Date: 12/1/2025 1:46:39 PM
! Data: Format (Calibration Info)
! Freq	S11:Re/Im(F2)
1.70000000000E+09	9.44509062600E-01	-1.58063748360E-01
1.70050000000E+09	9.44252321022E-01	-1.59360045699E-01
1.70100000000E+09	9.43971525624E-01	-1.60669324940E-01
1.70150000000E+09	9.43729495312E-01	-1.62012245235E-01
1.70200000000E+09	9.43442556533E-01	-1.63248650424E-01
1.70250000000E+09	9.43194070599E-01	-1.64643670766E-01
1.70300000000E+09	9.43010547605E-01	-1.65873794588E-01
1.70350000000E+09	9.42676755625E-01	-1.67224066757E-01
1.70400000000E+09	9.42484437994E-01	-1.68538304684E-01
1.70450000000E+09	9.42153231326E-01	-1.69859518888E-01
1.70500000000E+09	9.41910170713E-01	-1.71218193821E-01
1.70550000000E+09	9.41670461845E-01	-1.72495604641E-01
1.70600000000E+09	9.41444693807E-01	-1.73810425668E-01
1.70650000000E+09	9.41057156900E-01	-1.75133810556E-01
1.70700000000E+09	9.40841260192E-01	-1.76411775530E-01
1.70750000000E+09	9.40593862318E-01	-1.77785625647E-01
1.70800000000E+09	9.40278929006E-01	-1.79033516113E-01
1.70850000000E+09	9.40009195838E-01	-1.80415431545E-01
1.70900000000E+09	9.39701253764E-01	-1.81731268789E-01
1.70950000000E+09	9.39517399637E-01	-1.83052297436E-01
1.71000000000E+09	9.39148910466E-01	-1.84413686923E-01
1.71050000000E+09	9.38966503415E-01	-1.85678669184E-01
1.71100000000E+09	9.38620134580E-01	-1.87050353024E-01
1.71150000000E+09	9.38334923682E-01	-1.88337033403E-01
1.71200000000E+09	9.38053828999E-01	-1.89684652849E-01
1.71250000000E+09	9.37764891885E-01	-1.91047277770E-01
1.71300000000E+09	9.37551556231E-01	-1.92295465373E-01
1.71350000000E+09	9.37115110803E-01	-1.93662707541E-01
1.71400000000E+09	9.36937455360E-01	-1.95021434349E-01
1.71450000000E+09	9.36646746213E-01	-1.96306173510E-01
1.71500000000E+09	9.36324609653E-01	-1.97684061202E-01
1.71550000000E+09	9.36116838380E-01	-1.99018856159E-01
1.71600000000E+09	9.35678388320E-01	-2.00349871179E-01
1.71650000000E+09	9.35346055438E-01	-2.01633174793E-01
1.71700000000E+09	9.35204491697E-01	-2.02967395682E-01
1.71750000000E+09	9.34833133990E-01	-2.04391692126E-01
1.71800000000E+09	9.34548939639E-01	-2.05614633881E-01
1.71850000000E+09	9.34189721924E-01	-2.06983608800E-01
1.71900000000E+09	9.33967736978E-01	-2.08264135850E-01
1.71950000000E+09	9.33560064284E-01	-2.09611042781E-01
1.72000000000E+09	9.33300951858E-01	-2.10977911871E-01
1.72050000000E+09	9.33035673950E-01	-2.12336162475E-01
1.72100000000E+09	9.32737157163E-01	-2.13677785971E-01
1.72150000000E+09	9.32394588017E-01	-2.15048542416E-01
1.72200000000E+09	9.32029744791E-01	-2.16347886515E-01
1.72250000000E+09	9.31814436349E-01	-2.17723293057E-01
1.72300000000E+09	9.31463386678E-01	-2.19059071109E-01
1.72350000000E+09	9.31171884871E-01	-2.20439880966E-01
1.72400000000E+09	9.30800043637E-01	-2.21793084675E-01
1.72450000000E+09	9.30487757227E-01	-2.23188537001E-01
1.72500000000E+09	9.30147968306E-01	-2.24550382559E-01
1.72550000000E+09	9.29775190689E-01	-2.25919244289E-01
1.72600000000E+09	9.29415689919E-01	-2.27320152410E-01
1.72650000000E+09	9.29128162344E-01	-2.28683559785E-01
1.72700000000E+09	9.28800617572E-01	-2.30040723641E-01
1.72750000000E+09	9.28399832840E-01	-2.31387714646E-01
1.72800000000E+09	9.28100902818E-01	-2.32771143010E-01
1.72850000000E+09	9.27687411102E-01	-2.34089295045E-01
1.72900000000E+09	9.27430786599E-01	-2.35475061332E-01
1.72950000000E+09	9.26963511607E-01	-2.36852124663E-01
1.73000000000E+09	9.26625653801E-01	-2.38298362233E-01
1.73050000000E+09	9.26287543795E-01	-2.39615492049E-01
1.73100000000E+09	9.25870843428E-01	-2.40982874890E-01
1.73150000000E+09	9.25584535647E-01	-2.42408573651E-01
1.73200000000E+09	9.25097773097E-01	-2.43837131168E-01
1.73250000000E+09	9.24702607377E-01	-2.45154967266E-01
1.73300000000E+09	9.24367337276E-01	-2.46615484488E-01
1.73350000000E+09	9.23920236225E-01	-2.47881768341E-01
1.73400000000E+09	9.23571455762E-01	-2.49415828318E-01
1.73450000000E+09	9.23200555773E-01	-2.50752917335E-01
1.73500000000E+09	9.22791002144E-01	-2.52092637393E-01
1.73550000000E+09	9.22421601056E-01	-2.53445735176E-01
1.73600000000E+09	9.21998174902E-01	-2.54886395555E-01
1.73650000000E+09	9.21569108249E-01	-2.56283778124E-01
1.73700000000E+09	9.21088579892E-01	-2.57644201085E-01
1.73750000000E+09	9.20747115081E-01	-2.59047283977E-01
1.73800000000E+09	9.20281553308E-01	-2.60396588606E-01
1.73850000000E+09	9.19906785709E-01	-2.61878847391E-01
1.73900000000E+09	9.19460676495E-01	-2.63229549815E-01
1.73950000000E+09	9.19034676090E-01	-2.64559540119E-01
1.74000000000E+09	9.18622428214E-01	-2.66021408258E-01
1.74050000000E+09	9.18186615466E-01	-2.67370421254E-01
1.74100000000E+09	9.17798045977E-01	-2.68831453824E-01
1.74150000000E+09	9.17340883260E-01	-2.70205515350E-01
1.74200000000E+09	9.16930748862E-01	-2.71647749313E-01
1.74250000000E+09	9.16453842304E-01	-2.72998086318E-01
1.74300000000E+09	9.16052120811E-01	-2.74426856386E-01
1.74350000000E+09	9.15562033988E-01	-2.75864796525E-01
1.74400000000E+09	9.15092806429E-01	-2.77264077695E-01
1.74450000000E+09	9.14664567109E-01	-2.78683264720E-01
1.74500000000E+09	9.14197343303E-01	-2.80047106486E-01
1.74550000000E+09	9.13698682317E-01	-2.81496107003E-01
1.74600000000E+09	9.13259763214E-01	-2.82868843215E-01
1.74650000000E+09	9.12758170472E-01	-2.84375280471E-01
1.74700000000E+09	9.12220523389E-01	-2.85831126067E-01
1.74750000000E+09	9.11784490257E-01	-2.87190431357E-01
1.74800000000E+09	9.11274108210E-01	-2.88681097568E-01
1.74850000000E+09	9.10877721463E-01	-2.90015709457E-01
1.74900000000E+09	9.10289478592E-01	-2.91542388246E-01
1.74950000000E+09	9.09835964015E-01	-2.92898949029E-01
1.75000000000E+09	9.09303822805E-01	-2.94341978724E-01
1.75050000000E+09	9.08765217726E-01	-2.95743784857E-01
1.75100000000E+09	9.08245775068E-01	-2.97170302826E-01
1.75150000000E+09	9.07698961980E-01	-2.98605539099E-01
1.75200000000E+09	9.07189279667E-01	-3.00024987173E-01
1.75250000000E+09	9.06612692277E-01	-3.01556518985E-01
1.75300000000E+09	9.06098028802E-01	-3.02878501502E-01
1.75350000000E+09	9.05570430775E-01	-3.04272259266E-01
1.75400000000E+09	9.05026418746E-01	-3.05748416120E-01
1.75450000000E+09	9.04454208761E-01	-3.07181005076E-01
1.75500000000E+09	9.03879507351E-01	-3.08649584045E-01
1.75550000000E+09	9.03359556864E-01	-3.10004643419E-01
1.75600000000E+09	9.02850644360E-01	-3.11426418695E-01
1.75650000000E+09	9.02211083408E-01	-3.12864939981E-01
1.75700000000E+09	9.01662608006E-01	-3.14338496034E-01
1.75750000000E+09	9.01078444353E-01	-3.15698331060E-01
1.75800000000E+09	9.00512339348E-01	-3.17118979155E-01
1.75850000000E+09	8.99959271835E-01	-3.18613398702E-01
1.75900000000E+09	8.99296409543E-01	-3.20002160396E-01
1.75950000000E+09	8.98742033475E-01	-3.21463883380E-01
1.76000000000E+09	8.98180248314E-01	-3.22878836736E-01
1.76050000000E+09	8.97516966153E-01	-3.24300705339E-01
1.76100000000E+09	8.96935497760E-01	-3.25689347558E-01
1.76150000000E+09	8.96355048173E-01	-3.27143857163E-01
1.76200000000E+09	8.95681917544E-01	-3.28563941011E-01
1.76250000000E+09	8.95110294030E-01	-3.30029946718E-01
1.76300000000E+09	8.94419539305E-01	-3.31395575010E-01
1.76350000000E+09	8.93812035068E-01	-3.32840025345E-01
1.76400000000E+09	8.93219658809E-01	-3.34201418368E-01
1.76450000000E+09	8.92519691161E-01	-3.35604300585E-01
1.76500000000E+09	8.91955545423E-01	-3.37014455777E-01
1.76550000000E+09	8.91295767455E-01	-3.38458363856E-01
1.76600000000E+09	8.90587763023E-01	-3.39888227939E-01
1.76650000000E+09	8.89940263566E-01	-3.41305554963E-01
1.76700000000E+09	8.89347712347E-01	-3.42684256490E-01
1.76750000000E+09	8.88675840537E-01	-3.44111844537E-01
1.76800000000E+09	8.88030049513E-01	-3.45542694369E-01
1.76850000000E+09	8.87302564658E-01	-3.46914442431E-01
1.76900000000E+09	8.86650548646E-01	-3.48379425863E-01
1.76950000000E+09	8.85912981730E-01	-3.49764916857E-01
1.77000000000E+09	8.85352204433E-01	-3.51104086732E-01
1.77050000000E+09	8.84634082604E-01	-3.52594373546E-01
1.77100000000E+09	8.83925253248E-01	-3.53962480239E-01
1.77150000000E+09	8.83195608265E-01	-3.55380046313E-01
1.77200000000E+09	8.82433943583E-01	-3.56833145764E-01
1.77250000000E+09	8.81766350309E-01	-3.58216783039E-01
1.77300000000E+09	8.81151513032E-01	-3.59631261050E-01
1.77350000000E+09	8.80410086859E-01	-3.60971309543E-01
1.77400000000E+09	8.79690708332E-01	-3.62386778585E-01
1.77450000000E+09	8.78909413659E-01	-3.63810266495E-01
1.77500000000E+09	8.78258020218E-01	-3.65135198253E-01
1.77550000000E+09	8.77568349105E-01	-3.66533415817E-01
1.77600000000E+09	8.76806528953E-01	-3.67912813180E-01
1.77650000000E+09	8.76176982409E-01	-3.69367113776E-01
1.77700000000E+09	8.75288630764E-01	-3.70690577468E-01
1.77750000000E+09	8.74759469776E-01	-3.72129352424E-01
1.77800000000E+09	8.73936337900E-01	-3.73451777653E-01
1.77850000000E+09	8.73124687113E-01	-3.74844299280E-01
1.77900000000E+09	8.72381713278E-01	-3.76292999082E-01
1.77950000000E+09	8.71643295756E-01	-3.77660548545E-01
1.78000000000E+09	8.70894949223E-01	-3.79036662955E-01
1.78050000000E+09	8.70133636632E-01	-3.80379904770E-01
1.78100000000E+09	8.69384091675E-01	-3.81826749905E-01
1.78150000000E+09	8.68609418322E-01	-3.83101906952E-01
1.78200000000E+09	8.67835145861E-01	-3.84590102255E-01
1.78250000000E+09	8.66978443568E-01	-3.85890013915E-01
1.78300000000E+09	8.66288820926E-01	-3.87266682977E-01
1.78350000000E+09	8.65506397076E-01	-3.88680205430E-01
1.78400000000E+09	8.64745371555E-01	-3.90064315166E-01
1.78450000000E+09	8.63957960252E-01	-3.91419200766E-01
1.78500000000E+09	8.63123575145E-01	-3.92802629175E-01
1.78550000000E+09	8.62372356610E-01	-3.94110918421E-01
1.78600000000E+09	8.61546892825E-01	-3.95489837616E-01
1.78650000000E+09	8.60792986680E-01	-3.96761037162E-01
1.78700000000E+09	8.59912904120E-01	-3.98181268860E-01
1.78750000000E+09	8.59135613752E-01	-3.99496260563E-01
1.78800000000E+09	8.58375902985E-01	-4.00920599764E-01
1.78850000000E+09	8.57605560145E-01	-4.02271563024E-01
1.78900000000E+09	8.56759336042E-01	-4.03565926639E-01
1.78950000000E+09	8.55994491059E-01	-4.04949473362E-01
1.79000000000E+09	8.55124886312E-01	-4.06312819983E-01
1.79050000000E+09	8.54331583952E-01	-4.07586976954E-01
1.79100000000E+09	8.53456740874E-01	-4.08990296290E-01
1.79150000000E+09	8.52644257420E-01	-4.10296008014E-01
1.79200000000E+09	8.51810278677E-01	-4.11704578197E-01
1.79250000000E+09	8.50914270233E-01	-4.13019896829E-01
1.79300000000E+09	8.50138994600E-01	-4.14372848196E-01
1.79350000000E+09	8.49295766380E-01	-4.15633658602E-01
1.79400000000E+09	8.48392658767E-01	-4.16947326485E-01
1.79450000000E+09	8.47498452675E-01	-4.18356068226E-01
1.79500000000E+09	8.46685938805E-01	-4.19640155329E-01
1.79550000000E+09	8.45811062736E-01	-4.20973700366E-01
1.79600000000E+09	8.45027231788E-01	-4.22255687808E-01
1.79650000000E+09	8.44070672288E-01	-4.23554378921E-01
1.79700000000E+09	8.43222652596E-01	-4.24955252221E-01
1.79750000000E+09	8.42384259765E-01	-4.26208218905E-01
1.79800000000E+09	8.41537662467E-01	-4.27494457612E-01
1.79850000000E+09	8.40702719340E-01	-4.28802757847E-01
1.79900000000E+09	8.39844819770E-01	-4.30069640387E-01
1.79950000000E+09	8.38902678650E-01	-4.31390131192E-01
1.80000000000E+09	8.38073062761E-01	-4.32652595001E-01
1.80050000000E+09	8.37122952875E-01	-4.33951533983E-01
1.80100000000E+09	8.36286319436E-01	-4.35276571310E-01
1.80150000000E+09	8.35362562427E-01	-4.36510179142E-01
1.80200000000E+09	8.34500506886E-01	-4.37833640995E-01
1.80250000000E+09	8.33566107606E-01	-4.39134800641E-01
1.80300000000E+09	8.32743153941E-01	-4.40395178403E-01
1.80350000000E+09	8.31857900085E-01	-4.41691873788E-01
1.80400000000E+09	8.30903764002E-01	-4.42956007732E-01
1.80450000000E+09	8.30114700682E-01	-4.44209781630E-01
1.80500000000E+09	8.29131098760E-01	-4.45480198641E-01
1.80550000000E+09	8.28244793578E-01	-4.46760785444E-01
1.80600000000E+09	8.27414985983E-01	-4.47994311893E-01
1.80650000000E+09	8.26509488833E-01	-4.49239775537E-01
1.80700000000E+09	8.25576782321E-01	-4.50563781589E-01
1.80750000000E+09	8.24656972042E-01	-4.51801549656E-01
1.80800000000E+09	8.23684160373E-01	-4.53113818231E-01
1.80850000000E+09	8.22832664430E-01	-4.54367521374E-01
1.80900000000E+09	8.21884256052E-01	-4.55526578234E-01
1.80950000000E+09	8.21007893064E-01	-4.56827388112E-01
1.81000000000E+09	8.20084161967E-01	-4.58050438953E-01
1.81050000000E+09	8.19258099435E-01	-4.59380723302E-01
1.81100000000E+09	8.18271138839E-01	-4.60593861393E-01
1.81150000000E+09	8.17252825276E-01	-4.61753220453E-01
1.81200000000E+09	8.16503800603E-01	-4.63012817053E-01
1.81250000000E+09	8.15613570553E-01	-4.64210197580E-01
1.81300000000E+09	8.14661574334E-01	-4.65514143573E-01
1.81350000000E+09	8.13759617065E-01	-4.66711400007E-01
1.81400000000E+09	8.12754002270E-01	-4.67962894903E-01
1.81450000000E+09	8.11904006657E-01	-4.69173729282E-01
1.81500000000E+09	8.10907815497E-01	-4.70371008708E-01
1.81550000000E+09	8.10084611588E-01	-4.71696087135E-01
1.81600000000E+09	8.09178574534E-01	-4.72874041849E-01
1.81650000000E+09	8.08180127549E-01	-4.74059968721E-01
1.81700000000E+09	8.07317462651E-01	-4.75368681381E-01
1.81750000000E+09	8.06348773046E-01	-4.76559663829E-01
1.81800000000E+09	8.05534120568E-01	-4.77790475839E-01
1.81850000000E+09	8.04473959986E-01	-4.79016158443E-01
1.81900000000E+09	8.03544934737E-01	-4.80263202512E-01
1.81950000000E+09	8.02694538971E-01	-4.81526424537E-01
1.82000000000E+09	8.01747503814E-01	-4.82757778625E-01
1.82050000000E+09	8.00715537664E-01	-4.83953099901E-01
1.82100000000E+09	7.99834587848E-01	-4.85165129631E-01
1.82150000000E+09	7.98857983538E-01	-4.86347553394E-01
1.82200000000E+09	7.97879610279E-01	-4.87527721012E-01
1.82250000000E+09	7.96981632328E-01	-4.88727908850E-01
1.82300000000E+09	7.96092997152E-01	-4.89935453066E-01
1.82350000000E+09	7.95090289621E-01	-4.91185371753E-01
1.82400000000E+09	7.94138458730E-01	-4.92377351498E-01
1.82450000000E+09	7.93189160752E-01	-4.93574919134E-01
1.82500000000E+09	7.92181700291E-01	-4.94831507871E-01
1.82550000000E+09	7.91187518811E-01	-4.95977452655E-01
1.82600000000E+09	7.90254078327E-01	-4.97185565833E-01
1.82650000000E+09	7.89626210330E-01	-4.98066634128E-01
1.82700000000E+09	7.88681053505E-01	-4.99248230298E-01
1.82750000000E+09	7.87724396094E-01	-5.00385004542E-01
1.82800000000E+09	7.86711311184E-01	-5.01642286366E-01
1.82850000000E+09	7.85795375848E-01	-5.02772483245E-01
1.82900000000E+09	7.84830218728E-01	-5.03993489299E-01
1.82950000000E+09	7.83920311706E-01	-5.05193449261E-01
1.83000000000E+09	7.82939317224E-01	-5.06296232315E-01
1.83050000000E+09	7.82002042958E-01	-5.07446555535E-01
1.83100000000E+09	7.81061588160E-01	-5.08658276420E-01
1.83150000000E+09	7.80137023081E-01	-5.09832915856E-01
1.83200000000E+09	7.79138427928E-01	-5.11002244949E-01
1.83250000000E+09	7.78167081511E-01	-5.12221781720E-01
1.83300000000E+09	7.77261007657E-01	-5.13364908373E-01
1.83350000000E+09	7.76323479235E-01	-5.14524920307E-01
1.83400000000E+09	7.75423548881E-01	-5.15722008370E-01
1.83450000000E+09	7.74374003369E-01	-5.16896466757E-01
1.83500000000E+09	7.73456902353E-01	-5.18068416338E-01
1.83550000000E+09	7.72526592672E-01	-5.19330326249E-01
1.83600000000E+09	7.71514972639E-01	-5.20498653039E-01
1.83650000000E+09	7.70557607311E-01	-5.21676882836E-01
1.83700000000E+09	7.69652645990E-01	-5.22911809340E-01
1.83750000000E+09	7.68649693966E-01	-5.24026216613E-01
1.83800000000E+09	7.67733160165E-01	-5.25248743554E-01
1.83850000000E+09	7.66712426756E-01	-5.26435141325E-01
1.83900000000E+09	7.65774364076E-01	-5.27629770569E-01
1.83950000000E+09	7.64815962345E-01	-5.28876113401E-01
1.84000000000E+09	7.63793817342E-01	-5.29993772454E-01
1.84050000000E+09	7.62828632323E-01	-5.31290255143E-01
1.84100000000E+09	7.61789846888E-01	-5.32461233122E-01
1.84150000000E+09	7.60822798276E-01	-5.33714129616E-01
1.84200000000E+09	7.59730878893E-01	-5.34888880552E-01
1.84250000000E+09	7.58763499022E-01	-5.35970842622E-01
1.84300000000E+09	7.57817777266E-01	-5.37212723276E-01
1.84350000000E+09	7.56716941713E-01	-5.38454005447E-01
1.84400000000E+09	7.55715474618E-01	-5.39675706960E-01
1.84450000000E+09	7.54669047585E-01	-5.40875717254E-01
1.84500000000E+09	7.53579253638E-01	-5.41971468168E-01
1.84550000000E+09	7.52651664157E-01	-5.43180171727E-01
1.84600000000E+09	7.51608566967E-01	-5.44330461978E-01
1.84650000000E+09	7.50579953923E-01	-5.45527179419E-01
1.84700000000E+09	7.49526415915E-01	-5.46700445015E-01
1.84750000000E+09	7.48531026942E-01	-5.47864773857E-01
1.84800000000E+09	7.47485704575E-01	-5.49063396860E-01
1.84850000000E+09	7.46377234589E-01	-5.50226579644E-01
1.84900000000E+09	7.45407598881E-01	-5.51285574317E-01
1.84950000000E+09	7.44343541181E-01	-5.52572689817E-01
1.85000000000E+09	7.43296596696E-01	-5.53692710375E-01
1.85050000000E+09	7.42286551378E-01	-5.54853491715E-01
1.85100000000E+09	7.41181344909E-01	-5.55990624965E-01
1.85150000000E+09	7.40223462320E-01	-5.57217074351E-01
1.85200000000E+09	7.39125237934E-01	-5.58343029009E-01
1.85250000000E+09	7.38074291400E-01	-5.59502997061E-01
1.85300000000E+09	7.37071019878E-01	-5.60663076016E-01
1.85350000000E+09	7.36052269467E-01	-5.61785223533E-01
1.85400000000E+09	7.34926260780E-01	-5.62923387693E-01
1.85450000000E+09	7.33873826812E-01	-5.64187853232E-01
1.85500000000E+09	7.32843707117E-01	-5.65342735669E-01
1.85550000000E+09	7.31774989506E-01	-5.66498481858E-01
1.85600000000E+09	7.30812576124E-01	-5.67713823284E-01
1.85650000000E+09	7.29683011448E-01	-5.68924437021E-01
1.85700000000E+09	7.28640114643E-01	-5.70101961276E-01
1.85750000000E+09	7.27592127601E-01	-5.71249783947E-01
1.85800000000E+09	7.26451336772E-01	-5.72428354095E-01
1.85850000000E+09	7.25473530285E-01	-5.73658671052E-01
1.85900000000E+09	7.24333772849E-01	-5.74722467882E-01
1.85950000000E+09	7.23202064686E-01	-5.75977199220E-01
1.86000000000E+09	7.22140897148E-01	-5.77158847234E-01
1.86050000000E+09	7.21075849009E-01	-5.78401271439E-01
1.86100000000E+09	7.20014844077E-01	-5.79538024455E-01
1.86150000000E+09	7.18930027611E-01	-5.80667830970E-01
1.86200000000E+09	7.17874989049E-01	-5.81942659687E-01
1.86250000000E+09	7.16658299999E-01	-5.83149928648E-01
1.86300000000E+09	7.15583696145E-01	-5.84281817232E-01
1.86350000000E+09	7.14569033318E-01	-5.85463739315E-01
1.86400000000E+09	7.13442484207E-01	-5.86684791374E-01
1.86450000000E+09	7.12366697886E-01	-5.87847156361E-01
1.86500000000E+09	7.11231064717E-01	-5.89127348631E-01
1.86550000000E+09	7.10152827281E-01	-5.90221286943E-01
1.86600000000E+09	7.09028405264E-01	-5.91444263151E-01
1.86650000000E+09	7.07837357082E-01	-5.92703392807E-01
1.86700000000E+09	7.06782364439E-01	-5.93917303392E-01
1.86750000000E+09	7.05584085191E-01	-5.95053532857E-01
1.86800000000E+09	7.04498380950E-01	-5.96324119035E-01
1.86850000000E+09	7.03436812954E-01	-5.97586574343E-01
1.86900000000E+09	7.02288989958E-01	-5.98873020119E-01
1.86950000000E+09	7.01066525640E-01	-6.00057932883E-01
1.87000000000E+09	6.99998665203E-01	-6.01364651098E-01
1.87050000000E+09	6.98783780564E-01	-6.02581894704E-01
1.87100000000E+09	6.97593141112E-01	-6.03858149664E-01
1.87150000000E+09	6.96330547205E-01	-6.05085267523E-01
1.87200000000E+09	6.95181789665E-01	-6.06410118276E-01
1.87250000000E+09	6.93984433947E-01	-6.07668792110E-01
1.87300000000E+09	6.92736208027E-01	-6.08981561246E-01
1.87350000000E+09	6.91428345827E-01	-6.10181940806E-01
1.87400000000E+09	6.90178959988E-01	-6.11462212102E-01
1.87450000000E+09	6.88929673071E-01	-6.12725026670E-01
1.87500000000E+09	6.87658139373E-01	-6.13983370351E-01
1.87550000000E+09	6.86376250445E-01	-6.15262012660E-01
1.87600000000E+09	6.85050344985E-01	-6.16463622361E-01
1.87650000000E+09	6.83819532432E-01	-6.17737855308E-01
