# Hz S RI R 50
! CMT, CMT808U, 21440046, 21.4.3/4
! Date: 12/1/2025 1:41:00 PM
! Data: Format (Calibration Info)
! Freq	S11:Re/Im(F2)
1.70000000000E+09	7.52144824810E-01	-5.45381339660E-01
1.70050000000E+09	7.51119540485E-01	-5.46718618542E-01
1.70100000000E+09	7.50183257958E-01	-5.47904940195E-01
1.70150000000E+09	7.49224929505E-01	-5.49196541446E-01
1.70200000000E+09	7.48292373806E-01	-5.50410279477E-01
1.70250000000E+09	7.47271726426E-01	-5.51701840879E-01
1.70300000000E+09	7.46350946052E-01	-5.53001328596E-01
1.70350000000E+09	7.45413779326E-01	-5.54234823934E-01
1.70400000000E+09	7.44455962193E-01	-5.55482241774E-01
1.70450000000E+09	7.43490170435E-01	-5.56722297797E-01
1.70500000000E+09	7.42473236156E-01	-5.58029801986E-01
1.70550000000E+09	7.41516431585E-01	-5.59240080620E-01
1.70600000000E+09	7.40567881744E-01	-5.60508633309E-01
1.70650000000E+09	7.39600021386E-01	-5.61782347816E-01
1.70700000000E+09	7.38578036102E-01	-5.63057101403E-01
1.70750000000E+09	7.37621135950E-01	-5.64310105356E-01
1.70800000000E+09	7.36569808147E-01	-5.65519871229E-01
1.70850000000E+09	7.35624236491E-01	-5.66811690608E-01
1.70900000000E+09	7.34633222697E-01	-5.68011811466E-01
1.70950000000E+09	7.33667618048E-01	-5.69327334573E-01
1.71000000000E+09	7.32607773422E-01	-5.70604254887E-01
1.71050000000E+09	7.31631827058E-01	-5.71882400037E-01
1.71100000000E+09	7.30626297279E-01	-5.73159821623E-01
1.71150000000E+09	7.29592506566E-01	-5.74351900449E-01
1.71200000000E+09	7.28612835065E-01	-5.75615376213E-01
1.71250000000E+09	7.27561152375E-01	-5.76872431649E-01
1.71300000000E+09	7.26622143442E-01	-5.78117619942E-01
1.71350000000E+09	7.25572481149E-01	-5.79409699653E-01
1.71400000000E+09	7.24530178099E-01	-5.80681798652E-01
1.71450000000E+09	7.23549055213E-01	-5.81910451781E-01
1.71500000000E+09	7.22472564064E-01	-5.83124604716E-01
1.71550000000E+09	7.21463030506E-01	-5.84479788962E-01
1.71600000000E+09	7.20387561829E-01	-5.85681957067E-01
1.71650000000E+09	7.19329482653E-01	-5.86912415134E-01
1.71700000000E+09	7.18355413070E-01	-5.88263094497E-01
1.71750000000E+09	7.17268518699E-01	-5.89528264338E-01
1.71800000000E+09	7.16296134239E-01	-5.90756624496E-01
1.71850000000E+09	7.15140174108E-01	-5.91963470119E-01
1.71900000000E+09	7.14131969597E-01	-5.93250901979E-01
1.71950000000E+09	7.13099048524E-01	-5.94437847116E-01
1.72000000000E+09	7.11967875009E-01	-5.95782802529E-01
1.72050000000E+09	7.10932245091E-01	-5.97031021738E-01
1.72100000000E+09	7.09800233446E-01	-5.98272985572E-01
1.72150000000E+09	7.08748948944E-01	-5.99491321074E-01
1.72200000000E+09	7.07675651090E-01	-6.00813241523E-01
1.72250000000E+09	7.06584641514E-01	-6.02019797540E-01
1.72300000000E+09	7.05469747036E-01	-6.03261633760E-01
1.72350000000E+09	7.04381456847E-01	-6.04507191566E-01
1.72400000000E+09	7.03262293878E-01	-6.05788208935E-01
1.72450000000E+09	7.02202235260E-01	-6.07081916726E-01
1.72500000000E+09	7.01019708359E-01	-6.08324421972E-01
1.72550000000E+09	6.99936613377E-01	-6.09482011694E-01
1.72600000000E+09	6.98737091443E-01	-6.10765530028E-01
1.72650000000E+09	6.97667044393E-01	-6.11997725010E-01
1.72700000000E+09	6.96545842595E-01	-6.13230680399E-01
1.72750000000E+09	6.95371462600E-01	-6.14512439560E-01
1.72800000000E+09	6.94267009815E-01	-6.15801438671E-01
1.72850000000E+09	6.93167932845E-01	-6.16958517822E-01
1.72900000000E+09	6.92042880152E-01	-6.18273447790E-01
1.72950000000E+09	6.90820259693E-01	-6.19458724086E-01
1.73000000000E+09	6.89701065376E-01	-6.20755582133E-01
1.73050000000E+09	6.88516781086E-01	-6.21903571773E-01
1.73100000000E+09	6.87292291695E-01	-6.23151242888E-01
1.73150000000E+09	6.86132352995E-01	-6.24388918413E-01
1.73200000000E+09	6.84971607930E-01	-6.25621179414E-01
1.73250000000E+09	6.83819181975E-01	-6.26797711250E-01
1.73300000000E+09	6.82584518681E-01	-6.28145800627E-01
1.73350000000E+09	6.81400223473E-01	-6.29285453823E-01
1.73400000000E+09	6.80232633624E-01	-6.30513460305E-01
1.73450000000E+09	6.79009836969E-01	-6.31719469040E-01
1.73500000000E+09	6.77814676876E-01	-6.32977624463E-01
1.73550000000E+09	6.76703047467E-01	-6.34113940531E-01
1.73600000000E+09	6.75407800464E-01	-6.35397178064E-01
1.73650000000E+09	6.74155070287E-01	-6.36603844878E-01
1.73700000000E+09	6.72948983421E-01	-6.37730392790E-01
1.73750000000E+09	6.71697671358E-01	-6.39054304969E-01
1.73800000000E+09	6.70563038666E-01	-6.40146825650E-01
1.73850000000E+09	6.69267061985E-01	-6.41465697225E-01
1.73900000000E+09	6.68053488158E-01	-6.42601168182E-01
1.73950000000E+09	6.66860170375E-01	-6.43718992236E-01
1.74000000000E+09	6.65615354075E-01	-6.45004547949E-01
1.74050000000E+09	6.64326322508E-01	-6.46177075712E-01
1.74100000000E+09	6.63053441269E-01	-6.47440392504E-01
1.74150000000E+09	6.61845952652E-01	-6.48649168704E-01
1.74200000000E+09	6.60566960369E-01	-6.49786082022E-01
1.74250000000E+09	6.59276284595E-01	-6.50954145895E-01
1.74300000000E+09	6.58036907840E-01	-6.52185537624E-01
1.74350000000E+09	6.56726142973E-01	-6.53338771934E-01
1.74400000000E+09	6.55440345247E-01	-6.54530652023E-01
1.74450000000E+09	6.54238421450E-01	-6.55739581069E-01
1.74500000000E+09	6.52981096283E-01	-6.56908065335E-01
1.74550000000E+09	6.51619619503E-01	-6.58033899215E-01
1.74600000000E+09	6.50455402259E-01	-6.59184597708E-01
1.74650000000E+09	6.49080021195E-01	-6.60375598691E-01
1.74700000000E+09	6.47714573630E-01	-6.61596674620E-01
1.74750000000E+09	6.46447217375E-01	-6.62701061724E-01
1.74800000000E+09	6.45149221697E-01	-6.63854102161E-01
1.74850000000E+09	6.43819496516E-01	-6.65013434294E-01
1.74900000000E+09	6.42501808492E-01	-6.66180103460E-01
1.74950000000E+09	6.41135626057E-01	-6.67337225429E-01
1.75000000000E+09	6.39832681211E-01	-6.68528500893E-01
1.75050000000E+09	6.38508562002E-01	-6.69600033272E-01
1.75100000000E+09	6.37243116412E-01	-6.70734027332E-01
1.75150000000E+09	6.35862281177E-01	-6.71855334692E-01
1.75200000000E+09	6.34574732149E-01	-6.72990425080E-01
1.75250000000E+09	6.33216127156E-01	-6.74128862042E-01
1.75300000000E+09	6.31890843706E-01	-6.75228913754E-01
1.75350000000E+09	6.30651423260E-01	-6.76358797954E-01
1.75400000000E+09	6.29209175825E-01	-6.77541528156E-01
1.75450000000E+09	6.27854826190E-01	-6.78603045094E-01
1.75500000000E+09	6.26516656354E-01	-6.79761288389E-01
1.75550000000E+09	6.25172630449E-01	-6.80840986435E-01
1.75600000000E+09	6.23892822644E-01	-6.81984528704E-01
1.75650000000E+09	6.22468228522E-01	-6.83092320397E-01
1.75700000000E+09	6.21154786212E-01	-6.84236461614E-01
1.75750000000E+09	6.19799356620E-01	-6.85347349225E-01
1.75800000000E+09	6.18452380887E-01	-6.86487227704E-01
1.75850000000E+09	6.17054521901E-01	-6.87610570795E-01
1.75900000000E+09	6.15657859979E-01	-6.88697820571E-01
1.75950000000E+09	6.14260369098E-01	-6.89904075361E-01
1.76000000000E+09	6.12923786529E-01	-6.91005895153E-01
1.76050000000E+09	6.11502536908E-01	-6.92025732156E-01
1.76100000000E+09	6.10111341186E-01	-6.93062581190E-01
1.76150000000E+09	6.08702395858E-01	-6.94235571748E-01
1.76200000000E+09	6.07318712355E-01	-6.95383478295E-01
1.76250000000E+09	6.05855506388E-01	-6.96480351306E-01
1.76300000000E+09	6.04441452225E-01	-6.97488785613E-01
1.76350000000E+09	6.03093238362E-01	-6.98575937858E-01
1.76400000000E+09	6.01633528641E-01	-6.99677354408E-01
1.76450000000E+09	6.00222521062E-01	-7.00772651288E-01
1.76500000000E+09	5.98938296173E-01	-7.01884354142E-01
1.76550000000E+09	5.97415455393E-01	-7.02945770305E-01
1.76600000000E+09	5.96007000783E-01	-7.04002802409E-01
1.76650000000E+09	5.94494416283E-01	-7.05114154288E-01
1.76700000000E+09	5.93162771530E-01	-7.06159686849E-01
1.76750000000E+09	5.91667944449E-01	-7.07180624901E-01
1.76800000000E+09	5.90242658039E-01	-7.08236938065E-01
1.76850000000E+09	5.88725793021E-01	-7.09286997508E-01
1.76900000000E+09	5.87276460473E-01	-7.10358767068E-01
1.76950000000E+09	5.85787450659E-01	-7.11369919903E-01
1.77000000000E+09	5.84416417443E-01	-7.12438480126E-01
1.77050000000E+09	5.82924556316E-01	-7.13453864682E-01
1.77100000000E+09	5.81463058978E-01	-7.14509753303E-01
1.77150000000E+09	5.79993883053E-01	-7.15540741976E-01
1.77200000000E+09	5.78436694440E-01	-7.16574211782E-01
1.77250000000E+09	5.76988061583E-01	-7.17644608085E-01
1.77300000000E+09	5.75563060198E-01	-7.18633467431E-01
1.77350000000E+09	5.74060214306E-01	-7.19560021874E-01
1.77400000000E+09	5.72595772943E-01	-7.20622709923E-01
1.77450000000E+09	5.71074024541E-01	-7.21680996645E-01
1.77500000000E+09	5.69634441409E-01	-7.22653396155E-01
1.77550000000E+09	5.68134152933E-01	-7.23601802283E-01
1.77600000000E+09	5.66651215154E-01	-7.24688534216E-01
1.77650000000E+09	5.65149003678E-01	-7.25615788215E-01
1.77700000000E+09	5.63575473654E-01	-7.26545860975E-01
1.77750000000E+09	5.62182300452E-01	-7.27597970688E-01
1.77800000000E+09	5.60589421804E-01	-7.28502358973E-01
1.77850000000E+09	5.59150969276E-01	-7.29512146979E-01
1.77900000000E+09	5.57592716896E-01	-7.30442662076E-01
1.77950000000E+09	5.56101062957E-01	-7.31401306921E-01
1.78000000000E+09	5.54583649992E-01	-7.32385188071E-01
1.78050000000E+09	5.53041905911E-01	-7.33331321696E-01
1.78100000000E+09	5.51542223223E-01	-7.34280005073E-01
1.78150000000E+09	5.50157076480E-01	-7.35247689891E-01
1.78200000000E+09	5.48527191047E-01	-7.36140293641E-01
1.78250000000E+09	5.47037164353E-01	-7.37038450402E-01
1.78300000000E+09	5.45547145761E-01	-7.37994109086E-01
1.78350000000E+09	5.43971212273E-01	-7.38991201355E-01
1.78400000000E+09	5.42456002982E-01	-7.39905791076E-01
1.78450000000E+09	5.41028201989E-01	-7.40812382736E-01
1.78500000000E+09	5.39399384797E-01	-7.41734101168E-01
1.78550000000E+09	5.37941641428E-01	-7.42629192051E-01
1.78600000000E+09	5.36361909511E-01	-7.43529994516E-01
1.78650000000E+09	5.34899738504E-01	-7.44426149015E-01
1.78700000000E+09	5.33311887164E-01	-7.45328216317E-01
1.78750000000E+09	5.31767979355E-01	-7.46263690432E-01
1.78800000000E+09	5.30292010912E-01	-7.47182470790E-01
1.78850000000E+09	5.28820891660E-01	-7.48086033955E-01
1.78900000000E+09	5.27185085154E-01	-7.48935720906E-01
1.78950000000E+09	5.25715760532E-01	-7.49811456947E-01
1.79000000000E+09	5.24121541886E-01	-7.50667278879E-01
1.79050000000E+09	5.22613793025E-01	-7.51545613083E-01
1.79100000000E+09	5.21100098552E-01	-7.52427588343E-01
1.79150000000E+09	5.19553546924E-01	-7.53364428005E-01
1.79200000000E+09	5.17963114098E-01	-7.54203629351E-01
1.79250000000E+09	5.16454353135E-01	-7.55017416254E-01
1.79300000000E+09	5.14894177083E-01	-7.55938272830E-01
1.79350000000E+09	5.13393412710E-01	-7.56772407048E-01
1.79400000000E+09	5.11851008830E-01	-7.57619898905E-01
1.79450000000E+09	5.10274534462E-01	-7.58501840694E-01
1.79500000000E+09	5.08771438028E-01	-7.59357731980E-01
1.79550000000E+09	5.07212066054E-01	-7.60146719490E-01
1.79600000000E+09	5.05706593914E-01	-7.60986783866E-01
1.79650000000E+09	5.04125675654E-01	-7.61742346617E-01
1.79700000000E+09	5.02497810528E-01	-7.62682689022E-01
1.79750000000E+09	5.00978883199E-01	-7.63447807244E-01
1.79800000000E+09	4.99478191508E-01	-7.64338327029E-01
1.79850000000E+09	4.98001991556E-01	-7.65202252847E-01
1.79900000000E+09	4.96380774590E-01	-7.65992317412E-01
1.79950000000E+09	4.94770038399E-01	-7.66749099953E-01
1.80000000000E+09	4.93233207048E-01	-7.67563552298E-01
1.80050000000E+09	4.91690213756E-01	-7.68378553217E-01
1.80100000000E+09	4.90116968601E-01	-7.69153853291E-01
1.80150000000E+09	4.88610470828E-01	-7.70033054635E-01
1.80200000000E+09	4.87040278326E-01	-7.70791098409E-01
1.80250000000E+09	4.85478422780E-01	-7.71561310930E-01
1.80300000000E+09	4.83945102611E-01	-7.72373041132E-01
1.80350000000E+09	4.82335915905E-01	-7.73116137630E-01
1.80400000000E+09	4.80746122569E-01	-7.73897979033E-01
1.80450000000E+09	4.79259227626E-01	-7.74668056648E-01
1.80500000000E+09	4.77629764361E-01	-7.75470453041E-01
1.80550000000E+09	4.76111212608E-01	-7.76233844825E-01
1.80600000000E+09	4.74508599396E-01	-7.76998700429E-01
1.80650000000E+09	4.72964226042E-01	-7.77729933779E-01
1.80700000000E+09	4.71353068452E-01	-7.78464470061E-01
1.80750000000E+09	4.69767372635E-01	-7.79232038236E-01
1.80800000000E+09	4.68211631548E-01	-7.80005534881E-01
1.80850000000E+09	4.66660048376E-01	-7.80674285731E-01
1.80900000000E+09	4.65132995083E-01	-7.81403321329E-01
1.80950000000E+09	4.63590356624E-01	-7.82156707884E-01
1.81000000000E+09	4.62061530172E-01	-7.82830327949E-01
1.81050000000E+09	4.60505985674E-01	-7.83653691950E-01
1.81100000000E+09	4.58901704553E-01	-7.84307027736E-01
1.81150000000E+09	4.57379824571E-01	-7.85061921251E-01
1.81200000000E+09	4.55855564069E-01	-7.85750761315E-01
1.81250000000E+09	4.54288678965E-01	-7.86498471402E-01
1.81300000000E+09	4.52739886447E-01	-7.87225005599E-01
1.81350000000E+09	4.51229652849E-01	-7.87970373939E-01
1.81400000000E+09	4.49653534719E-01	-7.88680387606E-01
1.81450000000E+09	4.48123177574E-01	-7.89333311714E-01
1.81500000000E+09	4.46517782094E-01	-7.90107570751E-01
1.81550000000E+09	4.44970350826E-01	-7.90835519227E-01
1.81600000000E+09	4.43439630380E-01	-7.91528114678E-01
1.81650000000E+09	4.41898634812E-01	-7.92234382636E-01
1.81700000000E+09	4.40351228047E-01	-7.92877049657E-01
1.81750000000E+09	4.38762972786E-01	-7.93628117213E-01
1.81800000000E+09	4.37330505090E-01	-7.94384359204E-01
1.81850000000E+09	4.35651987379E-01	-7.95032850580E-01
1.81900000000E+09	4.34096371096E-01	-7.95766325906E-01
1.81950000000E+09	4.32581368660E-01	-7.96475265310E-01
1.82000000000E+09	4.30997648065E-01	-7.97237492632E-01
1.82050000000E+09	4.29449017973E-01	-7.97842656955E-01
1.82100000000E+09	4.27904001931E-01	-7.98574151511E-01
1.82150000000E+09	4.26345274187E-01	-7.99317534577E-01
1.82200000000E+09	4.24796064304E-01	-7.99916479128E-01
1.82250000000E+09	4.23247830650E-01	-8.00664748596E-01
1.82300000000E+09	4.21726312917E-01	-8.01333849375E-01
1.82350000000E+09	4.20099451762E-01	-8.01966412957E-01
1.82400000000E+09	4.18545468069E-01	-8.02737066631E-01
1.82450000000E+09	4.16955990478E-01	-8.03334378455E-01
1.82500000000E+09	4.15375278744E-01	-8.04044347314E-01
1.82550000000E+09	4.13783807259E-01	-8.04712981438E-01
1.82600000000E+09	4.12219944813E-01	-8.05382375560E-01
1.82650000000E+09	4.10588927045E-01	-8.06379431130E-01
1.82700000000E+09	4.09007484202E-01	-8.06983626173E-01
1.82750000000E+09	4.07421833969E-01	-8.07724963175E-01
1.82800000000E+09	4.05814721309E-01	-8.08416453155E-01
1.82850000000E+09	4.04254450717E-01	-8.09084367823E-01
1.82900000000E+09	4.02644704924E-01	-8.09736597386E-01
1.82950000000E+09	4.01060513151E-01	-8.10428907226E-01
1.83000000000E+09	3.99510601573E-01	-8.11066261343E-01
1.83050000000E+09	3.97921889406E-01	-8.11665524018E-01
1.83100000000E+09	3.96311968348E-01	-8.12345823258E-01
1.83150000000E+09	3.94739636217E-01	-8.13057781710E-01
1.83200000000E+09	3.93165453018E-01	-8.13669849910E-01
1.83250000000E+09	3.91503940676E-01	-8.14375381460E-01
1.83300000000E+09	3.89903211548E-01	-8.14994618617E-01
1.83350000000E+09	3.88348572854E-01	-8.15655698156E-01
1.83400000000E+09	3.86675131207E-01	-8.16350226524E-01
1.83450000000E+09	3.85024482448E-01	-8.16957000956E-01
1.83500000000E+09	3.83499588778E-01	-8.17615488261E-01
1.83550000000E+09	3.81811257621E-01	-8.18287004698E-01
1.83600000000E+09	3.80239465413E-01	-8.18850937887E-01
1.83650000000E+09	3.78610075187E-01	-8.19544403093E-01
1.83700000000E+09	3.76945510565E-01	-8.20198318771E-01
1.83750000000E+09	3.75368681480E-01	-8.20805009139E-01
1.83800000000E+09	3.73762137457E-01	-8.21435986370E-01
1.83850000000E+09	3.72104035071E-01	-8.22075501103E-01
1.83900000000E+09	3.70545877114E-01	-8.22662665291E-01
1.83950000000E+09	3.68885259264E-01	-8.23311983026E-01
1.84000000000E+09	3.67259885427E-01	-8.23880500161E-01
1.84050000000E+09	3.65586947927E-01	-8.24517184350E-01
1.84100000000E+09	3.63925428159E-01	-8.25146696524E-01
1.84150000000E+09	3.62245766705E-01	-8.25768209156E-01
1.84200000000E+09	3.60589957875E-01	-8.26379811620E-01
1.84250000000E+09	3.58990527831E-01	-8.27008810125E-01
1.84300000000E+09	3.57312578963E-01	-8.27585540337E-01
1.84350000000E+09	3.55597199365E-01	-8.28194548194E-01
1.84400000000E+09	3.53926155488E-01	-8.28746145894E-01
1.84450000000E+09	3.52257726517E-01	-8.29357984945E-01
1.84500000000E+09	3.50566253375E-01	-8.29922450101E-01
1.84550000000E+09	3.48934072432E-01	-8.30555500848E-01
1.84600000000E+09	3.47322440933E-01	-8.31146487768E-01
1.84650000000E+09	3.45561677489E-01	-8.31658337361E-01
1.84700000000E+09	3.43886626965E-01	-8.32265689956E-01
1.84750000000E+09	3.42244506861E-01	-8.32881403780E-01
1.84800000000E+09	3.40467780714E-01	-8.33458625159E-01
1.84850000000E+09	3.38761000796E-01	-8.34000410989E-01
1.84900000000E+09	3.37186459665E-01	-8.34530177400E-01
1.84950000000E+09	3.35361007681E-01	-8.35148039034E-01
1.85000000000E+09	3.33644173877E-01	-8.35643081120E-01
1.85050000000E+09	3.31973053866E-01	-8.36219562344E-01
1.85100000000E+09	3.30307848085E-01	-8.36721694534E-01
1.85150000000E+09	3.28498008130E-01	-8.37264470921E-01
1.85200000000E+09	3.26792591211E-01	-8.37769781608E-01
1.85250000000E+09	3.25107840182E-01	-8.38320490991E-01
1.85300000000E+09	3.23415749143E-01	-8.38836564974E-01
1.85350000000E+09	3.21690730049E-01	-8.39381259266E-01
1.85400000000E+09	3.19987635133E-01	-8.39849245808E-01
1.85450000000E+09	3.18276212402E-01	-8.40438904788E-01
1.85500000000E+09	3.16438944303E-01	-8.40816870480E-01
1.85550000000E+09	3.14802150345E-01	-8.41420674923E-01
1.85600000000E+09	3.13037754069E-01	-8.41961483072E-01
1.85650000000E+09	3.11312089122E-01	-8.42470431683E-01
1.85700000000E+09	3.09514029941E-01	-8.42955332442E-01
1.85750000000E+09	3.07770389239E-01	-8.43448803721E-01
1.85800000000E+09	3.06069784448E-01	-8.43882557797E-01
1.85850000000E+09	3.04270690986E-01	-8.44389745354E-01
1.85900000000E+09	3.02543669951E-01	-8.44863430953E-01
1.85950000000E+09	3.00714813115E-01	-8.45282384223E-01
1.86000000000E+09	2.98977920067E-01	-8.45789381139E-01
1.86050000000E+09	2.97168533146E-01	-8.46326058641E-01
1.86100000000E+09	2.95432654106E-01	-8.46778471726E-01
1.86150000000E+09	2.93702669357E-01	-8.47250600637E-01
1.86200000000E+09	2.91911041436E-01	-8.47709818422E-01
1.86250000000E+09	2.90078939662E-01	-8.48082140003E-01
1.86300000000E+09	2.88249186494E-01	-8.48589715370E-01
1.86350000000E+09	2.86554564565E-01	-8.49055319606E-01
1.86400000000E+09	2.84764098057E-01	-8.49445838141E-01
1.86450000000E+09	2.83008007576E-01	-8.49945378509E-01
1.86500000000E+09	2.81194826078E-01	-8.50351103541E-01
1.86550000000E+09	2.79435728552E-01	-8.50706996997E-01
1.86600000000E+09	2.77607203444E-01	-8.51166027796E-01
1.86650000000E+09	2.75752297112E-01	-8.51483813976E-01
1.86700000000E+09	2.74007004745E-01	-8.51980279224E-01
1.86750000000E+09	2.72239805674E-01	-8.52263834377E-01
1.86800000000E+09	2.70334704557E-01	-8.52697770886E-01
1.86850000000E+09	2.68661206759E-01	-8.53125778826E-01
1.86900000000E+09	2.66820456299E-01	-8.53495336067E-01
1.86950000000E+09	2.64966554417E-01	-8.53899431164E-01
1.87000000000E+09	2.63269610951E-01	-8.54267324415E-01
1.87050000000E+09	2.61429356652E-01	-8.54608889010E-01
1.87100000000E+09	2.59605123128E-01	-8.55058989308E-01
1.87150000000E+09	2.57798533182E-01	-8.55398205322E-01
1.87200000000E+09	2.56021014642E-01	-8.55807577660E-01
1.87250000000E+09	2.54195516172E-01	-8.56179039177E-01
1.87300000000E+09	2.52360693197E-01	-8.56524636420E-01
1.87350000000E+09	2.50585420373E-01	-8.56904952589E-01
1.87400000000E+09	2.48722824135E-01	-8.57244156846E-01
1.87450000000E+09	2.46941447056E-01	-8.57651428784E-01
1.87500000000E+09	2.45133201469E-01	-8.58066792103E-01
1.87550000000E+09	2.43267355232E-01	-8.58451404407E-01
1.87600000000E+09	2.41430497511E-01	-8.58728772532E-01
1.87650000000E+09	2.39596517575E-01	-8.59133608899E-01
