# Hz S RI R 50
! CMT, CMT808U, 21440046, 21.4.3/4
! Date: 12/1/2025 1:19:25 PM
! Data: Format (Calibration Info)
! Freq	S11:Re/Im(F2)
1.70000000000E+09	9.39408602135E-01	-2.00255342873E-01
1.70050000000E+09	9.39084058487E-01	-2.01566864569E-01
1.70100000000E+09	9.38772228786E-01	-2.02743475710E-01
1.70150000000E+09	9.38527022096E-01	-2.04047843112E-01
1.70200000000E+09	9.38244608374E-01	-2.05270828694E-01
1.70250000000E+09	9.37899504144E-01	-2.06554324684E-01
1.70300000000E+09	9.37642018673E-01	-2.07801825317E-01
1.70350000000E+09	9.37272122005E-01	-2.09074237069E-01
1.70400000000E+09	9.36997526893E-01	-2.10304210982E-01
1.70450000000E+09	9.36732138633E-01	-2.11618890577E-01
1.70500000000E+09	9.36398401900E-01	-2.12906327498E-01
1.70550000000E+09	9.36144069257E-01	-2.14077995213E-01
1.70600000000E+09	9.35854028025E-01	-2.15406098109E-01
1.70650000000E+09	9.35535922210E-01	-2.16619386546E-01
1.70700000000E+09	9.35231786048E-01	-2.17929998557E-01
1.70750000000E+09	9.34948608250E-01	-2.19242047130E-01
1.70800000000E+09	9.34587903579E-01	-2.20494703699E-01
1.70850000000E+09	9.34265932742E-01	-2.21824013444E-01
1.70900000000E+09	9.33947370919E-01	-2.23065882434E-01
1.70950000000E+09	9.33710804605E-01	-2.24345605269E-01
1.71000000000E+09	9.33357176887E-01	-2.25661081902E-01
1.71050000000E+09	9.33068234067E-01	-2.27000682145E-01
1.71100000000E+09	9.32724685650E-01	-2.28255780183E-01
1.71150000000E+09	9.32347239636E-01	-2.29543876818E-01
1.71200000000E+09	9.31984448870E-01	-2.30852261056E-01
1.71250000000E+09	9.31695502308E-01	-2.32146622178E-01
1.71300000000E+09	9.31355441194E-01	-2.33369608465E-01
1.71350000000E+09	9.30975100580E-01	-2.34717800693E-01
1.71400000000E+09	9.30654405837E-01	-2.36032512738E-01
1.71450000000E+09	9.30315961355E-01	-2.37297946086E-01
1.71500000000E+09	9.29956648469E-01	-2.38686559597E-01
1.71550000000E+09	9.29685852563E-01	-2.39995980460E-01
1.71600000000E+09	9.29212587634E-01	-2.41280590198E-01
1.71650000000E+09	9.28904011011E-01	-2.42537591851E-01
1.71700000000E+09	9.28671401425E-01	-2.43912488338E-01
1.71750000000E+09	9.28240844789E-01	-2.45233729562E-01
1.71800000000E+09	9.27960134586E-01	-2.46558875954E-01
1.71850000000E+09	9.27448508602E-01	-2.47887051394E-01
1.71900000000E+09	9.27136629551E-01	-2.49129466684E-01
1.71950000000E+09	9.26702053992E-01	-2.50473133992E-01
1.72000000000E+09	9.26273258071E-01	-2.51911307891E-01
1.72050000000E+09	9.25990415218E-01	-2.53174257141E-01
1.72100000000E+09	9.25541210429E-01	-2.54513035204E-01
1.72150000000E+09	9.25135374485E-01	-2.55868980581E-01
1.72200000000E+09	9.24765723215E-01	-2.57115835251E-01
1.72250000000E+09	9.24382548449E-01	-2.58543435076E-01
1.72300000000E+09	9.23894160456E-01	-2.59848175069E-01
1.72350000000E+09	9.23521858337E-01	-2.61198372156E-01
1.72400000000E+09	9.23167353256E-01	-2.62498757742E-01
1.72450000000E+09	9.22748702390E-01	-2.63829446192E-01
1.72500000000E+09	9.22257748714E-01	-2.65208507961E-01
1.72550000000E+09	9.21864832203E-01	-2.66485522452E-01
1.72600000000E+09	9.21427973785E-01	-2.67861271087E-01
1.72650000000E+09	9.20987095479E-01	-2.69255713688E-01
1.72700000000E+09	9.20671304087E-01	-2.70568315907E-01
1.72750000000E+09	9.20138055650E-01	-2.71901129762E-01
1.72800000000E+09	9.19799101150E-01	-2.73198782695E-01
1.72850000000E+09	9.19261330129E-01	-2.74512832474E-01
1.72900000000E+09	9.18921605456E-01	-2.75907413428E-01
1.72950000000E+09	9.18466137688E-01	-2.77286039961E-01
1.73000000000E+09	9.18035510188E-01	-2.78714838511E-01
1.73050000000E+09	9.17576512508E-01	-2.79994130287E-01
1.73100000000E+09	9.17044103378E-01	-2.81355097258E-01
1.73150000000E+09	9.16652557628E-01	-2.82714210566E-01
1.73200000000E+09	9.16208898563E-01	-2.84119179209E-01
1.73250000000E+09	9.15722324487E-01	-2.85437917684E-01
1.73300000000E+09	9.15230222670E-01	-2.86880170311E-01
1.73350000000E+09	9.14747620166E-01	-2.88214087817E-01
1.73400000000E+09	9.14364933627E-01	-2.89618536520E-01
1.73450000000E+09	9.13862697048E-01	-2.90948011422E-01
1.73500000000E+09	9.13358993196E-01	-2.92346804688E-01
1.73550000000E+09	9.12919699059E-01	-2.93711072235E-01
1.73600000000E+09	9.12389904840E-01	-2.95150145433E-01
1.73650000000E+09	9.11928239428E-01	-2.96561139851E-01
1.73700000000E+09	9.11394493248E-01	-2.97915061441E-01
1.73750000000E+09	9.10941616235E-01	-2.99398429257E-01
1.73800000000E+09	9.10414501433E-01	-3.00705192475E-01
1.73850000000E+09	9.09897279146E-01	-3.02147770733E-01
1.73900000000E+09	9.09394294884E-01	-3.03527416850E-01
1.73950000000E+09	9.08919074490E-01	-3.04904544281E-01
1.74000000000E+09	9.08382892474E-01	-3.06409020277E-01
1.74050000000E+09	9.07793177997E-01	-3.07723339247E-01
1.74100000000E+09	9.07338613172E-01	-3.09289862413E-01
1.74150000000E+09	9.06774857182E-01	-3.10622322129E-01
1.74200000000E+09	9.06288602208E-01	-3.12079801364E-01
1.74250000000E+09	9.05721933216E-01	-3.13458841447E-01
1.74300000000E+09	9.05208059922E-01	-3.14860259818E-01
1.74350000000E+09	9.04697701727E-01	-3.16341284356E-01
1.74400000000E+09	9.04113575733E-01	-3.17797155056E-01
1.74450000000E+09	9.03553730859E-01	-3.19260764574E-01
1.74500000000E+09	9.03058871257E-01	-3.20638743124E-01
1.74550000000E+09	9.02459001517E-01	-3.22138633244E-01
1.74600000000E+09	9.01952462382E-01	-3.23521260221E-01
1.74650000000E+09	9.01354109295E-01	-3.25035411137E-01
1.74700000000E+09	9.00729911437E-01	-3.26568228129E-01
1.74750000000E+09	9.00168893775E-01	-3.27978574383E-01
1.74800000000E+09	8.99595011983E-01	-3.29405465631E-01
1.74850000000E+09	8.99014836468E-01	-3.30877595532E-01
1.74900000000E+09	8.98342714812E-01	-3.32436992899E-01
1.74950000000E+09	8.97756054153E-01	-3.33844836901E-01
1.75000000000E+09	8.97135548391E-01	-3.35357735321E-01
1.75050000000E+09	8.96516855290E-01	-3.36897653817E-01
1.75100000000E+09	8.95833325472E-01	-3.38290187182E-01
1.75150000000E+09	8.95201828020E-01	-3.39784069876E-01
1.75200000000E+09	8.94568404953E-01	-3.41273384986E-01
1.75250000000E+09	8.93912360415E-01	-3.42752929128E-01
1.75300000000E+09	8.93323845609E-01	-3.44203902933E-01
1.75350000000E+09	8.92721853951E-01	-3.45588320109E-01
1.75400000000E+09	8.91971124977E-01	-3.47149421925E-01
1.75450000000E+09	8.91264661341E-01	-3.48639491514E-01
1.75500000000E+09	8.90560671950E-01	-3.50180957211E-01
1.75550000000E+09	8.89893334114E-01	-3.51618325111E-01
1.75600000000E+09	8.89299234367E-01	-3.53111320260E-01
1.75650000000E+09	8.88512706530E-01	-3.54615203025E-01
1.75700000000E+09	8.87850895850E-01	-3.56091860261E-01
1.75750000000E+09	8.87143505651E-01	-3.57530936212E-01
1.75800000000E+09	8.86491122220E-01	-3.59057650130E-01
1.75850000000E+09	8.85760782859E-01	-3.60615581863E-01
1.75900000000E+09	8.85070298265E-01	-3.62069975735E-01
1.75950000000E+09	8.84307857092E-01	-3.63568367618E-01
1.76000000000E+09	8.83677014760E-01	-3.65074196185E-01
1.76050000000E+09	8.82862839450E-01	-3.66555988424E-01
1.76100000000E+09	8.82192912082E-01	-3.68023625594E-01
1.76150000000E+09	8.81455913388E-01	-3.69548697028E-01
1.76200000000E+09	8.80666516861E-01	-3.70944961198E-01
1.76250000000E+09	8.79971550594E-01	-3.72571372235E-01
1.76300000000E+09	8.79180876233E-01	-3.73973980489E-01
1.76350000000E+09	8.78466764436E-01	-3.75467912757E-01
1.76400000000E+09	8.77654370507E-01	-3.76922658724E-01
1.76450000000E+09	8.76937346940E-01	-3.78431499131E-01
1.76500000000E+09	8.76202430027E-01	-3.79882120022E-01
1.76550000000E+09	8.75422199994E-01	-3.81405758708E-01
1.76600000000E+09	8.74634449605E-01	-3.82932452151E-01
1.76650000000E+09	8.73856863277E-01	-3.84479698019E-01
1.76700000000E+09	8.73083386211E-01	-3.86011053955E-01
1.76750000000E+09	8.72282737451E-01	-3.87463087217E-01
1.76800000000E+09	8.71551556320E-01	-3.88940313598E-01
1.76850000000E+09	8.70682004344E-01	-3.90483781957E-01
1.76900000000E+09	8.69871161719E-01	-3.92024240917E-01
1.76950000000E+09	8.69025106143E-01	-3.93546989663E-01
1.77000000000E+09	8.68231947990E-01	-3.94988256647E-01
1.77050000000E+09	8.67439541423E-01	-3.96510562196E-01
1.77100000000E+09	8.66565589982E-01	-3.97978675000E-01
1.77150000000E+09	8.65721092393E-01	-3.99493784985E-01
1.77200000000E+09	8.64867155975E-01	-4.01004476524E-01
1.77250000000E+09	8.63976852981E-01	-4.02519480953E-01
1.77300000000E+09	8.63208978033E-01	-4.03991001258E-01
1.77350000000E+09	8.62282380343E-01	-4.05482453148E-01
1.77400000000E+09	8.61417496235E-01	-4.06971706087E-01
1.77450000000E+09	8.60511636940E-01	-4.08488379073E-01
1.77500000000E+09	8.59703158084E-01	-4.09905802239E-01
1.77550000000E+09	8.58762584412E-01	-4.11360379668E-01
1.77600000000E+09	8.57879987455E-01	-4.12856167733E-01
1.77650000000E+09	8.57050614191E-01	-4.14316269399E-01
1.77700000000E+09	8.56010286612E-01	-4.15703052208E-01
1.77750000000E+09	8.55266143882E-01	-4.17216176122E-01
1.77800000000E+09	8.54369120059E-01	-4.18641137912E-01
1.77850000000E+09	8.53457507059E-01	-4.20162419244E-01
1.77900000000E+09	8.52585820031E-01	-4.21583054832E-01
1.77950000000E+09	8.51715477140E-01	-4.23114766415E-01
1.78000000000E+09	8.50854771007E-01	-4.24517160605E-01
1.78050000000E+09	8.49896117441E-01	-4.25905593182E-01
1.78100000000E+09	8.48973054955E-01	-4.27452574810E-01
1.78150000000E+09	8.48165170889E-01	-4.28823334789E-01
1.78200000000E+09	8.47230525473E-01	-4.30328520929E-01
1.78250000000E+09	8.46211741461E-01	-4.31650189440E-01
1.78300000000E+09	8.45369566566E-01	-4.33163577330E-01
1.78350000000E+09	8.44498116197E-01	-4.34689649736E-01
1.78400000000E+09	8.43539211742E-01	-4.36134360845E-01
1.78450000000E+09	8.42624836659E-01	-4.37536753619E-01
1.78500000000E+09	8.41625955448E-01	-4.39026644741E-01
1.78550000000E+09	8.40790706994E-01	-4.40398177207E-01
1.78600000000E+09	8.39880029239E-01	-4.41865583119E-01
1.78650000000E+09	8.38977901049E-01	-4.43289475543E-01
1.78700000000E+09	8.37972628959E-01	-4.44707889370E-01
1.78750000000E+09	8.37037264225E-01	-4.46185402588E-01
1.78800000000E+09	8.36123461026E-01	-4.47614079269E-01
1.78850000000E+09	8.35143479800E-01	-4.49090648070E-01
1.78900000000E+09	8.34145769036E-01	-4.50476065370E-01
1.78950000000E+09	8.33227024458E-01	-4.51871613652E-01
1.79000000000E+09	8.32269224344E-01	-4.53344195880E-01
1.79050000000E+09	8.31374199088E-01	-4.54709228335E-01
1.79100000000E+09	8.30382192585E-01	-4.56105872833E-01
1.79150000000E+09	8.29454118422E-01	-4.57575957053E-01
1.79200000000E+09	8.28464749432E-01	-4.59015299565E-01
1.79250000000E+09	8.27505412543E-01	-4.60379287261E-01
1.79300000000E+09	8.26578527034E-01	-4.61828529210E-01
1.79350000000E+09	8.25585868044E-01	-4.63090861082E-01
1.79400000000E+09	8.24576397452E-01	-4.64543454274E-01
1.79450000000E+09	8.23586836305E-01	-4.65915040259E-01
1.79500000000E+09	8.22744033066E-01	-4.67266173890E-01
1.79550000000E+09	8.21722948481E-01	-4.68741063048E-01
1.79600000000E+09	8.20755280474E-01	-4.70122792316E-01
1.79650000000E+09	8.19743494571E-01	-4.71494943699E-01
1.79700000000E+09	8.18852221774E-01	-4.72950425820E-01
1.79750000000E+09	8.17820605385E-01	-4.74281192749E-01
1.79800000000E+09	8.16852808481E-01	-4.75670888264E-01
1.79850000000E+09	8.15913835740E-01	-4.77092464089E-01
1.79900000000E+09	8.14981276920E-01	-4.78464179668E-01
1.79950000000E+09	8.13820829566E-01	-4.79901884010E-01
1.80000000000E+09	8.12957979801E-01	-4.81256806495E-01
1.80050000000E+09	8.11855382888E-01	-4.82576984226E-01
1.80100000000E+09	8.10891098001E-01	-4.83959769846E-01
1.80150000000E+09	8.09909063978E-01	-4.85277718622E-01
1.80200000000E+09	8.08917571396E-01	-4.86704497835E-01
1.80250000000E+09	8.07832816839E-01	-4.88058725813E-01
1.80300000000E+09	8.06914797232E-01	-4.89442075360E-01
1.80350000000E+09	8.05858774270E-01	-4.90783831712E-01
1.80400000000E+09	8.04804885962E-01	-4.92119467607E-01
1.80450000000E+09	8.03877830609E-01	-4.93487045141E-01
1.80500000000E+09	8.02841774839E-01	-4.94795355623E-01
1.80550000000E+09	8.01812964862E-01	-4.96213762251E-01
1.80600000000E+09	8.00818214312E-01	-4.97468480215E-01
1.80650000000E+09	7.99802604992E-01	-4.98829727731E-01
1.80700000000E+09	7.98725312665E-01	-5.00166932254E-01
1.80750000000E+09	7.97668549187E-01	-5.01485667408E-01
1.80800000000E+09	7.96746977398E-01	-5.02871928595E-01
1.80850000000E+09	7.95687890289E-01	-5.04180989766E-01
1.80900000000E+09	7.94705025775E-01	-5.05431316688E-01
1.80950000000E+09	7.93688160398E-01	-5.06759831530E-01
1.81000000000E+09	7.92664150897E-01	-5.08059487930E-01
1.81050000000E+09	7.91750627058E-01	-5.09423341721E-01
1.81100000000E+09	7.90636892561E-01	-5.10688551270E-01
1.81150000000E+09	7.89685160944E-01	-5.12017210810E-01
1.81200000000E+09	7.88704356865E-01	-5.13297626180E-01
1.81250000000E+09	7.87764854057E-01	-5.14624019658E-01
1.81300000000E+09	7.86672492256E-01	-5.15889937942E-01
1.81350000000E+09	7.85688898177E-01	-5.17261251669E-01
1.81400000000E+09	7.84671230046E-01	-5.18560872141E-01
1.81450000000E+09	7.83672854554E-01	-5.19842467733E-01
1.81500000000E+09	7.82610298744E-01	-5.21197853026E-01
1.81550000000E+09	7.81622389270E-01	-5.22524663383E-01
1.81600000000E+09	7.80567136750E-01	-5.23803023987E-01
1.81650000000E+09	7.79500460725E-01	-5.25192668080E-01
1.81700000000E+09	7.78507034328E-01	-5.26413736229E-01
1.81750000000E+09	7.77478136278E-01	-5.27703026412E-01
1.81800000000E+09	7.76578128749E-01	-5.29007723440E-01
1.81850000000E+09	7.75395035420E-01	-5.30314778872E-01
1.81900000000E+09	7.74433979862E-01	-5.31669344355E-01
1.81950000000E+09	7.73339367178E-01	-5.32959031108E-01
1.82000000000E+09	7.72392476802E-01	-5.34336409448E-01
1.82050000000E+09	7.71271750086E-01	-5.35610887153E-01
1.82100000000E+09	7.70295314303E-01	-5.36855770638E-01
1.82150000000E+09	7.69183821389E-01	-5.38204190298E-01
1.82200000000E+09	7.68101247644E-01	-5.39506419005E-01
1.82250000000E+09	7.67085735148E-01	-5.40794378549E-01
1.82300000000E+09	7.66019423053E-01	-5.42073868927E-01
1.82350000000E+09	7.64880902614E-01	-5.43305581915E-01
1.82400000000E+09	7.63884359990E-01	-5.44671610056E-01
1.82450000000E+09	7.62761447317E-01	-5.45894464653E-01
1.82500000000E+09	7.61629484351E-01	-5.47174068242E-01
1.82550000000E+09	7.60532614446E-01	-5.48408160481E-01
1.82600000000E+09	7.59454458870E-01	-5.49705712960E-01
1.82650000000E+09	7.58324136204E-01	-5.50905608965E-01
1.82700000000E+09	7.57228515248E-01	-5.52175859892E-01
1.82750000000E+09	7.56144329377E-01	-5.53351127377E-01
1.82800000000E+09	7.55002228169E-01	-5.54648292426E-01
1.82850000000E+09	7.53917177777E-01	-5.55836822640E-01
1.82900000000E+09	7.52854345524E-01	-5.57079128165E-01
1.82950000000E+09	7.51805994129E-01	-5.58285382978E-01
1.83000000000E+09	7.50663512381E-01	-5.59441055922E-01
1.83050000000E+09	7.49644575272E-01	-5.60703078485E-01
1.83100000000E+09	7.48508171696E-01	-5.61926889038E-01
1.83150000000E+09	7.47484194725E-01	-5.63128656721E-01
1.83200000000E+09	7.46408130757E-01	-5.64311996789E-01
1.83250000000E+09	7.45257957714E-01	-5.65554929472E-01
1.83300000000E+09	7.44182401050E-01	-5.66774723484E-01
1.83350000000E+09	7.43088399355E-01	-5.68002101334E-01
1.83400000000E+09	7.42027142257E-01	-5.69211452243E-01
1.83450000000E+09	7.40909073011E-01	-5.70414837073E-01
1.83500000000E+09	7.39763364944E-01	-5.71609843363E-01
1.83550000000E+09	7.38696546417E-01	-5.72909125839E-01
1.83600000000E+09	7.37565837405E-01	-5.73983481699E-01
1.83650000000E+09	7.36471759504E-01	-5.75197877652E-01
1.83700000000E+09	7.35349490735E-01	-5.76475217571E-01
1.83750000000E+09	7.34268649934E-01	-5.77658358542E-01
1.83800000000E+09	7.33178687151E-01	-5.78825858710E-01
1.83850000000E+09	7.31965034046E-01	-5.80060298595E-01
1.83900000000E+09	7.30937115687E-01	-5.81242780536E-01
1.83950000000E+09	7.29683545264E-01	-5.82461607634E-01
1.84000000000E+09	7.28624222681E-01	-5.83626468972E-01
1.84050000000E+09	7.27485105372E-01	-5.84785770411E-01
1.84100000000E+09	7.26318929326E-01	-5.85976727035E-01
1.84150000000E+09	7.25220461845E-01	-5.87163215278E-01
1.84200000000E+09	7.24055292735E-01	-5.88382743953E-01
1.84250000000E+09	7.22886957952E-01	-5.89492842059E-01
1.84300000000E+09	7.21807364288E-01	-5.90703060869E-01
1.84350000000E+09	7.20583824222E-01	-5.91846429256E-01
1.84400000000E+09	7.19461639145E-01	-5.93059919951E-01
1.84450000000E+09	7.18242931609E-01	-5.94180540020E-01
1.84500000000E+09	7.17092520583E-01	-5.95289472163E-01
1.84550000000E+09	7.16014331630E-01	-5.96414801892E-01
1.84600000000E+09	7.14857275228E-01	-5.97554070891E-01
1.84650000000E+09	7.13726076949E-01	-5.98710234769E-01
1.84700000000E+09	7.12506941642E-01	-5.99861541310E-01
1.84750000000E+09	7.11427810143E-01	-6.01048016647E-01
1.84800000000E+09	7.10227172513E-01	-6.02197918011E-01
1.84850000000E+09	7.09040457226E-01	-6.03273315239E-01
1.84900000000E+09	7.07918148294E-01	-6.04366610189E-01
1.84950000000E+09	7.06738833929E-01	-6.05619641121E-01
1.85000000000E+09	7.05569157500E-01	-6.06671788410E-01
1.85050000000E+09	7.04416299185E-01	-6.07840162686E-01
1.85100000000E+09	7.03249785612E-01	-6.08948654980E-01
1.85150000000E+09	7.02078768094E-01	-6.10124381439E-01
1.85200000000E+09	7.00917672084E-01	-6.11276716319E-01
1.85250000000E+09	6.99758520323E-01	-6.12385886528E-01
1.85300000000E+09	6.98588736648E-01	-6.13449707099E-01
1.85350000000E+09	6.97443129862E-01	-6.14589047834E-01
1.85400000000E+09	6.96238772437E-01	-6.15729435300E-01
1.85450000000E+09	6.95016414675E-01	-6.16868409341E-01
1.85500000000E+09	6.93826070478E-01	-6.17993011032E-01
1.85550000000E+09	6.92670940509E-01	-6.19123439895E-01
1.85600000000E+09	6.91502084696E-01	-6.20244622600E-01
1.85650000000E+09	6.90301062935E-01	-6.21369099240E-01
1.85700000000E+09	6.89181900761E-01	-6.22483176045E-01
1.85750000000E+09	6.87963811137E-01	-6.23593357888E-01
1.85800000000E+09	6.86785072689E-01	-6.24649224021E-01
1.85850000000E+09	6.85648470776E-01	-6.25878283651E-01
1.85900000000E+09	6.84446426238E-01	-6.26918785138E-01
1.85950000000E+09	6.83283180510E-01	-6.28096664372E-01
1.86000000000E+09	6.82099054171E-01	-6.29265826291E-01
1.86050000000E+09	6.80933078213E-01	-6.30416408176E-01
1.86100000000E+09	6.79859994892E-01	-6.31574767136E-01
1.86150000000E+09	6.78648473841E-01	-6.32679158445E-01
1.86200000000E+09	6.77472987992E-01	-6.33930892360E-01
1.86250000000E+09	6.76193370742E-01	-6.35085659913E-01
1.86300000000E+09	6.74977510800E-01	-6.36268579224E-01
1.86350000000E+09	6.73855558598E-01	-6.37517728008E-01
1.86400000000E+09	6.72591302584E-01	-6.38651327929E-01
1.86450000000E+09	6.71454520894E-01	-6.39872034286E-01
1.86500000000E+09	6.70194083861E-01	-6.41112410322E-01
1.86550000000E+09	6.68939796447E-01	-6.42298761321E-01
1.86600000000E+09	6.67646337482E-01	-6.43465533204E-01
1.86650000000E+09	6.66326771500E-01	-6.44686587994E-01
1.86700000000E+09	6.65063262121E-01	-6.45904524389E-01
1.86750000000E+09	6.63787962680E-01	-6.46938225729E-01
1.86800000000E+09	6.62514231534E-01	-6.48292681342E-01
1.86850000000E+09	6.61254489458E-01	-6.49455712157E-01
1.86900000000E+09	6.60004212325E-01	-6.50650477823E-01
1.86950000000E+09	6.58666095499E-01	-6.51864105690E-01
1.87000000000E+09	6.57435845490E-01	-6.53074004792E-01
1.87050000000E+09	6.56112516565E-01	-6.54217797064E-01
1.87100000000E+09	6.54811112781E-01	-6.55530765000E-01
1.87150000000E+09	6.53541650546E-01	-6.56674423407E-01
1.87200000000E+09	6.52280475093E-01	-6.57920316748E-01
1.87250000000E+09	6.50977434671E-01	-6.59208397063E-01
1.87300000000E+09	6.49619792752E-01	-6.60507095986E-01
1.87350000000E+09	6.48292684389E-01	-6.61739661046E-01
1.87400000000E+09	6.46990221397E-01	-6.62973131423E-01
1.87450000000E+09	6.45618070965E-01	-6.64293714619E-01
1.87500000000E+09	6.44282778526E-01	-6.65672290806E-01
1.87550000000E+09	6.42866624685E-01	-6.66980295993E-01
1.87600000000E+09	6.41439906412E-01	-6.68213632849E-01
1.87650000000E+09	6.40095438663E-01	-6.69632432530E-01
