# Hz S RI R 50
! CMT, CMT808U, 21440046, 21.4.3/4
! Date: 12/1/2025 1:31:23 PM
! Data: Format (Calibration Info)
! Freq	S11:Re/Im(F2)
1.70000000000E+09	9.47297592650E-01	-1.43995498305E-01
1.70050000000E+09	9.47040901832E-01	-1.45333230230E-01
1.70100000000E+09	9.46807634714E-01	-1.46654461003E-01
1.70150000000E+09	9.46590130909E-01	-1.47979585301E-01
1.70200000000E+09	9.46323391210E-01	-1.49276513853E-01
1.70250000000E+09	9.46107945517E-01	-1.50643016306E-01
1.70300000000E+09	9.45886389981E-01	-1.51896014116E-01
1.70350000000E+09	9.45566159498E-01	-1.53223408494E-01
1.70400000000E+09	9.45436800956E-01	-1.54487900809E-01
1.70450000000E+09	9.45152445886E-01	-1.55920427118E-01
1.70500000000E+09	9.44894955479E-01	-1.57202766176E-01
1.70550000000E+09	9.44672937055E-01	-1.58534759373E-01
1.70600000000E+09	9.44480979761E-01	-1.59821306076E-01
1.70650000000E+09	9.44163085873E-01	-1.61106075063E-01
1.70700000000E+09	9.43947230763E-01	-1.62403952264E-01
1.70750000000E+09	9.43651346153E-01	-1.63808101802E-01
1.70800000000E+09	9.43414063576E-01	-1.65034317616E-01
1.70850000000E+09	9.43204858129E-01	-1.66383290940E-01
1.70900000000E+09	9.42931611289E-01	-1.67722378917E-01
1.70950000000E+09	9.42714674419E-01	-1.69041856821E-01
1.71000000000E+09	9.42474282484E-01	-1.70376143258E-01
1.71050000000E+09	9.42242183190E-01	-1.71736600937E-01
1.71100000000E+09	9.41928754176E-01	-1.73076215653E-01
1.71150000000E+09	9.41644978301E-01	-1.74398811619E-01
1.71200000000E+09	9.41433889849E-01	-1.75722755471E-01
1.71250000000E+09	9.41169689779E-01	-1.77096113302E-01
1.71300000000E+09	9.40896552180E-01	-1.78357355249E-01
1.71350000000E+09	9.40563511887E-01	-1.79765214258E-01
1.71400000000E+09	9.40411992961E-01	-1.81149484214E-01
1.71450000000E+09	9.40082584735E-01	-1.82411927975E-01
1.71500000000E+09	9.39791999158E-01	-1.83775602091E-01
1.71550000000E+09	9.39654203563E-01	-1.85174617700E-01
1.71600000000E+09	9.39300082896E-01	-1.86504757841E-01
1.71650000000E+09	9.38998515639E-01	-1.87879173564E-01
1.71700000000E+09	9.38734419324E-01	-1.89249527775E-01
1.71750000000E+09	9.38473824411E-01	-1.90666103977E-01
1.71800000000E+09	9.38258036987E-01	-1.91882099852E-01
1.71850000000E+09	9.37886620495E-01	-1.93358481717E-01
1.71900000000E+09	9.37669371450E-01	-1.94626462408E-01
1.71950000000E+09	9.37285421311E-01	-1.95964688056E-01
1.72000000000E+09	9.37012117194E-01	-1.97445942212E-01
1.72050000000E+09	9.36722827442E-01	-1.98775960961E-01
1.72100000000E+09	9.36421885983E-01	-2.00140112703E-01
1.72150000000E+09	9.36130844253E-01	-2.01555646402E-01
1.72200000000E+09	9.35816469848E-01	-2.02871924573E-01
1.72250000000E+09	9.35546942011E-01	-2.04250896258E-01
1.72300000000E+09	9.35159327821E-01	-2.05663702495E-01
1.72350000000E+09	9.34891245260E-01	-2.07035853800E-01
1.72400000000E+09	9.34610168539E-01	-2.08401426619E-01
1.72450000000E+09	9.34272986944E-01	-2.09814167165E-01
1.72500000000E+09	9.33926396780E-01	-2.11261089328E-01
1.72550000000E+09	9.33613852917E-01	-2.12549447436E-01
1.72600000000E+09	9.33236117046E-01	-2.14043844529E-01
1.72650000000E+09	9.32993958804E-01	-2.15426850102E-01
1.72700000000E+09	9.32673003444E-01	-2.16830396042E-01
1.72750000000E+09	9.32257200500E-01	-2.18223367356E-01
1.72800000000E+09	9.31976660677E-01	-2.19620210046E-01
1.72850000000E+09	9.31557760883E-01	-2.20973298378E-01
1.72900000000E+09	9.31348164289E-01	-2.22426831490E-01
1.72950000000E+09	9.30897495222E-01	-2.23788578573E-01
1.73000000000E+09	9.30595613483E-01	-2.25301623174E-01
1.73050000000E+09	9.30219390566E-01	-2.26606007722E-01
1.73100000000E+09	9.29806917387E-01	-2.28035198603E-01
1.73150000000E+09	9.29480934426E-01	-2.29504582723E-01
1.73200000000E+09	9.29104246365E-01	-2.30962510639E-01
1.73250000000E+09	9.28748873214E-01	-2.32327548210E-01
1.73300000000E+09	9.28337392366E-01	-2.33805570722E-01
1.73350000000E+09	9.27917459039E-01	-2.35200911322E-01
1.73400000000E+09	9.27601739455E-01	-2.36653693806E-01
1.73450000000E+09	9.27231330781E-01	-2.38034506011E-01
1.73500000000E+09	9.26792692078E-01	-2.39490010316E-01
1.73550000000E+09	9.26467439061E-01	-2.40866110048E-01
1.73600000000E+09	9.26031770813E-01	-2.42371917755E-01
1.73650000000E+09	9.25592281176E-01	-2.43826212643E-01
1.73700000000E+09	9.25194462739E-01	-2.45246158587E-01
1.73750000000E+09	9.24854477359E-01	-2.46727136792E-01
1.73800000000E+09	9.24348136307E-01	-2.48090706726E-01
1.73850000000E+09	9.23961025085E-01	-2.49559725100E-01
1.73900000000E+09	9.23497386867E-01	-2.50979587218E-01
1.73950000000E+09	9.23071930761E-01	-2.52439279086E-01
1.74000000000E+09	9.22660289976E-01	-2.53943436232E-01
1.74050000000E+09	9.22167721185E-01	-2.55372212818E-01
1.74100000000E+09	9.21750920481E-01	-2.56903573193E-01
1.74150000000E+09	9.21306299126E-01	-2.58332463082E-01
1.74200000000E+09	9.20849145007E-01	-2.59777974841E-01
1.74250000000E+09	9.20324147670E-01	-2.61197133305E-01
1.74300000000E+09	9.19878921332E-01	-2.62634894772E-01
1.74350000000E+09	9.19419464598E-01	-2.64126884002E-01
1.74400000000E+09	9.18951610808E-01	-2.65540166034E-01
1.74450000000E+09	9.18537248343E-01	-2.67058347975E-01
1.74500000000E+09	9.18066788027E-01	-2.68506137626E-01
1.74550000000E+09	9.17579220536E-01	-2.69996215402E-01
1.74600000000E+09	9.17089458118E-01	-2.71343078280E-01
1.74650000000E+09	9.16588178539E-01	-2.72904015900E-01
1.74700000000E+09	9.16098931227E-01	-2.74325025707E-01
1.74750000000E+09	9.15582932975E-01	-2.75813701062E-01
1.74800000000E+09	9.15040017611E-01	-2.77311607217E-01
1.74850000000E+09	9.14642818191E-01	-2.78736387028E-01
1.74900000000E+09	9.14076178523E-01	-2.80245288956E-01
1.74950000000E+09	9.13648979315E-01	-2.81681762190E-01
1.75000000000E+09	9.13114753352E-01	-2.83255383386E-01
1.75050000000E+09	9.12612226968E-01	-2.84680833164E-01
1.75100000000E+09	9.12050816770E-01	-2.86124846815E-01
1.75150000000E+09	9.11572909898E-01	-2.87657173905E-01
1.75200000000E+09	9.11030242227E-01	-2.89177968740E-01
1.75250000000E+09	9.10478493686E-01	-2.90645202883E-01
1.75300000000E+09	9.10005034521E-01	-2.92138833733E-01
1.75350000000E+09	9.09438998377E-01	-2.93578454144E-01
1.75400000000E+09	9.08858183029E-01	-2.95177654144E-01
1.75450000000E+09	9.08313394259E-01	-2.96675849671E-01
1.75500000000E+09	9.07716487025E-01	-2.98203924842E-01
1.75550000000E+09	9.07143646578E-01	-2.99666794135E-01
1.75600000000E+09	9.06624886379E-01	-3.01177174871E-01
1.75650000000E+09	9.05940954281E-01	-3.02713247289E-01
1.75700000000E+09	9.05369036461E-01	-3.04218068105E-01
1.75750000000E+09	9.04795961152E-01	-3.05692379806E-01
1.75800000000E+09	9.04243993432E-01	-3.07140168631E-01
1.75850000000E+09	9.03658010152E-01	-3.08727260536E-01
1.75900000000E+09	9.02958894926E-01	-3.10247008640E-01
1.75950000000E+09	9.02338461990E-01	-3.11741692650E-01
1.76000000000E+09	9.01809732948E-01	-3.13300050446E-01
1.76050000000E+09	9.01100690726E-01	-3.14764990897E-01
1.76100000000E+09	9.00471297628E-01	-3.16176175762E-01
1.76150000000E+09	8.99835943297E-01	-3.17709230961E-01
1.76200000000E+09	8.99216975160E-01	-3.19272920888E-01
1.76250000000E+09	8.98567889104E-01	-3.20838815371E-01
1.76300000000E+09	8.97834443259E-01	-3.22267122904E-01
1.76350000000E+09	8.97221307202E-01	-3.23748894834E-01
1.76400000000E+09	8.96575707354E-01	-3.25262094409E-01
1.76450000000E+09	8.95912354777E-01	-3.26738871843E-01
1.76500000000E+09	8.95259021214E-01	-3.28181422106E-01
1.76550000000E+09	8.94547980730E-01	-3.29708044374E-01
1.76600000000E+09	8.93829674694E-01	-3.31220140438E-01
1.76650000000E+09	8.93185055628E-01	-3.32687014398E-01
1.76700000000E+09	8.92508481183E-01	-3.34157073462E-01
1.76750000000E+09	8.91826203810E-01	-3.35620859308E-01
1.76800000000E+09	8.91116170888E-01	-3.37096947027E-01
1.76850000000E+09	8.90395872338E-01	-3.38614407897E-01
1.76900000000E+09	8.89749239296E-01	-3.40135677399E-01
1.76950000000E+09	8.88986204479E-01	-3.41597763801E-01
1.77000000000E+09	8.88328805865E-01	-3.43078651106E-01
1.77050000000E+09	8.87608229681E-01	-3.44593680166E-01
1.77100000000E+09	8.86873721007E-01	-3.46054183242E-01
1.77150000000E+09	8.86139329243E-01	-3.47557633699E-01
1.77200000000E+09	8.85425457576E-01	-3.49073491860E-01
1.77250000000E+09	8.84761586581E-01	-3.50526614107E-01
1.77300000000E+09	8.84011488571E-01	-3.51952361179E-01
1.77350000000E+09	8.83258387156E-01	-3.53474268785E-01
1.77400000000E+09	8.82508203239E-01	-3.54986072781E-01
1.77450000000E+09	8.81739025697E-01	-3.56444480593E-01
1.77500000000E+09	8.81047238968E-01	-3.57843004956E-01
1.77550000000E+09	8.80305668468E-01	-3.59318748446E-01
1.77600000000E+09	8.79498662978E-01	-3.60831306290E-01
1.77650000000E+09	8.78812252726E-01	-3.62363798889E-01
1.77700000000E+09	8.77904852045E-01	-3.63764403783E-01
1.77750000000E+09	8.77311514629E-01	-3.65244772682E-01
1.77800000000E+09	8.76500417007E-01	-3.66674747125E-01
1.77850000000E+09	8.75726552843E-01	-3.68109761088E-01
1.77900000000E+09	8.74983663205E-01	-3.69658394457E-01
1.77950000000E+09	8.74145465745E-01	-3.71053405683E-01
1.78000000000E+09	8.73398257532E-01	-3.72580477373E-01
1.78050000000E+09	8.72569888726E-01	-3.73989988835E-01
1.78100000000E+09	8.71823665496E-01	-3.75506701372E-01
1.78150000000E+09	8.71099024377E-01	-3.76872022115E-01
1.78200000000E+09	8.70272991756E-01	-3.78484351741E-01
1.78250000000E+09	8.69405737734E-01	-3.79844357409E-01
1.78300000000E+09	8.68661071332E-01	-3.81350174818E-01
1.78350000000E+09	8.67830218088E-01	-3.82840318571E-01
1.78400000000E+09	8.67038565909E-01	-3.84301228747E-01
1.78450000000E+09	8.66290085285E-01	-3.85725912457E-01
1.78500000000E+09	8.65453955377E-01	-3.87195436580E-01
1.78550000000E+09	8.64647268253E-01	-3.88697235971E-01
1.78600000000E+09	8.63795650826E-01	-3.90165189462E-01
1.78650000000E+09	8.62981680682E-01	-3.91495658320E-01
1.78700000000E+09	8.62130437280E-01	-3.92984517589E-01
1.78750000000E+09	8.61338100237E-01	-3.94467372251E-01
1.78800000000E+09	8.60451724468E-01	-3.95932147582E-01
1.78850000000E+09	8.59640477821E-01	-3.97412729437E-01
1.78900000000E+09	8.58810417675E-01	-3.98816713373E-01
1.78950000000E+09	8.57942917620E-01	-4.00255898354E-01
1.79000000000E+09	8.57052279759E-01	-4.01715660793E-01
1.79050000000E+09	8.56237648679E-01	-4.03172190203E-01
1.79100000000E+09	8.55371251144E-01	-4.04556195633E-01
1.79150000000E+09	8.54481715856E-01	-4.06037438382E-01
1.79200000000E+09	8.53653196165E-01	-4.07517087980E-01
1.79250000000E+09	8.52764609732E-01	-4.08855112385E-01
1.79300000000E+09	8.51877219496E-01	-4.10310840185E-01
1.79350000000E+09	8.51053223880E-01	-4.11749631542E-01
1.79400000000E+09	8.50070172467E-01	-4.13115436396E-01
1.79450000000E+09	8.49218848809E-01	-4.14565407173E-01
1.79500000000E+09	8.48393267305E-01	-4.15943844613E-01
1.79550000000E+09	8.47471628529E-01	-4.17351882711E-01
1.79600000000E+09	8.46596233956E-01	-4.18718163825E-01
1.79650000000E+09	8.45689160295E-01	-4.20124135528E-01
1.79700000000E+09	8.44814338138E-01	-4.21590755340E-01
1.79750000000E+09	8.43893786218E-01	-4.22973180588E-01
1.79800000000E+09	8.43061467586E-01	-4.24327011750E-01
1.79850000000E+09	8.42253651767E-01	-4.25722871358E-01
1.79900000000E+09	8.41358983176E-01	-4.27161559119E-01
1.79950000000E+09	8.40442732270E-01	-4.28568574944E-01
1.80000000000E+09	8.39534329664E-01	-4.29955440946E-01
1.80050000000E+09	8.38632532913E-01	-4.31377889398E-01
1.80100000000E+09	8.37705545597E-01	-4.32743666958E-01
1.80150000000E+09	8.36787190585E-01	-4.34128826411E-01
1.80200000000E+09	8.35890406901E-01	-4.35533597070E-01
1.80250000000E+09	8.34940750128E-01	-4.36891774615E-01
1.80300000000E+09	8.34064792905E-01	-4.38272813429E-01
1.80350000000E+09	8.33121640059E-01	-4.39643195268E-01
1.80400000000E+09	8.32252209411E-01	-4.41010455389E-01
1.80450000000E+09	8.31264992477E-01	-4.42393810791E-01
1.80500000000E+09	8.30398342484E-01	-4.43758812750E-01
1.80550000000E+09	8.29443688796E-01	-4.45138494880E-01
1.80600000000E+09	8.28524160173E-01	-4.46480787617E-01
1.80650000000E+09	8.27569960462E-01	-4.47876162151E-01
1.80700000000E+09	8.26663167157E-01	-4.49276603890E-01
1.80750000000E+09	8.25683107821E-01	-4.50669400241E-01
1.80800000000E+09	8.24835304217E-01	-4.52068104082E-01
1.80850000000E+09	8.23826280019E-01	-4.53414052871E-01
1.80900000000E+09	8.22864209750E-01	-4.54692597803E-01
1.80950000000E+09	8.22024295880E-01	-4.56083624162E-01
1.81000000000E+09	8.21049589082E-01	-4.57435571722E-01
1.81050000000E+09	8.20159610742E-01	-4.58844677866E-01
1.81100000000E+09	8.19148655503E-01	-4.60155686172E-01
1.81150000000E+09	8.18166537779E-01	-4.61516941708E-01
1.81200000000E+09	8.17244435752E-01	-4.62840697838E-01
1.81250000000E+09	8.16420336256E-01	-4.64204054690E-01
1.81300000000E+09	8.15372396484E-01	-4.65500904146E-01
1.81350000000E+09	8.14435948255E-01	-4.66830647688E-01
1.81400000000E+09	8.13420513249E-01	-4.68181837937E-01
1.81450000000E+09	8.12466415992E-01	-4.69495039252E-01
1.81500000000E+09	8.11525267070E-01	-4.70846173902E-01
1.81550000000E+09	8.10559388114E-01	-4.72228969348E-01
1.81600000000E+09	8.09624524633E-01	-4.73512154030E-01
1.81650000000E+09	8.08600120049E-01	-4.74853751446E-01
1.81700000000E+09	8.07653769458E-01	-4.76186169934E-01
1.81750000000E+09	8.06696682555E-01	-4.77518863891E-01
1.81800000000E+09	8.05830237318E-01	-4.78788652704E-01
1.81850000000E+09	8.04771197254E-01	-4.80147164780E-01
1.81900000000E+09	8.03761522684E-01	-4.81451104367E-01
1.81950000000E+09	8.02861924124E-01	-4.82761892696E-01
1.82000000000E+09	8.01909120566E-01	-4.84131473538E-01
1.82050000000E+09	8.00889392814E-01	-4.85380109312E-01
1.82100000000E+09	7.99935394332E-01	-4.86691137229E-01
1.82150000000E+09	7.99006163716E-01	-4.87929173874E-01
1.82200000000E+09	7.98012051303E-01	-4.89272363083E-01
1.82250000000E+09	7.97051507482E-01	-4.90522911019E-01
1.82300000000E+09	7.96113165547E-01	-4.91765714239E-01
1.82350000000E+09	7.95131636870E-01	-4.93157754949E-01
1.82400000000E+09	7.94231337350E-01	-4.94479326131E-01
1.82450000000E+09	7.93212087745E-01	-4.95741813529E-01
1.82500000000E+09	7.92287347104E-01	-4.97102490368E-01
1.82550000000E+09	7.91277209365E-01	-4.98354704851E-01
1.82600000000E+09	7.90334880856E-01	-4.99713504767E-01
1.82650000000E+09	7.89373924898E-01	-5.00981888789E-01
1.82700000000E+09	7.88408338469E-01	-5.02311862164E-01
1.82750000000E+09	7.87423874311E-01	-5.03587320903E-01
1.82800000000E+09	7.86362684964E-01	-5.04924027686E-01
1.82850000000E+09	7.85458981621E-01	-5.06198941276E-01
1.82900000000E+09	7.84453879624E-01	-5.07506640829E-01
1.82950000000E+09	7.83483152797E-01	-5.08859254140E-01
1.83000000000E+09	7.82498615833E-01	-5.10166790832E-01
1.83050000000E+09	7.81496699416E-01	-5.11441707419E-01
1.83100000000E+09	7.80490389024E-01	-5.12758215906E-01
1.83150000000E+09	7.79573765753E-01	-5.14089914485E-01
1.83200000000E+09	7.78545414798E-01	-5.15357733742E-01
1.83250000000E+09	7.77524593322E-01	-5.16694635798E-01
1.83300000000E+09	7.76500447022E-01	-5.18033204236E-01
1.83350000000E+09	7.75526186327E-01	-5.19317377948E-01
1.83400000000E+09	7.74496684253E-01	-5.20696547398E-01
1.83450000000E+09	7.73434992873E-01	-5.21952072696E-01
1.83500000000E+09	7.72442042475E-01	-5.23274099164E-01
1.83550000000E+09	7.71464034656E-01	-5.24641999536E-01
1.83600000000E+09	7.70401356084E-01	-5.25864245243E-01
1.83650000000E+09	7.69380570073E-01	-5.27226322554E-01
1.83700000000E+09	7.68345939452E-01	-5.28533196383E-01
1.83750000000E+09	7.67332092303E-01	-5.29797504307E-01
1.83800000000E+09	7.66278217063E-01	-5.31111645796E-01
1.83850000000E+09	7.65251276976E-01	-5.32483559219E-01
1.83900000000E+09	7.64237245251E-01	-5.33716496632E-01
1.83950000000E+09	7.63137864398E-01	-5.35101350078E-01
1.84000000000E+09	7.62111164732E-01	-5.36348567533E-01
1.84050000000E+09	7.61005987597E-01	-5.37701517315E-01
1.84100000000E+09	7.59954230819E-01	-5.39014876136E-01
1.84150000000E+09	7.58946512005E-01	-5.40353363789E-01
1.84200000000E+09	7.57784374665E-01	-5.41653664605E-01
1.84250000000E+09	7.56778374609E-01	-5.42879871548E-01
1.84300000000E+09	7.55656794626E-01	-5.44208690284E-01
1.84350000000E+09	7.54529729077E-01	-5.45554040453E-01
1.84400000000E+09	7.53503487897E-01	-5.46877463559E-01
1.84450000000E+09	7.52359777099E-01	-5.48172833917E-01
1.84500000000E+09	7.51254222738E-01	-5.49483320885E-01
1.84550000000E+09	7.50196002717E-01	-5.50753016298E-01
1.84600000000E+09	7.49071382482E-01	-5.52021518536E-01
1.84650000000E+09	7.47979405661E-01	-5.53385115733E-01
1.84700000000E+09	7.46906536786E-01	-5.54593548828E-01
1.84750000000E+09	7.45777841783E-01	-5.55968231566E-01
1.84800000000E+09	7.44640575502E-01	-5.57291565058E-01
1.84850000000E+09	7.43551120375E-01	-5.58518173468E-01
1.84900000000E+09	7.42455975996E-01	-5.59791187668E-01
1.84950000000E+09	7.41286935589E-01	-5.61211082247E-01
1.85000000000E+09	7.40177808633E-01	-5.62413085146E-01
1.85050000000E+09	7.38964885052E-01	-5.63744583411E-01
1.85100000000E+09	7.37856443483E-01	-5.65047399483E-01
1.85150000000E+09	7.36731698628E-01	-5.66428317985E-01
1.85200000000E+09	7.35490025717E-01	-5.67702359266E-01
1.85250000000E+09	7.34362751565E-01	-5.68931614931E-01
1.85300000000E+09	7.33190773502E-01	-5.70222877134E-01
1.85350000000E+09	7.32024473936E-01	-5.71482948463E-01
1.85400000000E+09	7.30859826882E-01	-5.72816965041E-01
1.85450000000E+09	7.29656741997E-01	-5.74174100452E-01
1.85500000000E+09	7.28448369682E-01	-5.75434856220E-01
1.85550000000E+09	7.27281591009E-01	-5.76735294169E-01
1.85600000000E+09	7.26185315709E-01	-5.78051053792E-01
1.85650000000E+09	7.24858763259E-01	-5.79366147890E-01
1.85700000000E+09	7.23732655696E-01	-5.80678750900E-01
1.85750000000E+09	7.22479467301E-01	-5.81923337778E-01
1.85800000000E+09	7.21227791737E-01	-5.83213625055E-01
1.85850000000E+09	7.19981941269E-01	-5.84504145233E-01
1.85900000000E+09	7.18696714910E-01	-5.85782737744E-01
1.85950000000E+09	7.17426890911E-01	-5.87105584302E-01
1.86000000000E+09	7.16219332081E-01	-5.88352928259E-01
1.86050000000E+09	7.14920857290E-01	-5.89626727365E-01
1.86100000000E+09	7.13649572649E-01	-5.90891233646E-01
1.86150000000E+09	7.12440598024E-01	-5.92141888482E-01
1.86200000000E+09	7.11134862213E-01	-5.93435686643E-01
1.86250000000E+09	7.09816583764E-01	-5.94681437828E-01
1.86300000000E+09	7.08503981416E-01	-5.95905443733E-01
1.86350000000E+09	7.07334795540E-01	-5.97180999855E-01
1.86400000000E+09	7.06029435115E-01	-5.98459937405E-01
1.86450000000E+09	7.04801722381E-01	-5.99704790902E-01
1.86500000000E+09	7.03522182827E-01	-6.00957840005E-01
1.86550000000E+09	7.02239013972E-01	-6.02186686080E-01
1.86600000000E+09	7.00859521754E-01	-6.03429860050E-01
1.86650000000E+09	6.99555098439E-01	-6.04752259193E-01
1.86700000000E+09	6.98347470610E-01	-6.05937672918E-01
1.86750000000E+09	6.96925769192E-01	-6.07214408325E-01
1.86800000000E+09	6.95621758773E-01	-6.08532213159E-01
1.86850000000E+09	6.94371234678E-01	-6.09750170079E-01
1.86900000000E+09	6.93018769501E-01	-6.11029935985E-01
1.86950000000E+09	6.91655414716E-01	-6.12261621310E-01
1.87000000000E+09	6.90375908365E-01	-6.13475574355E-01
1.87050000000E+09	6.88963931170E-01	-6.14716395420E-01
1.87100000000E+09	6.87601116929E-01	-6.15995853710E-01
1.87150000000E+09	6.86282836873E-01	-6.17305760953E-01
1.87200000000E+09	6.84911049829E-01	-6.18526944345E-01
1.87250000000E+09	6.83545907354E-01	-6.19833685752E-01
1.87300000000E+09	6.82148013273E-01	-6.21073819300E-01
1.87350000000E+09	6.80757333041E-01	-6.22315066846E-01
1.87400000000E+09	6.79361766776E-01	-6.23566253496E-01
1.87450000000E+09	6.77961787035E-01	-6.24855757657E-01
1.87500000000E+09	6.76541375171E-01	-6.26169569120E-01
1.87550000000E+09	6.75072717362E-01	-6.27450148687E-01
1.87600000000E+09	6.73691005943E-01	-6.28623201398E-01
1.87650000000E+09	6.72350936983E-01	-6.29956428878E-01
