# Hz S RI R 50
! CMT, CMT808U, 21440046, 21.4.3/4
! Date: 12/1/2025 1:26:32 PM
! Data: Format (Calibration Info)
! Freq	S11:Re/Im(F2)
1.70000000000E+09	8.11207502179E-01	-4.70831297274E-01
1.70050000000E+09	8.10415297068E-01	-4.72141672259E-01
1.70100000000E+09	8.09600801590E-01	-4.73326443997E-01
1.70150000000E+09	8.08860620443E-01	-4.74642795644E-01
1.70200000000E+09	8.08113160869E-01	-4.75852648062E-01
1.70250000000E+09	8.07341165650E-01	-4.77183658547E-01
1.70300000000E+09	8.06630270905E-01	-4.78396222197E-01
1.70350000000E+09	8.05790998043E-01	-4.79690630973E-01
1.70400000000E+09	8.05042570257E-01	-4.80958691954E-01
1.70450000000E+09	8.04257769417E-01	-4.82234561087E-01
1.70500000000E+09	8.03434507464E-01	-4.83498746308E-01
1.70550000000E+09	8.02666157595E-01	-4.84735094198E-01
1.70600000000E+09	8.01933250610E-01	-4.86010793437E-01
1.70650000000E+09	8.01140986471E-01	-4.87243581268E-01
1.70700000000E+09	8.00397675134E-01	-4.88574586389E-01
1.70750000000E+09	7.99569210679E-01	-4.89824681408E-01
1.70800000000E+09	7.98739585198E-01	-4.91055462050E-01
1.70850000000E+09	7.97975164217E-01	-4.92396198096E-01
1.70900000000E+09	7.97137458695E-01	-4.93620813477E-01
1.70950000000E+09	7.96367560278E-01	-4.94921853736E-01
1.71000000000E+09	7.95514113777E-01	-4.96233929254E-01
1.71050000000E+09	7.94745550339E-01	-4.97553460326E-01
1.71100000000E+09	7.93874087766E-01	-4.98779058281E-01
1.71150000000E+09	7.93093694970E-01	-4.99998736033E-01
1.71200000000E+09	7.92283261827E-01	-5.01354578720E-01
1.71250000000E+09	7.91459219676E-01	-5.02645267832E-01
1.71300000000E+09	7.90679931003E-01	-5.03861990969E-01
1.71350000000E+09	7.89812496381E-01	-5.05200416540E-01
1.71400000000E+09	7.88954853416E-01	-5.06442777298E-01
1.71450000000E+09	7.88132939291E-01	-5.07794919498E-01
1.71500000000E+09	7.87249150620E-01	-5.09108437641E-01
1.71550000000E+09	7.86440095584E-01	-5.10441735008E-01
1.71600000000E+09	7.85533035014E-01	-5.11652867219E-01
1.71650000000E+09	7.84673858375E-01	-5.12943607384E-01
1.71700000000E+09	7.83859604298E-01	-5.14321048766E-01
1.71750000000E+09	7.82922491880E-01	-5.15609471600E-01
1.71800000000E+09	7.82084288492E-01	-5.16899452421E-01
1.71850000000E+09	7.81207282584E-01	-5.18165143302E-01
1.71900000000E+09	7.80381287343E-01	-5.19470386319E-01
1.71950000000E+09	7.79450745801E-01	-5.20726841843E-01
1.72000000000E+09	7.78522487786E-01	-5.22046021054E-01
1.72050000000E+09	7.77642606453E-01	-5.23378034416E-01
1.72100000000E+09	7.76716894069E-01	-5.24650559972E-01
1.72150000000E+09	7.75847204568E-01	-5.25943258068E-01
1.72200000000E+09	7.74962249129E-01	-5.27246899327E-01
1.72250000000E+09	7.74071929727E-01	-5.28497320863E-01
1.72300000000E+09	7.73105079492E-01	-5.29823479556E-01
1.72350000000E+09	7.72171685610E-01	-5.31164359630E-01
1.72400000000E+09	7.71279649067E-01	-5.32432905825E-01
1.72450000000E+09	7.70334714593E-01	-5.33797688195E-01
1.72500000000E+09	7.69377916629E-01	-5.35119562590E-01
1.72550000000E+09	7.68356428814E-01	-5.36330083705E-01
1.72600000000E+09	7.67409145878E-01	-5.37667015549E-01
1.72650000000E+09	7.66490901862E-01	-5.38974559212E-01
1.72700000000E+09	7.65614316246E-01	-5.40266643935E-01
1.72750000000E+09	7.64557258330E-01	-5.41598038879E-01
1.72800000000E+09	7.63600293482E-01	-5.42936461614E-01
1.72850000000E+09	7.62605894137E-01	-5.44117592497E-01
1.72900000000E+09	7.61734580382E-01	-5.45526354007E-01
1.72950000000E+09	7.60738505015E-01	-5.46770714315E-01
1.73000000000E+09	7.59703278350E-01	-5.48146893770E-01
1.73050000000E+09	7.58731971267E-01	-5.49373559922E-01
1.73100000000E+09	7.57696170472E-01	-5.50646423717E-01
1.73150000000E+09	7.56716766898E-01	-5.52002427427E-01
1.73200000000E+09	7.55669051638E-01	-5.53288166005E-01
1.73250000000E+09	7.54680811029E-01	-5.54570531269E-01
1.73300000000E+09	7.53632592856E-01	-5.55875993358E-01
1.73350000000E+09	7.52680563958E-01	-5.57139187031E-01
1.73400000000E+09	7.51650117214E-01	-5.58496070907E-01
1.73450000000E+09	7.50591823434E-01	-5.59765129458E-01
1.73500000000E+09	7.49577258050E-01	-5.61057848988E-01
1.73550000000E+09	7.48590305712E-01	-5.62348270439E-01
1.73600000000E+09	7.47460806862E-01	-5.63694144045E-01
1.73650000000E+09	7.46437009593E-01	-5.64971073647E-01
1.73700000000E+09	7.45337322790E-01	-5.66280579345E-01
1.73750000000E+09	7.44330387110E-01	-5.67588799034E-01
1.73800000000E+09	7.43213177929E-01	-5.68842196701E-01
1.73850000000E+09	7.42167600449E-01	-5.70209789597E-01
1.73900000000E+09	7.41084964340E-01	-5.71470583372E-01
1.73950000000E+09	7.40015521714E-01	-5.72699643653E-01
1.74000000000E+09	7.38916949312E-01	-5.74050198104E-01
1.74050000000E+09	7.37822494741E-01	-5.75332966773E-01
1.74100000000E+09	7.36696712769E-01	-5.76757626666E-01
1.74150000000E+09	7.35594854500E-01	-5.77951190513E-01
1.74200000000E+09	7.34562940829E-01	-5.79235615540E-01
1.74250000000E+09	7.33343542315E-01	-5.80552444944E-01
1.74300000000E+09	7.32267915529E-01	-5.81785048072E-01
1.74350000000E+09	7.31162407787E-01	-5.83102508727E-01
1.74400000000E+09	7.29967846368E-01	-5.84395317518E-01
1.74450000000E+09	7.28818135115E-01	-5.85714037205E-01
1.74500000000E+09	7.27789398562E-01	-5.86872692850E-01
1.74550000000E+09	7.26580275505E-01	-5.88220365445E-01
1.74600000000E+09	7.25534810570E-01	-5.89437092415E-01
1.74650000000E+09	7.24303063398E-01	-5.90806546831E-01
1.74700000000E+09	7.23127662058E-01	-5.92064837440E-01
1.74750000000E+09	7.21936170490E-01	-5.93281379212E-01
1.74800000000E+09	7.20813644331E-01	-5.94585028231E-01
1.74850000000E+09	7.19627633262E-01	-5.95822122355E-01
1.74900000000E+09	7.18367696748E-01	-5.97107241579E-01
1.74950000000E+09	7.17279787499E-01	-5.98413769374E-01
1.75000000000E+09	7.16074488273E-01	-5.99674484307E-01
1.75050000000E+09	7.14898360616E-01	-6.00921608877E-01
1.75100000000E+09	7.13770773682E-01	-6.02151552515E-01
1.75150000000E+09	7.12509801893E-01	-6.03402903425E-01
1.75200000000E+09	7.11344268019E-01	-6.04682036680E-01
1.75250000000E+09	7.10144907171E-01	-6.05930227206E-01
1.75300000000E+09	7.08935840124E-01	-6.07163577038E-01
1.75350000000E+09	7.07815670918E-01	-6.08406805658E-01
1.75400000000E+09	7.06524074467E-01	-6.09676280670E-01
1.75450000000E+09	7.05271867253E-01	-6.10906339087E-01
1.75500000000E+09	7.04073462849E-01	-6.12150666967E-01
1.75550000000E+09	7.02856262290E-01	-6.13393443156E-01
1.75600000000E+09	7.01697499720E-01	-6.14629996639E-01
1.75650000000E+09	7.00346289687E-01	-6.15858061191E-01
1.75700000000E+09	6.99187614053E-01	-6.17175812297E-01
1.75750000000E+09	6.97944508257E-01	-6.18349074876E-01
1.75800000000E+09	6.96698644201E-01	-6.19600322638E-01
1.75850000000E+09	6.95464200083E-01	-6.20854842845E-01
1.75900000000E+09	6.94181069770E-01	-6.22125812660E-01
1.75950000000E+09	6.92927888936E-01	-6.23381870352E-01
1.76000000000E+09	6.91699238324E-01	-6.24614556847E-01
1.76050000000E+09	6.90415006347E-01	-6.25795798992E-01
1.76100000000E+09	6.89149718279E-01	-6.27044421974E-01
1.76150000000E+09	6.87930734263E-01	-6.28235169807E-01
1.76200000000E+09	6.86601838847E-01	-6.29507356877E-01
1.76250000000E+09	6.85316070856E-01	-6.30739693346E-01
1.76300000000E+09	6.84016868677E-01	-6.31892807261E-01
1.76350000000E+09	6.82759549281E-01	-6.33163344978E-01
1.76400000000E+09	6.81450582600E-01	-6.34373329184E-01
1.76450000000E+09	6.80176052612E-01	-6.35615734443E-01
1.76500000000E+09	6.78938055194E-01	-6.36781430461E-01
1.76550000000E+09	6.77628943866E-01	-6.38039066194E-01
1.76600000000E+09	6.76282337777E-01	-6.39204632725E-01
1.76650000000E+09	6.74964868867E-01	-6.40404230499E-01
1.76700000000E+09	6.73686176854E-01	-6.41596101689E-01
1.76750000000E+09	6.72388671299E-01	-6.42778526761E-01
1.76800000000E+09	6.71044679392E-01	-6.44011621990E-01
1.76850000000E+09	6.69637698213E-01	-6.45207030631E-01
1.76900000000E+09	6.68338517374E-01	-6.46363044748E-01
1.76950000000E+09	6.66923320936E-01	-6.47552316405E-01
1.77000000000E+09	6.65721757292E-01	-6.48735576111E-01
1.77050000000E+09	6.64315125632E-01	-6.49896571600E-01
1.77100000000E+09	6.63056761482E-01	-6.51071643728E-01
1.77150000000E+09	6.61656688111E-01	-6.52241925822E-01
1.77200000000E+09	6.60258132736E-01	-6.53431884855E-01
1.77250000000E+09	6.58934187289E-01	-6.54585002108E-01
1.77300000000E+09	6.57666900378E-01	-6.55705790002E-01
1.77350000000E+09	6.56267888095E-01	-6.56854108322E-01
1.77400000000E+09	6.54943986821E-01	-6.58036081447E-01
1.77450000000E+09	6.53519769119E-01	-6.59201801103E-01
1.77500000000E+09	6.52210210258E-01	-6.60343925076E-01
1.77550000000E+09	6.50823827735E-01	-6.61470728127E-01
1.77600000000E+09	6.49476255779E-01	-6.62598489751E-01
1.77650000000E+09	6.48106464406E-01	-6.63743944863E-01
1.77700000000E+09	6.46724659704E-01	-6.64855905682E-01
1.77750000000E+09	6.45378090014E-01	-6.66050358859E-01
1.77800000000E+09	6.44005291246E-01	-6.67164221291E-01
1.77850000000E+09	6.42657175672E-01	-6.68241299091E-01
1.77900000000E+09	6.41253344032E-01	-6.69436941592E-01
1.77950000000E+09	6.39821458200E-01	-6.70572142614E-01
1.78000000000E+09	6.38483753012E-01	-6.71615340617E-01
1.78050000000E+09	6.37075524578E-01	-6.72660164521E-01
1.78100000000E+09	6.35636642632E-01	-6.73858927365E-01
1.78150000000E+09	6.34315406456E-01	-6.74938185412E-01
1.78200000000E+09	6.32892384773E-01	-6.76050049165E-01
1.78250000000E+09	6.31467509447E-01	-6.77110283164E-01
1.78300000000E+09	6.30082661878E-01	-6.78197263641E-01
1.78350000000E+09	6.28723160195E-01	-6.79338658672E-01
1.78400000000E+09	6.27380101800E-01	-6.80408237405E-01
1.78450000000E+09	6.25899057749E-01	-6.81455747361E-01
1.78500000000E+09	6.24492158600E-01	-6.82570030901E-01
1.78550000000E+09	6.23102156840E-01	-6.83657309932E-01
1.78600000000E+09	6.21718082961E-01	-6.84773941440E-01
1.78650000000E+09	6.20403990998E-01	-6.85764558756E-01
1.78700000000E+09	6.18893644524E-01	-6.86910579452E-01
1.78750000000E+09	6.17560945831E-01	-6.87940778740E-01
1.78800000000E+09	6.16137194823E-01	-6.88999578730E-01
1.78850000000E+09	6.14752617875E-01	-6.90120176170E-01
1.78900000000E+09	6.13323433086E-01	-6.91101196088E-01
1.78950000000E+09	6.11874727435E-01	-6.92148875661E-01
1.79000000000E+09	6.10422855868E-01	-6.93237931708E-01
1.79050000000E+09	6.09064685128E-01	-6.94212880643E-01
1.79100000000E+09	6.07637029371E-01	-6.95308984459E-01
1.79150000000E+09	6.06241211483E-01	-6.96329974175E-01
1.79200000000E+09	6.04795869022E-01	-6.97468352852E-01
1.79250000000E+09	6.03376147084E-01	-6.98372560164E-01
1.79300000000E+09	6.01978062064E-01	-6.99460194263E-01
1.79350000000E+09	6.00620081256E-01	-7.00448378588E-01
1.79400000000E+09	5.99177548715E-01	-7.01401733446E-01
1.79450000000E+09	5.97727528154E-01	-7.02494294504E-01
1.79500000000E+09	5.96315884576E-01	-7.03579511429E-01
1.79550000000E+09	5.94876387604E-01	-7.04520403413E-01
1.79600000000E+09	5.93488247389E-01	-7.05541818586E-01
1.79650000000E+09	5.92027981901E-01	-7.06465966719E-01
1.79700000000E+09	5.90615405715E-01	-7.07540725330E-01
1.79750000000E+09	5.89212481236E-01	-7.08464440454E-01
1.79800000000E+09	5.87769414883E-01	-7.09494929564E-01
1.79850000000E+09	5.86410805925E-01	-7.10572449204E-01
1.79900000000E+09	5.84971156531E-01	-7.11533865967E-01
1.79950000000E+09	5.83424537609E-01	-7.12438897404E-01
1.80000000000E+09	5.82075787209E-01	-7.13506366051E-01
1.80050000000E+09	5.80625506380E-01	-7.14489886197E-01
1.80100000000E+09	5.79236061559E-01	-7.15459988313E-01
1.80150000000E+09	5.77767025193E-01	-7.16390766233E-01
1.80200000000E+09	5.76371295899E-01	-7.17438362988E-01
1.80250000000E+09	5.74945963823E-01	-7.18378390058E-01
1.80300000000E+09	5.73514820887E-01	-7.19302550700E-01
1.80350000000E+09	5.72050568244E-01	-7.20357468828E-01
1.80400000000E+09	5.70632959113E-01	-7.21263455781E-01
1.80450000000E+09	5.69242472588E-01	-7.22229884803E-01
1.80500000000E+09	5.67799073958E-01	-7.23255068959E-01
1.80550000000E+09	5.66397766930E-01	-7.24146145586E-01
1.80600000000E+09	5.64925350955E-01	-7.25152935615E-01
1.80650000000E+09	5.63524985027E-01	-7.26071716268E-01
1.80700000000E+09	5.62015735178E-01	-7.27053846721E-01
1.80750000000E+09	5.60585456386E-01	-7.28058468528E-01
1.80800000000E+09	5.59125316418E-01	-7.28991514262E-01
1.80850000000E+09	5.57660368935E-01	-7.29852456831E-01
1.80900000000E+09	5.56238370512E-01	-7.30817585818E-01
1.80950000000E+09	5.54834197081E-01	-7.31787458452E-01
1.81000000000E+09	5.53396564152E-01	-7.32714576240E-01
1.81050000000E+09	5.51929292558E-01	-7.33686379909E-01
1.81100000000E+09	5.50446310672E-01	-7.34599421516E-01
1.81150000000E+09	5.48983717267E-01	-7.35502559221E-01
1.81200000000E+09	5.47608122475E-01	-7.36471058995E-01
1.81250000000E+09	5.46142349845E-01	-7.37376173865E-01
1.81300000000E+09	5.44648138820E-01	-7.38312366071E-01
1.81350000000E+09	5.43254672912E-01	-7.39232817325E-01
1.81400000000E+09	5.41748382274E-01	-7.40041635407E-01
1.81450000000E+09	5.40339284754E-01	-7.41009229702E-01
1.81500000000E+09	5.38866075717E-01	-7.41895946194E-01
1.81550000000E+09	5.37342004871E-01	-7.42800373459E-01
1.81600000000E+09	5.35946773545E-01	-7.43744331619E-01
1.81650000000E+09	5.34448283430E-01	-7.44603716805E-01
1.81700000000E+09	5.33103004615E-01	-7.45434209088E-01
1.81750000000E+09	5.31520143873E-01	-7.46370246326E-01
1.81800000000E+09	5.30187796557E-01	-7.47267236512E-01
1.81850000000E+09	5.28639057951E-01	-7.48188385427E-01
1.81900000000E+09	5.27117766015E-01	-7.49081530083E-01
1.81950000000E+09	5.25744786684E-01	-7.49929797253E-01
1.82000000000E+09	5.24280800969E-01	-7.50857605636E-01
1.82050000000E+09	5.22760905179E-01	-7.51679321459E-01
1.82100000000E+09	5.21416495067E-01	-7.52641480521E-01
1.82150000000E+09	5.19837359532E-01	-7.53463633703E-01
1.82200000000E+09	5.18421590953E-01	-7.54341537726E-01
1.82250000000E+09	5.16994607449E-01	-7.55207872943E-01
1.82300000000E+09	5.15589973567E-01	-7.56093056181E-01
1.82350000000E+09	5.14037916015E-01	-7.56920506581E-01
1.82400000000E+09	5.12532434807E-01	-7.57783479189E-01
1.82450000000E+09	5.11112944751E-01	-7.58650019003E-01
1.82500000000E+09	5.09615974231E-01	-7.59548557472E-01
1.82550000000E+09	5.08099068014E-01	-7.60351071676E-01
1.82600000000E+09	5.06629181681E-01	-7.61246713600E-01
1.82650000000E+09	5.05145884732E-01	-7.62024838431E-01
1.82700000000E+09	5.03681082213E-01	-7.62884633049E-01
1.82750000000E+09	5.02260744895E-01	-7.63724552860E-01
1.82800000000E+09	5.00738993934E-01	-7.64594296883E-01
1.82850000000E+09	4.99286966670E-01	-7.65450154516E-01
1.82900000000E+09	4.97750907849E-01	-7.66252742136E-01
1.82950000000E+09	4.96332746407E-01	-7.67141660458E-01
1.83000000000E+09	4.94836639368E-01	-7.67949932702E-01
1.83050000000E+09	4.93296910608E-01	-7.68833169157E-01
1.83100000000E+09	4.91803618517E-01	-7.69629657200E-01
1.83150000000E+09	4.90338563643E-01	-7.70505073628E-01
1.83200000000E+09	4.88882506285E-01	-7.71337401156E-01
1.83250000000E+09	4.87352797194E-01	-7.72136371371E-01
1.83300000000E+09	4.85824016894E-01	-7.72978705876E-01
1.83350000000E+09	4.84352892169E-01	-7.73830928490E-01
1.83400000000E+09	4.82775665208E-01	-7.74649187903E-01
1.83450000000E+09	4.81200382465E-01	-7.75505808873E-01
1.83500000000E+09	4.79767770260E-01	-7.76245437678E-01
1.83550000000E+09	4.78249282894E-01	-7.77136804679E-01
1.83600000000E+09	4.76699124461E-01	-7.77832312468E-01
1.83650000000E+09	4.75201987787E-01	-7.78679917135E-01
1.83700000000E+09	4.73660076253E-01	-7.79527210465E-01
1.83750000000E+09	4.72146068219E-01	-7.80235836077E-01
1.83800000000E+09	4.70638129956E-01	-7.81043829048E-01
1.83850000000E+09	4.69121417496E-01	-7.81876321310E-01
1.83900000000E+09	4.67605184190E-01	-7.82643705660E-01
1.83950000000E+09	4.66097258851E-01	-7.83487546536E-01
1.84000000000E+09	4.64568244787E-01	-7.84231023836E-01
1.84050000000E+09	4.63037362583E-01	-7.85034148144E-01
1.84100000000E+09	4.61472806166E-01	-7.85845578490E-01
1.84150000000E+09	4.59897730429E-01	-7.86672176618E-01
1.84200000000E+09	4.58384834775E-01	-7.87433650856E-01
1.84250000000E+09	4.56902714743E-01	-7.88220461887E-01
1.84300000000E+09	4.55312843081E-01	-7.88994665410E-01
1.84350000000E+09	4.53683467057E-01	-7.89809187455E-01
1.84400000000E+09	4.52145872841E-01	-7.90581873045E-01
1.84450000000E+09	4.50590657300E-01	-7.91319453112E-01
1.84500000000E+09	4.49000122613E-01	-7.92064184918E-01
1.84550000000E+09	4.47452140199E-01	-7.92866616078E-01
1.84600000000E+09	4.45933856981E-01	-7.93637590495E-01
1.84650000000E+09	4.44294864440E-01	-7.94455378790E-01
1.84700000000E+09	4.42730965783E-01	-7.95228049907E-01
1.84750000000E+09	4.41135629800E-01	-7.96059039502E-01
1.84800000000E+09	4.39513080975E-01	-7.96790303440E-01
1.84850000000E+09	4.37894089835E-01	-7.97592455781E-01
1.84900000000E+09	4.36343352906E-01	-7.98325877253E-01
1.84950000000E+09	4.34643301582E-01	-7.99141948247E-01
1.85000000000E+09	4.33072328374E-01	-7.99863187996E-01
1.85050000000E+09	4.31403756770E-01	-8.00568308941E-01
1.85100000000E+09	4.29739471544E-01	-8.01335575477E-01
1.85150000000E+09	4.28118059738E-01	-8.02080875746E-01
1.85200000000E+09	4.26453887862E-01	-8.02775738992E-01
1.85250000000E+09	4.24815281714E-01	-8.03535731567E-01
1.85300000000E+09	4.23130653230E-01	-8.04197577472E-01
1.85350000000E+09	4.21556955149E-01	-8.04908347371E-01
1.85400000000E+09	4.19895265647E-01	-8.05637816585E-01
1.85450000000E+09	4.18211462874E-01	-8.06344766201E-01
1.85500000000E+09	4.16538560688E-01	-8.07035334793E-01
1.85550000000E+09	4.14910659087E-01	-8.07680737443E-01
1.85600000000E+09	4.13263469888E-01	-8.08526332975E-01
1.85650000000E+09	4.11589548100E-01	-8.09239047957E-01
1.85700000000E+09	4.09876733174E-01	-8.09953757663E-01
1.85750000000E+09	4.08251660780E-01	-8.10599921691E-01
1.85800000000E+09	4.06493072898E-01	-8.11290448881E-01
1.85850000000E+09	4.04794560231E-01	-8.12018560325E-01
1.85900000000E+09	4.03113743477E-01	-8.12663862497E-01
1.85950000000E+09	4.01390506251E-01	-8.13296301443E-01
1.86000000000E+09	3.99730697000E-01	-8.14035499598E-01
1.86050000000E+09	3.97976108312E-01	-8.14732956753E-01
1.86100000000E+09	3.96245885235E-01	-8.15367346690E-01
1.86150000000E+09	3.94554950293E-01	-8.15966520743E-01
1.86200000000E+09	3.92798273975E-01	-8.16778068023E-01
1.86250000000E+09	3.91012544672E-01	-8.17271018150E-01
1.86300000000E+09	3.89229875425E-01	-8.17940213650E-01
1.86350000000E+09	3.87587332587E-01	-8.18601814544E-01
1.86400000000E+09	3.85804912410E-01	-8.19228509072E-01
1.86450000000E+09	3.84053253245E-01	-8.19834809193E-01
1.86500000000E+09	3.82253760647E-01	-8.20500512010E-01
1.86550000000E+09	3.80538113539E-01	-8.21028228115E-01
1.86600000000E+09	3.78672528127E-01	-8.21588530354E-01
1.86650000000E+09	3.76949221900E-01	-8.22180672758E-01
1.86700000000E+09	3.75246929912E-01	-8.22765766805E-01
1.86750000000E+09	3.73447047355E-01	-8.23262374348E-01
1.86800000000E+09	3.71642897521E-01	-8.23836491096E-01
1.86850000000E+09	3.69969005798E-01	-8.24414078373E-01
1.86900000000E+09	3.68232351605E-01	-8.25024239293E-01
1.86950000000E+09	3.66460030276E-01	-8.25465922650E-01
1.87000000000E+09	3.64818701210E-01	-8.25996588003E-01
1.87050000000E+09	3.63059429265E-01	-8.26518657790E-01
1.87100000000E+09	3.61325035504E-01	-8.27129391244E-01
1.87150000000E+09	3.59635201684E-01	-8.27627315555E-01
1.87200000000E+09	3.57882699743E-01	-8.28165827719E-01
1.87250000000E+09	3.56262644553E-01	-8.28801540003E-01
1.87300000000E+09	3.54524116936E-01	-8.29287172535E-01
1.87350000000E+09	3.52798033991E-01	-8.29850613604E-01
1.87400000000E+09	3.51139903777E-01	-8.30403025355E-01
1.87450000000E+09	3.49419626920E-01	-8.30968466338E-01
1.87500000000E+09	3.47765676530E-01	-8.31625527694E-01
1.87550000000E+09	3.46025815336E-01	-8.32225334927E-01
1.87600000000E+09	3.44422239960E-01	-8.32709416700E-01
1.87650000000E+09	3.42752649267E-01	-8.33465430938E-01
