# Hz S RI R 50
! CMT, CMT808U, 21440046, 21.4.3/4
! Date: 12/1/2025 1:53:05 PM
! Data: Format (Calibration Info)
! Freq	S11:Re/Im(F2)
1.70000000000E+09	8.46813051764E-01	-3.92238716771E-01
1.70050000000E+09	8.46145436767E-01	-3.93607973904E-01
1.70100000000E+09	8.45420696542E-01	-3.94860113095E-01
1.70150000000E+09	8.44729215716E-01	-3.96212555159E-01
1.70200000000E+09	8.44117316988E-01	-3.97503091214E-01
1.70250000000E+09	8.43400205453E-01	-3.98844235788E-01
1.70300000000E+09	8.42806505480E-01	-4.00198346875E-01
1.70350000000E+09	8.42040054609E-01	-4.01567456441E-01
1.70400000000E+09	8.41416098795E-01	-4.02833810750E-01
1.70450000000E+09	8.40690295831E-01	-4.04147253088E-01
1.70500000000E+09	8.39951159221E-01	-4.05529022966E-01
1.70550000000E+09	8.39322354106E-01	-4.06856066185E-01
1.70600000000E+09	8.38639243338E-01	-4.08215968604E-01
1.70650000000E+09	8.37949036396E-01	-4.09520207919E-01
1.70700000000E+09	8.37265131050E-01	-4.10830227345E-01
1.70750000000E+09	8.36531006271E-01	-4.12228459685E-01
1.70800000000E+09	8.35759644617E-01	-4.13531261655E-01
1.70850000000E+09	8.35108089815E-01	-4.14855378856E-01
1.70900000000E+09	8.34370210103E-01	-4.16215852471E-01
1.70950000000E+09	8.33687587720E-01	-4.17547993417E-01
1.71000000000E+09	8.32906676739E-01	-4.18931162786E-01
1.71050000000E+09	8.32171086402E-01	-4.20294681743E-01
1.71100000000E+09	8.31513543065E-01	-4.21548269209E-01
1.71150000000E+09	8.30738049197E-01	-4.22907376026E-01
1.71200000000E+09	8.30026339345E-01	-4.24211165674E-01
1.71250000000E+09	8.29296654765E-01	-4.25593403537E-01
1.71300000000E+09	8.28538314217E-01	-4.26864940328E-01
1.71350000000E+09	8.27789837673E-01	-4.28181515424E-01
1.71400000000E+09	8.27057710594E-01	-4.29585913414E-01
1.71450000000E+09	8.26346023240E-01	-4.30912447085E-01
1.71500000000E+09	8.25586161417E-01	-4.32213689214E-01
1.71550000000E+09	8.24864517161E-01	-4.33608841090E-01
1.71600000000E+09	8.24026083992E-01	-4.34869864089E-01
1.71650000000E+09	8.23265148796E-01	-4.36169986776E-01
1.71700000000E+09	8.22626287668E-01	-4.37602742617E-01
1.71750000000E+09	8.21819465294E-01	-4.38935164144E-01
1.71800000000E+09	8.21164190493E-01	-4.40235124388E-01
1.71850000000E+09	8.20299922157E-01	-4.41614002708E-01
1.71900000000E+09	8.19564148402E-01	-4.42937566891E-01
1.71950000000E+09	8.18797525822E-01	-4.44197921852E-01
1.72000000000E+09	8.17993897731E-01	-4.45563351434E-01
1.72050000000E+09	8.17175396644E-01	-4.46879753532E-01
1.72100000000E+09	8.16433327980E-01	-4.48253338526E-01
1.72150000000E+09	8.15649192517E-01	-4.49585491419E-01
1.72200000000E+09	8.14879101998E-01	-4.50962170412E-01
1.72250000000E+09	8.14114764229E-01	-4.52290651056E-01
1.72300000000E+09	8.13272107221E-01	-4.53559602273E-01
1.72350000000E+09	8.12511413498E-01	-4.54953155981E-01
1.72400000000E+09	8.11737555050E-01	-4.56282163027E-01
1.72450000000E+09	8.10920663735E-01	-4.57590856377E-01
1.72500000000E+09	8.10029156404E-01	-4.59026231357E-01
1.72550000000E+09	8.09272346938E-01	-4.60277018684E-01
1.72600000000E+09	8.08472537798E-01	-4.61723825999E-01
1.72650000000E+09	8.07647550123E-01	-4.63078290679E-01
1.72700000000E+09	8.06828795491E-01	-4.64361805473E-01
1.72750000000E+09	8.05971838229E-01	-4.65713296312E-01
1.72800000000E+09	8.05224470524E-01	-4.67091026455E-01
1.72850000000E+09	8.04309555145E-01	-4.68394563027E-01
1.72900000000E+09	8.03524364840E-01	-4.69820636810E-01
1.72950000000E+09	8.02675054441E-01	-4.71081876462E-01
1.73000000000E+09	8.01877234422E-01	-4.72532723845E-01
1.73050000000E+09	8.00998925242E-01	-4.73787774425E-01
1.73100000000E+09	8.00134259253E-01	-4.75151094814E-01
1.73150000000E+09	7.99287329611E-01	-4.76534072867E-01
1.73200000000E+09	7.98377764071E-01	-4.77878488269E-01
1.73250000000E+09	7.97536119408E-01	-4.79144944932E-01
1.73300000000E+09	7.96614722433E-01	-4.80600924931E-01
1.73350000000E+09	7.95786433680E-01	-4.81875472548E-01
1.73400000000E+09	7.94958743537E-01	-4.83257792958E-01
1.73450000000E+09	7.94088792227E-01	-4.84595907483E-01
1.73500000000E+09	7.93193365843E-01	-4.85885697859E-01
1.73550000000E+09	7.92342451521E-01	-4.87261153209E-01
1.73600000000E+09	7.91358398864E-01	-4.88620168192E-01
1.73650000000E+09	7.90472905848E-01	-4.89972896726E-01
1.73700000000E+09	7.89564332119E-01	-4.91293419580E-01
1.73750000000E+09	7.88687910025E-01	-4.92697260767E-01
1.73800000000E+09	7.87785487549E-01	-4.93993796431E-01
1.73850000000E+09	7.86903474630E-01	-4.95346631253E-01
1.73900000000E+09	7.85943441758E-01	-4.96738026777E-01
1.73950000000E+09	7.85014489295E-01	-4.98002110840E-01
1.74000000000E+09	7.84096574196E-01	-4.99387098154E-01
1.74050000000E+09	7.83153360780E-01	-5.00701944162E-01
1.74100000000E+09	7.82253053774E-01	-5.02086251772E-01
1.74150000000E+09	7.81318101239E-01	-5.03427445215E-01
1.74200000000E+09	7.80413345976E-01	-5.04799793068E-01
1.74250000000E+09	7.79384745692E-01	-5.06109276215E-01
1.74300000000E+09	7.78442620367E-01	-5.07490047369E-01
1.74350000000E+09	7.77538442947E-01	-5.08819115395E-01
1.74400000000E+09	7.76546914033E-01	-5.10158425300E-01
1.74450000000E+09	7.75592820237E-01	-5.11554406395E-01
1.74500000000E+09	7.74685586120E-01	-5.12834017479E-01
1.74550000000E+09	7.73623768602E-01	-5.14198525023E-01
1.74600000000E+09	7.72700326358E-01	-5.15506284159E-01
1.74650000000E+09	7.71645611577E-01	-5.16894374188E-01
1.74700000000E+09	7.70634828608E-01	-5.18237268676E-01
1.74750000000E+09	7.69658894639E-01	-5.19598198120E-01
1.74800000000E+09	7.68654043041E-01	-5.20928410135E-01
1.74850000000E+09	7.67659085797E-01	-5.22279492418E-01
1.74900000000E+09	7.66601597880E-01	-5.23625188055E-01
1.74950000000E+09	7.65595136684E-01	-5.24963899173E-01
1.75000000000E+09	7.64528044713E-01	-5.26310405774E-01
1.75050000000E+09	7.63557916800E-01	-5.27592396271E-01
1.75100000000E+09	7.62504436336E-01	-5.28923527880E-01
1.75150000000E+09	7.61430310171E-01	-5.30246962006E-01
1.75200000000E+09	7.60408052935E-01	-5.31583691071E-01
1.75250000000E+09	7.59342227716E-01	-5.32915010706E-01
1.75300000000E+09	7.58353707648E-01	-5.34222448712E-01
1.75350000000E+09	7.57305301782E-01	-5.35457292182E-01
1.75400000000E+09	7.56217835330E-01	-5.36794201803E-01
1.75450000000E+09	7.55150109900E-01	-5.38089520392E-01
1.75500000000E+09	7.54011194408E-01	-5.39467971387E-01
1.75550000000E+09	7.53005992338E-01	-5.40647049856E-01
1.75600000000E+09	7.51922071498E-01	-5.42058664120E-01
1.75650000000E+09	7.50836427866E-01	-5.43313906825E-01
1.75700000000E+09	7.49717446367E-01	-5.44615591824E-01
1.75750000000E+09	7.48658866612E-01	-5.45842629372E-01
1.75800000000E+09	7.47606706322E-01	-5.47239620420E-01
1.75850000000E+09	7.46558134873E-01	-5.48510127842E-01
1.75900000000E+09	7.45414267267E-01	-5.49820052595E-01
1.75950000000E+09	7.44319220628E-01	-5.51114270213E-01
1.76000000000E+09	7.43298527970E-01	-5.52384424100E-01
1.76050000000E+09	7.42091223297E-01	-5.53677479187E-01
1.76100000000E+09	7.40982430837E-01	-5.54957557955E-01
1.76150000000E+09	7.39892432152E-01	-5.56217317618E-01
1.76200000000E+09	7.38833647737E-01	-5.57540002271E-01
1.76250000000E+09	7.37681545726E-01	-5.58850159901E-01
1.76300000000E+09	7.36476899593E-01	-5.60046527888E-01
1.76350000000E+09	7.35392800777E-01	-5.61350835194E-01
1.76400000000E+09	7.34209245329E-01	-5.62594758406E-01
1.76450000000E+09	7.33097473126E-01	-5.63917004157E-01
1.76500000000E+09	7.32038558202E-01	-5.65143397662E-01
1.76550000000E+09	7.30838389369E-01	-5.66428139029E-01
1.76600000000E+09	7.29637273351E-01	-5.67713578487E-01
1.76650000000E+09	7.28581650642E-01	-5.68913927278E-01
1.76700000000E+09	7.27408407592E-01	-5.70250163351E-01
1.76750000000E+09	7.26280712196E-01	-5.71447013799E-01
1.76800000000E+09	7.25065976477E-01	-5.72710995593E-01
1.76850000000E+09	7.23889789369E-01	-5.73945618912E-01
1.76900000000E+09	7.22686998765E-01	-5.75272797264E-01
1.76950000000E+09	7.21530842478E-01	-5.76494567651E-01
1.77000000000E+09	7.20420951219E-01	-5.77754073000E-01
1.77050000000E+09	7.19167545035E-01	-5.79006757228E-01
1.77100000000E+09	7.18035133643E-01	-5.80206372850E-01
1.77150000000E+09	7.16771879202E-01	-5.81464812526E-01
1.77200000000E+09	7.15577696146E-01	-5.82709869809E-01
1.77250000000E+09	7.14415611302E-01	-5.83962530023E-01
1.77300000000E+09	7.13258988357E-01	-5.85286283117E-01
1.77350000000E+09	7.11995564962E-01	-5.86362971245E-01
1.77400000000E+09	7.10841645972E-01	-5.87660332529E-01
1.77450000000E+09	7.09548362785E-01	-5.88884547562E-01
1.77500000000E+09	7.08383952111E-01	-5.90102967943E-01
1.77550000000E+09	7.07200450338E-01	-5.91296031374E-01
1.77600000000E+09	7.05941296530E-01	-5.92469588877E-01
1.77650000000E+09	7.04692838858E-01	-5.93723604076E-01
1.77700000000E+09	7.03414330332E-01	-5.94909658164E-01
1.77750000000E+09	7.02266480065E-01	-5.96155553330E-01
1.77800000000E+09	7.01039231309E-01	-5.97318439280E-01
1.77850000000E+09	6.99765325069E-01	-5.98551204871E-01
1.77900000000E+09	6.98523633427E-01	-5.99755977096E-01
1.77950000000E+09	6.97293569609E-01	-6.00967136473E-01
1.78000000000E+09	6.96029817427E-01	-6.02116941736E-01
1.78050000000E+09	6.94763703820E-01	-6.03305978766E-01
1.78100000000E+09	6.93441790663E-01	-6.04516364419E-01
1.78150000000E+09	6.92292147191E-01	-6.05637492582E-01
1.78200000000E+09	6.90917519784E-01	-6.06862084050E-01
1.78250000000E+09	6.89683014520E-01	-6.07869423692E-01
1.78300000000E+09	6.88396733633E-01	-6.09066630168E-01
1.78350000000E+09	6.87122568020E-01	-6.10305106654E-01
1.78400000000E+09	6.85860968747E-01	-6.11491095161E-01
1.78450000000E+09	6.84597846965E-01	-6.12643648418E-01
1.78500000000E+09	6.83280230940E-01	-6.13739877986E-01
1.78550000000E+09	6.81984551312E-01	-6.14911508795E-01
1.78600000000E+09	6.80713563478E-01	-6.16061733298E-01
1.78650000000E+09	6.79500243712E-01	-6.17184211103E-01
1.78700000000E+09	6.78121178954E-01	-6.18303618501E-01
1.78750000000E+09	6.76905986283E-01	-6.19451577887E-01
1.78800000000E+09	6.75582721347E-01	-6.20631825076E-01
1.78850000000E+09	6.74311789373E-01	-6.21747779531E-01
1.78900000000E+09	6.73023979446E-01	-6.22846349068E-01
1.78950000000E+09	6.71720318457E-01	-6.23933970548E-01
1.79000000000E+09	6.70349257316E-01	-6.25075757006E-01
1.79050000000E+09	6.69209545318E-01	-6.26154247533E-01
1.79100000000E+09	6.67891928519E-01	-6.27240215174E-01
1.79150000000E+09	6.66614587624E-01	-6.28426072880E-01
1.79200000000E+09	6.65208234744E-01	-6.29573575574E-01
1.79250000000E+09	6.63959646251E-01	-6.30600795087E-01
1.79300000000E+09	6.62676012126E-01	-6.31709557158E-01
1.79350000000E+09	6.61376167016E-01	-6.32813520810E-01
1.79400000000E+09	6.60059039173E-01	-6.33804086565E-01
1.79450000000E+09	6.58711297466E-01	-6.34955831360E-01
1.79500000000E+09	6.57486324667E-01	-6.36078807223E-01
1.79550000000E+09	6.56109743969E-01	-6.37125075384E-01
1.79600000000E+09	6.54915564349E-01	-6.38211393274E-01
1.79650000000E+09	6.53462763437E-01	-6.39213174087E-01
1.79700000000E+09	6.52268185365E-01	-6.40384502873E-01
1.79750000000E+09	6.50896806835E-01	-6.41440944665E-01
1.79800000000E+09	6.49632613179E-01	-6.42498856249E-01
1.79850000000E+09	6.48312434146E-01	-6.43642259719E-01
1.79900000000E+09	6.47002295816E-01	-6.44666166948E-01
1.79950000000E+09	6.45574377579E-01	-6.45712052032E-01
1.80000000000E+09	6.44345459376E-01	-6.46758065540E-01
1.80050000000E+09	6.43006031172E-01	-6.47832423519E-01
1.80100000000E+09	6.41713895416E-01	-6.48873015785E-01
1.80150000000E+09	6.40339645823E-01	-6.49895735795E-01
1.80200000000E+09	6.39096643442E-01	-6.50961197233E-01
1.80250000000E+09	6.37742674906E-01	-6.52003832453E-01
1.80300000000E+09	6.36454543300E-01	-6.53022081218E-01
1.80350000000E+09	6.35127257746E-01	-6.54064822717E-01
1.80400000000E+09	6.33746103956E-01	-6.55117213441E-01
1.80450000000E+09	6.32475405132E-01	-6.56137640678E-01
1.80500000000E+09	6.31117537264E-01	-6.57204849424E-01
1.80550000000E+09	6.29772425594E-01	-6.58226611913E-01
1.80600000000E+09	6.28482044808E-01	-6.59318162227E-01
1.80650000000E+09	6.27117184220E-01	-6.60322270882E-01
1.80700000000E+09	6.25769316251E-01	-6.61394828815E-01
1.80750000000E+09	6.24416794081E-01	-6.62360383243E-01
1.80800000000E+09	6.23126457324E-01	-6.63438327065E-01
1.80850000000E+09	6.21714023669E-01	-6.64397335207E-01
1.80900000000E+09	6.20480022346E-01	-6.65388563637E-01
1.80950000000E+09	6.19115398920E-01	-6.66457026936E-01
1.81000000000E+09	6.17801822551E-01	-6.67463155807E-01
1.81050000000E+09	6.16514936697E-01	-6.68506925966E-01
1.81100000000E+09	6.15086759277E-01	-6.69481858709E-01
1.81150000000E+09	6.13729678844E-01	-6.70497519161E-01
1.81200000000E+09	6.12463931999E-01	-6.71561085695E-01
1.81250000000E+09	6.11099254623E-01	-6.72567328066E-01
1.81300000000E+09	6.09756613472E-01	-6.73567004392E-01
1.81350000000E+09	6.08425509014E-01	-6.74615477787E-01
1.81400000000E+09	6.07037491289E-01	-6.75557530603E-01
1.81450000000E+09	6.05761004317E-01	-6.76580400000E-01
1.81500000000E+09	6.04307584585E-01	-6.77613883397E-01
1.81550000000E+09	6.02965844998E-01	-6.78627633184E-01
1.81600000000E+09	6.01616166844E-01	-6.79681440020E-01
1.81650000000E+09	6.00256300276E-01	-6.80613629876E-01
1.81700000000E+09	5.98944657991E-01	-6.81641629440E-01
1.81750000000E+09	5.97521220371E-01	-6.82612707844E-01
1.81800000000E+09	5.96280835931E-01	-6.83592876055E-01
1.81850000000E+09	5.94796083907E-01	-6.84638865852E-01
1.81900000000E+09	5.93422496947E-01	-6.85674474611E-01
1.81950000000E+09	5.92107787429E-01	-6.86650063705E-01
1.82000000000E+09	5.90747114272E-01	-6.87690828812E-01
1.82050000000E+09	5.89319166673E-01	-6.88661044927E-01
1.82100000000E+09	5.88008012643E-01	-6.89719296842E-01
1.82150000000E+09	5.86567070292E-01	-6.90669716735E-01
1.82200000000E+09	5.85210106506E-01	-6.91597753237E-01
1.82250000000E+09	5.83809649173E-01	-6.92620907516E-01
1.82300000000E+09	5.82504395383E-01	-6.93588824996E-01
1.82350000000E+09	5.81012612897E-01	-6.94528583445E-01
1.82400000000E+09	5.79595684526E-01	-6.95565513295E-01
1.82450000000E+09	5.78273145260E-01	-6.96541560751E-01
1.82500000000E+09	5.76808714782E-01	-6.97484654539E-01
1.82550000000E+09	5.75397573717E-01	-6.98460498986E-01
1.82600000000E+09	5.74069666981E-01	-6.99490979611E-01
1.82650000000E+09	5.72667727946E-01	-7.00352525518E-01
1.82700000000E+09	5.71249436468E-01	-7.01375466917E-01
1.82750000000E+09	5.69817249752E-01	-7.02321636401E-01
1.82800000000E+09	5.68378013869E-01	-7.03288648519E-01
1.82850000000E+09	5.67040329630E-01	-7.04288018069E-01
1.82900000000E+09	5.65602586873E-01	-7.05163424042E-01
1.82950000000E+09	5.64258994862E-01	-7.06176758220E-01
1.83000000000E+09	5.62835248986E-01	-7.07134586911E-01
1.83050000000E+09	5.61420952157E-01	-7.08123561168E-01
1.83100000000E+09	5.59983272519E-01	-7.09027220344E-01
1.83150000000E+09	5.58594681752E-01	-7.09989090031E-01
1.83200000000E+09	5.57239201468E-01	-7.10960023008E-01
1.83250000000E+09	5.55699027951E-01	-7.11912500493E-01
1.83300000000E+09	5.54282097712E-01	-7.12883342876E-01
1.83350000000E+09	5.52940026166E-01	-7.13864933979E-01
1.83400000000E+09	5.51400830944E-01	-7.14846059284E-01
1.83450000000E+09	5.50001747611E-01	-7.15793034296E-01
1.83500000000E+09	5.48540815543E-01	-7.16695213487E-01
1.83550000000E+09	5.47099196121E-01	-7.17721165309E-01
1.83600000000E+09	5.45663592941E-01	-7.18614812175E-01
1.83650000000E+09	5.44208784294E-01	-7.19557063295E-01
1.83700000000E+09	5.42732808174E-01	-7.20608707927E-01
1.83750000000E+09	5.41288092156E-01	-7.21535782151E-01
1.83800000000E+09	5.39859430166E-01	-7.22444694878E-01
1.83850000000E+09	5.38371846675E-01	-7.23417720061E-01
1.83900000000E+09	5.36910584770E-01	-7.24255277551E-01
1.83950000000E+09	5.35359708617E-01	-7.25311329030E-01
1.84000000000E+09	5.33960868598E-01	-7.26186616873E-01
1.84050000000E+09	5.32470021468E-01	-7.27106385157E-01
1.84100000000E+09	5.30975267866E-01	-7.28065884494E-01
1.84150000000E+09	5.29450427164E-01	-7.29027720751E-01
1.84200000000E+09	5.28008838047E-01	-7.29945403058E-01
1.84250000000E+09	5.26509898420E-01	-7.30882675853E-01
1.84300000000E+09	5.25069223030E-01	-7.31757501674E-01
1.84350000000E+09	5.23513397070E-01	-7.32734578946E-01
1.84400000000E+09	5.22020003930E-01	-7.33663474720E-01
1.84450000000E+09	5.20506228885E-01	-7.34583991550E-01
1.84500000000E+09	5.18941923258E-01	-7.35466760065E-01
1.84550000000E+09	5.17474792162E-01	-7.36443547486E-01
1.84600000000E+09	5.15950578020E-01	-7.37315368203E-01
1.84650000000E+09	5.14436695569E-01	-7.38282836377E-01
1.84700000000E+09	5.12918873953E-01	-7.39172880380E-01
1.84750000000E+09	5.11398668849E-01	-7.40132561899E-01
1.84800000000E+09	5.09800631677E-01	-7.41013928485E-01
1.84850000000E+09	5.08292666963E-01	-7.41990070647E-01
1.84900000000E+09	5.06774672449E-01	-7.42789556705E-01
1.84950000000E+09	5.05215459892E-01	-7.43865524962E-01
1.85000000000E+09	5.03665346089E-01	-7.44695585606E-01
1.85050000000E+09	5.02068083806E-01	-7.45587687423E-01
1.85100000000E+09	5.00491315930E-01	-7.46516547580E-01
1.85150000000E+09	4.98945601872E-01	-7.47422158000E-01
1.85200000000E+09	4.97338524972E-01	-7.48337473071E-01
1.85250000000E+09	4.95773239377E-01	-7.49228432983E-01
1.85300000000E+09	4.94236349749E-01	-7.50076109511E-01
1.85350000000E+09	4.92687251427E-01	-7.51033577386E-01
1.85400000000E+09	4.90994651004E-01	-7.51884116054E-01
1.85450000000E+09	4.89412786633E-01	-7.52821690758E-01
1.85500000000E+09	4.87807797634E-01	-7.53716377334E-01
1.85550000000E+09	4.86181098209E-01	-7.54553497418E-01
1.85600000000E+09	4.84634322343E-01	-7.55501762242E-01
1.85650000000E+09	4.82913638176E-01	-7.56350779873E-01
1.85700000000E+09	4.81321842154E-01	-7.57271411941E-01
1.85750000000E+09	4.79655524233E-01	-7.58122203201E-01
1.85800000000E+09	4.78007642360E-01	-7.58974256865E-01
1.85850000000E+09	4.76339939563E-01	-7.59873581011E-01
1.85900000000E+09	4.74689659668E-01	-7.60691625383E-01
1.85950000000E+09	4.72972078906E-01	-7.61518301949E-01
1.86000000000E+09	4.71381300960E-01	-7.62402744427E-01
1.86050000000E+09	4.69645703695E-01	-7.63199894347E-01
1.86100000000E+09	4.68032974735E-01	-7.64080945589E-01
1.86150000000E+09	4.66427994807E-01	-7.64903800701E-01
1.86200000000E+09	4.64628416808E-01	-7.65753246174E-01
1.86250000000E+09	4.62901077631E-01	-7.66512683583E-01
1.86300000000E+09	4.61213980422E-01	-7.67311847625E-01
1.86350000000E+09	4.59646373764E-01	-7.68200035483E-01
1.86400000000E+09	4.57901538364E-01	-7.68944295918E-01
1.86450000000E+09	4.56304334345E-01	-7.69777524305E-01
1.86500000000E+09	4.54601477460E-01	-7.70614904893E-01
1.86550000000E+09	4.52904417276E-01	-7.71322616234E-01
1.86600000000E+09	4.51134637345E-01	-7.72107391352E-01
1.86650000000E+09	4.49503302724E-01	-7.72954566772E-01
1.86700000000E+09	4.47827733656E-01	-7.73754141550E-01
1.86750000000E+09	4.46173520487E-01	-7.74429488983E-01
1.86800000000E+09	4.44360081005E-01	-7.75353295812E-01
1.86850000000E+09	4.42730236565E-01	-7.76170879965E-01
1.86900000000E+09	4.41082390710E-01	-7.76996826330E-01
1.86950000000E+09	4.39332804540E-01	-7.77723154872E-01
1.87000000000E+09	4.37696589472E-01	-7.78505045301E-01
1.87050000000E+09	4.35978693103E-01	-7.79260390022E-01
1.87100000000E+09	4.34185555986E-01	-7.80073460502E-01
1.87150000000E+09	4.32442122743E-01	-7.80839502892E-01
1.87200000000E+09	4.30703755673E-01	-7.81659830419E-01
1.87250000000E+09	4.28996337212E-01	-7.82544745444E-01
1.87300000000E+09	4.27225212453E-01	-7.83285201985E-01
1.87350000000E+09	4.25460036161E-01	-7.84046875064E-01
1.87400000000E+09	4.23697688366E-01	-7.84825658845E-01
1.87450000000E+09	4.21927460234E-01	-7.85609777453E-01
1.87500000000E+09	4.20172288620E-01	-7.86421044674E-01
1.87550000000E+09	4.18336123908E-01	-7.87191166014E-01
1.87600000000E+09	4.16609636719E-01	-7.87966243105E-01
1.87650000000E+09	4.14806744793E-01	-7.88767218164E-01
