# Hz S RI R 50
! CMT, CMT808U, 21440046, 21.4.3/4
! Date: 12/1/2025 1:56:23 PM
! Data: Format (Calibration Info)
! Freq	S11:Re/Im(F2)
1.70000000000E+09	9.14435290296E-01	-2.81506126767E-01
1.70050000000E+09	9.13928242147E-01	-2.82900967057E-01
1.70100000000E+09	9.13506380224E-01	-2.84183546734E-01
1.70150000000E+09	9.13048728029E-01	-2.85640602082E-01
1.70200000000E+09	9.12608157449E-01	-2.86921500746E-01
1.70250000000E+09	9.12133909577E-01	-2.88333137495E-01
1.70300000000E+09	9.11775418973E-01	-2.89601507724E-01
1.70350000000E+09	9.11252967943E-01	-2.90950761747E-01
1.70400000000E+09	9.10881746910E-01	-2.92280464484E-01
1.70450000000E+09	9.10384438852E-01	-2.93678786320E-01
1.70500000000E+09	9.09888632656E-01	-2.94994567154E-01
1.70550000000E+09	9.09447641318E-01	-2.96334209430E-01
1.70600000000E+09	9.09047538669E-01	-2.97695396842E-01
1.70650000000E+09	9.08582617497E-01	-2.99055841412E-01
1.70700000000E+09	9.08114991038E-01	-3.00300882386E-01
1.70750000000E+09	9.07653741677E-01	-3.01766931263E-01
1.70800000000E+09	9.07195326605E-01	-3.03093795168E-01
1.70850000000E+09	9.06712646161E-01	-3.04441636239E-01
1.70900000000E+09	9.06222984438E-01	-3.05817072004E-01
1.70950000000E+09	9.05859510932E-01	-3.07239259682E-01
1.71000000000E+09	9.05320413382E-01	-3.08529059569E-01
1.71050000000E+09	9.04889348563E-01	-3.09937450113E-01
1.71100000000E+09	9.04407582675E-01	-3.11271813303E-01
1.71150000000E+09	9.03898631662E-01	-3.12606433574E-01
1.71200000000E+09	9.03458077717E-01	-3.14023416381E-01
1.71250000000E+09	9.02931186730E-01	-3.15403994895E-01
1.71300000000E+09	9.02477985967E-01	-3.16695672101E-01
1.71350000000E+09	9.01929539003E-01	-3.18063165914E-01
1.71400000000E+09	9.01488727485E-01	-3.19502142555E-01
1.71450000000E+09	9.00998908080E-01	-3.20928587863E-01
1.71500000000E+09	9.00503053040E-01	-3.22256632867E-01
1.71550000000E+09	9.00068903193E-01	-3.23699586979E-01
1.71600000000E+09	8.99400381733E-01	-3.25044078686E-01
1.71650000000E+09	8.98988213794E-01	-3.26347965940E-01
1.71700000000E+09	8.98611727550E-01	-3.27857226249E-01
1.71750000000E+09	8.98014646971E-01	-3.29232569500E-01
1.71800000000E+09	8.97503365452E-01	-3.30519799150E-01
1.71850000000E+09	8.96910294179E-01	-3.31960982400E-01
1.71900000000E+09	8.96423265236E-01	-3.33351464585E-01
1.71950000000E+09	8.95876481582E-01	-3.34678437884E-01
1.72000000000E+09	8.95398972395E-01	-3.36128478999E-01
1.72050000000E+09	8.94833806894E-01	-3.37541326292E-01
1.72100000000E+09	8.94261180168E-01	-3.38878470562E-01
1.72150000000E+09	8.93759717763E-01	-3.40290573547E-01
1.72200000000E+09	8.93197077670E-01	-3.41661158241E-01
1.72250000000E+09	8.92768399237E-01	-3.43047350429E-01
1.72300000000E+09	8.92094176892E-01	-3.44490753234E-01
1.72350000000E+09	8.91619747412E-01	-3.45847465318E-01
1.72400000000E+09	8.91047534847E-01	-3.47260726369E-01
1.72450000000E+09	8.90486325425E-01	-3.48674502754E-01
1.72500000000E+09	8.89885966718E-01	-3.50074921025E-01
1.72550000000E+09	8.89257268299E-01	-3.51432935565E-01
1.72600000000E+09	8.88679846192E-01	-3.52938243558E-01
1.72650000000E+09	8.88172887452E-01	-3.54271885295E-01
1.72700000000E+09	8.87646300912E-01	-3.55639141376E-01
1.72750000000E+09	8.86953891812E-01	-3.57086591277E-01
1.72800000000E+09	8.86463542355E-01	-3.58525346741E-01
1.72850000000E+09	8.85802667708E-01	-3.59847917085E-01
1.72900000000E+09	8.85319014174E-01	-3.61291963782E-01
1.72950000000E+09	8.84733869687E-01	-3.62688045025E-01
1.73000000000E+09	8.84080002749E-01	-3.64189903050E-01
1.73050000000E+09	8.83443792855E-01	-3.65504650763E-01
1.73100000000E+09	8.82818579656E-01	-3.66893310789E-01
1.73150000000E+09	8.82242926603E-01	-3.68321445977E-01
1.73200000000E+09	8.81572774808E-01	-3.69775204188E-01
1.73250000000E+09	8.80962100223E-01	-3.71117642168E-01
1.73300000000E+09	8.80339909821E-01	-3.72582023695E-01
1.73350000000E+09	8.79717674648E-01	-3.73960418925E-01
1.73400000000E+09	8.79158916970E-01	-3.75363312189E-01
1.73450000000E+09	8.78500509124E-01	-3.76738095519E-01
1.73500000000E+09	8.77851097319E-01	-3.78208417217E-01
1.73550000000E+09	8.77285413754E-01	-3.79503500942E-01
1.73600000000E+09	8.76522649423E-01	-3.80972599748E-01
1.73650000000E+09	8.75904570141E-01	-3.82441989623E-01
1.73700000000E+09	8.75235356959E-01	-3.83819042291E-01
1.73750000000E+09	8.74616452071E-01	-3.85296767451E-01
1.73800000000E+09	8.73931207105E-01	-3.86656002107E-01
1.73850000000E+09	8.73312680845E-01	-3.88091623693E-01
1.73900000000E+09	8.72720670335E-01	-3.89468184192E-01
1.73950000000E+09	8.71959861143E-01	-3.90823170330E-01
1.74000000000E+09	8.71312784096E-01	-3.92309097623E-01
1.74050000000E+09	8.70588306079E-01	-3.93752071463E-01
1.74100000000E+09	8.69920451230E-01	-3.95268546625E-01
1.74150000000E+09	8.69171089172E-01	-3.96594652728E-01
1.74200000000E+09	8.68574302353E-01	-3.98128331669E-01
1.74250000000E+09	8.67805439739E-01	-3.99451687626E-01
1.74300000000E+09	8.67121454702E-01	-4.00876166253E-01
1.74350000000E+09	8.66357177105E-01	-4.02329112986E-01
1.74400000000E+09	8.65681148410E-01	-4.03741908983E-01
1.74450000000E+09	8.65041579769E-01	-4.05162103259E-01
1.74500000000E+09	8.64344815827E-01	-4.06577332215E-01
1.74550000000E+09	8.63564611867E-01	-4.07964600278E-01
1.74600000000E+09	8.62860347297E-01	-4.09334092405E-01
1.74650000000E+09	8.62096849735E-01	-4.10840268736E-01
1.74700000000E+09	8.61303207719E-01	-4.12294502250E-01
1.74750000000E+09	8.60553699576E-01	-4.13681461205E-01
1.74800000000E+09	8.59846542979E-01	-4.15132483528E-01
1.74850000000E+09	8.59097869910E-01	-4.16491396380E-01
1.74900000000E+09	8.58295124733E-01	-4.17964730580E-01
1.74950000000E+09	8.57589779885E-01	-4.19407788931E-01
1.75000000000E+09	8.56792426206E-01	-4.20792323020E-01
1.75050000000E+09	8.56041547268E-01	-4.22233360574E-01
1.75100000000E+09	8.55276629633E-01	-4.23635224955E-01
1.75150000000E+09	8.54493404488E-01	-4.25036718408E-01
1.75200000000E+09	8.53719412496E-01	-4.26470740169E-01
1.75250000000E+09	8.52914895395E-01	-4.27872765098E-01
1.75300000000E+09	8.52166701866E-01	-4.29307087130E-01
1.75350000000E+09	8.51414414217E-01	-4.30682691796E-01
1.75400000000E+09	8.50546450474E-01	-4.32140457428E-01
1.75450000000E+09	8.49734286758E-01	-4.33534910329E-01
1.75500000000E+09	8.48866285516E-01	-4.34986112466E-01
1.75550000000E+09	8.48138496306E-01	-4.36335556590E-01
1.75600000000E+09	8.47392612553E-01	-4.37775675587E-01
1.75650000000E+09	8.46460656611E-01	-4.39174649109E-01
1.75700000000E+09	8.45659697291E-01	-4.40583649460E-01
1.75750000000E+09	8.44828613818E-01	-4.42006668407E-01
1.75800000000E+09	8.44022139740E-01	-4.43418541872E-01
1.75850000000E+09	8.43180058153E-01	-4.44837865489E-01
1.75900000000E+09	8.42293180406E-01	-4.46265137302E-01
1.75950000000E+09	8.41475365469E-01	-4.47677463699E-01
1.76000000000E+09	8.40705014505E-01	-4.49072630770E-01
1.76050000000E+09	8.39800968586E-01	-4.50510065311E-01
1.76100000000E+09	8.38912069793E-01	-4.51903106547E-01
1.76150000000E+09	8.38082392752E-01	-4.53336593804E-01
1.76200000000E+09	8.37200878803E-01	-4.54747070031E-01
1.76250000000E+09	8.36331362044E-01	-4.56218558640E-01
1.76300000000E+09	8.35428240148E-01	-4.57538971639E-01
1.76350000000E+09	8.34526760863E-01	-4.58918962360E-01
1.76400000000E+09	8.33632257828E-01	-4.60348189193E-01
1.76450000000E+09	8.32733887304E-01	-4.61772472961E-01
1.76500000000E+09	8.31900040301E-01	-4.63159145706E-01
1.76550000000E+09	8.30940116739E-01	-4.64560442895E-01
1.76600000000E+09	8.30013250632E-01	-4.65979637144E-01
1.76650000000E+09	8.29062185061E-01	-4.67327451216E-01
1.76700000000E+09	8.28170564360E-01	-4.68780204797E-01
1.76750000000E+09	8.27310307992E-01	-4.70075229551E-01
1.76800000000E+09	8.26317705464E-01	-4.71500031064E-01
1.76850000000E+09	8.25424884577E-01	-4.72908478014E-01
1.76900000000E+09	8.24434378523E-01	-4.74342411776E-01
1.76950000000E+09	8.23465050285E-01	-4.75679538417E-01
1.77000000000E+09	8.22573952529E-01	-4.77061752637E-01
1.77050000000E+09	8.21548908982E-01	-4.78447171990E-01
1.77100000000E+09	8.20730621453E-01	-4.79763544172E-01
1.77150000000E+09	8.19657958883E-01	-4.81100811229E-01
1.77200000000E+09	8.18688164289E-01	-4.82565784154E-01
1.77250000000E+09	8.17744448299E-01	-4.83863983163E-01
1.77300000000E+09	8.16805736279E-01	-4.85257448708E-01
1.77350000000E+09	8.15799626051E-01	-4.86575592639E-01
1.77400000000E+09	8.14874267707E-01	-4.87985151543E-01
1.77450000000E+09	8.13791113531E-01	-4.89399826577E-01
1.77500000000E+09	8.12906808163E-01	-4.90710268947E-01
1.77550000000E+09	8.11906311781E-01	-4.91981645906E-01
1.77600000000E+09	8.10859306763E-01	-4.93397983232E-01
1.77650000000E+09	8.09919432535E-01	-4.94719807336E-01
1.77700000000E+09	8.08827222887E-01	-4.96038624807E-01
1.77750000000E+09	8.07916347224E-01	-4.97428533512E-01
1.77800000000E+09	8.06889946908E-01	-4.98751233844E-01
1.77850000000E+09	8.05860281140E-01	-5.00054513930E-01
1.77900000000E+09	8.04820572249E-01	-5.01450612282E-01
1.77950000000E+09	8.03764054547E-01	-5.02735678069E-01
1.78000000000E+09	8.02802215567E-01	-5.04058043874E-01
1.78050000000E+09	8.01713580367E-01	-5.05333957293E-01
1.78100000000E+09	8.00723510902E-01	-5.06706032890E-01
1.78150000000E+09	7.99762562932E-01	-5.07998998525E-01
1.78200000000E+09	7.98674737884E-01	-5.09361970990E-01
1.78250000000E+09	7.97501093493E-01	-5.10540269136E-01
1.78300000000E+09	7.96599357753E-01	-5.11882393183E-01
1.78350000000E+09	7.95626739802E-01	-5.13260513916E-01
1.78400000000E+09	7.94517442146E-01	-5.14540055156E-01
1.78450000000E+09	7.93481238725E-01	-5.15798219193E-01
1.78500000000E+09	7.92372523138E-01	-5.17108773256E-01
1.78550000000E+09	7.91347835630E-01	-5.18401681243E-01
1.78600000000E+09	7.90240385735E-01	-5.19716739526E-01
1.78650000000E+09	7.89234941704E-01	-5.20939232150E-01
1.78700000000E+09	7.88101276631E-01	-5.22259010767E-01
1.78750000000E+09	7.87105953020E-01	-5.23532385679E-01
1.78800000000E+09	7.86058548317E-01	-5.24797396696E-01
1.78850000000E+09	7.84997833692E-01	-5.26080209988E-01
1.78900000000E+09	7.83919774260E-01	-5.27336168450E-01
1.78950000000E+09	7.82812216889E-01	-5.28596598928E-01
1.79000000000E+09	7.81796506034E-01	-5.29774643633E-01
1.79050000000E+09	7.80736444832E-01	-5.31076404537E-01
1.79100000000E+09	7.79650103740E-01	-5.32272602219E-01
1.79150000000E+09	7.78553291131E-01	-5.33541771969E-01
1.79200000000E+09	7.77488641504E-01	-5.34838748088E-01
1.79250000000E+09	7.76420821381E-01	-5.36027594035E-01
1.79300000000E+09	7.75321879312E-01	-5.37300483560E-01
1.79350000000E+09	7.74247237512E-01	-5.38513175200E-01
1.79400000000E+09	7.73195814322E-01	-5.39713795841E-01
1.79450000000E+09	7.72102458078E-01	-5.40983124268E-01
1.79500000000E+09	7.71103520297E-01	-5.42221196965E-01
1.79550000000E+09	7.69952585919E-01	-5.43463878025E-01
1.79600000000E+09	7.68910142190E-01	-5.44644148507E-01
1.79650000000E+09	7.67783233113E-01	-5.45864430925E-01
1.79700000000E+09	7.66689414932E-01	-5.47162250504E-01
1.79750000000E+09	7.65698806287E-01	-5.48345295329E-01
1.79800000000E+09	7.64495921642E-01	-5.49656323036E-01
1.79850000000E+09	7.63483886369E-01	-5.50833604096E-01
1.79900000000E+09	7.62442066162E-01	-5.52007744083E-01
1.79950000000E+09	7.61254567633E-01	-5.53253069462E-01
1.80000000000E+09	7.60177568212E-01	-5.54472893549E-01
1.80050000000E+09	7.59055379831E-01	-5.55738557236E-01
1.80100000000E+09	7.57947998599E-01	-5.56895035191E-01
1.80150000000E+09	7.56866638817E-01	-5.58077574910E-01
1.80200000000E+09	7.55788668198E-01	-5.59294958537E-01
1.80250000000E+09	7.54598147616E-01	-5.60528249135E-01
1.80300000000E+09	7.53599129251E-01	-5.61727566174E-01
1.80350000000E+09	7.52448544338E-01	-5.62940755467E-01
1.80400000000E+09	7.51324284059E-01	-5.64129991076E-01
1.80450000000E+09	7.50294421154E-01	-5.65270651312E-01
1.80500000000E+09	7.49118591196E-01	-5.66511929207E-01
1.80550000000E+09	7.48083070466E-01	-5.67695705716E-01
1.80600000000E+09	7.46914785413E-01	-5.68897287264E-01
1.80650000000E+09	7.45782907008E-01	-5.70112230901E-01
1.80700000000E+09	7.44669860482E-01	-5.71307846471E-01
1.80750000000E+09	7.43546285563E-01	-5.72486222654E-01
1.80800000000E+09	7.42509899016E-01	-5.73763048443E-01
1.80850000000E+09	7.41302185769E-01	-5.74915330071E-01
1.80900000000E+09	7.40199674138E-01	-5.76011937359E-01
1.80950000000E+09	7.39113673845E-01	-5.77199410165E-01
1.81000000000E+09	7.38004209850E-01	-5.78440415360E-01
1.81050000000E+09	7.36909968715E-01	-5.79583440293E-01
1.81100000000E+09	7.35665788338E-01	-5.80761297737E-01
1.81150000000E+09	7.34575577642E-01	-5.81943482087E-01
1.81200000000E+09	7.33493923729E-01	-5.83136946227E-01
1.81250000000E+09	7.32366832967E-01	-5.84283910195E-01
1.81300000000E+09	7.31253436946E-01	-5.85459798242E-01
1.81350000000E+09	7.30114538043E-01	-5.86602580336E-01
1.81400000000E+09	7.28951261206E-01	-5.87843621900E-01
1.81450000000E+09	7.27853039044E-01	-5.88957151406E-01
1.81500000000E+09	7.26683373786E-01	-5.90175481919E-01
1.81550000000E+09	7.25595343676E-01	-5.91348165829E-01
1.81600000000E+09	7.24359150863E-01	-5.92453206656E-01
1.81650000000E+09	7.23306947024E-01	-5.93705696953E-01
1.81700000000E+09	7.22184151944E-01	-5.94798237719E-01
1.81750000000E+09	7.20968170205E-01	-5.95967833863E-01
1.81800000000E+09	7.19884214022E-01	-5.97140203929E-01
1.81850000000E+09	7.18625742303E-01	-5.98298343692E-01
1.81900000000E+09	7.17542550416E-01	-5.99477759071E-01
1.81950000000E+09	7.16392215199E-01	-6.00646737758E-01
1.82000000000E+09	7.15320905663E-01	-6.01864569870E-01
1.82050000000E+09	7.14149907013E-01	-6.03062087311E-01
1.82100000000E+09	7.12915478936E-01	-6.04118635609E-01
1.82150000000E+09	7.11801606033E-01	-6.05319238257E-01
1.82200000000E+09	7.10590743271E-01	-6.06485550549E-01
1.82250000000E+09	7.09520657690E-01	-6.07593186995E-01
1.82300000000E+09	7.08362547140E-01	-6.08764069275E-01
1.82350000000E+09	7.07072150106E-01	-6.09887800716E-01
1.82400000000E+09	7.06006297595E-01	-6.11094247449E-01
1.82450000000E+09	7.04796082300E-01	-6.12182347883E-01
1.82500000000E+09	7.03620582656E-01	-6.13342503731E-01
1.82550000000E+09	7.02508922547E-01	-6.14523903571E-01
1.82600000000E+09	7.01253464723E-01	-6.15664082395E-01
1.82650000000E+09	7.00151267563E-01	-6.16848402936E-01
1.82700000000E+09	6.98945423927E-01	-6.18019260700E-01
1.82750000000E+09	6.97778036295E-01	-6.19108818565E-01
1.82800000000E+09	6.96618183434E-01	-6.20284155956E-01
1.82850000000E+09	6.95369237269E-01	-6.21461092337E-01
1.82900000000E+09	6.94248402589E-01	-6.22584018501E-01
1.82950000000E+09	6.93053183357E-01	-6.23804549087E-01
1.83000000000E+09	6.91828596489E-01	-6.24905795642E-01
1.83050000000E+09	6.90642845047E-01	-6.26085703584E-01
1.83100000000E+09	6.89421683903E-01	-6.27225172030E-01
1.83150000000E+09	6.88274834912E-01	-6.28383516208E-01
1.83200000000E+09	6.87059240373E-01	-6.29505102843E-01
1.83250000000E+09	6.85773845932E-01	-6.30693128834E-01
1.83300000000E+09	6.84581228274E-01	-6.31899117042E-01
1.83350000000E+09	6.83356497582E-01	-6.32988683631E-01
1.83400000000E+09	6.82123576679E-01	-6.34194003216E-01
1.83450000000E+09	6.80885339990E-01	-6.35336130848E-01
1.83500000000E+09	6.79657586556E-01	-6.36482017142E-01
1.83550000000E+09	6.78429648407E-01	-6.37613512470E-01
1.83600000000E+09	6.77170231279E-01	-6.38707113297E-01
1.83650000000E+09	6.75951985899E-01	-6.39837211356E-01
1.83700000000E+09	6.74679985665E-01	-6.41075355074E-01
1.83750000000E+09	6.73408347983E-01	-6.42135107139E-01
1.83800000000E+09	6.72231521161E-01	-6.43303615267E-01
1.83850000000E+09	6.70884711879E-01	-6.44391730545E-01
1.83900000000E+09	6.69701864896E-01	-6.45481890104E-01
1.83950000000E+09	6.68413476223E-01	-6.46712356173E-01
1.84000000000E+09	6.67143226869E-01	-6.47761271451E-01
1.84050000000E+09	6.65923700199E-01	-6.48877256516E-01
1.84100000000E+09	6.64612536459E-01	-6.50021510213E-01
1.84150000000E+09	6.63374288074E-01	-6.51211476241E-01
1.84200000000E+09	6.62095330912E-01	-6.52337226311E-01
1.84250000000E+09	6.60804726782E-01	-6.53360854575E-01
1.84300000000E+09	6.59573896339E-01	-6.54607610708E-01
1.84350000000E+09	6.58248398258E-01	-6.55566507772E-01
1.84400000000E+09	6.56974972811E-01	-6.56824122633E-01
1.84450000000E+09	6.55673831412E-01	-6.57926834753E-01
1.84500000000E+09	6.54370695238E-01	-6.59039207965E-01
1.84550000000E+09	6.53083331412E-01	-6.60140960175E-01
1.84600000000E+09	6.51800069225E-01	-6.61267983361E-01
1.84650000000E+09	6.50493919108E-01	-6.62411645532E-01
1.84700000000E+09	6.49166347614E-01	-6.63560036515E-01
1.84750000000E+09	6.47867841944E-01	-6.64655775317E-01
1.84800000000E+09	6.46515487574E-01	-6.65810983951E-01
1.84850000000E+09	6.45239548998E-01	-6.66936829074E-01
1.84900000000E+09	6.43924258553E-01	-6.67986820752E-01
1.84950000000E+09	6.42568680428E-01	-6.69213253848E-01
1.85000000000E+09	6.41239717229E-01	-6.70141370349E-01
1.85050000000E+09	6.39813702466E-01	-6.71327183895E-01
1.85100000000E+09	6.38560292644E-01	-6.72444722539E-01
1.85150000000E+09	6.37204118778E-01	-6.73566168833E-01
1.85200000000E+09	6.35869947729E-01	-6.74674200602E-01
1.85250000000E+09	6.34541644965E-01	-6.75741146015E-01
1.85300000000E+09	6.33165947196E-01	-6.76842192198E-01
1.85350000000E+09	6.31877126157E-01	-6.78007422359E-01
1.85400000000E+09	6.30493794316E-01	-6.79063742534E-01
1.85450000000E+09	6.29023200038E-01	-6.80165441236E-01
1.85500000000E+09	6.27687090941E-01	-6.81277759851E-01
1.85550000000E+09	6.26355095902E-01	-6.82387570974E-01
1.85600000000E+09	6.24967509642E-01	-6.83532125558E-01
1.85650000000E+09	6.23646842890E-01	-6.84629503290E-01
1.85700000000E+09	6.22242159426E-01	-6.85737217463E-01
1.85750000000E+09	6.20781827071E-01	-6.86860122077E-01
1.85800000000E+09	6.19417671770E-01	-6.87881032196E-01
1.85850000000E+09	6.18019791786E-01	-6.89012255523E-01
1.85900000000E+09	6.16610074964E-01	-6.90058794607E-01
1.85950000000E+09	6.15116652320E-01	-6.91270855816E-01
1.86000000000E+09	6.13755912946E-01	-6.92314401998E-01
1.86050000000E+09	6.12333626995E-01	-6.93454115640E-01
1.86100000000E+09	6.10913220456E-01	-6.94532922072E-01
1.86150000000E+09	6.09476989411E-01	-6.95576764838E-01
1.86200000000E+09	6.08072240372E-01	-6.96724092331E-01
1.86250000000E+09	6.06475061900E-01	-6.97792757261E-01
1.86300000000E+09	6.05059869381E-01	-6.98873383315E-01
1.86350000000E+09	6.03697347433E-01	-6.99950751814E-01
1.86400000000E+09	6.02187293708E-01	-7.01036535858E-01
1.86450000000E+09	6.00756029355E-01	-7.02141418427E-01
1.86500000000E+09	5.99309732484E-01	-7.03250948678E-01
1.86550000000E+09	5.97750460416E-01	-7.04271915146E-01
1.86600000000E+09	5.96226238536E-01	-7.05327761081E-01
1.86650000000E+09	5.94776566110E-01	-7.06429514150E-01
1.86700000000E+09	5.93263527094E-01	-7.07530766566E-01
1.86750000000E+09	5.91740763008E-01	-7.08489327685E-01
1.86800000000E+09	5.90264531367E-01	-7.09659424635E-01
1.86850000000E+09	5.88756064481E-01	-7.10690193830E-01
1.86900000000E+09	5.87293306506E-01	-7.11802035496E-01
1.86950000000E+09	5.85741414694E-01	-7.12840835936E-01
1.87000000000E+09	5.84257826775E-01	-7.13902725495E-01
1.87050000000E+09	5.82616047307E-01	-7.14917287921E-01
1.87100000000E+09	5.81121126608E-01	-7.15995750900E-01
1.87150000000E+09	5.79616992414E-01	-7.17011072280E-01
1.87200000000E+09	5.78058085545E-01	-7.18024946525E-01
1.87250000000E+09	5.76507475197E-01	-7.19138115131E-01
1.87300000000E+09	5.74903897898E-01	-7.20132522799E-01
1.87350000000E+09	5.73329929383E-01	-7.21106362601E-01
1.87400000000E+09	5.71759006060E-01	-7.22111399679E-01
1.87450000000E+09	5.70213742621E-01	-7.23199236462E-01
1.87500000000E+09	5.68647388766E-01	-7.24214537329E-01
1.87550000000E+09	5.67080672235E-01	-7.25204388772E-01
1.87600000000E+09	5.65552813410E-01	-7.26149061691E-01
1.87650000000E+09	5.64033023246E-01	-7.27236860864E-01
