# Hz S RI R 50
! CMT, CMT808U, 21440046, 21.4.3/4
! Date: 12/1/2025 1:36:10 PM
! Data: Format (Calibration Info)
! Freq	S11:Re/Im(F2)
1.70000000000E+09	9.02529095213E-01	-3.14385864786E-01
1.70050000000E+09	9.01981028320E-01	-3.15772316746E-01
1.70100000000E+09	9.01491424029E-01	-3.17066155770E-01
1.70150000000E+09	9.01004867339E-01	-3.18472625601E-01
1.70200000000E+09	9.00518829065E-01	-3.19713709617E-01
1.70250000000E+09	8.99942284280E-01	-3.21141050137E-01
1.70300000000E+09	8.99489046323E-01	-3.22499146287E-01
1.70350000000E+09	8.98950742529E-01	-3.23818913801E-01
1.70400000000E+09	8.98411257954E-01	-3.25150877203E-01
1.70450000000E+09	8.97955196402E-01	-3.26530469716E-01
1.70500000000E+09	8.97417953955E-01	-3.27926460445E-01
1.70550000000E+09	8.96969094835E-01	-3.29254073649E-01
1.70600000000E+09	8.96418334275E-01	-3.30588095221E-01
1.70650000000E+09	8.95951200856E-01	-3.31920321845E-01
1.70700000000E+09	8.95462875164E-01	-3.33244225028E-01
1.70750000000E+09	8.94930632391E-01	-3.34628402900E-01
1.70800000000E+09	8.94378175209E-01	-3.35988990399E-01
1.70850000000E+09	8.93875536693E-01	-3.37303463973E-01
1.70900000000E+09	8.93319673776E-01	-3.38666598948E-01
1.70950000000E+09	8.92865912397E-01	-3.40075097474E-01
1.71000000000E+09	8.92259212183E-01	-3.41399672465E-01
1.71050000000E+09	8.91851972272E-01	-3.42820958711E-01
1.71100000000E+09	8.91262200234E-01	-3.44164913468E-01
1.71150000000E+09	8.90667041746E-01	-3.45483377887E-01
1.71200000000E+09	8.90188119862E-01	-3.46878982429E-01
1.71250000000E+09	8.89645523544E-01	-3.48264973005E-01
1.71300000000E+09	8.89152773551E-01	-3.49567152924E-01
1.71350000000E+09	8.88536138592E-01	-3.50915834834E-01
1.71400000000E+09	8.87966980015E-01	-3.52379963018E-01
1.71450000000E+09	8.87472077091E-01	-3.53714745727E-01
1.71500000000E+09	8.86914427281E-01	-3.55031386000E-01
1.71550000000E+09	8.86444294633E-01	-3.56446755597E-01
1.71600000000E+09	8.85763725865E-01	-3.57782659525E-01
1.71650000000E+09	8.85129119615E-01	-3.59080971056E-01
1.71700000000E+09	8.84795783952E-01	-3.60566837464E-01
1.71750000000E+09	8.84132744989E-01	-3.61960224497E-01
1.71800000000E+09	8.83661168338E-01	-3.63283047212E-01
1.71850000000E+09	8.83013676467E-01	-3.64672114153E-01
1.71900000000E+09	8.82521670707E-01	-3.65968685089E-01
1.71950000000E+09	8.81894904405E-01	-3.67329709502E-01
1.72000000000E+09	8.81273497300E-01	-3.68746206477E-01
1.72050000000E+09	8.80756193556E-01	-3.70169998196E-01
1.72100000000E+09	8.80142443099E-01	-3.71552540710E-01
1.72150000000E+09	8.79573130548E-01	-3.72939863986E-01
1.72200000000E+09	8.78983092616E-01	-3.74333522950E-01
1.72250000000E+09	8.78443894427E-01	-3.75747613361E-01
1.72300000000E+09	8.77724849831E-01	-3.77093911997E-01
1.72350000000E+09	8.77205909074E-01	-3.78555756217E-01
1.72400000000E+09	8.76568726377E-01	-3.79845134994E-01
1.72450000000E+09	8.75962358136E-01	-3.81251643007E-01
1.72500000000E+09	8.75314799505E-01	-3.82637238326E-01
1.72550000000E+09	8.74666255799E-01	-3.84008797989E-01
1.72600000000E+09	8.74143957619E-01	-3.85468791343E-01
1.72650000000E+09	8.73515286573E-01	-3.86837193423E-01
1.72700000000E+09	8.72935314533E-01	-3.88218460030E-01
1.72750000000E+09	8.72241241379E-01	-3.89645230311E-01
1.72800000000E+09	8.71622548985E-01	-3.91052839543E-01
1.72850000000E+09	8.70997013456E-01	-3.92369434801E-01
1.72900000000E+09	8.70420769792E-01	-3.93829393380E-01
1.72950000000E+09	8.69736389238E-01	-3.95145985306E-01
1.73000000000E+09	8.69099392114E-01	-3.96648831100E-01
1.73050000000E+09	8.68474054569E-01	-3.97965601618E-01
1.73100000000E+09	8.67792283546E-01	-3.99421689986E-01
1.73150000000E+09	8.67195421200E-01	-4.00845888992E-01
1.73200000000E+09	8.66496310939E-01	-4.02215317693E-01
1.73250000000E+09	8.65837234740E-01	-4.03642040401E-01
1.73300000000E+09	8.65222202850E-01	-4.05091905415E-01
1.73350000000E+09	8.64519650756E-01	-4.06437050619E-01
1.73400000000E+09	8.63829571991E-01	-4.07925263742E-01
1.73450000000E+09	8.63191258517E-01	-4.09325002660E-01
1.73500000000E+09	8.62527453014E-01	-4.10729197952E-01
1.73550000000E+09	8.61928930460E-01	-4.12080324415E-01
1.73600000000E+09	8.61107885309E-01	-4.13571527883E-01
1.73650000000E+09	8.60466010928E-01	-4.14988786377E-01
1.73700000000E+09	8.59725388695E-01	-4.16340912692E-01
1.73750000000E+09	8.59084934297E-01	-4.17811020716E-01
1.73800000000E+09	8.58383484552E-01	-4.19169114290E-01
1.73850000000E+09	8.57658584867E-01	-4.20706362515E-01
1.73900000000E+09	8.56980171015E-01	-4.22069038673E-01
1.73950000000E+09	8.56230577892E-01	-4.23484541021E-01
1.74000000000E+09	8.55506193219E-01	-4.24978250126E-01
1.74050000000E+09	8.54761130299E-01	-4.26389310784E-01
1.74100000000E+09	8.54054151064E-01	-4.27931746270E-01
1.74150000000E+09	8.53310558406E-01	-4.29338446698E-01
1.74200000000E+09	8.52622208913E-01	-4.30757341085E-01
1.74250000000E+09	8.51773319641E-01	-4.32095512710E-01
1.74300000000E+09	8.51066606322E-01	-4.33607944732E-01
1.74350000000E+09	8.50260986913E-01	-4.35061053111E-01
1.74400000000E+09	8.49502827478E-01	-4.36471577593E-01
1.74450000000E+09	8.48754505740E-01	-4.37963250753E-01
1.74500000000E+09	8.48049890321E-01	-4.39323869168E-01
1.74550000000E+09	8.47210230597E-01	-4.40837278794E-01
1.74600000000E+09	8.46476418658E-01	-4.42155586502E-01
1.74650000000E+09	8.45676979808E-01	-4.43674828917E-01
1.74700000000E+09	8.44810068226E-01	-4.45151473749E-01
1.74750000000E+09	8.44010303782E-01	-4.46526826358E-01
1.74800000000E+09	8.43195490290E-01	-4.48051398778E-01
1.74850000000E+09	8.42425984903E-01	-4.49467095898E-01
1.74900000000E+09	8.41549832585E-01	-4.50917195439E-01
1.74950000000E+09	8.40786974334E-01	-4.52297174433E-01
1.75000000000E+09	8.39893455416E-01	-4.53812810337E-01
1.75050000000E+09	8.39138804075E-01	-4.55229147484E-01
1.75100000000E+09	8.38263767470E-01	-4.56607095037E-01
1.75150000000E+09	8.37342169149E-01	-4.58090005312E-01
1.75200000000E+09	8.36554832089E-01	-4.59534445753E-01
1.75250000000E+09	8.35694461453E-01	-4.60963676091E-01
1.75300000000E+09	8.34889223004E-01	-4.62327320762E-01
1.75350000000E+09	8.34032851660E-01	-4.63720644191E-01
1.75400000000E+09	8.33118580108E-01	-4.65243928950E-01
1.75450000000E+09	8.32256444243E-01	-4.66629049185E-01
1.75500000000E+09	8.31391167197E-01	-4.68059416279E-01
1.75550000000E+09	8.30507308257E-01	-4.69485756406E-01
1.75600000000E+09	8.29685657263E-01	-4.70932954914E-01
1.75650000000E+09	8.28694504438E-01	-4.72372725160E-01
1.75700000000E+09	8.27854014881E-01	-4.73840911967E-01
1.75750000000E+09	8.26984265806E-01	-4.75217460539E-01
1.75800000000E+09	8.26167589990E-01	-4.76650438124E-01
1.75850000000E+09	8.25221552643E-01	-4.78135153950E-01
1.75900000000E+09	8.24307736306E-01	-4.79565531280E-01
1.75950000000E+09	8.23384813406E-01	-4.81057766676E-01
1.76000000000E+09	8.22532844424E-01	-4.82484771999E-01
1.76050000000E+09	8.21551789496E-01	-4.83901775306E-01
1.76100000000E+09	8.20605893814E-01	-4.85328163109E-01
1.76150000000E+09	8.19694691183E-01	-4.86740869951E-01
1.76200000000E+09	8.18716098170E-01	-4.88166503828E-01
1.76250000000E+09	8.17842169449E-01	-4.89642214178E-01
1.76300000000E+09	8.16819846767E-01	-4.91024217125E-01
1.76350000000E+09	8.15854993402E-01	-4.92454234200E-01
1.76400000000E+09	8.14934849778E-01	-4.93864966550E-01
1.76450000000E+09	8.13872296816E-01	-4.95331323842E-01
1.76500000000E+09	8.12974618359E-01	-4.96707993661E-01
1.76550000000E+09	8.11997226078E-01	-4.98111878414E-01
1.76600000000E+09	8.11004193748E-01	-4.99563250506E-01
1.76650000000E+09	8.09971114599E-01	-5.00993347758E-01
1.76700000000E+09	8.09034867562E-01	-5.02397394778E-01
1.76750000000E+09	8.07992492777E-01	-5.03793809699E-01
1.76800000000E+09	8.07007050514E-01	-5.05161578232E-01
1.76850000000E+09	8.05951328618E-01	-5.06556946818E-01
1.76900000000E+09	8.04983251378E-01	-5.08012509525E-01
1.76950000000E+09	8.03867927678E-01	-5.09361569640E-01
1.77000000000E+09	8.02949682931E-01	-5.10771060018E-01
1.77050000000E+09	8.01873458521E-01	-5.12198140936E-01
1.77100000000E+09	8.00851601201E-01	-5.13567116910E-01
1.77150000000E+09	7.99731310827E-01	-5.14909093318E-01
1.77200000000E+09	7.98789229117E-01	-5.16346822537E-01
1.77250000000E+09	7.97733668496E-01	-5.17688999164E-01
1.77300000000E+09	7.96699442152E-01	-5.19091054313E-01
1.77350000000E+09	7.95636407309E-01	-5.20422154414E-01
1.77400000000E+09	7.94573489628E-01	-5.21852453656E-01
1.77450000000E+09	7.93490972538E-01	-5.23207758596E-01
1.77500000000E+09	7.92508442437E-01	-5.24546786526E-01
1.77550000000E+09	7.91397091201E-01	-5.25871531624E-01
1.77600000000E+09	7.90318716487E-01	-5.27277358220E-01
1.77650000000E+09	7.89258714134E-01	-5.28647809289E-01
1.77700000000E+09	7.88064696429E-01	-5.29923150362E-01
1.77750000000E+09	7.87137501175E-01	-5.31345979711E-01
1.77800000000E+09	7.86016541365E-01	-5.32671894403E-01
1.77850000000E+09	7.84953997147E-01	-5.34030111581E-01
1.77900000000E+09	7.83791566839E-01	-5.35392483134E-01
1.77950000000E+09	7.82726677290E-01	-5.36705816001E-01
1.78000000000E+09	7.81685334373E-01	-5.38055281359E-01
1.78050000000E+09	7.80537760794E-01	-5.39273823301E-01
1.78100000000E+09	7.79445789754E-01	-5.40705354239E-01
1.78150000000E+09	7.78447286605E-01	-5.41960029099E-01
1.78200000000E+09	7.77264326719E-01	-5.43318381848E-01
1.78250000000E+09	7.76152307931E-01	-5.44598083877E-01
1.78300000000E+09	7.75116644443E-01	-5.45895110821E-01
1.78350000000E+09	7.73928545382E-01	-5.47295686382E-01
1.78400000000E+09	7.72806090365E-01	-5.48608170084E-01
1.78450000000E+09	7.71711686311E-01	-5.49912147120E-01
1.78500000000E+09	7.70594898256E-01	-5.51259193118E-01
1.78550000000E+09	7.69518115738E-01	-5.52546360783E-01
1.78600000000E+09	7.68356560838E-01	-5.53881648798E-01
1.78650000000E+09	7.67327312000E-01	-5.55111915957E-01
1.78700000000E+09	7.66089620884E-01	-5.56460312958E-01
1.78750000000E+09	7.65012418715E-01	-5.57720980459E-01
1.78800000000E+09	7.63892841408E-01	-5.59036347235E-01
1.78850000000E+09	7.62770857442E-01	-5.60375436432E-01
1.78900000000E+09	7.61568905414E-01	-5.61655757010E-01
1.78950000000E+09	7.60471048564E-01	-5.62882064731E-01
1.79000000000E+09	7.59239603666E-01	-5.64268719635E-01
1.79050000000E+09	7.58197127013E-01	-5.65485421620E-01
1.79100000000E+09	7.56994505271E-01	-5.66759422584E-01
1.79150000000E+09	7.55918603812E-01	-5.68046180421E-01
1.79200000000E+09	7.54702623978E-01	-5.69436524931E-01
1.79250000000E+09	7.53510749521E-01	-5.70597378181E-01
1.79300000000E+09	7.52420847420E-01	-5.71968877977E-01
1.79350000000E+09	7.51241875071E-01	-5.73150868178E-01
1.79400000000E+09	7.50005420251E-01	-5.74419645532E-01
1.79450000000E+09	7.48856212345E-01	-5.75732928348E-01
1.79500000000E+09	7.47749801187E-01	-5.76959545602E-01
1.79550000000E+09	7.46464607235E-01	-5.78196740374E-01
1.79600000000E+09	7.45343068718E-01	-5.79435715025E-01
1.79650000000E+09	7.44151209902E-01	-5.80610931354E-01
1.79700000000E+09	7.42991332575E-01	-5.81956400052E-01
1.79750000000E+09	7.41735043868E-01	-5.83143927945E-01
1.79800000000E+09	7.40588389502E-01	-5.84392695789E-01
1.79850000000E+09	7.39472280770E-01	-5.85583889991E-01
1.79900000000E+09	7.38285226397E-01	-5.86783657393E-01
1.79950000000E+09	7.36971066538E-01	-5.88054784067E-01
1.80000000000E+09	7.35896441148E-01	-5.89208147758E-01
1.80050000000E+09	7.34693324678E-01	-5.90434504996E-01
1.80100000000E+09	7.33463798105E-01	-5.91622988005E-01
1.80150000000E+09	7.32272097800E-01	-5.92826873419E-01
1.80200000000E+09	7.31125459069E-01	-5.94040763117E-01
1.80250000000E+09	7.29871072850E-01	-5.95266555861E-01
1.80300000000E+09	7.28809055330E-01	-5.96447603368E-01
1.80350000000E+09	7.27521713687E-01	-5.97695846586E-01
1.80400000000E+09	7.26326075369E-01	-5.98891842486E-01
1.80450000000E+09	7.25202139546E-01	-5.99979940302E-01
1.80500000000E+09	7.24040494474E-01	-6.01281622262E-01
1.80550000000E+09	7.22768651335E-01	-6.02386180927E-01
1.80600000000E+09	7.21607164636E-01	-6.03558773713E-01
1.80650000000E+09	7.20402024643E-01	-6.04737890618E-01
1.80700000000E+09	7.19166242248E-01	-6.05947907710E-01
1.80750000000E+09	7.17972292598E-01	-6.07152744916E-01
1.80800000000E+09	7.16804166673E-01	-6.08363834157E-01
1.80850000000E+09	7.15612566563E-01	-6.09510005361E-01
1.80900000000E+09	7.14443974744E-01	-6.10597526364E-01
1.80950000000E+09	7.13243349199E-01	-6.11864558212E-01
1.81000000000E+09	7.12084199393E-01	-6.13053090052E-01
1.81050000000E+09	7.10923112664E-01	-6.14192230866E-01
1.81100000000E+09	7.09629524825E-01	-6.15387001252E-01
1.81150000000E+09	7.08453485690E-01	-6.16509880654E-01
1.81200000000E+09	7.07298710074E-01	-6.17728393567E-01
1.81250000000E+09	7.06154480315E-01	-6.18875545902E-01
1.81300000000E+09	7.04884836235E-01	-6.20058930099E-01
1.81350000000E+09	7.03680146090E-01	-6.21185303439E-01
1.81400000000E+09	7.02454666742E-01	-6.22366353219E-01
1.81450000000E+09	7.01244974428E-01	-6.23516599801E-01
1.81500000000E+09	7.00043781468E-01	-6.24725107109E-01
1.81550000000E+09	6.98816244777E-01	-6.25889070466E-01
1.81600000000E+09	6.97617086417E-01	-6.26972765069E-01
1.81650000000E+09	6.96343959609E-01	-6.28173699258E-01
1.81700000000E+09	6.95146471978E-01	-6.29274268047E-01
1.81750000000E+09	6.93905127629E-01	-6.30440568981E-01
1.81800000000E+09	6.92776728426E-01	-6.31570710922E-01
1.81850000000E+09	6.91460611761E-01	-6.32716251973E-01
1.81900000000E+09	6.90270257044E-01	-6.33915012880E-01
1.81950000000E+09	6.89016915003E-01	-6.35034536677E-01
1.82000000000E+09	6.87832205496E-01	-6.36283671618E-01
1.82050000000E+09	6.86555298462E-01	-6.37327861059E-01
1.82100000000E+09	6.85360096804E-01	-6.38445784433E-01
1.82150000000E+09	6.84081919514E-01	-6.39664908433E-01
1.82200000000E+09	6.82800461143E-01	-6.40718168549E-01
1.82250000000E+09	6.81608350990E-01	-6.41894966721E-01
1.82300000000E+09	6.80399764963E-01	-6.42981240274E-01
1.82350000000E+09	6.79075449358E-01	-6.44055088292E-01
1.82400000000E+09	6.77868856563E-01	-6.45284159210E-01
1.82450000000E+09	6.76583235094E-01	-6.46358729689E-01
1.82500000000E+09	6.75348730240E-01	-6.47466428793E-01
1.82550000000E+09	6.74110955067E-01	-6.48533106854E-01
1.82600000000E+09	6.72813216831E-01	-6.49667281186E-01
1.82650000000E+09	6.71600421907E-01	-6.50771546565E-01
1.82700000000E+09	6.70346186973E-01	-6.51894733328E-01
1.82750000000E+09	6.69164898237E-01	-6.52958811047E-01
1.82800000000E+09	6.67864789356E-01	-6.54117969595E-01
1.82850000000E+09	6.66647263684E-01	-6.55151674848E-01
1.82900000000E+09	6.65352754215E-01	-6.56280591050E-01
1.82950000000E+09	6.64152147327E-01	-6.57406897776E-01
1.83000000000E+09	6.62861279814E-01	-6.58469832849E-01
1.83050000000E+09	6.61631549096E-01	-6.59546016166E-01
1.83100000000E+09	6.60323692730E-01	-6.60665783315E-01
1.83150000000E+09	6.59117221572E-01	-6.61777792225E-01
1.83200000000E+09	6.57864166008E-01	-6.62842419741E-01
1.83250000000E+09	6.56604165404E-01	-6.63935606681E-01
1.83300000000E+09	6.55361857344E-01	-6.65060737493E-01
1.83350000000E+09	6.54086330279E-01	-6.66155826871E-01
1.83400000000E+09	6.52827925280E-01	-6.67325336880E-01
1.83450000000E+09	6.51525641156E-01	-6.68412968497E-01
1.83500000000E+09	6.50278061282E-01	-6.69509896920E-01
1.83550000000E+09	6.49026472645E-01	-6.70653237301E-01
1.83600000000E+09	6.47705120834E-01	-6.71665127150E-01
1.83650000000E+09	6.46451056421E-01	-6.72805437476E-01
1.83700000000E+09	6.45152834619E-01	-6.73966722495E-01
1.83750000000E+09	6.43860335830E-01	-6.75059002930E-01
1.83800000000E+09	6.42573486771E-01	-6.76129114655E-01
1.83850000000E+09	6.41219156798E-01	-6.77173507720E-01
1.83900000000E+09	6.39956654602E-01	-6.78291705474E-01
1.83950000000E+09	6.38609644257E-01	-6.79450352050E-01
1.84000000000E+09	6.37375143053E-01	-6.80429984808E-01
1.84050000000E+09	6.36026733739E-01	-6.81595500567E-01
1.84100000000E+09	6.34684238400E-01	-6.82653099453E-01
1.84150000000E+09	6.33367938847E-01	-6.83796312264E-01
1.84200000000E+09	6.32059754106E-01	-6.84829157203E-01
1.84250000000E+09	6.30739317756E-01	-6.85836289939E-01
1.84300000000E+09	6.29470286777E-01	-6.86957038966E-01
1.84350000000E+09	6.28029474009E-01	-6.88045746070E-01
1.84400000000E+09	6.26740404928E-01	-6.89199379739E-01
1.84450000000E+09	6.25435093396E-01	-6.90233155396E-01
1.84500000000E+09	6.24030095633E-01	-6.91297878308E-01
1.84550000000E+09	6.22728964951E-01	-6.92361884665E-01
1.84600000000E+09	6.21410330924E-01	-6.93448511216E-01
1.84650000000E+09	6.20053682755E-01	-6.94514910512E-01
1.84700000000E+09	6.18704048665E-01	-6.95565739007E-01
1.84750000000E+09	6.17397306557E-01	-6.96668609652E-01
1.84800000000E+09	6.16018311657E-01	-6.97759985660E-01
1.84850000000E+09	6.14625160944E-01	-6.98819981762E-01
1.84900000000E+09	6.13287792751E-01	-6.99833971224E-01
1.84950000000E+09	6.11900218726E-01	-7.01039496390E-01
1.85000000000E+09	6.10529581488E-01	-7.02047558292E-01
1.85050000000E+09	6.09148624957E-01	-7.03128711599E-01
1.85100000000E+09	6.07757218447E-01	-7.04175580589E-01
1.85150000000E+09	6.06306972474E-01	-7.05301466575E-01
1.85200000000E+09	6.04867853106E-01	-7.06357691644E-01
1.85250000000E+09	6.03510335538E-01	-7.07476287495E-01
1.85300000000E+09	6.02128198315E-01	-7.08486306455E-01
1.85350000000E+09	6.00736304391E-01	-7.09521926403E-01
1.85400000000E+09	5.99258823096E-01	-7.10619955527E-01
1.85450000000E+09	5.97802460967E-01	-7.11676377584E-01
1.85500000000E+09	5.96431018334E-01	-7.12684545796E-01
1.85550000000E+09	5.94967947954E-01	-7.13734758265E-01
1.85600000000E+09	5.93582572814E-01	-7.14839351887E-01
1.85650000000E+09	5.92082132846E-01	-7.15912430725E-01
1.85700000000E+09	5.90638725096E-01	-7.16980187498E-01
1.85750000000E+09	5.89227314572E-01	-7.18012810809E-01
1.85800000000E+09	5.87759188332E-01	-7.18972932397E-01
1.85850000000E+09	5.86272475434E-01	-7.20129333411E-01
1.85900000000E+09	5.84830171297E-01	-7.21063196369E-01
1.85950000000E+09	5.83238031771E-01	-7.22215197347E-01
1.86000000000E+09	5.81756990122E-01	-7.23236866088E-01
1.86050000000E+09	5.80333660177E-01	-7.24323511283E-01
1.86100000000E+09	5.78818290283E-01	-7.25322726148E-01
1.86150000000E+09	5.77334242887E-01	-7.26298742493E-01
1.86200000000E+09	5.75834476363E-01	-7.27425717139E-01
1.86250000000E+09	5.74243749902E-01	-7.28360055378E-01
1.86300000000E+09	5.72672167380E-01	-7.29416567288E-01
1.86350000000E+09	5.71295301600E-01	-7.30436316609E-01
1.86400000000E+09	5.69706481878E-01	-7.31450776914E-01
1.86450000000E+09	5.68216256894E-01	-7.32463565289E-01
1.86500000000E+09	5.66587759822E-01	-7.33489160258E-01
1.86550000000E+09	5.65059366825E-01	-7.34453924147E-01
1.86600000000E+09	5.63504579892E-01	-7.35468931826E-01
1.86650000000E+09	5.61859315617E-01	-7.36444714340E-01
1.86700000000E+09	5.60362938981E-01	-7.37437477769E-01
1.86750000000E+09	5.58806984546E-01	-7.38324070657E-01
1.86800000000E+09	5.57152639563E-01	-7.39446611235E-01
1.86850000000E+09	5.55599054732E-01	-7.40409703923E-01
1.86900000000E+09	5.54125058502E-01	-7.41386909510E-01
1.86950000000E+09	5.52431085233E-01	-7.42355307047E-01
1.87000000000E+09	5.50905196887E-01	-7.43244885230E-01
1.87050000000E+09	5.49265327765E-01	-7.44206743120E-01
1.87100000000E+09	5.47696340790E-01	-7.45192297535E-01
1.87150000000E+09	5.46075069158E-01	-7.46160948966E-01
1.87200000000E+09	5.44476682370E-01	-7.47116902506E-01
1.87250000000E+09	5.42851342868E-01	-7.48110231583E-01
1.87300000000E+09	5.41181113762E-01	-7.49061108857E-01
1.87350000000E+09	5.39574662205E-01	-7.49960945454E-01
1.87400000000E+09	5.37945900086E-01	-7.50928704290E-01
1.87450000000E+09	5.36304840970E-01	-7.51906104564E-01
1.87500000000E+09	5.34668335836E-01	-7.52831815095E-01
1.87550000000E+09	5.33010290271E-01	-7.53807295903E-01
1.87600000000E+09	5.31328809200E-01	-7.54650101835E-01
1.87650000000E+09	5.29703189606E-01	-7.55575116416E-01
