# Hz S RI R 50
! CMT, CMT808U, 21440046, 21.4.3/4
! Date: 12/1/2025 1:54:40 PM
! Data: Format (Calibration Info)
! Freq	S11:Re/Im(F2)
1.70000000000E+09	8.94369946930E-01	-3.11775194279E-01
1.70050000000E+09	8.93845735353E-01	-3.13171676400E-01
1.70100000000E+09	8.93304554626E-01	-3.14501510970E-01
1.70150000000E+09	8.92875723598E-01	-3.15811280879E-01
1.70200000000E+09	8.92465317677E-01	-3.17122872899E-01
1.70250000000E+09	8.91839070272E-01	-3.18520291540E-01
1.70300000000E+09	8.91390493799E-01	-3.19849965654E-01
1.70350000000E+09	8.90866162822E-01	-3.21128973406E-01
1.70400000000E+09	8.90432271267E-01	-3.22496992546E-01
1.70450000000E+09	8.89916075342E-01	-3.23819993551E-01
1.70500000000E+09	8.89386898485E-01	-3.25226221848E-01
1.70550000000E+09	8.88932153824E-01	-3.26542700512E-01
1.70600000000E+09	8.88455385705E-01	-3.27873843010E-01
1.70650000000E+09	8.87897322603E-01	-3.29169766536E-01
1.70700000000E+09	8.87397132201E-01	-3.30554306499E-01
1.70750000000E+09	8.86869691079E-01	-3.31949675777E-01
1.70800000000E+09	8.86360399640E-01	-3.33224401779E-01
1.70850000000E+09	8.85870581575E-01	-3.34626403315E-01
1.70900000000E+09	8.85275732455E-01	-3.35916685446E-01
1.70950000000E+09	8.84808578856E-01	-3.37299634852E-01
1.71000000000E+09	8.84259444832E-01	-3.38650040435E-01
1.71050000000E+09	8.83798384733E-01	-3.40024980302E-01
1.71100000000E+09	8.83239777945E-01	-3.41346191612E-01
1.71150000000E+09	8.82698217032E-01	-3.42676327572E-01
1.71200000000E+09	8.82180505754E-01	-3.44054765168E-01
1.71250000000E+09	8.81594199719E-01	-3.45433556622E-01
1.71300000000E+09	8.81069337939E-01	-3.46753175862E-01
1.71350000000E+09	8.80536239934E-01	-3.48093941849E-01
1.71400000000E+09	8.80037801483E-01	-3.49578275281E-01
1.71450000000E+09	8.79420675169E-01	-3.50930368846E-01
1.71500000000E+09	8.78911598426E-01	-3.52275707243E-01
1.71550000000E+09	8.78400787661E-01	-3.53659559205E-01
1.71600000000E+09	8.77724375850E-01	-3.54956975167E-01
1.71650000000E+09	8.77156539891E-01	-3.56363653562E-01
1.71700000000E+09	8.76626186769E-01	-3.57736750496E-01
1.71750000000E+09	8.76065691709E-01	-3.59112968165E-01
1.71800000000E+09	8.75545111185E-01	-3.60460792117E-01
1.71850000000E+09	8.74921036443E-01	-3.61809056215E-01
1.71900000000E+09	8.74373762020E-01	-3.63156034340E-01
1.71950000000E+09	8.73743328809E-01	-3.64517407815E-01
1.72000000000E+09	8.73140372087E-01	-3.65908908648E-01
1.72050000000E+09	8.72576614193E-01	-3.67286672408E-01
1.72100000000E+09	8.71931952669E-01	-3.68643583524E-01
1.72150000000E+09	8.71390510723E-01	-3.70041733622E-01
1.72200000000E+09	8.70794761804E-01	-3.71379714693E-01
1.72250000000E+09	8.70192279079E-01	-3.72738573086E-01
1.72300000000E+09	8.69529642237E-01	-3.74128583085E-01
1.72350000000E+09	8.69047933441E-01	-3.75550145625E-01
1.72400000000E+09	8.68406405274E-01	-3.76894144387E-01
1.72450000000E+09	8.67756428650E-01	-3.78255399066E-01
1.72500000000E+09	8.67149895594E-01	-3.79622943534E-01
1.72550000000E+09	8.66436579400E-01	-3.81018747948E-01
1.72600000000E+09	8.65864564699E-01	-3.82404407031E-01
1.72650000000E+09	8.65245706720E-01	-3.83782818342E-01
1.72700000000E+09	8.64653816724E-01	-3.85160979458E-01
1.72750000000E+09	8.63969282920E-01	-3.86581204166E-01
1.72800000000E+09	8.63365981448E-01	-3.87922694816E-01
1.72850000000E+09	8.62616205503E-01	-3.89284877370E-01
1.72900000000E+09	8.62153458267E-01	-3.90727438969E-01
1.72950000000E+09	8.61447071706E-01	-3.92061586510E-01
1.73000000000E+09	8.60744257172E-01	-3.93559531638E-01
1.73050000000E+09	8.60129235237E-01	-3.94837224520E-01
1.73100000000E+09	8.59429225180E-01	-3.96241942051E-01
1.73150000000E+09	8.58736962698E-01	-3.97649702634E-01
1.73200000000E+09	8.58039042079E-01	-3.99074237300E-01
1.73250000000E+09	8.57411765972E-01	-4.00387291540E-01
1.73300000000E+09	8.56689944107E-01	-4.01861877086E-01
1.73350000000E+09	8.56032736931E-01	-4.03158567050E-01
1.73400000000E+09	8.55357777963E-01	-4.04688306479E-01
1.73450000000E+09	8.54662998783E-01	-4.06028294162E-01
1.73500000000E+09	8.53957261051E-01	-4.07392358503E-01
1.73550000000E+09	8.53352602918E-01	-4.08758033379E-01
1.73600000000E+09	8.52533665614E-01	-4.10176074973E-01
1.73650000000E+09	8.51779722292E-01	-4.11582078693E-01
1.73700000000E+09	8.51097654073E-01	-4.12939573333E-01
1.73750000000E+09	8.50389759076E-01	-4.14357282488E-01
1.73800000000E+09	8.49654363380E-01	-4.15697641969E-01
1.73850000000E+09	8.48986759381E-01	-4.17086913205E-01
1.73900000000E+09	8.48260001650E-01	-4.18499576580E-01
1.73950000000E+09	8.47489780476E-01	-4.19850653633E-01
1.74000000000E+09	8.46754975383E-01	-4.21303148023E-01
1.74050000000E+09	8.45984842475E-01	-4.22599431416E-01
1.74100000000E+09	8.45244919206E-01	-4.24132259052E-01
1.74150000000E+09	8.44486362400E-01	-4.25464798894E-01
1.74200000000E+09	8.43766576386E-01	-4.26904747004E-01
1.74250000000E+09	8.42935244831E-01	-4.28219420279E-01
1.74300000000E+09	8.42209608666E-01	-4.29673193697E-01
1.74350000000E+09	8.41452712960E-01	-4.31014834203E-01
1.74400000000E+09	8.40637984230E-01	-4.32411052763E-01
1.74450000000E+09	8.39889165715E-01	-4.33821559497E-01
1.74500000000E+09	8.39101463886E-01	-4.35136369871E-01
1.74550000000E+09	8.38312237302E-01	-4.36573898896E-01
1.74600000000E+09	8.37563007695E-01	-4.37877616820E-01
1.74650000000E+09	8.36760560567E-01	-4.39378838985E-01
1.74700000000E+09	8.35884274894E-01	-4.40818171913E-01
1.74750000000E+09	8.35082002555E-01	-4.42167586984E-01
1.74800000000E+09	8.34289836870E-01	-4.43540498187E-01
1.74850000000E+09	8.33531173437E-01	-4.44881104688E-01
1.74900000000E+09	8.32612733821E-01	-4.46323073736E-01
1.74950000000E+09	8.31842536252E-01	-4.47706593529E-01
1.75000000000E+09	8.30990632743E-01	-4.49128109822E-01
1.75050000000E+09	8.30203394526E-01	-4.50484709358E-01
1.75100000000E+09	8.29321484706E-01	-4.51864334110E-01
1.75150000000E+09	8.28498881260E-01	-4.53214890327E-01
1.75200000000E+09	8.27610140909E-01	-4.54619281457E-01
1.75250000000E+09	8.26775381202E-01	-4.55996122804E-01
1.75300000000E+09	8.25936078500E-01	-4.57346121542E-01
1.75350000000E+09	8.25107032366E-01	-4.58677681204E-01
1.75400000000E+09	8.24194575658E-01	-4.60109692234E-01
1.75450000000E+09	8.23360130451E-01	-4.61464388221E-01
1.75500000000E+09	8.22401701759E-01	-4.62886645901E-01
1.75550000000E+09	8.21533824585E-01	-4.64192509648E-01
1.75600000000E+09	8.20736576911E-01	-4.65580537613E-01
1.75650000000E+09	8.19749474065E-01	-4.66930411858E-01
1.75700000000E+09	8.18896098279E-01	-4.68295338871E-01
1.75750000000E+09	8.18019191586E-01	-4.69685673944E-01
1.75800000000E+09	8.17093219463E-01	-4.71059773807E-01
1.75850000000E+09	8.16210794484E-01	-4.72424585324E-01
1.75900000000E+09	8.15276238943E-01	-4.73796527140E-01
1.75950000000E+09	8.14330045607E-01	-4.75175241878E-01
1.76000000000E+09	8.13561766979E-01	-4.76485331937E-01
1.76050000000E+09	8.12531511091E-01	-4.77797197437E-01
1.76100000000E+09	8.11655794329E-01	-4.79118797745E-01
1.76150000000E+09	8.10676008265E-01	-4.80510939232E-01
1.76200000000E+09	8.09797063554E-01	-4.81835752053E-01
1.76250000000E+09	8.08816186297E-01	-4.83251150544E-01
1.76300000000E+09	8.07885692132E-01	-4.84483680029E-01
1.76350000000E+09	8.06965810264E-01	-4.85872615791E-01
1.76400000000E+09	8.06053934593E-01	-4.87160236371E-01
1.76450000000E+09	8.05099059689E-01	-4.88471322672E-01
1.76500000000E+09	8.04241363427E-01	-4.89804998203E-01
1.76550000000E+09	8.03252627807E-01	-4.91160053217E-01
1.76600000000E+09	8.02275069361E-01	-4.92505061082E-01
1.76650000000E+09	8.01321244394E-01	-4.93898327190E-01
1.76700000000E+09	8.00352137532E-01	-4.95177554964E-01
1.76750000000E+09	7.99495954411E-01	-4.96530320715E-01
1.76800000000E+09	7.98477976299E-01	-4.97885338290E-01
1.76850000000E+09	7.97465428606E-01	-4.99162461375E-01
1.76900000000E+09	7.96522644015E-01	-5.00534470646E-01
1.76950000000E+09	7.95458557520E-01	-5.01855268848E-01
1.77000000000E+09	7.94596311683E-01	-5.03209328212E-01
1.77050000000E+09	7.93562073673E-01	-5.04554245605E-01
1.77100000000E+09	7.92575931959E-01	-5.05792156165E-01
1.77150000000E+09	7.91507583079E-01	-5.07210829913E-01
1.77200000000E+09	7.90556096896E-01	-5.08501869815E-01
1.77250000000E+09	7.89493160246E-01	-5.09819387326E-01
1.77300000000E+09	7.88630510167E-01	-5.11130904693E-01
1.77350000000E+09	7.87454436985E-01	-5.12434324931E-01
1.77400000000E+09	7.86435228396E-01	-5.13707323948E-01
1.77450000000E+09	7.85396460662E-01	-5.15088137156E-01
1.77500000000E+09	7.84406949252E-01	-5.16307619402E-01
1.77550000000E+09	7.83374590161E-01	-5.17589469331E-01
1.77600000000E+09	7.82372592767E-01	-5.18859512093E-01
1.77650000000E+09	7.81362369676E-01	-5.20208537243E-01
1.77700000000E+09	7.80177496996E-01	-5.21465675102E-01
1.77750000000E+09	7.79243912529E-01	-5.22782232043E-01
1.77800000000E+09	7.78202512120E-01	-5.24066838637E-01
1.77850000000E+09	7.77156502765E-01	-5.25330709766E-01
1.77900000000E+09	7.76067715872E-01	-5.26668195481E-01
1.77950000000E+09	7.75071062045E-01	-5.27907094574E-01
1.78000000000E+09	7.74008767898E-01	-5.29158526167E-01
1.78050000000E+09	7.72960260996E-01	-5.30413331190E-01
1.78100000000E+09	7.71869137130E-01	-5.31739130380E-01
1.78150000000E+09	7.70883869529E-01	-5.32878360077E-01
1.78200000000E+09	7.69761436459E-01	-5.34288928645E-01
1.78250000000E+09	7.68653686726E-01	-5.35394663594E-01
1.78300000000E+09	7.67614776182E-01	-5.36595801562E-01
1.78350000000E+09	7.66549188532E-01	-5.37980077798E-01
1.78400000000E+09	7.65480037191E-01	-5.39243033555E-01
1.78450000000E+09	7.64410262987E-01	-5.40457559975E-01
1.78500000000E+09	7.63315273670E-01	-5.41699414816E-01
1.78550000000E+09	7.62188469710E-01	-5.42919609422E-01
1.78600000000E+09	7.61148004113E-01	-5.44154278158E-01
1.78650000000E+09	7.60116312198E-01	-5.45356741230E-01
1.78700000000E+09	7.58921285204E-01	-5.46573965533E-01
1.78750000000E+09	7.57937766282E-01	-5.47882394835E-01
1.78800000000E+09	7.56868477480E-01	-5.49086288510E-01
1.78850000000E+09	7.55777767272E-01	-5.50313112210E-01
1.78900000000E+09	7.54675294229E-01	-5.51507340955E-01
1.78950000000E+09	7.53582031261E-01	-5.52674240008E-01
1.79000000000E+09	7.52416748880E-01	-5.54002782476E-01
1.79050000000E+09	7.51412141897E-01	-5.55099553299E-01
1.79100000000E+09	7.50284886380E-01	-5.56359270409E-01
1.79150000000E+09	7.49289749212E-01	-5.57592391552E-01
1.79200000000E+09	7.48105863274E-01	-5.58836860790E-01
1.79250000000E+09	7.46988373024E-01	-5.59961475879E-01
1.79300000000E+09	7.45951808781E-01	-5.61225321336E-01
1.79350000000E+09	7.44839076031E-01	-5.62433262420E-01
1.79400000000E+09	7.43703496288E-01	-5.63580001975E-01
1.79450000000E+09	7.42589452624E-01	-5.64776882592E-01
1.79500000000E+09	7.41556443735E-01	-5.66020598630E-01
1.79550000000E+09	7.40384159464E-01	-5.67203617628E-01
1.79600000000E+09	7.39308973981E-01	-5.68401430304E-01
1.79650000000E+09	7.38187309843E-01	-5.69563220379E-01
1.79700000000E+09	7.37124540706E-01	-5.70806531540E-01
1.79750000000E+09	7.35949627765E-01	-5.71988050228E-01
1.79800000000E+09	7.34841667891E-01	-5.73168248218E-01
1.79850000000E+09	7.33801668596E-01	-5.74427284770E-01
1.79900000000E+09	7.32660249262E-01	-5.75578078168E-01
1.79950000000E+09	7.31486734329E-01	-5.76788631378E-01
1.80000000000E+09	7.30412725465E-01	-5.77944767625E-01
1.80050000000E+09	7.29234076567E-01	-5.79149488156E-01
1.80100000000E+09	7.28108964336E-01	-5.80397289884E-01
1.80150000000E+09	7.26952923334E-01	-5.81471754867E-01
1.80200000000E+09	7.25875634309E-01	-5.82688574045E-01
1.80250000000E+09	7.24667355309E-01	-5.83907462479E-01
1.80300000000E+09	7.23595330874E-01	-5.85083803900E-01
1.80350000000E+09	7.22383937370E-01	-5.86259516821E-01
1.80400000000E+09	7.21230303037E-01	-5.87391958668E-01
1.80450000000E+09	7.20166232406E-01	-5.88470342697E-01
1.80500000000E+09	7.19006663208E-01	-5.89709147975E-01
1.80550000000E+09	7.17838420826E-01	-5.90895628924E-01
1.80600000000E+09	7.16737671809E-01	-5.92070383123E-01
1.80650000000E+09	7.15598099071E-01	-5.93187105664E-01
1.80700000000E+09	7.14369200686E-01	-5.94418194055E-01
1.80750000000E+09	7.13168681934E-01	-5.95591311972E-01
1.80800000000E+09	7.12032488918E-01	-5.96739355723E-01
1.80850000000E+09	7.10838713080E-01	-5.97895707746E-01
1.80900000000E+09	7.09725294722E-01	-5.99005300597E-01
1.80950000000E+09	7.08584542208E-01	-6.00205618327E-01
1.81000000000E+09	7.07354796712E-01	-6.01351787309E-01
1.81050000000E+09	7.06286237103E-01	-6.02574373795E-01
1.81100000000E+09	7.05042284146E-01	-6.03692838156E-01
1.81150000000E+09	7.03788946196E-01	-6.04806626803E-01
1.81200000000E+09	7.02728305164E-01	-6.05950480274E-01
1.81250000000E+09	7.01572555864E-01	-6.07136350784E-01
1.81300000000E+09	7.00327792389E-01	-6.08227646132E-01
1.81350000000E+09	6.99135248312E-01	-6.09334849424E-01
1.81400000000E+09	6.97906320534E-01	-6.10508323163E-01
1.81450000000E+09	6.96772071578E-01	-6.11650092461E-01
1.81500000000E+09	6.95545909952E-01	-6.12720217466E-01
1.81550000000E+09	6.94343454443E-01	-6.13843979986E-01
1.81600000000E+09	6.93179671802E-01	-6.14975397277E-01
1.81650000000E+09	6.92000086999E-01	-6.16083619901E-01
1.81700000000E+09	6.90823822979E-01	-6.17180093870E-01
1.81750000000E+09	6.89579392709E-01	-6.18339723908E-01
1.81800000000E+09	6.88554344088E-01	-6.19411952993E-01
1.81850000000E+09	6.87253133369E-01	-6.20566042687E-01
1.81900000000E+09	6.86035314975E-01	-6.21701992939E-01
1.81950000000E+09	6.84940575507E-01	-6.22815976126E-01
1.82000000000E+09	6.83738729035E-01	-6.23990879671E-01
1.82050000000E+09	6.82530570230E-01	-6.25054774168E-01
1.82100000000E+09	6.81389012523E-01	-6.26224540427E-01
1.82150000000E+09	6.80128230491E-01	-6.27253391413E-01
1.82200000000E+09	6.78882178865E-01	-6.28369400839E-01
1.82250000000E+09	6.77744743752E-01	-6.29531999684E-01
1.82300000000E+09	6.76588373948E-01	-6.30650437773E-01
1.82350000000E+09	6.75302102643E-01	-6.31798383817E-01
1.82400000000E+09	6.74114027252E-01	-6.32906930451E-01
1.82450000000E+09	6.72976040677E-01	-6.34036172636E-01
1.82500000000E+09	6.71712721904E-01	-6.35159474049E-01
1.82550000000E+09	6.70434637752E-01	-6.36228212546E-01
1.82600000000E+09	6.69246800959E-01	-6.37390561749E-01
1.82650000000E+09	6.68057730307E-01	-6.38461824169E-01
1.82700000000E+09	6.66825037023E-01	-6.39576769693E-01
1.82750000000E+09	6.65583651981E-01	-6.40689474645E-01
1.82800000000E+09	6.64285632434E-01	-6.41759710543E-01
1.82850000000E+09	6.63085740657E-01	-6.42883683653E-01
1.82900000000E+09	6.61812728204E-01	-6.44034324557E-01
1.82950000000E+09	6.60597778748E-01	-6.45196462095E-01
1.83000000000E+09	6.59386199729E-01	-6.46269014958E-01
1.83050000000E+09	6.58110776679E-01	-6.47343908322E-01
1.83100000000E+09	6.56821950080E-01	-6.48417168575E-01
1.83150000000E+09	6.55621107495E-01	-6.49573858608E-01
1.83200000000E+09	6.54333465529E-01	-6.50595276153E-01
1.83250000000E+09	6.53080763467E-01	-6.51723748060E-01
1.83300000000E+09	6.51828377968E-01	-6.52778869094E-01
1.83350000000E+09	6.50629186282E-01	-6.53898826251E-01
1.83400000000E+09	6.49311459197E-01	-6.55043764266E-01
1.83450000000E+09	6.48014518617E-01	-6.56127009544E-01
1.83500000000E+09	6.46778895478E-01	-6.57212095747E-01
1.83550000000E+09	6.45527256872E-01	-6.58328452827E-01
1.83600000000E+09	6.44202943833E-01	-6.59322832114E-01
1.83650000000E+09	6.42983327353E-01	-6.60484435147E-01
1.83700000000E+09	6.41690711994E-01	-6.61587106286E-01
1.83750000000E+09	6.40449694028E-01	-6.62680310828E-01
1.83800000000E+09	6.39149706655E-01	-6.63729380954E-01
1.83850000000E+09	6.37836824868E-01	-6.64861325766E-01
1.83900000000E+09	6.36571584098E-01	-6.65894097436E-01
1.83950000000E+09	6.35259125689E-01	-6.67078353203E-01
1.84000000000E+09	6.33963744550E-01	-6.68077888814E-01
1.84050000000E+09	6.32675625804E-01	-6.69215855090E-01
1.84100000000E+09	6.31348890462E-01	-6.70301657101E-01
1.84150000000E+09	6.30084677014E-01	-6.71435240473E-01
1.84200000000E+09	6.28724062976E-01	-6.72530982769E-01
1.84250000000E+09	6.27433786858E-01	-6.73573516523E-01
1.84300000000E+09	6.26112804607E-01	-6.74639275528E-01
1.84350000000E+09	6.24750180160E-01	-6.75734248563E-01
1.84400000000E+09	6.23410651813E-01	-6.76929842144E-01
1.84450000000E+09	6.22067477346E-01	-6.77923554110E-01
1.84500000000E+09	6.20664817443E-01	-6.79038322573E-01
1.84550000000E+09	6.19386131380E-01	-6.80141653158E-01
1.84600000000E+09	6.18032662146E-01	-6.81148144428E-01
1.84650000000E+09	6.16643154831E-01	-6.82269707591E-01
1.84700000000E+09	6.15308736929E-01	-6.83335349499E-01
1.84750000000E+09	6.13970968635E-01	-6.84468628803E-01
1.84800000000E+09	6.12574319848E-01	-6.85503457188E-01
1.84850000000E+09	6.11165407020E-01	-6.86580388547E-01
1.84900000000E+09	6.09783834821E-01	-6.87608036007E-01
1.84950000000E+09	6.08430274513E-01	-6.88763367207E-01
1.85000000000E+09	6.07037385592E-01	-6.89722993010E-01
1.85050000000E+09	6.05630450777E-01	-6.90836035580E-01
1.85100000000E+09	6.04221949259E-01	-6.91819280315E-01
1.85150000000E+09	6.02827057813E-01	-6.92992650510E-01
1.85200000000E+09	6.01370585040E-01	-6.93996446937E-01
1.85250000000E+09	6.00012835244E-01	-6.95014992947E-01
1.85300000000E+09	5.98559237807E-01	-6.96085231683E-01
1.85350000000E+09	5.97251876717E-01	-6.97116822355E-01
1.85400000000E+09	5.95762424995E-01	-6.98159044577E-01
1.85450000000E+09	5.94327522702E-01	-6.99211734888E-01
1.85500000000E+09	5.92904966814E-01	-7.00259321840E-01
1.85550000000E+09	5.91513611014E-01	-7.01254556199E-01
1.85600000000E+09	5.90135224484E-01	-7.02351372067E-01
1.85650000000E+09	5.88645722896E-01	-7.03359380125E-01
1.85700000000E+09	5.87257817613E-01	-7.04410891314E-01
1.85750000000E+09	5.85729691460E-01	-7.05410495283E-01
1.85800000000E+09	5.84318135369E-01	-7.06385120757E-01
1.85850000000E+09	5.82907852103E-01	-7.07502467617E-01
1.85900000000E+09	5.81428697670E-01	-7.08434054192E-01
1.85950000000E+09	5.79936981290E-01	-7.09496676699E-01
1.86000000000E+09	5.78538938407E-01	-7.10644613451E-01
1.86050000000E+09	5.77064299741E-01	-7.11688719577E-01
1.86100000000E+09	5.75632819221E-01	-7.12682905702E-01
1.86150000000E+09	5.74175937782E-01	-7.13670938114E-01
1.86200000000E+09	5.72708600516E-01	-7.14866636339E-01
1.86250000000E+09	5.71134333294E-01	-7.15812795525E-01
1.86300000000E+09	5.69647920566E-01	-7.16717487716E-01
1.86350000000E+09	5.68190975447E-01	-7.17856418126E-01
1.86400000000E+09	5.66681769785E-01	-7.18864306271E-01
1.86450000000E+09	5.65227216984E-01	-7.19863767057E-01
1.86500000000E+09	5.63665288825E-01	-7.20986715577E-01
1.86550000000E+09	5.62170633424E-01	-7.21964830780E-01
1.86600000000E+09	5.60582208138E-01	-7.22997584684E-01
1.86650000000E+09	5.59032447546E-01	-7.23986319208E-01
1.86700000000E+09	5.57514907973E-01	-7.25045415425E-01
1.86750000000E+09	5.55972115880E-01	-7.26006265975E-01
1.86800000000E+09	5.54339092201E-01	-7.27064249748E-01
1.86850000000E+09	5.52875235708E-01	-7.28047213386E-01
1.86900000000E+09	5.51228883865E-01	-7.29109956091E-01
1.86950000000E+09	5.49670292745E-01	-7.30046940339E-01
1.87000000000E+09	5.48098825303E-01	-7.31092087303E-01
1.87050000000E+09	5.46551307241E-01	-7.32008368525E-01
1.87100000000E+09	5.44903855044E-01	-7.33080535910E-01
1.87150000000E+09	5.43377346270E-01	-7.34000752855E-01
1.87200000000E+09	5.41764386875E-01	-7.35066546140E-01
1.87250000000E+09	5.40166112316E-01	-7.36044289540E-01
1.87300000000E+09	5.38542066551E-01	-7.37012248651E-01
1.87350000000E+09	5.36928039887E-01	-7.37944235754E-01
1.87400000000E+09	5.35318347181E-01	-7.38947150245E-01
1.87450000000E+09	5.33684916113E-01	-7.39930206377E-01
1.87500000000E+09	5.32078797362E-01	-7.40940329149E-01
1.87550000000E+09	5.30479582478E-01	-7.41921913394E-01
1.87600000000E+09	5.28786029435E-01	-7.42799618859E-01
1.87650000000E+09	5.27212989892E-01	-7.43761970272E-01
