# Hz S RI R 50
! CMT, CMT808U, 21440046, 21.4.3/4
! Date: 12/1/2025 1:48:44 PM
! Data: Format (Calibration Info)
! Freq	S11:Re/Im(F2)
1.70000000000E+09	9.51679170101E-01	-1.24710139959E-01
1.70050000000E+09	9.51427771028E-01	-1.26100507556E-01
1.70100000000E+09	9.51185203291E-01	-1.27415112704E-01
1.70150000000E+09	9.51070962001E-01	-1.28799245566E-01
1.70200000000E+09	9.50822387690E-01	-1.30050982452E-01
1.70250000000E+09	9.50602704717E-01	-1.31472783937E-01
1.70300000000E+09	9.50404206256E-01	-1.32813276501E-01
1.70350000000E+09	9.50143155784E-01	-1.34135583315E-01
1.70400000000E+09	9.49938184452E-01	-1.35497495792E-01
1.70450000000E+09	9.49768648909E-01	-1.36849631764E-01
1.70500000000E+09	9.49530824042E-01	-1.38196148317E-01
1.70550000000E+09	9.49348790059E-01	-1.39539352547E-01
1.70600000000E+09	9.49190079054E-01	-1.40849891747E-01
1.70650000000E+09	9.48915895317E-01	-1.42225557707E-01
1.70700000000E+09	9.48699894273E-01	-1.43473027008E-01
1.70750000000E+09	9.48462444198E-01	-1.44951530132E-01
1.70800000000E+09	9.48145195082E-01	-1.46247127825E-01
1.70850000000E+09	9.47988099200E-01	-1.47651715792E-01
1.70900000000E+09	9.47672302119E-01	-1.48963022529E-01
1.70950000000E+09	9.47539961564E-01	-1.50310244020E-01
1.71000000000E+09	9.47285779845E-01	-1.51734768818E-01
1.71050000000E+09	9.47054271717E-01	-1.53119566379E-01
1.71100000000E+09	9.46853173293E-01	-1.54410461444E-01
1.71150000000E+09	9.46531598185E-01	-1.55790518863E-01
1.71200000000E+09	9.46372323337E-01	-1.57170083227E-01
1.71250000000E+09	9.46159951060E-01	-1.58579586142E-01
1.71300000000E+09	9.45843953397E-01	-1.59842625600E-01
1.71350000000E+09	9.45654402692E-01	-1.61284840512E-01
1.71400000000E+09	9.45400186241E-01	-1.62627298400E-01
1.71450000000E+09	9.45178240544E-01	-1.63993194277E-01
1.71500000000E+09	9.44853756753E-01	-1.65367407545E-01
1.71550000000E+09	9.44698497030E-01	-1.66710844046E-01
1.71600000000E+09	9.44315733332E-01	-1.68184969679E-01
1.71650000000E+09	9.44065663521E-01	-1.69500118611E-01
1.71700000000E+09	9.43880683800E-01	-1.70891937867E-01
1.71750000000E+09	9.43557915043E-01	-1.72323597503E-01
1.71800000000E+09	9.43368077640E-01	-1.73663716838E-01
1.71850000000E+09	9.43053924468E-01	-1.75036677472E-01
1.71900000000E+09	9.42827380393E-01	-1.76464753008E-01
1.71950000000E+09	9.42415542513E-01	-1.77719480059E-01
1.72000000000E+09	9.42232330846E-01	-1.79206639467E-01
1.72050000000E+09	9.42043043619E-01	-1.80588984799E-01
1.72100000000E+09	9.41639123832E-01	-1.81999752363E-01
1.72150000000E+09	9.41441962383E-01	-1.83333789544E-01
1.72200000000E+09	9.41105576903E-01	-1.84719382992E-01
1.72250000000E+09	9.40825154836E-01	-1.86147105890E-01
1.72300000000E+09	9.40481882040E-01	-1.87479973342E-01
1.72350000000E+09	9.40290179621E-01	-1.88873839451E-01
1.72400000000E+09	9.39957209347E-01	-1.90240624670E-01
1.72450000000E+09	9.39714090470E-01	-1.91612687697E-01
1.72500000000E+09	9.39341850346E-01	-1.93080923150E-01
1.72550000000E+09	9.39109767011E-01	-1.94380878920E-01
1.72600000000E+09	9.38766218766E-01	-1.95906470852E-01
1.72650000000E+09	9.38446217060E-01	-1.97299265153E-01
1.72700000000E+09	9.38220392557E-01	-1.98616155423E-01
1.72750000000E+09	9.37844017302E-01	-2.00048051188E-01
1.72800000000E+09	9.37573623640E-01	-2.01478897755E-01
1.72850000000E+09	9.37221800207E-01	-2.02877833779E-01
1.72900000000E+09	9.37029639207E-01	-2.04296380487E-01
1.72950000000E+09	9.36648084748E-01	-2.05691619736E-01
1.73000000000E+09	9.36327043143E-01	-2.07220927899E-01
1.73050000000E+09	9.35976208328E-01	-2.08505905539E-01
1.73100000000E+09	9.35573657517E-01	-2.09966293345E-01
1.73150000000E+09	9.35322201478E-01	-2.11415251897E-01
1.73200000000E+09	9.34884266480E-01	-2.12877866819E-01
1.73250000000E+09	9.34583523088E-01	-2.14219997470E-01
1.73300000000E+09	9.34315131228E-01	-2.15746536394E-01
1.73350000000E+09	9.33890667607E-01	-2.17156934492E-01
1.73400000000E+09	9.33561896184E-01	-2.18613403043E-01
1.73450000000E+09	9.33247574997E-01	-2.20007760029E-01
1.73500000000E+09	9.32810333829E-01	-2.21437520539E-01
1.73550000000E+09	9.32520405222E-01	-2.22880830852E-01
1.73600000000E+09	9.32093832692E-01	-2.24393017409E-01
1.73650000000E+09	9.31729635222E-01	-2.25783278615E-01
1.73700000000E+09	9.31358674995E-01	-2.27236135653E-01
1.73750000000E+09	9.31039347220E-01	-2.28726486047E-01
1.73800000000E+09	9.30608275180E-01	-2.30098131945E-01
1.73850000000E+09	9.30185089236E-01	-2.31522973942E-01
1.73900000000E+09	9.29771256950E-01	-2.32956483348E-01
1.73950000000E+09	9.29391682125E-01	-2.34430382771E-01
1.74000000000E+09	9.28921650514E-01	-2.35933317357E-01
1.74050000000E+09	9.28522469549E-01	-2.37405694032E-01
1.74100000000E+09	9.28154787147E-01	-2.38864669342E-01
1.74150000000E+09	9.27664629352E-01	-2.40254974470E-01
1.74200000000E+09	9.27311382863E-01	-2.41687532137E-01
1.74250000000E+09	9.26817625042E-01	-2.43140737967E-01
1.74300000000E+09	9.26451099062E-01	-2.44611773875E-01
1.74350000000E+09	9.25928553854E-01	-2.46073517463E-01
1.74400000000E+09	9.25498405238E-01	-2.47505190187E-01
1.74450000000E+09	9.25143472341E-01	-2.48974581977E-01
1.74500000000E+09	9.24699028436E-01	-2.50322556678E-01
1.74550000000E+09	9.24227520655E-01	-2.51817854592E-01
1.74600000000E+09	9.23806181595E-01	-2.53202941739E-01
1.74650000000E+09	9.23322086025E-01	-2.54754983267E-01
1.74700000000E+09	9.22851552591E-01	-2.56226674118E-01
1.74750000000E+09	9.22389438638E-01	-2.57562591512E-01
1.74800000000E+09	9.21898985139E-01	-2.59064799458E-01
1.74850000000E+09	9.21538926506E-01	-2.60484695472E-01
1.74900000000E+09	9.20995771909E-01	-2.61978283325E-01
1.74950000000E+09	9.20577108997E-01	-2.63403366549E-01
1.75000000000E+09	9.20076930022E-01	-2.64873691773E-01
1.75050000000E+09	9.19621338810E-01	-2.66302115256E-01
1.75100000000E+09	9.19132920707E-01	-2.67716731402E-01
1.75150000000E+09	9.18637615359E-01	-2.69196015387E-01
1.75200000000E+09	9.18157497322E-01	-2.70635745658E-01
1.75250000000E+09	9.17660163388E-01	-2.72129123723E-01
1.75300000000E+09	9.17235029330E-01	-2.73532047313E-01
1.75350000000E+09	9.16767470905E-01	-2.74964279925E-01
1.75400000000E+09	9.16250172558E-01	-2.76524349868E-01
1.75450000000E+09	9.15730225800E-01	-2.78017754970E-01
1.75500000000E+09	9.15179889427E-01	-2.79508433559E-01
1.75550000000E+09	9.14664756998E-01	-2.80876917120E-01
1.75600000000E+09	9.14196726338E-01	-2.82435550212E-01
1.75650000000E+09	9.13652816200E-01	-2.83926666761E-01
1.75700000000E+09	9.13073484094E-01	-2.85360809246E-01
1.75750000000E+09	9.12551681365E-01	-2.86789465260E-01
1.75800000000E+09	9.12098456959E-01	-2.88288417399E-01
1.75850000000E+09	9.11543875270E-01	-2.89816418485E-01
1.75900000000E+09	9.11002307788E-01	-2.91333097721E-01
1.75950000000E+09	9.10444952108E-01	-2.92769607931E-01
1.76000000000E+09	9.10007621871E-01	-2.94226554737E-01
1.76050000000E+09	9.09326798470E-01	-2.95743756919E-01
1.76100000000E+09	9.08729401073E-01	-2.97242690768E-01
1.76150000000E+09	9.08202340486E-01	-2.98693310363E-01
1.76200000000E+09	9.07623087528E-01	-3.00153482281E-01
1.76250000000E+09	9.07096877776E-01	-3.01728572886E-01
1.76300000000E+09	9.06455290245E-01	-3.03162281563E-01
1.76350000000E+09	9.05838717564E-01	-3.04600217922E-01
1.76400000000E+09	9.05268342446E-01	-3.06064264447E-01
1.76450000000E+09	9.04636600917E-01	-3.07564409398E-01
1.76500000000E+09	9.04109200507E-01	-3.09079328426E-01
1.76550000000E+09	9.03449615231E-01	-3.10495266918E-01
1.76600000000E+09	9.02855913048E-01	-3.12019333749E-01
1.76650000000E+09	9.02206301531E-01	-3.13502884203E-01
1.76700000000E+09	9.01619383538E-01	-3.15007941703E-01
1.76750000000E+09	9.00992512732E-01	-3.16377740192E-01
1.76800000000E+09	9.00319896180E-01	-3.17874729872E-01
1.76850000000E+09	8.99652911465E-01	-3.19374985993E-01
1.76900000000E+09	8.99010361861E-01	-3.20898092075E-01
1.76950000000E+09	8.98351558024E-01	-3.22422824014E-01
1.77000000000E+09	8.97698515997E-01	-3.23818831740E-01
1.77050000000E+09	8.97044995938E-01	-3.25255654692E-01
1.77100000000E+09	8.96364067356E-01	-3.26777526897E-01
1.77150000000E+09	8.95696155476E-01	-3.28222235591E-01
1.77200000000E+09	8.95023355052E-01	-3.29722615293E-01
1.77250000000E+09	8.94418722369E-01	-3.31157801027E-01
1.77300000000E+09	8.93736354289E-01	-3.32575672828E-01
1.77350000000E+09	8.93021598611E-01	-3.33983667430E-01
1.77400000000E+09	8.92312960966E-01	-3.35479137406E-01
1.77450000000E+09	8.91595635528E-01	-3.36985207269E-01
1.77500000000E+09	8.90964977179E-01	-3.38354819145E-01
1.77550000000E+09	8.90201652379E-01	-3.39851434540E-01
1.77600000000E+09	8.89515738924E-01	-3.41261309384E-01
1.77650000000E+09	8.88788946746E-01	-3.42749827593E-01
1.77700000000E+09	8.88042035064E-01	-3.44141868615E-01
1.77750000000E+09	8.87384185519E-01	-3.45638805678E-01
1.77800000000E+09	8.86707939515E-01	-3.47061624065E-01
1.77850000000E+09	8.85978616613E-01	-3.48449404518E-01
1.77900000000E+09	8.85241629167E-01	-3.49982918947E-01
1.77950000000E+09	8.84552364476E-01	-3.51349589222E-01
1.78000000000E+09	8.83830770173E-01	-3.52829271589E-01
1.78050000000E+09	8.82956332976E-01	-3.54242301278E-01
1.78100000000E+09	8.82300516589E-01	-3.55690240475E-01
1.78150000000E+09	8.81688418573E-01	-3.57032923843E-01
1.78200000000E+09	8.80872478816E-01	-3.58598621538E-01
1.78250000000E+09	8.80019683669E-01	-3.59912059493E-01
1.78300000000E+09	8.79353634721E-01	-3.61399747684E-01
1.78350000000E+09	8.78598388754E-01	-3.62864507900E-01
1.78400000000E+09	8.77851245295E-01	-3.64259818461E-01
1.78450000000E+09	8.77122329943E-01	-3.65673712487E-01
1.78500000000E+09	8.76257668246E-01	-3.67097790924E-01
1.78550000000E+09	8.75541267546E-01	-3.68561671601E-01
1.78600000000E+09	8.74680703493E-01	-3.69912109180E-01
1.78650000000E+09	8.74013745153E-01	-3.71313452929E-01
1.78700000000E+09	8.73257343268E-01	-3.72719238264E-01
1.78750000000E+09	8.72410357608E-01	-3.74195366997E-01
1.78800000000E+09	8.71670524247E-01	-3.75624577160E-01
1.78850000000E+09	8.70938180803E-01	-3.77056468534E-01
1.78900000000E+09	8.70120906805E-01	-3.78386170709E-01
1.78950000000E+09	8.69339756281E-01	-3.79801333890E-01
1.79000000000E+09	8.68507442142E-01	-3.81211652089E-01
1.79050000000E+09	8.67735929722E-01	-3.82619408747E-01
1.79100000000E+09	8.66922554644E-01	-3.84040434026E-01
1.79150000000E+09	8.66175140433E-01	-3.85379720450E-01
1.79200000000E+09	8.65326029648E-01	-3.86947155159E-01
1.79250000000E+09	8.64489573655E-01	-3.88243875138E-01
1.79300000000E+09	8.63701115640E-01	-3.89658022940E-01
1.79350000000E+09	8.62877481466E-01	-3.91068983672E-01
1.79400000000E+09	8.62053628358E-01	-3.92425066086E-01
1.79450000000E+09	8.61305445214E-01	-3.93797849446E-01
1.79500000000E+09	8.60423605331E-01	-3.95179963622E-01
1.79550000000E+09	8.59614307413E-01	-3.96551233555E-01
1.79600000000E+09	8.58712521028E-01	-3.97926877628E-01
1.79650000000E+09	8.57871474178E-01	-3.99306722459E-01
1.79700000000E+09	8.57073319595E-01	-4.00791825879E-01
1.79750000000E+09	8.56272693722E-01	-4.02141822397E-01
1.79800000000E+09	8.55493990085E-01	-4.03528650589E-01
1.79850000000E+09	8.54604730332E-01	-4.04885908299E-01
1.79900000000E+09	8.53788427517E-01	-4.06242155588E-01
1.79950000000E+09	8.52859407225E-01	-4.07636486602E-01
1.80000000000E+09	8.52068497799E-01	-4.08965153360E-01
1.80050000000E+09	8.51123392148E-01	-4.10407365243E-01
1.80100000000E+09	8.50380468964E-01	-4.11751006117E-01
1.80150000000E+09	8.49393278085E-01	-4.13100853112E-01
1.80200000000E+09	8.48572964247E-01	-4.14436599068E-01
1.80250000000E+09	8.47711231308E-01	-4.15829838507E-01
1.80300000000E+09	8.46896259458E-01	-4.17166374159E-01
1.80350000000E+09	8.45927667006E-01	-4.18545138210E-01
1.80400000000E+09	8.45061217821E-01	-4.19874869054E-01
1.80450000000E+09	8.44200634154E-01	-4.21200917417E-01
1.80500000000E+09	8.43276892186E-01	-4.22597923090E-01
1.80550000000E+09	8.42396650689E-01	-4.23920692094E-01
1.80600000000E+09	8.41584075121E-01	-4.25220476970E-01
1.80650000000E+09	8.40643841357E-01	-4.26563563240E-01
1.80700000000E+09	8.39795538748E-01	-4.27926151865E-01
1.80750000000E+09	8.38844971112E-01	-4.29273526235E-01
1.80800000000E+09	8.37992630218E-01	-4.30606975318E-01
1.80850000000E+09	8.37105957316E-01	-4.31968731534E-01
1.80900000000E+09	8.36155319325E-01	-4.33205386224E-01
1.80950000000E+09	8.35327291805E-01	-4.34524109182E-01
1.81000000000E+09	8.34377037529E-01	-4.35816172836E-01
1.81050000000E+09	8.33597362034E-01	-4.37194813741E-01
1.81100000000E+09	8.32640681267E-01	-4.38544690494E-01
1.81150000000E+09	8.31767332856E-01	-4.39765884423E-01
1.81200000000E+09	8.30891327126E-01	-4.41118679906E-01
1.81250000000E+09	8.30075893984E-01	-4.42457790803E-01
1.81300000000E+09	8.29085411197E-01	-4.43781650331E-01
1.81350000000E+09	8.28178709870E-01	-4.45058289378E-01
1.81400000000E+09	8.27249859074E-01	-4.46390412796E-01
1.81450000000E+09	8.26388894534E-01	-4.47676133922E-01
1.81500000000E+09	8.25465430788E-01	-4.48979547046E-01
1.81550000000E+09	8.24576378274E-01	-4.50317035326E-01
1.81600000000E+09	8.23679449778E-01	-4.51573810598E-01
1.81650000000E+09	8.22708308168E-01	-4.52932208850E-01
1.81700000000E+09	8.21852417223E-01	-4.54171767873E-01
1.81750000000E+09	8.20915625235E-01	-4.55475968471E-01
1.81800000000E+09	8.20118092306E-01	-4.56748110358E-01
1.81850000000E+09	8.19116449625E-01	-4.58146143481E-01
1.81900000000E+09	8.18254283286E-01	-4.59421938478E-01
1.81950000000E+09	8.17311115166E-01	-4.60728244628E-01
1.82000000000E+09	8.16495471306E-01	-4.62102160446E-01
1.82050000000E+09	8.15492751563E-01	-4.63437800057E-01
1.82100000000E+09	8.14576459277E-01	-4.64705222761E-01
1.82150000000E+09	8.13685415105E-01	-4.65992869879E-01
1.82200000000E+09	8.12748741943E-01	-4.67257637028E-01
1.82250000000E+09	8.11887328950E-01	-4.68539897696E-01
1.82300000000E+09	8.10929541664E-01	-4.69784306685E-01
1.82350000000E+09	8.09971084543E-01	-4.71134181279E-01
1.82400000000E+09	8.09111668127E-01	-4.72412733076E-01
1.82450000000E+09	8.08161980920E-01	-4.73695858041E-01
1.82500000000E+09	8.07219321366E-01	-4.75049080821E-01
1.82550000000E+09	8.06260667929E-01	-4.76259164263E-01
1.82600000000E+09	8.05379372251E-01	-4.77603931961E-01
1.82650000000E+09	8.04435059168E-01	-4.78877123570E-01
1.82700000000E+09	8.03511062402E-01	-4.80164997603E-01
1.82750000000E+09	8.02562126697E-01	-4.81427010595E-01
1.82800000000E+09	8.01593482462E-01	-4.82809780413E-01
1.82850000000E+09	8.00773247124E-01	-4.84075219564E-01
1.82900000000E+09	7.99749274472E-01	-4.85376020482E-01
1.82950000000E+09	7.98880630040E-01	-4.86711031303E-01
1.83000000000E+09	7.97903438023E-01	-4.87959839721E-01
1.83050000000E+09	7.96979807262E-01	-4.89299895307E-01
1.83100000000E+09	7.96026629338E-01	-4.90635275294E-01
1.83150000000E+09	7.95120315076E-01	-4.91949080292E-01
1.83200000000E+09	7.94161001270E-01	-4.93190305397E-01
1.83250000000E+09	7.93162818267E-01	-4.94602629492E-01
1.83300000000E+09	7.92237356295E-01	-4.95839251217E-01
1.83350000000E+09	7.91249377847E-01	-4.97183013817E-01
1.83400000000E+09	7.90278390692E-01	-4.98482981342E-01
1.83450000000E+09	7.89300726238E-01	-4.99803621703E-01
1.83500000000E+09	7.88354193356E-01	-5.01160608806E-01
1.83550000000E+09	7.87417401684E-01	-5.02512049724E-01
1.83600000000E+09	7.86307577448E-01	-5.03726517997E-01
1.83650000000E+09	7.85360878550E-01	-5.05058040754E-01
1.83700000000E+09	7.84394619919E-01	-5.06410912645E-01
1.83750000000E+09	7.83378605070E-01	-5.07694617622E-01
1.83800000000E+09	7.82346121519E-01	-5.08935097817E-01
1.83850000000E+09	7.81319663820E-01	-5.10328505451E-01
1.83900000000E+09	7.80364613378E-01	-5.11570188011E-01
1.83950000000E+09	7.79273744495E-01	-5.12893574671E-01
1.84000000000E+09	7.78317121057E-01	-5.14130587226E-01
1.84050000000E+09	7.77290787259E-01	-5.15494480365E-01
1.84100000000E+09	7.76281639448E-01	-5.16806079557E-01
1.84150000000E+09	7.75283603429E-01	-5.18095593940E-01
1.84200000000E+09	7.74231085531E-01	-5.19408451279E-01
1.84250000000E+09	7.73241967713E-01	-5.20613326496E-01
1.84300000000E+09	7.72194598058E-01	-5.21964860603E-01
1.84350000000E+09	7.71175043820E-01	-5.23289278385E-01
1.84400000000E+09	7.70128157324E-01	-5.24585755535E-01
1.84450000000E+09	7.69068388628E-01	-5.25856372123E-01
1.84500000000E+09	7.67978934067E-01	-5.27138880760E-01
1.84550000000E+09	7.67018239231E-01	-5.28392704751E-01
1.84600000000E+09	7.65942194491E-01	-5.29696098324E-01
1.84650000000E+09	7.64953670131E-01	-5.31037918678E-01
1.84700000000E+09	7.63938220274E-01	-5.32268628368E-01
1.84750000000E+09	7.62918337301E-01	-5.33624495506E-01
1.84800000000E+09	7.61859090384E-01	-5.34960836987E-01
1.84850000000E+09	7.60785369915E-01	-5.36212282260E-01
1.84900000000E+09	7.59797527862E-01	-5.37445828251E-01
1.84950000000E+09	7.58714574908E-01	-5.38930132542E-01
1.85000000000E+09	7.57654757324E-01	-5.40104834186E-01
1.85050000000E+09	7.56531502535E-01	-5.41446049841E-01
1.85100000000E+09	7.55480488268E-01	-5.42743180642E-01
1.85150000000E+09	7.54443253574E-01	-5.44175759022E-01
1.85200000000E+09	7.53320946336E-01	-5.45474365865E-01
1.85250000000E+09	7.52199011305E-01	-5.46778033509E-01
1.85300000000E+09	7.51131048682E-01	-5.48115334377E-01
1.85350000000E+09	7.50071622693E-01	-5.49453515133E-01
1.85400000000E+09	7.48950535548E-01	-5.50735252655E-01
1.85450000000E+09	7.47769573026E-01	-5.52169568891E-01
1.85500000000E+09	7.46654799669E-01	-5.53375840424E-01
1.85550000000E+09	7.45569814201E-01	-5.54759593418E-01
1.85600000000E+09	7.44445494604E-01	-5.56044455766E-01
1.85650000000E+09	7.43256211520E-01	-5.57414134401E-01
1.85700000000E+09	7.42140176436E-01	-5.58730152095E-01
1.85750000000E+09	7.40985765097E-01	-5.60015389865E-01
1.85800000000E+09	7.39811481494E-01	-5.61263346976E-01
1.85850000000E+09	7.38710541655E-01	-5.62613121290E-01
1.85900000000E+09	7.37510543107E-01	-5.63965462375E-01
1.85950000000E+09	7.36304872654E-01	-5.65273679011E-01
1.86000000000E+09	7.35208409428E-01	-5.66613953232E-01
1.86050000000E+09	7.34017874010E-01	-5.67920922446E-01
1.86100000000E+09	7.32834695414E-01	-5.69177183514E-01
1.86150000000E+09	7.31687867616E-01	-5.70483075837E-01
1.86200000000E+09	7.30527898715E-01	-5.71947951125E-01
1.86250000000E+09	7.29198013845E-01	-5.73186828045E-01
1.86300000000E+09	7.28004918940E-01	-5.74438400922E-01
1.86350000000E+09	7.26927755894E-01	-5.75822141470E-01
1.86400000000E+09	7.25641696885E-01	-5.77082073121E-01
1.86450000000E+09	7.24484055510E-01	-5.78393591538E-01
1.86500000000E+09	7.23312588715E-01	-5.79712898430E-01
1.86550000000E+09	7.22132617846E-01	-5.81045048212E-01
1.86600000000E+09	7.20861285838E-01	-5.82382613214E-01
1.86650000000E+09	7.19588024530E-01	-5.83678279571E-01
1.86700000000E+09	7.18393078992E-01	-5.84985889399E-01
1.86750000000E+09	7.17147542134E-01	-5.86258984805E-01
1.86800000000E+09	7.15883382568E-01	-5.87674626413E-01
1.86850000000E+09	7.14624944440E-01	-5.89002903684E-01
1.86900000000E+09	7.13425659519E-01	-5.90342533200E-01
1.86950000000E+09	7.12148298781E-01	-5.91663308592E-01
1.87000000000E+09	7.10902949609E-01	-5.92965813347E-01
1.87050000000E+09	7.09539441215E-01	-5.94293943659E-01
1.87100000000E+09	7.08250691687E-01	-5.95598528878E-01
1.87150000000E+09	7.07020082433E-01	-5.97012875292E-01
1.87200000000E+09	7.05647085301E-01	-5.98314580419E-01
1.87250000000E+09	7.04419051427E-01	-5.99733008133E-01
1.87300000000E+09	7.03086227375E-01	-6.01027387504E-01
1.87350000000E+09	7.01710088870E-01	-6.02385590685E-01
1.87400000000E+09	7.00376768515E-01	-6.03724220696E-01
1.87450000000E+09	6.99027067135E-01	-6.05086231011E-01
1.87500000000E+09	6.97693573726E-01	-6.06418754890E-01
1.87550000000E+09	6.96360259198E-01	-6.07751109700E-01
1.87600000000E+09	6.94901905196E-01	-6.09059551381E-01
1.87650000000E+09	6.93583038225E-01	-6.10507892050E-01
