# Hz S RI R 50
! CMT, CMT808U, 21440046, 21.4.3/4
! Date: 12/1/2025 1:27:59 PM
! Data: Format (Calibration Info)
! Freq	S11:Re/Im(F2)
1.70000000000E+09	8.44071264006E-01	-4.30723444609E-01
1.70050000000E+09	8.43400010276E-01	-4.32060895701E-01
1.70100000000E+09	8.42746367469E-01	-4.33241230420E-01
1.70150000000E+09	8.42043043994E-01	-4.34610730643E-01
1.70200000000E+09	8.41401704430E-01	-4.35829699708E-01
1.70250000000E+09	8.40665834944E-01	-4.37161763040E-01
1.70300000000E+09	8.40006785793E-01	-4.38453420434E-01
1.70350000000E+09	8.39282949860E-01	-4.39729270552E-01
1.70400000000E+09	8.38693652344E-01	-4.41055030958E-01
1.70450000000E+09	8.37919481764E-01	-4.42288011117E-01
1.70500000000E+09	8.37252135259E-01	-4.43666806487E-01
1.70550000000E+09	8.36534456930E-01	-4.44956412147E-01
1.70600000000E+09	8.35908878269E-01	-4.46260181179E-01
1.70650000000E+09	8.35145935912E-01	-4.47535472590E-01
1.70700000000E+09	8.34457251081E-01	-4.48798624926E-01
1.70750000000E+09	8.33731069127E-01	-4.50140992289E-01
1.70800000000E+09	8.32946811709E-01	-4.51461849572E-01
1.70850000000E+09	8.32348075626E-01	-4.52787312131E-01
1.70900000000E+09	8.31578065293E-01	-4.54047458018E-01
1.70950000000E+09	8.30883885783E-01	-4.55406580548E-01
1.71000000000E+09	8.30130601085E-01	-4.56742508536E-01
1.71050000000E+09	8.29493784556E-01	-4.58088745096E-01
1.71100000000E+09	8.28705220094E-01	-4.59342581478E-01
1.71150000000E+09	8.27924142395E-01	-4.60641145275E-01
1.71200000000E+09	8.27231929786E-01	-4.62000961855E-01
1.71250000000E+09	8.26498855835E-01	-4.63340216527E-01
1.71300000000E+09	8.25773055903E-01	-4.64631500526E-01
1.71350000000E+09	8.24960033639E-01	-4.65924564788E-01
1.71400000000E+09	8.24300791502E-01	-4.67328043083E-01
1.71450000000E+09	8.23488522739E-01	-4.68658567084E-01
1.71500000000E+09	8.22713946532E-01	-4.69946765912E-01
1.71550000000E+09	8.21978292155E-01	-4.71358271591E-01
1.71600000000E+09	8.21132813478E-01	-4.72645735101E-01
1.71650000000E+09	8.20407464592E-01	-4.73937008063E-01
1.71700000000E+09	8.19683490067E-01	-4.75325763270E-01
1.71750000000E+09	8.18831108755E-01	-4.76652281392E-01
1.71800000000E+09	8.18119990073E-01	-4.77916374478E-01
1.71850000000E+09	8.17276999468E-01	-4.79215215091E-01
1.71900000000E+09	8.16485714015E-01	-4.80558903121E-01
1.71950000000E+09	8.15706602521E-01	-4.81789291240E-01
1.72000000000E+09	8.14939929810E-01	-4.83194975540E-01
1.72050000000E+09	8.14131660922E-01	-4.84576347196E-01
1.72100000000E+09	8.13323708457E-01	-4.85900716122E-01
1.72150000000E+09	8.12517978030E-01	-4.87217427813E-01
1.72200000000E+09	8.11645486060E-01	-4.88561076554E-01
1.72250000000E+09	8.10896565071E-01	-4.89939928305E-01
1.72300000000E+09	8.10032892182E-01	-4.91265184158E-01
1.72350000000E+09	8.09220906390E-01	-4.92642642642E-01
1.72400000000E+09	8.08397401279E-01	-4.93948267437E-01
1.72450000000E+09	8.07579934049E-01	-4.95292276501E-01
1.72500000000E+09	8.06736745224E-01	-4.96661187809E-01
1.72550000000E+09	8.05814780228E-01	-4.97913272323E-01
1.72600000000E+09	8.04996294770E-01	-4.99298248742E-01
1.72650000000E+09	8.04128657179E-01	-5.00698384445E-01
1.72700000000E+09	8.03343088653E-01	-5.02042680290E-01
1.72750000000E+09	8.02385352017E-01	-5.03343004811E-01
1.72800000000E+09	8.01598825412E-01	-5.04735224584E-01
1.72850000000E+09	8.00660464629E-01	-5.06017471501E-01
1.72900000000E+09	7.99911182501E-01	-5.07429529756E-01
1.72950000000E+09	7.98980976425E-01	-5.08758406977E-01
1.73000000000E+09	7.98079007104E-01	-5.10190551027E-01
1.73050000000E+09	7.97204197290E-01	-5.11536733386E-01
1.73100000000E+09	7.96245753592E-01	-5.12819208173E-01
1.73150000000E+09	7.95393257737E-01	-5.14227502056E-01
1.73200000000E+09	7.94429871982E-01	-5.15563003236E-01
1.73250000000E+09	7.93516300967E-01	-5.16864855136E-01
1.73300000000E+09	7.92535582940E-01	-5.18315859987E-01
1.73350000000E+09	7.91682896650E-01	-5.19593905808E-01
1.73400000000E+09	7.90753000326E-01	-5.21003089849E-01
1.73450000000E+09	7.89799168887E-01	-5.22387046828E-01
1.73500000000E+09	7.88849119385E-01	-5.23682938924E-01
1.73550000000E+09	7.88042151071E-01	-5.25044520837E-01
1.73600000000E+09	7.86940776716E-01	-5.26426389578E-01
1.73650000000E+09	7.85959332671E-01	-5.27774620793E-01
1.73700000000E+09	7.85016041796E-01	-5.29070061040E-01
1.73750000000E+09	7.84094738368E-01	-5.30515831862E-01
1.73800000000E+09	7.83135117454E-01	-5.31751482503E-01
1.73850000000E+09	7.82148195140E-01	-5.33162021856E-01
1.73900000000E+09	7.81126058448E-01	-5.34509054501E-01
1.73950000000E+09	7.80148503393E-01	-5.35800841991E-01
1.74000000000E+09	7.79155595610E-01	-5.37219690358E-01
1.74050000000E+09	7.78163030132E-01	-5.38534350728E-01
1.74100000000E+09	7.77210397283E-01	-5.39936245408E-01
1.74150000000E+09	7.76145961204E-01	-5.41257351858E-01
1.74200000000E+09	7.75182218230E-01	-5.42612157609E-01
1.74250000000E+09	7.74147680655E-01	-5.43934604534E-01
1.74300000000E+09	7.73154584976E-01	-5.45307708150E-01
1.74350000000E+09	7.72124074440E-01	-5.46715274277E-01
1.74400000000E+09	7.71027458959E-01	-5.48052685209E-01
1.74450000000E+09	7.70097072479E-01	-5.49495576784E-01
1.74500000000E+09	7.69048304637E-01	-5.50762200932E-01
1.74550000000E+09	7.67974621220E-01	-5.52165126379E-01
1.74600000000E+09	7.67005830353E-01	-5.53429823198E-01
1.74650000000E+09	7.65886425115E-01	-5.54882718499E-01
1.74700000000E+09	7.64800605121E-01	-5.56237155315E-01
1.74750000000E+09	7.63726638021E-01	-5.57570957006E-01
1.74800000000E+09	7.62622301744E-01	-5.58932386575E-01
1.74850000000E+09	7.61607158583E-01	-5.60252137913E-01
1.74900000000E+09	7.60470410590E-01	-5.61648913371E-01
1.74950000000E+09	7.59397420213E-01	-5.63006279695E-01
1.75000000000E+09	7.58248705127E-01	-5.64370883838E-01
1.75050000000E+09	7.57147636668E-01	-5.65686263129E-01
1.75100000000E+09	7.56068393645E-01	-5.66982806757E-01
1.75150000000E+09	7.54893392295E-01	-5.68403236442E-01
1.75200000000E+09	7.53825308673E-01	-5.69734140162E-01
1.75250000000E+09	7.52638743106E-01	-5.71042671558E-01
1.75300000000E+09	7.51571537617E-01	-5.72394591309E-01
1.75350000000E+09	7.50464564433E-01	-5.73678968629E-01
1.75400000000E+09	7.49199284595E-01	-5.75031885695E-01
1.75450000000E+09	7.48031627842E-01	-5.76359382666E-01
1.75500000000E+09	7.46825783142E-01	-5.77722907825E-01
1.75550000000E+09	7.45784718167E-01	-5.78987425022E-01
1.75600000000E+09	7.44652115127E-01	-5.80356366097E-01
1.75650000000E+09	7.43404166221E-01	-5.81676236953E-01
1.75700000000E+09	7.42240721841E-01	-5.82958137239E-01
1.75750000000E+09	7.41075623766E-01	-5.84229880033E-01
1.75800000000E+09	7.39946976046E-01	-5.85529698875E-01
1.75850000000E+09	7.38773141825E-01	-5.86834784674E-01
1.75900000000E+09	7.37499062244E-01	-5.88151934392E-01
1.75950000000E+09	7.36328299715E-01	-5.89515120145E-01
1.76000000000E+09	7.35240704787E-01	-5.90754065767E-01
1.76050000000E+09	7.33924696268E-01	-5.92031589128E-01
1.76100000000E+09	7.32812898881E-01	-5.93359117535E-01
1.76150000000E+09	7.31610536301E-01	-5.94683819316E-01
1.76200000000E+09	7.30411798915E-01	-5.95966531963E-01
1.76250000000E+09	7.29205164444E-01	-5.97310838619E-01
1.76300000000E+09	7.27939675614E-01	-5.98546744645E-01
1.76350000000E+09	7.26776433549E-01	-5.99782796803E-01
1.76400000000E+09	7.25507795833E-01	-6.01087077837E-01
1.76450000000E+09	7.24295104252E-01	-6.02360118781E-01
1.76500000000E+09	7.23145436472E-01	-6.03713747199E-01
1.76550000000E+09	7.21862511311E-01	-6.04946156519E-01
1.76600000000E+09	7.20611713127E-01	-6.06271621018E-01
1.76650000000E+09	7.19420403499E-01	-6.07515795687E-01
1.76700000000E+09	7.18140582433E-01	-6.08826797146E-01
1.76750000000E+09	7.16908464506E-01	-6.10113997287E-01
1.76800000000E+09	7.15668127110E-01	-6.11412335742E-01
1.76850000000E+09	7.14432292519E-01	-6.12679362831E-01
1.76900000000E+09	7.13114044138E-01	-6.13989253148E-01
1.76950000000E+09	7.11856675507E-01	-6.15236598332E-01
1.77000000000E+09	7.10607351653E-01	-6.16535221064E-01
1.77050000000E+09	7.09287043881E-01	-6.17698928673E-01
1.77100000000E+09	7.07997815797E-01	-6.18999647436E-01
1.77150000000E+09	7.06648363938E-01	-6.20242126223E-01
1.77200000000E+09	7.05381918120E-01	-6.21467160628E-01
1.77250000000E+09	7.04050745148E-01	-6.22736561217E-01
1.77300000000E+09	7.02793467871E-01	-6.23968117554E-01
1.77350000000E+09	7.01487042604E-01	-6.25209266923E-01
1.77400000000E+09	7.00163957500E-01	-6.26448263485E-01
1.77450000000E+09	6.98856623290E-01	-6.27695799636E-01
1.77500000000E+09	6.97546772046E-01	-6.28876551863E-01
1.77550000000E+09	6.96319115242E-01	-6.30099354584E-01
1.77600000000E+09	6.94956952931E-01	-6.31257303388E-01
1.77650000000E+09	6.93719017268E-01	-6.32557858167E-01
1.77700000000E+09	6.92264758778E-01	-6.33701451315E-01
1.77750000000E+09	6.91023518233E-01	-6.34944822972E-01
1.77800000000E+09	6.89703641890E-01	-6.36146087026E-01
1.77850000000E+09	6.88351877247E-01	-6.37326331203E-01
1.77900000000E+09	6.86968013830E-01	-6.38535141799E-01
1.77950000000E+09	6.85703595155E-01	-6.39745179031E-01
1.78000000000E+09	6.84351321701E-01	-6.40844247089E-01
1.78050000000E+09	6.83002556659E-01	-6.42062571713E-01
1.78100000000E+09	6.81630098451E-01	-6.43227855859E-01
1.78150000000E+09	6.80382142375E-01	-6.44381572705E-01
1.78200000000E+09	6.79030855877E-01	-6.45616052395E-01
1.78250000000E+09	6.77628588156E-01	-6.46748884301E-01
1.78300000000E+09	6.76299313415E-01	-6.47926074528E-01
1.78350000000E+09	6.74897986201E-01	-6.49110956962E-01
1.78400000000E+09	6.73493196619E-01	-6.50281997961E-01
1.78450000000E+09	6.72195423008E-01	-6.51468041098E-01
1.78500000000E+09	6.70798335484E-01	-6.52596482301E-01
1.78550000000E+09	6.69472297480E-01	-6.53692133817E-01
1.78600000000E+09	6.68051467984E-01	-6.54828191808E-01
1.78650000000E+09	6.66811211649E-01	-6.56013439309E-01
1.78700000000E+09	6.65351587264E-01	-6.57126989740E-01
1.78750000000E+09	6.64094165861E-01	-6.58297633180E-01
1.78800000000E+09	6.62697189657E-01	-6.59473723815E-01
1.78850000000E+09	6.61342783548E-01	-6.60548233532E-01
1.78900000000E+09	6.59982427068E-01	-6.61640464259E-01
1.78950000000E+09	6.58620694801E-01	-6.62755888359E-01
1.79000000000E+09	6.57253149857E-01	-6.63916444406E-01
1.79050000000E+09	6.55892300215E-01	-6.64974028979E-01
1.79100000000E+09	6.54501512102E-01	-6.66103790807E-01
1.79150000000E+09	6.53137554247E-01	-6.67200543052E-01
1.79200000000E+09	6.51700386694E-01	-6.68332646199E-01
1.79250000000E+09	6.50333001235E-01	-6.69354274782E-01
1.79300000000E+09	6.48972649657E-01	-6.70489817475E-01
1.79350000000E+09	6.47600588976E-01	-6.71476120435E-01
1.79400000000E+09	6.46211436151E-01	-6.72625342336E-01
1.79450000000E+09	6.44822354611E-01	-6.73738021697E-01
1.79500000000E+09	6.43501928572E-01	-6.74851885254E-01
1.79550000000E+09	6.42063541064E-01	-6.75911770431E-01
1.79600000000E+09	6.40727497585E-01	-6.76923581216E-01
1.79650000000E+09	6.39313319289E-01	-6.78013288406E-01
1.79700000000E+09	6.37896890688E-01	-6.79161316423E-01
1.79750000000E+09	6.36518618731E-01	-6.80157194115E-01
1.79800000000E+09	6.35113772447E-01	-6.81246586259E-01
1.79850000000E+09	6.33817749255E-01	-6.82344230075E-01
1.79900000000E+09	6.32384638985E-01	-6.83325878529E-01
1.79950000000E+09	6.30895915651E-01	-6.84409182747E-01
1.80000000000E+09	6.29550418060E-01	-6.85439571799E-01
1.80050000000E+09	6.28123571649E-01	-6.86422112852E-01
1.80100000000E+09	6.26751186230E-01	-6.87513226792E-01
1.80150000000E+09	6.25347506547E-01	-6.88500756568E-01
1.80200000000E+09	6.23985233151E-01	-6.89517562998E-01
1.80250000000E+09	6.22573078205E-01	-6.90546053400E-01
1.80300000000E+09	6.21235960288E-01	-6.91593191185E-01
1.80350000000E+09	6.19840673122E-01	-6.92598875587E-01
1.80400000000E+09	6.18445288307E-01	-6.93556929035E-01
1.80450000000E+09	6.17100396613E-01	-6.94571850468E-01
1.80500000000E+09	6.15683365642E-01	-6.95595106301E-01
1.80550000000E+09	6.14318978130E-01	-6.96605217644E-01
1.80600000000E+09	6.12940566750E-01	-6.97608321895E-01
1.80650000000E+09	6.11491546278E-01	-6.98567888423E-01
1.80700000000E+09	6.10138955267E-01	-6.99621265837E-01
1.80750000000E+09	6.08691824710E-01	-7.00636274436E-01
1.80800000000E+09	6.07326606418E-01	-7.01685435769E-01
1.80850000000E+09	6.05943062733E-01	-7.02628277294E-01
1.80900000000E+09	6.04599039561E-01	-7.03520464029E-01
1.80950000000E+09	6.03170539583E-01	-7.04581570552E-01
1.81000000000E+09	6.01835702993E-01	-7.05565693223E-01
1.81050000000E+09	6.00482334804E-01	-7.06599463668E-01
1.81100000000E+09	5.98968745081E-01	-7.07471310399E-01
1.81150000000E+09	5.97619777065E-01	-7.08474696310E-01
1.81200000000E+09	5.96281451438E-01	-7.09486477607E-01
1.81250000000E+09	5.94913386976E-01	-7.10513461878E-01
1.81300000000E+09	5.93504471276E-01	-7.11385046702E-01
1.81350000000E+09	5.92131930028E-01	-7.12344003055E-01
1.81400000000E+09	5.90733364847E-01	-7.13323193793E-01
1.81450000000E+09	5.89367632138E-01	-7.14277702803E-01
1.81500000000E+09	5.87988028202E-01	-7.15270971684E-01
1.81550000000E+09	5.86592215442E-01	-7.16291914925E-01
1.81600000000E+09	5.85226066342E-01	-7.17164875106E-01
1.81650000000E+09	5.83838952147E-01	-7.18175137260E-01
1.81700000000E+09	5.82440520626E-01	-7.19058892205E-01
1.81750000000E+09	5.81107783326E-01	-7.20071721511E-01
1.81800000000E+09	5.79785891988E-01	-7.21043078065E-01
1.81850000000E+09	5.78341925322E-01	-7.22020421482E-01
1.81900000000E+09	5.76934507271E-01	-7.23014380188E-01
1.81950000000E+09	5.75499113487E-01	-7.23949827920E-01
1.82000000000E+09	5.74181933830E-01	-7.24977434691E-01
1.82050000000E+09	5.72745435094E-01	-7.25885510809E-01
1.82100000000E+09	5.71419493357E-01	-7.26827715381E-01
1.82150000000E+09	5.70013030086E-01	-7.27836112587E-01
1.82200000000E+09	5.68578814450E-01	-7.28722891197E-01
1.82250000000E+09	5.67194929061E-01	-7.29746045539E-01
1.82300000000E+09	5.65861218379E-01	-7.30697767529E-01
1.82350000000E+09	5.64375690786E-01	-7.31662039435E-01
1.82400000000E+09	5.62987953380E-01	-7.32642681448E-01
1.82450000000E+09	5.61603090844E-01	-7.33559887534E-01
1.82500000000E+09	5.60115439136E-01	-7.34561193421E-01
1.82550000000E+09	5.58684042270E-01	-7.35431439156E-01
1.82600000000E+09	5.57290001596E-01	-7.36388630907E-01
1.82650000000E+09	5.55843989010E-01	-7.37331393857E-01
1.82700000000E+09	5.54456485241E-01	-7.38282205996E-01
1.82750000000E+09	5.52995526831E-01	-7.39177461849E-01
1.82800000000E+09	5.51549197441E-01	-7.40136989425E-01
1.82850000000E+09	5.50143836499E-01	-7.41099001320E-01
1.82900000000E+09	5.48666408968E-01	-7.42024241207E-01
1.82950000000E+09	5.47227812163E-01	-7.42893685296E-01
1.83000000000E+09	5.45808629657E-01	-7.43817470782E-01
1.83050000000E+09	5.44366662019E-01	-7.44766030093E-01
1.83100000000E+09	5.42943701724E-01	-7.45619801237E-01
1.83150000000E+09	5.41537903511E-01	-7.46586843250E-01
1.83200000000E+09	5.40087902385E-01	-7.47464228679E-01
1.83250000000E+09	5.38599791569E-01	-7.48414597368E-01
1.83300000000E+09	5.37192785281E-01	-7.49334531345E-01
1.83350000000E+09	5.35768489704E-01	-7.50238216475E-01
1.83400000000E+09	5.34250756797E-01	-7.51205444937E-01
1.83450000000E+09	5.32770926021E-01	-7.52111463027E-01
1.83500000000E+09	5.31327089463E-01	-7.52967000897E-01
1.83550000000E+09	5.29839063853E-01	-7.53920587659E-01
1.83600000000E+09	5.28381493059E-01	-7.54725432549E-01
1.83650000000E+09	5.26924413127E-01	-7.55687589056E-01
1.83700000000E+09	5.25447220656E-01	-7.56617050501E-01
1.83750000000E+09	5.23963891632E-01	-7.57471889457E-01
1.83800000000E+09	5.22512996366E-01	-7.58343674370E-01
1.83850000000E+09	5.20953803838E-01	-7.59206370076E-01
1.83900000000E+09	5.19542922459E-01	-7.60109850537E-01
1.83950000000E+09	5.18011135155E-01	-7.61017093241E-01
1.84000000000E+09	5.16517717538E-01	-7.61855293524E-01
1.84050000000E+09	5.15071110508E-01	-7.62686948922E-01
1.84100000000E+09	5.13552614738E-01	-7.63593743379E-01
1.84150000000E+09	5.12065467568E-01	-7.64594687251E-01
1.84200000000E+09	5.10607191693E-01	-7.65295800842E-01
1.84250000000E+09	5.09123748334E-01	-7.66237988749E-01
1.84300000000E+09	5.07644390487E-01	-7.67103553156E-01
1.84350000000E+09	5.06081410609E-01	-7.67940480856E-01
1.84400000000E+09	5.04608133720E-01	-7.68914816984E-01
1.84450000000E+09	5.03082240773E-01	-7.69733336143E-01
1.84500000000E+09	5.01516776839E-01	-7.70557472570E-01
1.84550000000E+09	5.00062407115E-01	-7.71475405456E-01
1.84600000000E+09	4.98553102028E-01	-7.72283183682E-01
1.84650000000E+09	4.97074007055E-01	-7.73150294589E-01
1.84700000000E+09	4.95488589606E-01	-7.74061241051E-01
1.84750000000E+09	4.93980959882E-01	-7.74935122085E-01
1.84800000000E+09	4.92443198498E-01	-7.75831145533E-01
1.84850000000E+09	4.90944778243E-01	-7.76666167881E-01
1.84900000000E+09	4.89431805972E-01	-7.77510765966E-01
1.84950000000E+09	4.87845663630E-01	-7.78452545175E-01
1.85000000000E+09	4.86300865786E-01	-7.79264894030E-01
1.85050000000E+09	4.84712052312E-01	-7.80109002015E-01
1.85100000000E+09	4.83146343723E-01	-7.80953929196E-01
1.85150000000E+09	4.81560432692E-01	-7.81891345383E-01
1.85200000000E+09	4.79956158845E-01	-7.82663790245E-01
1.85250000000E+09	4.78352217946E-01	-7.83496739115E-01
1.85300000000E+09	4.76818836093E-01	-7.84309429856E-01
1.85350000000E+09	4.75281281507E-01	-7.85159988482E-01
1.85400000000E+09	4.73581204457E-01	-7.85975796988E-01
1.85450000000E+09	4.71937660991E-01	-7.86785137260E-01
1.85500000000E+09	4.70351804514E-01	-7.87589162673E-01
1.85550000000E+09	4.68748406681E-01	-7.88397792947E-01
1.85600000000E+09	4.67172745009E-01	-7.89284740469E-01
1.85650000000E+09	4.65582531005E-01	-7.90052644771E-01
1.85700000000E+09	4.63951669839E-01	-7.90792685014E-01
1.85750000000E+09	4.62366312819E-01	-7.91602881989E-01
1.85800000000E+09	4.60765251480E-01	-7.92390268604E-01
1.85850000000E+09	4.59109053419E-01	-7.93264722193E-01
1.85900000000E+09	4.57557896537E-01	-7.93961572600E-01
1.85950000000E+09	4.55828999567E-01	-7.94834101543E-01
1.86000000000E+09	4.54246417228E-01	-7.95639920840E-01
1.86050000000E+09	4.52633015193E-01	-7.96439376705E-01
1.86100000000E+09	4.51005418532E-01	-7.97259991920E-01
1.86150000000E+09	4.49471968689E-01	-7.98013886249E-01
1.86200000000E+09	4.47753680998E-01	-7.98946560179E-01
1.86250000000E+09	4.46062431406E-01	-7.99612502670E-01
1.86300000000E+09	4.44403585120E-01	-8.00441072846E-01
1.86350000000E+09	4.42843509254E-01	-8.01271063705E-01
1.86400000000E+09	4.41147601227E-01	-8.02040626427E-01
1.86450000000E+09	4.39541188763E-01	-8.02833915030E-01
1.86500000000E+09	4.37837988230E-01	-8.03685633169E-01
1.86550000000E+09	4.36238851405E-01	-8.04517335456E-01
1.86600000000E+09	4.34478735074E-01	-8.05267689539E-01
1.86650000000E+09	4.32757902823E-01	-8.06158064952E-01
1.86700000000E+09	4.31090220485E-01	-8.06976405150E-01
1.86750000000E+09	4.29410881215E-01	-8.07718297102E-01
1.86800000000E+09	4.27655128392E-01	-8.08580906020E-01
1.86850000000E+09	4.26000585682E-01	-8.09383951552E-01
1.86900000000E+09	4.24233818622E-01	-8.10287436158E-01
1.86950000000E+09	4.22483721913E-01	-8.11079832391E-01
1.87000000000E+09	4.20838303308E-01	-8.11876862202E-01
1.87050000000E+09	4.18961187228E-01	-8.12696525282E-01
1.87100000000E+09	4.17228231353E-01	-8.13527121485E-01
1.87150000000E+09	4.15452198661E-01	-8.14375915402E-01
1.87200000000E+09	4.13618923394E-01	-8.15166817297E-01
1.87250000000E+09	4.11800812493E-01	-8.16067976750E-01
1.87300000000E+09	4.09953808998E-01	-8.16835484688E-01
1.87350000000E+09	4.08131400286E-01	-8.17612363732E-01
1.87400000000E+09	4.06295556182E-01	-8.18442655136E-01
1.87450000000E+09	4.04352984844E-01	-8.19263833990E-01
1.87500000000E+09	4.02519137410E-01	-8.20032665912E-01
1.87550000000E+09	4.00614529636E-01	-8.20848285727E-01
1.87600000000E+09	3.98730757373E-01	-8.21540833496E-01
1.87650000000E+09	3.96824832401E-01	-8.22440499884E-01
